EXPLAIN
TAG	EISPOT
TITLE	LABEL	Tomato_open	Test &Identifier
DATE	LABEL	5/16/2006	Date
TIME	LABEL	14:59:52	Time
NOTES	NOTES	1	&Notes...
	
PSTAT	PSTAT	300	Potentiostat
VDC	POTEN	1.00000E-003	T	DC &Voltage (V)
FREQINIT	QUANT	1.00000E+005	Initial Fre&q. (Hz)
FREQFINAL	QUANT	1.00000E+001	Final Fre&q. (Hz)
PTSPERDEC	QUANT	2.00000E+001	Points/&decade
VAC	QUANT	1.00000E+000	AC &Voltage (mV rms)
AREA	QUANT	1.00000E+000	&Area (cm²)
DENSITY	QUANT	7.87000E+000	&Density (gm/cm³)
EQUIV	QUANT	7.00000E+000	Equiv. &Wt
CONDIT	TWOPARAM	F	6.00000E+001	0.00000E+000	Conditionin&g	Time(s)	E(V)
DELAY	TWOPARAM	T	6.00000E+001	0.00000E+000	Init. De&lay	Time(s)	Stab.(mV/s)
SPEED	SELECTOR	1	&Optimize for:
ZGUESS	QUANT	1.00000E+002	E&stimated Z (ohms)
OCVCURVE	TABLE	232
	Pt	T	Vf	Vm	Ach	Over
	#	s	V vs. Ref.	V	V	bits
	0	0.258332	6.73225E-002	2.76443E-006	1.36600E-004	......
	1	0.516663	6.72925E-002	2.76443E-006	-1.63400E-004	......
	2	0.774994	6.72575E-002	2.76443E-006	3.66000E-005	......
	3	1.03333	6.72275E-002	2.76443E-006	-1.63400E-004	......
	4	1.29166	6.71875E-002	2.76443E-006	3.66000E-005	......
	5	1.54999	6.71525E-002	2.76443E-006	-6.34000E-005	......
	6	1.80832	6.71125E-002	2.76443E-006	1.36600E-004	......
	7	2.06665	6.70825E-002	2.76443E-006	-1.63400E-004	......
	8	2.32498	6.70375E-002	2.76443E-006	3.66000E-005	......
	9	2.58332	6.69975E-002	2.76443E-006	-6.34000E-005	......
	10	2.84165	6.69625E-002	2.76443E-006	3.66000E-005	......
	11	3.09998	6.69375E-002	2.76443E-006	-6.34000E-005	......
	12	3.35831	6.68975E-002	2.76443E-006	1.36600E-004	......
	13	3.61664	6.68575E-002	2.76443E-006	-1.63400E-004	......
	14	3.87497	6.68175E-002	2.76443E-006	3.66000E-005	......
	15	4.1333	6.67825E-002	2.76443E-006	-1.63400E-004	......
	16	4.39164	6.67375E-002	2.76443E-006	-6.34000E-005	......
	17	4.64997	6.67075E-002	2.76443E-006	-1.63400E-004	......
	18	4.9083	6.66675E-002	2.76443E-006	3.66000E-005	......
	19	5.16663	6.66375E-002	2.76443E-006	-1.63400E-004	......
	20	5.42496	6.65975E-002	2.76443E-006	1.36600E-004	......
	21	5.68329	6.65475E-002	2.76443E-006	-6.34000E-005	......
	22	5.94162	6.65075E-002	2.76443E-006	1.36600E-004	......
	23	6.19996	6.64775E-002	2.76443E-006	-1.63400E-004	......
	24	6.45829	6.64375E-002	2.76443E-006	3.66000E-005	......
	25	6.71662	6.64025E-002	2.76443E-006	-6.34000E-005	......
	26	6.97495	6.63775E-002	2.76443E-006	1.36600E-004	......
	27	7.23328	6.63375E-002	2.76443E-006	-1.63400E-004	......
	28	7.49161	6.63025E-002	2.76443E-006	3.66000E-005	......
	29	7.74995	6.62525E-002	2.76443E-006	3.66000E-005	......
	30	8.00828	6.62175E-002	2.76443E-006	3.66000E-005	......
	31	8.26661	6.61725E-002	2.76443E-006	-6.34000E-005	......
	32	8.52494	6.61425E-002	2.76443E-006	3.66000E-005	......
	33	8.78327	6.60975E-002	2.76443E-006	-1.63400E-004	......
	34	9.0416	6.60575E-002	2.76443E-006	3.66000E-005	......
	35	9.29993	6.60425E-002	2.76443E-006	-1.63400E-004	......
	36	9.5583	6.59925E-002	2.76443E-006	3.66000E-005	......
	37	9.8166	6.59625E-002	2.76443E-006	-1.63400E-004	......
	38	10.0749	6.59175E-002	2.76443E-006	3.66000E-005	......
	39	10.3333	6.58825E-002	2.76443E-006	-6.34000E-005	......
	40	10.5916	6.58325E-002	2.76443E-006	1.36600E-004	......
	41	10.8499	6.58075E-002	2.76443E-006	3.66000E-005	......
	42	11.1083	6.57625E-002	2.76443E-006	1.36600E-004	......
	43	11.3666	6.57275E-002	2.76443E-006	-1.63400E-004	......
	44	11.6249	6.56925E-002	2.76443E-006	3.66000E-005	......
	45	11.8832	6.56625E-002	2.76443E-006	-1.63400E-004	......
	46	12.1416	6.56325E-002	2.76443E-006	3.66000E-005	......
	47	12.3999	6.55925E-002	2.76443E-006	-6.34000E-005	......
	48	12.6582	6.55575E-002	2.76443E-006	3.66000E-005	......
	49	12.9166	6.55275E-002	2.76443E-006	-6.34000E-005	......
	50	13.1749	6.54725E-002	2.76443E-006	1.36600E-004	......
	51	13.4332	6.54475E-002	2.76443E-006	-6.34000E-005	......
	52	13.6916	6.54075E-002	2.76443E-006	3.66000E-005	......
	53	13.9499	6.53725E-002	2.76443E-006	-6.34000E-005	......
	54	14.2082	6.53375E-002	2.76443E-006	2.36600E-004	......
	55	14.4666	6.52975E-002	2.76443E-006	-1.63400E-004	......
	56	14.7249	6.52725E-002	2.76443E-006	3.36600E-004	......
	57	14.9832	6.52325E-002	2.76443E-006	-1.63400E-004	......
	58	15.2416	6.52025E-002	2.76443E-006	3.66000E-005	......
	59	15.4999	6.51575E-002	2.76443E-006	-6.34000E-005	......
	60	15.7582	6.51325E-002	2.76443E-006	3.66000E-005	......
	61	16.0166	6.50825E-002	2.76443E-006	-6.34000E-005	......
	62	16.2749	6.50525E-002	2.76443E-006	3.66000E-005	......
	63	16.5332	6.50225E-002	2.76443E-006	-6.34000E-005	......
	64	16.7915	6.49875E-002	2.76443E-006	3.66000E-005	......
	65	17.0499	6.49525E-002	2.76443E-006	-1.63400E-004	......
	66	17.3082	6.49075E-002	2.76443E-006	1.36600E-004	......
	67	17.5665	6.48825E-002	2.76443E-006	3.66000E-005	......
	68	17.8249	6.48575E-002	2.76443E-006	3.66000E-005	......
	69	18.0832	6.48225E-002	2.76443E-006	3.66000E-005	......
	70	18.3415	6.47875E-002	2.76443E-006	3.66000E-005	......
	71	18.5999	6.47575E-002	2.76443E-006	-1.63400E-004	......
	72	18.8582	6.47025E-002	2.76443E-006	1.36600E-004	......
	73	19.1165	6.46975E-002	2.76443E-006	-1.63400E-004	......
	74	19.3749	6.46525E-002	2.76443E-006	3.66000E-005	......
	75	19.6332	6.46225E-002	2.76443E-006	-6.34000E-005	......
	76	19.8915	6.45775E-002	2.76443E-006	3.66000E-005	......
	77	20.1499	6.45575E-002	2.76443E-006	-6.34000E-005	......
	78	20.4082	6.45075E-002	2.76443E-006	1.36600E-004	......
	79	20.6665	6.44875E-002	2.76443E-006	-1.63400E-004	......
	80	20.9249	6.44475E-002	2.76443E-006	2.36600E-004	......
	81	21.1832	6.44175E-002	2.76443E-006	-1.63400E-004	......
	82	21.4415	6.43825E-002	2.76443E-006	1.36600E-004	......
	83	21.6998	6.43575E-002	2.76443E-006	-6.34000E-005	......
	84	21.9582	6.43275E-002	2.76443E-006	2.36600E-004	......
	85	22.2165	6.42875E-002	2.76443E-006	-6.34000E-005	......
	86	22.4748	6.42575E-002	2.76443E-006	3.66000E-005	......
	87	22.7332	6.42225E-002	2.76443E-006	-1.63400E-004	......
	88	22.9915	6.41975E-002	2.76443E-006	-6.34000E-005	......
	89	23.2498	6.41525E-002	2.76443E-006	-6.34000E-005	......
	90	23.5082	6.41275E-002	2.76443E-006	3.66000E-005	......
	91	23.7665	6.40875E-002	2.76443E-006	-1.63400E-004	......
	92	24.0248	6.40675E-002	2.76443E-006	-6.34000E-005	......
	93	24.2832	6.40325E-002	2.76443E-006	-6.34000E-005	......
	94	24.5415	6.39975E-002	2.76443E-006	2.36600E-004	......
	95	24.7998	6.39675E-002	2.76443E-006	3.66000E-005	......
	96	25.0582	6.39375E-002	2.76443E-006	3.66000E-005	......
	97	25.3165	6.39075E-002	2.76443E-006	-6.34000E-005	......
	98	25.5748	6.38775E-002	2.76443E-006	3.66000E-005	......
	99	25.8332	6.38525E-002	2.76443E-006	-1.63400E-004	......
	100	26.0915	6.38075E-002	2.76443E-006	3.66000E-005	......
	101	26.3498	6.37875E-002	2.76443E-006	-1.63400E-004	......
	102	26.6081	6.37575E-002	2.76443E-006	3.66000E-005	......
	103	26.8665	6.37375E-002	2.76443E-006	-1.63400E-004	......
	104	27.1248	6.37075E-002	2.76443E-006	3.66000E-005	......
	105	27.3831	6.36825E-002	2.76443E-006	-1.63400E-004	......
	106	27.6415	6.36375E-002	2.76443E-006	3.66000E-005	......
	107	27.8998	6.36175E-002	2.76443E-006	-1.63400E-004	......
	108	28.1581	6.35825E-002	2.76443E-006	3.66000E-005	......
	109	28.4165	6.35525E-002	2.76443E-006	-6.34000E-005	......
	110	28.6748	6.35225E-002	2.76443E-006	3.66000E-005	......
	111	28.9331	6.34925E-002	2.76443E-006	-1.63400E-004	......
	112	29.1915	6.34625E-002	2.76443E-006	1.36600E-004	......
	113	29.4498	6.34275E-002	2.76443E-006	-1.63400E-004	......
	114	29.7081	6.34025E-002	2.76443E-006	2.36600E-004	......
	115	29.9665	6.33725E-002	2.76443E-006	-6.34000E-005	......
	116	30.2248	6.33575E-002	2.76443E-006	3.66000E-005	......
	117	30.4831	6.33225E-002	2.76443E-006	-1.63400E-004	......
	118	30.7414	6.32925E-002	2.76443E-006	2.36600E-004	......
	119	30.9998	6.32725E-002	2.76443E-006	-1.63400E-004	......
	120	31.2581	6.32325E-002	2.76443E-006	3.66000E-005	......
	121	31.5164	6.32025E-002	2.76443E-006	-1.63400E-004	......
	122	31.7748	6.31875E-002	2.76443E-006	1.36600E-004	......
	123	32.0331	6.31475E-002	2.76443E-006	-6.34000E-005	......
	124	32.2914	6.31225E-002	2.76443E-006	3.66000E-005	......
	125	32.5498	6.31025E-002	2.76443E-006	-6.34000E-005	......
	126	32.8081	6.30625E-002	2.76443E-006	3.66000E-005	......
	127	33.0664	6.30325E-002	2.76443E-006	-6.34000E-005	......
	128	33.3248	6.30175E-002	2.76443E-006	2.36600E-004	......
	129	33.5831	6.29975E-002	2.76443E-006	-6.34000E-005	......
	130	33.8414	6.29575E-002	2.76443E-006	3.66000E-005	......
	131	34.0998	6.29275E-002	2.76443E-006	-2.63400E-004	......
	132	34.3581	6.29025E-002	2.76443E-006	1.36600E-004	......
	133	34.6164	6.28675E-002	2.76443E-006	-1.63400E-004	......
	134	34.8748	6.28475E-002	2.76443E-006	3.66000E-005	......
	135	35.1331	6.28125E-002	2.76443E-006	-6.34000E-005	......
	136	35.3914	6.28025E-002	2.76443E-006	2.36600E-004	......
	137	35.6497	6.27675E-002	2.76443E-006	-6.34000E-005	......
	138	35.9081	6.27425E-002	2.76443E-006	3.66000E-005	......
	139	36.1664	6.27025E-002	2.76443E-006	-1.63400E-004	......
	140	36.4247	6.26875E-002	2.76443E-006	1.36600E-004	......
	141	36.6831	6.26575E-002	2.76443E-006	-1.63400E-004	......
	142	36.9414	6.26325E-002	2.76443E-006	3.66000E-005	......
	143	37.1997	6.26025E-002	2.76443E-006	-1.63400E-004	......
	144	37.4581	6.25775E-002	2.76443E-006	3.66000E-005	......
	145	37.7164	6.25475E-002	2.76443E-006	-1.63400E-004	......
	146	37.9747	6.25375E-002	2.76443E-006	3.66000E-005	......
	147	38.2331	6.25025E-002	2.76443E-006	-1.63400E-004	......
	148	38.4914	6.24725E-002	2.76443E-006	1.36600E-004	......
	149	38.7497	6.24425E-002	2.76443E-006	-2.63400E-004	......
	150	39.0081	6.24275E-002	2.76443E-006	3.66000E-005	......
	151	39.2664	6.23925E-002	2.76443E-006	-2.63400E-004	......
	152	39.5247	6.23625E-002	2.76443E-006	-6.34000E-005	......
	153	39.7831	6.23575E-002	2.76443E-006	-6.34000E-005	......
	154	40.0414	6.23125E-002	2.76443E-006	1.36600E-004	......
	155	40.2997	6.22975E-002	2.76443E-006	-1.63400E-004	......
	156	40.558	6.22675E-002	2.76443E-006	1.36600E-004	......
	157	40.8164	6.22475E-002	2.76443E-006	-6.34000E-005	......
	158	41.0747	6.22175E-002	2.76443E-006	3.36600E-004	......
	159	41.333	6.21875E-002	2.76443E-006	-6.34000E-005	......
	160	41.5914	6.21675E-002	2.76443E-006	1.36600E-004	......
	161	41.8497	6.21375E-002	2.76443E-006	-1.63400E-004	......
	162	42.108	6.21225E-002	2.76443E-006	3.66000E-005	......
	163	42.3664	6.20925E-002	2.76443E-006	-6.34000E-005	......
	164	42.6247	6.20775E-002	2.76443E-006	2.36600E-004	......
	165	42.883	6.20425E-002	2.76443E-006	-1.63400E-004	......
	166	43.1414	6.20075E-002	2.76443E-006	1.36600E-004	......
	167	43.3997	6.19975E-002	2.76443E-006	-1.63400E-004	......
	168	43.658	6.19675E-002	2.76443E-006	3.66000E-005	......
	169	43.9164	6.19425E-002	2.76443E-006	-6.34000E-005	......
	170	44.1747	6.19225E-002	2.76443E-006	3.66000E-005	......
	171	44.433	6.18825E-002	2.76443E-006	-1.63400E-004	......
	172	44.6913	6.18725E-002	2.76443E-006	3.66000E-005	......
	173	44.9497	6.18525E-002	2.76443E-006	-1.63400E-004	......
	174	45.208	6.18225E-002	2.76443E-006	3.66000E-005	......
	175	45.4663	6.18025E-002	2.76443E-006	-1.63400E-004	......
	176	45.7247	6.17775E-002	2.76443E-006	3.66000E-005	......
	177	45.983	6.17425E-002	2.76443E-006	-6.34000E-005	......
	178	46.2413	6.17325E-002	2.76443E-006	3.66000E-005	......
	179	46.4997	6.17075E-002	2.76443E-006	-1.63400E-004	......
	180	46.758	6.16725E-002	2.76443E-006	3.66000E-005	......
	181	47.0163	6.16525E-002	2.76443E-006	-2.63400E-004	......
	182	47.2747	6.16275E-002	2.76443E-006	3.66000E-005	......
	183	47.533	6.16075E-002	2.76443E-006	-6.34000E-005	......
	184	47.7913	6.15825E-002	2.76443E-006	-6.34000E-005	......
	185	48.0497	6.15575E-002	2.76443E-006	-6.34000E-005	......
	186	48.308	6.15375E-002	2.76443E-006	3.66000E-005	......
	187	48.5663	6.15175E-002	2.76443E-006	-6.34000E-005	......
	188	48.8247	6.15025E-002	2.76443E-006	3.66000E-005	......
	189	49.083	6.14675E-002	2.76443E-006	-1.63400E-004	......
	190	49.3413	6.14525E-002	2.76443E-006	2.36600E-004	......
	191	49.5996	6.14225E-002	2.76443E-006	-1.63400E-004	......
	192	49.858	6.13925E-002	2.76443E-006	2.36600E-004	......
	193	50.1163	6.13675E-002	2.76443E-006	-6.34000E-005	......
	194	50.3746	6.13425E-002	2.76443E-006	1.36600E-004	......
	195	50.633	6.13275E-002	2.76443E-006	-6.34000E-005	......
	196	50.8913	6.12975E-002	2.76443E-006	1.36600E-004	......
	197	51.1496	6.12825E-002	2.76443E-006	-1.63400E-004	......
	198	51.408	6.12525E-002	2.76443E-006	1.36600E-004	......
	199	51.6663	6.12375E-002	2.76443E-006	-6.34000E-005	......
	200	51.9246	6.12225E-002	2.76443E-006	2.36600E-004	......
	201	52.183	6.11875E-002	2.76443E-006	-1.63400E-004	......
	202	52.4413	6.11775E-002	2.76443E-006	3.66000E-005	......
	203	52.6996	6.11475E-002	2.76443E-006	-6.34000E-005	......
	204	52.958	6.11275E-002	2.76443E-006	1.36600E-004	......
	205	53.2163	6.11075E-002	2.76443E-006	-1.63400E-004	......
	206	53.4746	6.10775E-002	2.76443E-006	1.36600E-004	......
	207	53.733	6.10625E-002	2.76443E-006	-1.63400E-004	......
	208	53.9913	6.10425E-002	2.76443E-006	2.36600E-004	......
	209	54.2496	6.10125E-002	2.76443E-006	-6.34000E-005	......
	210	54.5079	6.10025E-002	2.76443E-006	1.36600E-004	......
	211	54.7663	6.09825E-002	2.76443E-006	-1.63400E-004	......
	212	55.0246	6.09425E-002	2.76443E-006	3.66000E-005	......
	213	55.2829	6.09325E-002	2.76443E-006	-6.34000E-005	......
	214	55.5413	6.09175E-002	2.76443E-006	1.36600E-004	......
	215	55.7996	6.08925E-002	2.76443E-006	-6.34000E-005	......
	216	56.0579	6.08625E-002	2.76443E-006	2.36600E-004	......
	217	56.3163	6.08475E-002	2.76443E-006	-1.63400E-004	......
	218	56.5746	6.08225E-002	2.76443E-006	1.36600E-004	......
	219	56.8329	6.07925E-002	2.76443E-006	-1.63400E-004	......
	220	57.0913	6.07825E-002	2.76443E-006	1.36600E-004	......
	221	57.3496	6.07675E-002	2.76443E-006	-1.63400E-004	......
	222	57.6079	6.07325E-002	2.76443E-006	3.66000E-005	......
	223	57.8663	6.07225E-002	2.76443E-006	-6.34000E-005	......
	224	58.1246	6.07025E-002	2.76443E-006	3.66000E-005	......
	225	58.3829	6.06725E-002	2.76443E-006	-1.63400E-004	......
	226	58.6413	6.06575E-002	2.76443E-006	3.66000E-005	......
	227	58.8996	6.06275E-002	2.76443E-006	-6.34000E-005	......
	228	59.1579	6.06075E-002	2.76443E-006	3.36600E-004	......
	229	59.4162	6.05975E-002	2.76443E-006	-6.34000E-005	......
	230	59.6746	6.05775E-002	2.76443E-006	1.36600E-004	......
	231	59.9329	6.05425E-002	2.76443E-006	-1.63400E-004	......
EOC	QUANT	0.060542	Open Circuit (V)
PSTATMODEL	IQUANT	32	Pstat Model
PSTATSECTION	LABEL	PStat0	Pstat Section
CTRLMODE	IQUANT	1	Control Mode
IESTAB	IQUANT	0	I/E Stability
CASPEED	IQUANT	1	Control Amp Speed
CONVENTION	IQUANT	1	Current Convention
ICHRANGE	IQUANT	2	Ich Range
ICHRANGEMODE	TOGGLE	F	Ich Auto Range
ICHOFFSETENABLE	TOGGLE	T	Ich Offset Enable
ICHOFFSET	QUANT	0	Ich Offset (V)
ICHFILTER	IQUANT	3	Ich Filter
VCHRANGE	IQUANT	2	Vch Range
VCHRANGEMODE	TOGGLE	F	Vch Auto Range
VCHOFFSETENABLE	TOGGLE	T	Vch Offset Enable
VCHOFFSET	QUANT	0	Vch Offset (V)
VCHFILTER	IQUANT	3	Vch Filter
ACHRANGE	IQUANT	0	Ach Range
IERANGELOWERLIMIT	IQUANT	3	I/E Range Lower Limit
IERANGEMODE	TOGGLE	F	I/E AutoRange
IERANGE	IQUANT	11	I/E Range
POSFEEDENABLE	TOGGLE	F	Positive Feedback IR Comp
POSFEEDRESISTANCE	QUANT	0	Positive Feedback Resistance (ohm)
FC350IDIVISOR	IQUANT	0	FC350 I Divisor
FC350VRANGE	IQUANT	0	FC350 V Range
FRAMEWORKVERSION	QUANT	4.35	Framework Version
ZCURVE	TABLE
	Pt	Time	Freq	Zreal	Zimag	Zsig	Zmod	Zphz	Idc	Vdc	IERange
	#	s	Hz	ohm	ohm	V	ohm	°	A	V	#
	0	7	100007	124.415	0.97856	1	124.419	0.450635	1.21055E-006	0.061525	9
	1	11	89134.1	122.628	1.15896	1	122.634	0.541486	1.27257E-006	0.061499	9
	2	15	79433.6	122.103	-0.104466	1	122.103	-0.04902	1.30333E-006	0.061508	9
	3	17	70800.8	121.192	-0.262303	1	121.193	-0.124008	1.24436E-006	0.061507	9
	4	21	63105.5	122.44	-0.773806	1	122.442	-0.362097	1.05499E-006	0.061539	9
	5	23	56243.5	122.291	0.569007	1	122.292	0.266589	1.11331E-006	0.061527	9
	6	28	50123.7	121.975	0.252179	1	121.976	0.118456	1.23919E-006	0.061522	9
	7	32	44681	120.701	0.379319	1	120.701	0.18006	1.04829E-006	0.061521	9
	8	36	39811.2	122.118	-0.621286	1	122.12	-0.291494	9.81006E-007	0.061533	9
	9	40	35488.3	120.691	-0.096431	1	120.691	-0.045779	1.04964E-006	0.06155	9
	10	42	31634.1	121.841	-0.397869	1	121.842	-0.187097	9.87517E-007	0.061545	9
	11	46	28173.1	120.858	-1.21427	1	120.864	-0.575635	1.10828E-006	0.061528	9
	12	50	25123.7	120.995	-0.610656	1	120.997	-0.289166	1.29308E-006	0.061509	9
	13	54	22389.3	121.776	-0.079543	1	121.776	-0.037425	9.81974E-007	0.061529	9
	14	58	19954.4	121.059	-0.839787	1	121.061	-0.397456	1.01757E-006	0.061551	9
	15	60	17778.2	120.896	-0.564761	1	120.897	-0.267654	1.09589E-006	0.061522	9
	16	64	15852.9	120.782	-0.95667	1	120.786	-0.453812	9.96634E-007	0.061532	9
	17	68	14122.3	120.643	-1.8046	1	120.656	-0.856978	1.08888E-006	0.061517	9
	18	72	12587.2	121.307	-1.192	1	121.313	-0.56299	1.09418E-006	0.061514	9
	19	76	11221.1	121.162	-2.05104	1	121.179	-0.96981	1.0552E-006	0.061516	9
	20	80	9998.2	120.448	-1.75311	1	120.461	-0.83388	1.10696E-006	0.061512	9
	21	82	8912.76	121.834	-1.76357	1	121.847	-0.829309	9.24935E-007	0.061519	9
	22	86	7942.6	121.5	-1.85396	1	121.514	-0.874203	1.08452E-006	0.061516	9
	23	91	7078.05	121.987	-2.18006	1	122.006	-1.02384	1.07904E-006	0.061504	9
	24	95	6311.1	122.521	-1.757	1	122.533	-0.821587	1.10429E-006	0.061504	9
	25	99	5622.14	121.18	-3.45532	1	121.229	-1.63329	1.08196E-006	0.061516	9
	26	101	5011.18	121.073	-3.11657	1	121.113	-1.47454	1.07389E-006	0.061517	9
	27	105	4465.21	122.72	-2.8545	1	122.754	-1.33247	1.08148E-006	0.061516	9
	28	109	3980.93	122.336	-3.07442	1	122.375	-1.43959	1.1536E-006	0.061518	9
	29	113	3548.18	122.877	-3.50684	1	122.927	-1.63475	1.20605E-006	0.061486	9
	30	117	3162.67	123.006	-4.83056	1	123.101	-2.24891	1.18108E-006	0.061488	9
	31	121	2819.01	122.751	-4.65811	1	122.839	-2.1732	1.09586E-006	0.061518	9
	32	124	2511.16	122.634	-5.60108	1	122.762	-2.61505	1.0981E-006	0.061505	9
	33	128	2238.63	122.711	-4.98061	1	122.812	-2.32426	1.07044E-006	0.06151	9
	34	132	1995.37	123.633	-5.64948	1	123.762	-2.61634	1.10855E-006	0.061506	9
	35	136	1778.51	122.438	-6.22316	1	122.596	-2.90967	1.02629E-006	0.061506	9
	36	140	1584.49	123.791	-7.15008	1	123.998	-3.30568	1.06036E-006	0.061507	9
	37	144	1412.76	123.408	-8.58477	1	123.706	-3.97933	9.0388E-007	0.061515	9
	38	146	1259.04	124.628	-8.79151	1	124.938	-4.03507	1.04788E-006	0.061516	9
	39	151	1121.63	124.414	-9.816	1	124.801	-4.51113	1.05326E-006	0.061518	9
	40	155	999.95	124.345	-9.9405	1	124.742	-4.57066	1.05157E-006	0.061517	9
	41	159	891.184	124.681	-11.5343	1	125.213	-5.28543	1.02982E-006	0.061505	9
	42	163	794.163	125.958	-12.921	1	126.619	-5.85701	1.09285E-006	0.061527	9
	43	165	707.867	125.441	-13.2601	1	126.14	-6.0342	1.17833E-006	0.061522	9
	44	169	630.984	126.953	-15.9957	1	127.957	-7.18127	1.06672E-006	0.061513	9
	45	173	562.189	126.101	-16.8196	1	127.218	-7.5974	8.72419E-007	0.061528	9
	46	178	501.303	127.061	-18.3156	1	128.374	-8.2026	1.04343E-006	0.061512	9
	47	180	446.614	127.605	-20.1794	1	129.191	-8.98628	1.06921E-006	0.061514	9
	48	181	398.209	128.199	-22.0796	1	130.086	-9.7722	1.0735E-006	0.06152	9
	49	183	354.821	128.83	-24.2519	1	131.092	-10.661	1.11175E-006	0.061514	9
	50	185	316.113	129.573	-26.6261	1	132.28	-11.6122	1.10208E-006	0.061515	9
	51	187	281.926	130.259	-29.2091	1	133.494	-12.6389	1.03913E-006	0.061507	9
	52	189	251.185	131.173	-32.0121	1	135.022	-13.7147	1.06386E-006	0.061505	9
	53	191	223.946	132.116	-35.1374	1	136.709	-14.8935	1.035E-006	0.061507	9
	54	193	199.495	133.065	-38.6285	1	138.558	-16.188	1.05882E-006	0.061504	9
	55	195	177.836	134.182	-42.5097	1	140.754	-17.5786	1.02922E-006	0.061502	9
	56	197	158.533	135.44	-46.509	1	143.203	-18.9521	1.10592E-006	0.061513	9
	57	200	141.263	136.854	-51.1125	1	146.087	-20.4798	1.08452E-006	0.061505	9
	58	202	125.911	138.248	-56.119	1	149.204	-22.0938	1.01694E-006	0.061507	9
