EXPLAIN
TAG	EISPOT
TITLE	LABEL	Tomato_open	Test &Identifier
DATE	LABEL	5/16/2006	Date
TIME	LABEL	17:04:01	Time
NOTES	NOTES	1	&Notes...
	
PSTAT	PSTAT	300	Potentiostat
VDC	POTEN	1.00000E-003	T	DC &Voltage (V)
FREQINIT	QUANT	1.00000E+005	Initial Fre&q. (Hz)
FREQFINAL	QUANT	1.00000E+001	Final Fre&q. (Hz)
PTSPERDEC	QUANT	2.00000E+001	Points/&decade
VAC	QUANT	1.00000E+000	AC &Voltage (mV rms)
AREA	QUANT	1.00000E+000	&Area (cm²)
DENSITY	QUANT	7.87000E+000	&Density (gm/cm³)
EQUIV	QUANT	7.00000E+000	Equiv. &Wt
CONDIT	TWOPARAM	F	6.00000E+001	0.00000E+000	Conditionin&g	Time(s)	E(V)
DELAY	TWOPARAM	T	6.00000E+001	0.00000E+000	Init. De&lay	Time(s)	Stab.(mV/s)
SPEED	SELECTOR	1	&Optimize for:
ZGUESS	QUANT	1.00000E+002	E&stimated Z (ohms)
OCVCURVE	TABLE	232
	Pt	T	Vf	Vm	Ach	Over
	#	s	V vs. Ref.	V	V	bits
	0	0.258332	-6.16425E-002	4.33243E-006	1.36600E-004	......
	1	0.516663	-6.16575E-002	4.33243E-006	3.66000E-005	......
	2	0.774994	-6.16925E-002	4.33243E-006	2.36600E-004	......
	3	1.03333	-6.17175E-002	4.33243E-006	2.36600E-004	......
	4	1.29166	-6.17425E-002	4.33243E-006	2.36600E-004	......
	5	1.54999	-6.17775E-002	4.33243E-006	3.36600E-004	......
	6	1.80832	-6.18175E-002	4.33243E-006	2.36600E-004	......
	7	2.06665	-6.18375E-002	4.33243E-006	2.36600E-004	......
	8	2.32498	-6.18725E-002	4.33243E-006	2.36600E-004	......
	9	2.58332	-6.19075E-002	4.33243E-006	2.36600E-004	......
	10	2.84165	-6.19325E-002	4.33243E-006	1.36600E-004	......
	11	3.09998	-6.19575E-002	4.33243E-006	2.36600E-004	......
	12	3.35831	-6.19925E-002	4.33243E-006	3.36600E-004	......
	13	3.61664	-6.20275E-002	4.33243E-006	1.36600E-004	......
	14	3.87497	-6.20475E-002	4.33243E-006	3.36600E-004	......
	15	4.1333	-6.20825E-002	4.33243E-006	3.36600E-004	......
	16	4.39164	-6.21075E-002	4.33243E-006	3.36600E-004	......
	17	4.64997	-6.21375E-002	4.33243E-006	2.36600E-004	......
	18	4.9083	-6.21675E-002	4.33243E-006	2.36600E-004	......
	19	5.16663	-6.22025E-002	4.33243E-006	2.36600E-004	......
	20	5.42496	-6.22325E-002	4.33243E-006	1.36600E-004	......
	21	5.68329	-6.22575E-002	4.33243E-006	3.36600E-004	......
	22	5.94162	-6.22825E-002	4.33243E-006	2.36600E-004	......
	23	6.19996	-6.23125E-002	4.33243E-006	2.36600E-004	......
	24	6.45829	-6.23475E-002	4.33243E-006	1.36600E-004	......
	25	6.71662	-6.23775E-002	4.33243E-006	2.36600E-004	......
	26	6.97495	-6.23975E-002	4.33243E-006	2.36600E-004	......
	27	7.23328	-6.24225E-002	4.33243E-006	2.36600E-004	......
	28	7.49161	-6.24575E-002	4.33243E-006	2.36600E-004	......
	29	7.74995	-6.24725E-002	4.33243E-006	2.36600E-004	......
	30	8.00828	-6.25075E-002	4.33243E-006	3.66000E-005	......
	31	8.26661	-6.25425E-002	4.33243E-006	2.36600E-004	......
	32	8.52494	-6.25625E-002	4.33243E-006	3.36600E-004	......
	33	8.78327	-6.25825E-002	4.33243E-006	2.36600E-004	......
	34	9.0416	-6.26225E-002	4.33243E-006	3.36600E-004	......
	35	9.29993	-6.26475E-002	4.33243E-006	2.36600E-004	......
	36	9.5583	-6.26625E-002	4.33243E-006	2.36600E-004	......
	37	9.8166	-6.26975E-002	4.33243E-006	2.36600E-004	......
	38	10.0749	-6.27175E-002	4.33243E-006	3.36600E-004	......
	39	10.3333	-6.27475E-002	4.33243E-006	1.36600E-004	......
	40	10.5916	-6.27775E-002	4.33243E-006	3.36600E-004	......
	41	10.8499	-6.28025E-002	4.33243E-006	2.36600E-004	......
	42	11.1083	-6.28325E-002	4.33243E-006	2.36600E-004	......
	43	11.3666	-6.28575E-002	4.33243E-006	2.36600E-004	......
	44	11.6249	-6.28825E-002	4.33243E-006	2.36600E-004	......
	45	11.8832	-6.29125E-002	4.33243E-006	3.36600E-004	......
	46	12.1416	-6.29475E-002	4.33243E-006	2.36600E-004	......
	47	12.3999	-6.29675E-002	4.33243E-006	3.36600E-004	......
	48	12.6582	-6.29875E-002	4.33243E-006	3.36600E-004	......
	49	12.9166	-6.30175E-002	4.33243E-006	3.36600E-004	......
	50	13.1749	-6.30375E-002	4.33243E-006	1.36600E-004	......
	51	13.4332	-6.30625E-002	4.33243E-006	3.66000E-005	......
	52	13.6916	-6.30875E-002	4.33243E-006	3.66000E-005	......
	53	13.9499	-6.31125E-002	4.33243E-006	2.36600E-004	......
	54	14.2082	-6.31325E-002	4.33243E-006	2.36600E-004	......
	55	14.4666	-6.31625E-002	4.33243E-006	3.66000E-005	......
	56	14.7249	-6.31925E-002	4.33243E-006	3.36600E-004	......
	57	14.9832	-6.32075E-002	4.33243E-006	2.36600E-004	......
	58	15.2416	-6.32375E-002	4.33243E-006	2.36600E-004	......
	59	15.4999	-6.32625E-002	4.33243E-006	2.36600E-004	......
	60	15.7582	-6.32825E-002	4.33243E-006	1.36600E-004	......
	61	16.0166	-6.32975E-002	4.33243E-006	2.36600E-004	......
	62	16.2749	-6.33275E-002	4.33243E-006	2.36600E-004	......
	63	16.5332	-6.33475E-002	4.33243E-006	3.66000E-005	......
	64	16.7915	-6.33725E-002	4.33243E-006	3.36600E-004	......
	65	17.0499	-6.34075E-002	4.33243E-006	3.36600E-004	......
	66	17.3082	-6.34125E-002	4.33243E-006	3.36600E-004	......
	67	17.5665	-6.34375E-002	4.33243E-006	3.36600E-004	......
	68	17.8249	-6.34525E-002	4.33243E-006	3.36600E-004	......
	69	18.0832	-6.34825E-002	4.33243E-006	1.36600E-004	......
	70	18.3415	-6.35125E-002	4.33243E-006	2.36600E-004	......
	71	18.5999	-6.35325E-002	4.33243E-006	2.36600E-004	......
	72	18.8582	-6.35425E-002	4.33243E-006	2.36600E-004	......
	73	19.1165	-6.35625E-002	4.33243E-006	3.36600E-004	......
	74	19.3749	-6.35925E-002	4.33243E-006	2.36600E-004	......
	75	19.6332	-6.36075E-002	4.33243E-006	2.36600E-004	......
	76	19.8915	-6.36325E-002	4.33243E-006	2.36600E-004	......
	77	20.1499	-6.36575E-002	4.33243E-006	2.36600E-004	......
	78	20.4082	-6.36725E-002	4.33243E-006	3.66000E-005	......
	79	20.6665	-6.36925E-002	4.33243E-006	3.36600E-004	......
	80	20.9249	-6.37275E-002	4.33243E-006	2.36600E-004	......
	81	21.1832	-6.37325E-002	4.33243E-006	3.36600E-004	......
	82	21.4415	-6.37725E-002	4.33243E-006	2.36600E-004	......
	83	21.6998	-6.37825E-002	4.33243E-006	3.36600E-004	......
	84	21.9582	-6.37925E-002	4.33243E-006	2.36600E-004	......
	85	22.2165	-6.38175E-002	4.33243E-006	2.36600E-004	......
	86	22.4748	-6.38375E-002	4.33243E-006	2.36600E-004	......
	87	22.7332	-6.38525E-002	4.33243E-006	2.36600E-004	......
	88	22.9915	-6.38775E-002	4.33243E-006	1.36600E-004	......
	89	23.2498	-6.39025E-002	4.33243E-006	2.36600E-004	......
	90	23.5082	-6.39075E-002	4.33243E-006	2.36600E-004	......
	91	23.7665	-6.39325E-002	4.33243E-006	2.36600E-004	......
	92	24.0248	-6.39525E-002	4.33243E-006	1.36600E-004	......
	93	24.2832	-6.39725E-002	4.33243E-006	2.36600E-004	......
	94	24.5415	-6.39875E-002	4.33243E-006	3.36600E-004	......
	95	24.7998	-6.40125E-002	4.33243E-006	2.36600E-004	......
	96	25.0582	-6.40175E-002	4.33243E-006	3.36600E-004	......
	97	25.3165	-6.40425E-002	4.33243E-006	2.36600E-004	......
	98	25.5748	-6.40625E-002	4.33243E-006	3.36600E-004	......
	99	25.8332	-6.40725E-002	4.33243E-006	3.36600E-004	......
	100	26.0915	-6.40975E-002	4.33243E-006	2.36600E-004	......
	101	26.3498	-6.41225E-002	4.33243E-006	3.36600E-004	......
	102	26.6081	-6.41325E-002	4.33243E-006	2.36600E-004	......
	103	26.8665	-6.41525E-002	4.33243E-006	3.36600E-004	......
	104	27.1248	-6.41575E-002	4.33243E-006	3.36600E-004	......
	105	27.3831	-6.41925E-002	4.33243E-006	3.36600E-004	......
	106	27.6415	-6.41925E-002	4.33243E-006	2.36600E-004	......
	107	27.8998	-6.42025E-002	4.33243E-006	2.36600E-004	......
	108	28.1581	-6.42175E-002	4.33243E-006	1.36600E-004	......
	109	28.4165	-6.42325E-002	4.33243E-006	2.36600E-004	......
	110	28.6748	-6.42525E-002	4.33243E-006	2.36600E-004	......
	111	28.9331	-6.42625E-002	4.33243E-006	2.36600E-004	......
	112	29.1915	-6.42725E-002	4.33243E-006	3.36600E-004	......
	113	29.4498	-6.42925E-002	4.33243E-006	3.36600E-004	......
	114	29.7081	-6.43175E-002	4.33243E-006	2.36600E-004	......
	115	29.9665	-6.43275E-002	4.33243E-006	2.36600E-004	......
	116	30.2248	-6.43375E-002	4.33243E-006	3.36600E-004	......
	117	30.4831	-6.43475E-002	4.33243E-006	1.36600E-004	......
	118	30.7414	-6.43675E-002	4.33243E-006	1.36600E-004	......
	119	30.9998	-6.43825E-002	4.33243E-006	2.36600E-004	......
	120	31.2581	-6.43975E-002	4.33243E-006	3.36600E-004	......
	121	31.5164	-6.44175E-002	4.33243E-006	2.36600E-004	......
	122	31.7748	-6.44325E-002	4.33243E-006	1.36600E-004	......
	123	32.0331	-6.44525E-002	4.33243E-006	3.36600E-004	......
	124	32.2914	-6.44575E-002	4.33243E-006	2.36600E-004	......
	125	32.5498	-6.44825E-002	4.33243E-006	2.36600E-004	......
	126	32.8081	-6.44975E-002	4.33243E-006	3.36600E-004	......
	127	33.0664	-6.45025E-002	4.33243E-006	3.36600E-004	......
	128	33.3248	-6.45125E-002	4.33243E-006	2.36600E-004	......
	129	33.5831	-6.45275E-002	4.33243E-006	2.36600E-004	......
	130	33.8414	-6.45425E-002	4.33243E-006	3.36600E-004	......
	131	34.0998	-6.45625E-002	4.33243E-006	2.36600E-004	......
	132	34.3581	-6.45625E-002	4.33243E-006	2.36600E-004	......
	133	34.6164	-6.45775E-002	4.33243E-006	2.36600E-004	......
	134	34.8748	-6.45875E-002	4.33243E-006	3.36600E-004	......
	135	35.1331	-6.46125E-002	4.33243E-006	2.36600E-004	......
	136	35.3914	-6.46175E-002	4.33243E-006	2.36600E-004	......
	137	35.6497	-6.46275E-002	4.33243E-006	2.36600E-004	......
	138	35.9081	-6.46375E-002	4.33243E-006	2.36600E-004	......
	139	36.1664	-6.46525E-002	4.33243E-006	3.36600E-004	......
	140	36.4247	-6.46625E-002	4.33243E-006	3.36600E-004	......
	141	36.6831	-6.46725E-002	4.33243E-006	2.36600E-004	......
	142	36.9414	-6.46875E-002	4.33243E-006	2.36600E-004	......
	143	37.1997	-6.47025E-002	4.33243E-006	2.36600E-004	......
	144	37.4581	-6.47275E-002	4.33243E-006	1.36600E-004	......
	145	37.7164	-6.47325E-002	4.33243E-006	3.36600E-004	......
	146	37.9747	-6.47425E-002	4.33243E-006	4.36600E-004	......
	147	38.2331	-6.47525E-002	4.33243E-006	2.36600E-004	......
	148	38.4914	-6.47675E-002	4.33243E-006	3.66000E-005	......
	149	38.7497	-6.47725E-002	4.33243E-006	2.36600E-004	......
	150	39.0081	-6.47875E-002	4.33243E-006	3.36600E-004	......
	151	39.2664	-6.48025E-002	4.33243E-006	3.36600E-004	......
	152	39.5247	-6.48225E-002	4.33243E-006	2.36600E-004	......
	153	39.7831	-6.48225E-002	4.33243E-006	3.36600E-004	......
	154	40.0414	-6.48475E-002	4.33243E-006	3.36600E-004	......
	155	40.2997	-6.48425E-002	4.33243E-006	2.36600E-004	......
	156	40.558	-6.48525E-002	4.33243E-006	2.36600E-004	......
	157	40.8164	-6.48575E-002	4.33243E-006	3.36600E-004	......
	158	41.0747	-6.48725E-002	4.33243E-006	1.36600E-004	......
	159	41.333	-6.48825E-002	4.33243E-006	1.36600E-004	......
	160	41.5914	-6.48975E-002	4.33243E-006	2.36600E-004	......
	161	41.8497	-6.49075E-002	4.33243E-006	2.36600E-004	......
	162	42.108	-6.49225E-002	4.33243E-006	2.36600E-004	......
	163	42.3664	-6.49275E-002	4.33243E-006	2.36600E-004	......
	164	42.6247	-6.49325E-002	4.33243E-006	3.66000E-005	......
	165	42.883	-6.49475E-002	4.33243E-006	3.66000E-005	......
	166	43.1414	-6.49575E-002	4.33243E-006	1.36600E-004	......
	167	43.3997	-6.49825E-002	4.33243E-006	3.36600E-004	......
	168	43.658	-6.49725E-002	4.33243E-006	2.36600E-004	......
	169	43.9164	-6.49925E-002	4.33243E-006	2.36600E-004	......
	170	44.1747	-6.49875E-002	4.33243E-006	3.36600E-004	......
	171	44.433	-6.50075E-002	4.33243E-006	3.36600E-004	......
	172	44.6913	-6.50225E-002	4.33243E-006	2.36600E-004	......
	173	44.9497	-6.50275E-002	4.33243E-006	2.36600E-004	......
	174	45.208	-6.50375E-002	4.33243E-006	2.36600E-004	......
	175	45.4663	-6.50425E-002	4.33243E-006	3.36600E-004	......
	176	45.7247	-6.50625E-002	4.33243E-006	2.36600E-004	......
	177	45.983	-6.50625E-002	4.33243E-006	3.36600E-004	......
	178	46.2413	-6.50675E-002	4.33243E-006	3.36600E-004	......
	179	46.4997	-6.50925E-002	4.33243E-006	4.36600E-004	......
	180	46.758	-6.50975E-002	4.33243E-006	1.36600E-004	......
	181	47.0163	-6.51025E-002	4.33243E-006	2.36600E-004	......
	182	47.2747	-6.51075E-002	4.33243E-006	1.36600E-004	......
	183	47.533	-6.51225E-002	4.33243E-006	2.36600E-004	......
	184	47.7913	-6.51225E-002	4.33243E-006	3.36600E-004	......
	185	48.0497	-6.51375E-002	4.33243E-006	2.36600E-004	......
	186	48.308	-6.51525E-002	4.33243E-006	3.36600E-004	......
	187	48.5663	-6.51525E-002	4.33243E-006	3.66000E-005	......
	188	48.8247	-6.51625E-002	4.33243E-006	3.36600E-004	......
	189	49.083	-6.51675E-002	4.33243E-006	2.36600E-004	......
	190	49.3413	-6.51725E-002	4.33243E-006	2.36600E-004	......
	191	49.5996	-6.51925E-002	4.33243E-006	1.36600E-004	......
	192	49.858	-6.51875E-002	4.33243E-006	1.36600E-004	......
	193	50.1163	-6.52025E-002	4.33243E-006	2.36600E-004	......
	194	50.3746	-6.52025E-002	4.33243E-006	2.36600E-004	......
	195	50.633	-6.52175E-002	4.33243E-006	2.36600E-004	......
	196	50.8913	-6.52225E-002	4.33243E-006	3.36600E-004	......
	197	51.1496	-6.52275E-002	4.33243E-006	3.36600E-004	......
	198	51.408	-6.52425E-002	4.33243E-006	1.36600E-004	......
	199	51.6663	-6.52425E-002	4.33243E-006	2.36600E-004	......
	200	51.9246	-6.52575E-002	4.33243E-006	3.36600E-004	......
	201	52.183	-6.52625E-002	4.33243E-006	2.36600E-004	......
	202	52.4413	-6.52625E-002	4.33243E-006	2.36600E-004	......
	203	52.6996	-6.52775E-002	4.33243E-006	3.36600E-004	......
	204	52.958	-6.52875E-002	4.33243E-006	2.36600E-004	......
	205	53.2163	-6.52925E-002	4.33243E-006	2.36600E-004	......
	206	53.4746	-6.53025E-002	4.33243E-006	2.36600E-004	......
	207	53.733	-6.53125E-002	4.33243E-006	3.36600E-004	......
	208	53.9913	-6.53125E-002	4.33243E-006	2.36600E-004	......
	209	54.2496	-6.53075E-002	4.33243E-006	2.36600E-004	......
	210	54.5079	-6.53375E-002	4.33243E-006	3.36600E-004	......
	211	54.7663	-6.53325E-002	4.33243E-006	2.36600E-004	......
	212	55.0246	-6.53375E-002	4.33243E-006	3.36600E-004	......
	213	55.2829	-6.53475E-002	4.33243E-006	3.36600E-004	......
	214	55.5413	-6.53575E-002	4.33243E-006	2.36600E-004	......
	215	55.7996	-6.53675E-002	4.33243E-006	2.36600E-004	......
	216	56.0579	-6.53725E-002	4.33243E-006	1.36600E-004	......
	217	56.3163	-6.53725E-002	4.33243E-006	2.36600E-004	......
	218	56.5746	-6.53775E-002	4.33243E-006	2.36600E-004	......
	219	56.8329	-6.53825E-002	4.33243E-006	2.36600E-004	......
	220	57.0913	-6.53825E-002	4.33243E-006	2.36600E-004	......
	221	57.3496	-6.54075E-002	4.33243E-006	1.36600E-004	......
	222	57.6079	-6.54125E-002	4.33243E-006	1.36600E-004	......
	223	57.8663	-6.54175E-002	4.33243E-006	3.36600E-004	......
	224	58.1246	-6.54175E-002	4.33243E-006	2.36600E-004	......
	225	58.3829	-6.54275E-002	4.33243E-006	2.36600E-004	......
	226	58.6413	-6.54325E-002	4.33243E-006	2.36600E-004	......
	227	58.8996	-6.54525E-002	4.33243E-006	1.36600E-004	......
	228	59.1579	-6.54525E-002	4.33243E-006	2.36600E-004	......
	229	59.4162	-6.54575E-002	4.33243E-006	2.36600E-004	......
	230	59.6746	-6.54525E-002	4.33243E-006	1.36600E-004	......
	231	59.9329	-6.54625E-002	4.33243E-006	2.36600E-004	......
EOC	QUANT	-0.065462	Open Circuit (V)
PSTATMODEL	IQUANT	32	Pstat Model
PSTATSECTION	LABEL	PStat0	Pstat Section
CTRLMODE	IQUANT	1	Control Mode
IESTAB	IQUANT	0	I/E Stability
CASPEED	IQUANT	1	Control Amp Speed
CONVENTION	IQUANT	1	Current Convention
ICHRANGE	IQUANT	2	Ich Range
ICHRANGEMODE	TOGGLE	F	Ich Auto Range
ICHOFFSETENABLE	TOGGLE	T	Ich Offset Enable
ICHOFFSET	QUANT	0	Ich Offset (V)
ICHFILTER	IQUANT	3	Ich Filter
VCHRANGE	IQUANT	2	Vch Range
VCHRANGEMODE	TOGGLE	F	Vch Auto Range
VCHOFFSETENABLE	TOGGLE	T	Vch Offset Enable
VCHOFFSET	QUANT	0	Vch Offset (V)
VCHFILTER	IQUANT	3	Vch Filter
ACHRANGE	IQUANT	0	Ach Range
IERANGELOWERLIMIT	IQUANT	3	I/E Range Lower Limit
IERANGEMODE	TOGGLE	F	I/E AutoRange
IERANGE	IQUANT	11	I/E Range
POSFEEDENABLE	TOGGLE	F	Positive Feedback IR Comp
POSFEEDRESISTANCE	QUANT	0	Positive Feedback Resistance (ohm)
FC350IDIVISOR	IQUANT	0	FC350 I Divisor
FC350VRANGE	IQUANT	0	FC350 V Range
FRAMEWORKVERSION	QUANT	4.35	Framework Version
ZCURVE	TABLE
	Pt	Time	Freq	Zreal	Zimag	Zsig	Zmod	Zphz	Idc	Vdc	IERange
	#	s	Hz	ohm	ohm	V	ohm	°	A	V	#
	0	7	100007	19.3853	0.215793	1	19.3865	0.637778	7.29094E-006	-0.064274	10
	1	11	89134.1	19.3449	0.188712	1	19.3458	0.558911	4.88156E-006	-0.06426	10
	2	13	79433.6	19.3842	0.083378	1	19.3844	0.246447	6.85863E-006	-0.064257	10
	3	17	70800.8	19.3069	-0.001768	1	19.3069	-0.005246	4.54301E-006	-0.064247	10
	4	20	63105.5	19.2412	-0.100588	1	19.2415	-0.299524	6.18844E-006	-0.06428	10
	5	24	56243.5	19.0924	-0.010385	1	19.0924	-0.031166	5.24688E-006	-0.064257	10
	6	26	50123.7	19.2243	-0.16969	1	19.2251	-0.505728	5.71404E-006	-0.064264	10
	7	30	44681	19.1756	-0.083161	1	19.1758	-0.248479	4.60049E-006	-0.064257	10
	8	34	39811.2	19.3285	-0.016444	1	19.3285	-0.048744	4.61694E-006	-0.064266	10
	9	38	35488.3	19.2583	-0.349108	1	19.2615	-1.03852	4.92366E-006	-0.064257	10
	10	40	31634.1	19.1694	-0.476826	1	19.1754	-1.4249	6.34635E-006	-0.06427	10
	11	44	28173.1	19.4018	-0.541246	1	19.4094	-1.59795	6.0226E-006	-0.064253	10
	12	48	25123.7	19.3662	-0.54572	1	19.3739	-1.61411	5.68693E-006	-0.064243	10
	13	53	22389.3	19.2939	-0.693697	1	19.3063	-2.05914	5.08881E-006	-0.064226	10
	14	55	19954.4	19.5127	-0.75782	1	19.5274	-2.22409	4.77557E-006	-0.064252	10
	15	59	17778.2	19.3858	-0.833109	1	19.4037	-2.46078	5.77409E-006	-0.064257	10
	16	63	15852.9	19.4023	-0.856422	1	19.4212	-2.52741	5.93314E-006	-0.064264	10
	17	66	14122.3	19.4917	-1.12964	1	19.5244	-3.31685	5.68193E-006	-0.064256	10
	18	70	12587.2	19.5288	-1.22476	1	19.5672	-3.58863	6.07652E-006	-0.064259	10
	19	75	11221.1	19.7446	-1.30384	1	19.7876	-3.77806	5.6746E-006	-0.064244	10
	20	77	9998.2	19.5195	-1.40435	1	19.5699	-4.11511	5.82341E-006	-0.064257	10
	21	81	8912.76	19.4246	-1.46003	1	19.4794	-4.29849	4.50603E-006	-0.064246	10
	22	85	7942.6	19.6349	-1.62394	1	19.7019	-4.72798	5.6876E-006	-0.064247	10
	23	89	7078.05	19.813	-1.80668	1	19.8953	-5.21019	6.13992E-006	-0.064253	10
	24	93	6311.1	19.8676	-1.90595	1	19.9588	-5.47977	5.67837E-006	-0.064244	10
	25	95	5622.14	19.9216	-2.05682	1	20.0275	-5.89465	5.79057E-006	-0.064261	10
	26	99	5011.18	20.1264	-2.28664	1	20.2559	-6.48182	5.67754E-006	-0.06425	10
	27	103	4465.21	20.1615	-2.48425	1	20.314	-7.02443	5.67102E-006	-0.064257	10
	28	107	3980.93	20.3884	-2.6554	1	20.5606	-7.42048	4.93418E-006	-0.064257	10
	29	111	3548.18	20.3109	-3.02024	1	20.5342	-8.45794	6.52722E-006	-0.064246	10
	30	115	3162.67	20.5237	-3.53867	1	20.8265	-9.7827	6.30394E-006	-0.064259	10
	31	117	2819.01	20.5896	-3.71092	1	20.9214	-10.2169	5.82382E-006	-0.064263	10
	32	122	2511.16	20.5994	-3.90329	1	20.966	-10.7295	5.96746E-006	-0.064248	10
	33	126	2238.63	20.6674	-4.35961	1	21.1222	-11.9114	5.72601E-006	-0.064251	10
	34	130	1995.37	21.0146	-4.90752	1	21.58	-13.1446	5.75291E-006	-0.064249	10
	35	134	1778.51	20.9348	-5.25106	1	21.5833	-14.0809	5.64929E-006	-0.064247	10
	36	138	1584.49	21.2663	-5.90701	1	22.0715	-15.5234	5.96299E-006	-0.064233	10
	37	140	1412.76	21.4556	-6.30825	1	22.3638	-16.3841	6.38712E-006	-0.064227	10
	38	144	1259.04	21.919	-6.71872	1	22.9256	-17.0416	5.80791E-006	-0.064234	10
	39	148	1121.63	21.8398	-7.58937	1	23.1209	-19.1624	5.62231E-006	-0.064237	10
	40	153	999.95	22.0713	-8.18736	1	23.5409	-20.3524	5.77175E-006	-0.064237	10
	41	157	891.184	22.3838	-9.12324	1	24.1716	-22.175	5.69116E-006	-0.064244	10
	42	161	794.163	22.5287	-9.948	1	24.6273	-23.8249	5.49695E-006	-0.064233	10
	43	163	707.867	22.8078	-10.8639	1	25.263	-25.4695	4.72252E-006	-0.064245	10
	44	167	630.984	23.1489	-11.9265	1	26.0406	-27.2579	5.71372E-006	-0.064257	10
	45	171	562.189	23.5609	-12.9086	1	26.8654	-28.7176	5.92635E-006	-0.064263	10
	46	176	501.303	24.0665	-14.2657	1	27.9769	-30.6579	5.95396E-006	-0.064258	10
	47	178	446.614	24.5054	-15.6437	1	29.073	-32.5533	5.94863E-006	-0.064248	10
	48	180	398.209	24.9621	-17.1506	1	30.2861	-34.4917	5.69888E-006	-0.064258	10
	49	182	354.821	25.4833	-18.7897	1	31.6615	-36.4025	5.81066E-006	-0.064258	10
	50	184	316.113	26.0726	-20.6117	1	33.2358	-38.3281	5.85916E-006	-0.064258	10
	51	185	281.926	26.6565	-22.6184	1	34.9594	-40.3151	5.81985E-006	-0.064251	10
	52	187	251.185	27.3404	-24.8119	1	36.9205	-42.2243	5.72946E-006	-0.064255	10
	53	189	223.946	28.0778	-27.1831	1	39.0805	-44.0724	5.68624E-006	-0.064246	10
	54	191	199.495	28.8477	-29.8417	1	41.5056	-45.9704	5.86354E-006	-0.064239	10
	55	193	177.836	29.7263	-32.7066	1	44.1971	-47.733	5.54447E-006	-0.064245	10
