EXPLAIN
TAG	EISPOT
TITLE	LABEL	Tomato_open	Test &Identifier
DATE	LABEL	5/16/2006	Date
TIME	LABEL	16:57:03	Time
NOTES	NOTES	1	&Notes...
	
PSTAT	PSTAT	300	Potentiostat
VDC	POTEN	1.00000E-003	T	DC &Voltage (V)
FREQINIT	QUANT	1.00000E+005	Initial Fre&q. (Hz)
FREQFINAL	QUANT	1.00000E+001	Final Fre&q. (Hz)
PTSPERDEC	QUANT	2.00000E+001	Points/&decade
VAC	QUANT	1.00000E+000	AC &Voltage (mV rms)
AREA	QUANT	1.00000E+000	&Area (cm²)
DENSITY	QUANT	7.87000E+000	&Density (gm/cm³)
EQUIV	QUANT	7.00000E+000	Equiv. &Wt
CONDIT	TWOPARAM	F	6.00000E+001	0.00000E+000	Conditionin&g	Time(s)	E(V)
DELAY	TWOPARAM	T	6.00000E+001	0.00000E+000	Init. De&lay	Time(s)	Stab.(mV/s)
SPEED	SELECTOR	1	&Optimize for:
ZGUESS	QUANT	1.00000E+002	E&stimated Z (ohms)
OCVCURVE	TABLE	232
	Pt	T	Vf	Vm	Ach	Over
	#	s	V vs. Ref.	V	V	bits
	0	0.258332	-2.86025E-002	2.31043E-006	3.66000E-005	......
	1	0.516663	-2.84375E-002	2.31043E-006	-6.34000E-005	......
	2	0.774994	-2.82775E-002	2.31043E-006	1.36600E-004	......
	3	1.03333	-2.81425E-002	2.31043E-006	-6.34000E-005	......
	4	1.29166	-2.80075E-002	2.31043E-006	3.66000E-005	......
	5	1.54999	-2.78875E-002	2.31043E-006	-1.63400E-004	......
	6	1.80832	-2.77725E-002	2.31043E-006	3.66000E-005	......
	7	2.06665	-2.76775E-002	2.31043E-006	-1.63400E-004	......
	8	2.32498	-2.75975E-002	2.31043E-006	1.36600E-004	......
	9	2.58332	-2.75025E-002	2.31043E-006	-1.63400E-004	......
	10	2.84165	-2.74425E-002	2.31043E-006	3.66000E-005	......
	11	3.09998	-2.73825E-002	2.31043E-006	-1.63400E-004	......
	12	3.35831	-2.73175E-002	2.31043E-006	3.66000E-005	......
	13	3.61664	-2.72775E-002	2.31043E-006	-2.63400E-004	......
	14	3.87497	-2.72275E-002	2.31043E-006	-6.34000E-005	......
	15	4.1333	-2.71775E-002	2.31043E-006	-6.34000E-005	......
	16	4.39164	-2.71475E-002	2.31043E-006	1.36600E-004	......
	17	4.64997	-2.71125E-002	2.31043E-006	-1.63400E-004	......
	18	4.9083	-2.70875E-002	2.31043E-006	3.66000E-005	......
	19	5.16663	-2.70425E-002	2.31043E-006	-6.34000E-005	......
	20	5.42496	-2.70075E-002	2.31043E-006	2.36600E-004	......
	21	5.68329	-2.69875E-002	2.31043E-006	-6.34000E-005	......
	22	5.94162	-2.69575E-002	2.31043E-006	3.66000E-005	......
	23	6.19996	-2.69425E-002	2.31043E-006	3.66000E-005	......
	24	6.45829	-2.69275E-002	2.31043E-006	3.66000E-005	......
	25	6.71662	-2.69125E-002	2.31043E-006	-1.63400E-004	......
	26	6.97495	-2.68775E-002	2.31043E-006	3.66000E-005	......
	27	7.23328	-2.68725E-002	2.31043E-006	-6.34000E-005	......
	28	7.49161	-2.68675E-002	2.31043E-006	1.36600E-004	......
	29	7.74995	-2.68475E-002	2.31043E-006	-1.63400E-004	......
	30	8.00828	-2.68425E-002	2.31043E-006	3.66000E-005	......
	31	8.26661	-2.68375E-002	2.31043E-006	-6.34000E-005	......
	32	8.52494	-2.68075E-002	2.31043E-006	2.36600E-004	......
	33	8.78327	-2.68075E-002	2.31043E-006	-1.63400E-004	......
	34	9.0416	-2.67925E-002	2.31043E-006	2.36600E-004	......
	35	9.29993	-2.67825E-002	2.31043E-006	-1.63400E-004	......
	36	9.5583	-2.67775E-002	2.31043E-006	3.66000E-005	......
	37	9.8166	-2.67675E-002	2.31043E-006	-6.34000E-005	......
	38	10.0749	-2.67625E-002	2.31043E-006	3.66000E-005	......
	39	10.3333	-2.67575E-002	2.31043E-006	-1.63400E-004	......
	40	10.5916	-2.67625E-002	2.31043E-006	3.66000E-005	......
	41	10.8499	-2.67625E-002	2.31043E-006	-6.34000E-005	......
	42	11.1083	-2.67625E-002	2.31043E-006	3.66000E-005	......
	43	11.3666	-2.67575E-002	2.31043E-006	3.66000E-005	......
	44	11.6249	-2.67575E-002	2.31043E-006	2.36600E-004	......
	45	11.8832	-2.67575E-002	2.31043E-006	-6.34000E-005	......
	46	12.1416	-2.67525E-002	2.31043E-006	3.66000E-005	......
	47	12.3999	-2.67475E-002	2.31043E-006	3.66000E-005	......
	48	12.6582	-2.67325E-002	2.31043E-006	2.36600E-004	......
	49	12.9166	-2.67225E-002	2.31043E-006	-6.34000E-005	......
	50	13.1749	-2.67225E-002	2.31043E-006	3.66000E-005	......
	51	13.4332	-2.67175E-002	2.31043E-006	-1.63400E-004	......
	52	13.6916	-2.67175E-002	2.31043E-006	3.66000E-005	......
	53	13.9499	-2.67275E-002	2.31043E-006	-1.63400E-004	......
	54	14.2082	-2.67375E-002	2.31043E-006	1.36600E-004	......
	55	14.4666	-2.67375E-002	2.31043E-006	-1.63400E-004	......
	56	14.7249	-2.67375E-002	2.31043E-006	3.66000E-005	......
	57	14.9832	-2.67525E-002	2.31043E-006	-2.63400E-004	......
	58	15.2416	-2.67775E-002	2.31043E-006	2.36600E-004	......
	59	15.4999	-2.67725E-002	2.31043E-006	-1.63400E-004	......
	60	15.7582	-2.67675E-002	2.31043E-006	3.66000E-005	......
	61	16.0166	-2.67825E-002	2.31043E-006	-6.34000E-005	......
	62	16.2749	-2.68025E-002	2.31043E-006	1.36600E-004	......
	63	16.5332	-2.68125E-002	2.31043E-006	-1.63400E-004	......
	64	16.7915	-2.68175E-002	2.31043E-006	3.66000E-005	......
	65	17.0499	-2.68325E-002	2.31043E-006	-6.34000E-005	......
	66	17.3082	-2.68375E-002	2.31043E-006	2.36600E-004	......
	67	17.5665	-2.68575E-002	2.31043E-006	-1.63400E-004	......
	68	17.8249	-2.68725E-002	2.31043E-006	3.66000E-005	......
	69	18.0832	-2.68675E-002	2.31043E-006	-1.63400E-004	......
	70	18.3415	-2.68875E-002	2.31043E-006	2.36600E-004	......
	71	18.5999	-2.68825E-002	2.31043E-006	-1.63400E-004	......
	72	18.8582	-2.68825E-002	2.31043E-006	3.66000E-005	......
	73	19.1165	-2.69025E-002	2.31043E-006	-6.34000E-005	......
	74	19.3749	-2.69175E-002	2.31043E-006	1.36600E-004	......
	75	19.6332	-2.69225E-002	2.31043E-006	-6.34000E-005	......
	76	19.8915	-2.69425E-002	2.31043E-006	1.36600E-004	......
	77	20.1499	-2.69425E-002	2.31043E-006	-1.63400E-004	......
	78	20.4082	-2.69475E-002	2.31043E-006	2.36600E-004	......
	79	20.6665	-2.69725E-002	2.31043E-006	-6.34000E-005	......
	80	20.9249	-2.69775E-002	2.31043E-006	3.66000E-005	......
	81	21.1832	-2.69875E-002	2.31043E-006	-1.63400E-004	......
	82	21.4415	-2.69975E-002	2.31043E-006	3.66000E-005	......
	83	21.6998	-2.70025E-002	2.31043E-006	-1.63400E-004	......
	84	21.9582	-2.70025E-002	2.31043E-006	3.66000E-005	......
	85	22.2165	-2.70175E-002	2.31043E-006	-6.34000E-005	......
	86	22.4748	-2.70175E-002	2.31043E-006	3.66000E-005	......
	87	22.7332	-2.70375E-002	2.31043E-006	-6.34000E-005	......
	88	22.9915	-2.70325E-002	2.31043E-006	1.36600E-004	......
	89	23.2498	-2.70475E-002	2.31043E-006	-6.34000E-005	......
	90	23.5082	-2.70525E-002	2.31043E-006	3.66000E-005	......
	91	23.7665	-2.70525E-002	2.31043E-006	-6.34000E-005	......
	92	24.0248	-2.70675E-002	2.31043E-006	3.66000E-005	......
	93	24.2832	-2.70625E-002	2.31043E-006	-6.34000E-005	......
	94	24.5415	-2.70625E-002	2.31043E-006	3.66000E-005	......
	95	24.7998	-2.70775E-002	2.31043E-006	-6.34000E-005	......
	96	25.0582	-2.70775E-002	2.31043E-006	1.36600E-004	......
	97	25.3165	-2.70775E-002	2.31043E-006	-1.63400E-004	......
	98	25.5748	-2.70875E-002	2.31043E-006	3.66000E-005	......
	99	25.8332	-2.70825E-002	2.31043E-006	-1.63400E-004	......
	100	26.0915	-2.70875E-002	2.31043E-006	1.36600E-004	......
	101	26.3498	-2.70875E-002	2.31043E-006	-6.34000E-005	......
	102	26.6081	-2.70825E-002	2.31043E-006	2.36600E-004	......
	103	26.8665	-2.70825E-002	2.31043E-006	-1.63400E-004	......
	104	27.1248	-2.70975E-002	2.31043E-006	1.36600E-004	......
	105	27.3831	-2.70875E-002	2.31043E-006	-1.63400E-004	......
	106	27.6415	-2.70975E-002	2.31043E-006	3.66000E-005	......
	107	27.8998	-2.70925E-002	2.31043E-006	-6.34000E-005	......
	108	28.1581	-2.71025E-002	2.31043E-006	3.66000E-005	......
	109	28.4165	-2.71075E-002	2.31043E-006	-1.63400E-004	......
	110	28.6748	-2.71225E-002	2.31043E-006	1.36600E-004	......
	111	28.9331	-2.71225E-002	2.31043E-006	-1.63400E-004	......
	112	29.1915	-2.71375E-002	2.31043E-006	3.66000E-005	......
	113	29.4498	-2.71325E-002	2.31043E-006	-6.34000E-005	......
	114	29.7081	-2.71375E-002	2.31043E-006	1.36600E-004	......
	115	29.9665	-2.71425E-002	2.31043E-006	-6.34000E-005	......
	116	30.2248	-2.71475E-002	2.31043E-006	3.66000E-005	......
	117	30.4831	-2.71425E-002	2.31043E-006	-6.34000E-005	......
	118	30.7414	-2.71525E-002	2.31043E-006	1.36600E-004	......
	119	30.9998	-2.71425E-002	2.31043E-006	-6.34000E-005	......
	120	31.2581	-2.71475E-002	2.31043E-006	1.36600E-004	......
	121	31.5164	-2.71475E-002	2.31043E-006	-1.63400E-004	......
	122	31.7748	-2.71575E-002	2.31043E-006	-6.34000E-005	......
	123	32.0331	-2.71625E-002	2.31043E-006	3.66000E-005	......
	124	32.2914	-2.71675E-002	2.31043E-006	3.66000E-005	......
	125	32.5498	-2.71675E-002	2.31043E-006	-6.34000E-005	......
	126	32.8081	-2.71725E-002	2.31043E-006	1.36600E-004	......
	127	33.0664	-2.71575E-002	2.31043E-006	-1.63400E-004	......
	128	33.3248	-2.71575E-002	2.31043E-006	-6.34000E-005	......
	129	33.5831	-2.71675E-002	2.31043E-006	-6.34000E-005	......
	130	33.8414	-2.71625E-002	2.31043E-006	3.66000E-005	......
	131	34.0998	-2.71725E-002	2.31043E-006	-1.63400E-004	......
	132	34.3581	-2.71675E-002	2.31043E-006	3.66000E-005	......
	133	34.6164	-2.71875E-002	2.31043E-006	-6.34000E-005	......
	134	34.8748	-2.71825E-002	2.31043E-006	3.66000E-005	......
	135	35.1331	-2.71825E-002	2.31043E-006	-1.63400E-004	......
	136	35.3914	-2.71925E-002	2.31043E-006	3.66000E-005	......
	137	35.6497	-2.71975E-002	2.31043E-006	-1.63400E-004	......
	138	35.9081	-2.71925E-002	2.31043E-006	3.66000E-005	......
	139	36.1664	-2.71775E-002	2.31043E-006	-2.63400E-004	......
	140	36.4247	-2.71825E-002	2.31043E-006	3.66000E-005	......
	141	36.6831	-2.71775E-002	2.31043E-006	-6.34000E-005	......
	142	36.9414	-2.71875E-002	2.31043E-006	3.66000E-005	......
	143	37.1997	-2.71925E-002	2.31043E-006	-6.34000E-005	......
	144	37.4581	-2.71825E-002	2.31043E-006	3.66000E-005	......
	145	37.7164	-2.71975E-002	2.31043E-006	-6.34000E-005	......
	146	37.9747	-2.71925E-002	2.31043E-006	3.66000E-005	......
	147	38.2331	-2.71925E-002	2.31043E-006	-1.63400E-004	......
	148	38.4914	-2.71875E-002	2.31043E-006	3.66000E-005	......
	149	38.7497	-2.71875E-002	2.31043E-006	-1.63400E-004	......
	150	39.0081	-2.71725E-002	2.31043E-006	3.66000E-005	......
	151	39.2664	-2.71875E-002	2.31043E-006	-1.63400E-004	......
	152	39.5247	-2.71775E-002	2.31043E-006	3.66000E-005	......
	153	39.7831	-2.71725E-002	2.31043E-006	-1.63400E-004	......
	154	40.0414	-2.71775E-002	2.31043E-006	1.36600E-004	......
	155	40.2997	-2.71725E-002	2.31043E-006	-1.63400E-004	......
	156	40.558	-2.71725E-002	2.31043E-006	3.66000E-005	......
	157	40.8164	-2.71675E-002	2.31043E-006	-6.34000E-005	......
	158	41.0747	-2.71675E-002	2.31043E-006	2.36600E-004	......
	159	41.333	-2.71625E-002	2.31043E-006	3.66000E-005	......
	160	41.5914	-2.71575E-002	2.31043E-006	1.36600E-004	......
	161	41.8497	-2.71575E-002	2.31043E-006	-1.63400E-004	......
	162	42.108	-2.71575E-002	2.31043E-006	3.66000E-005	......
	163	42.3664	-2.71425E-002	2.31043E-006	-6.34000E-005	......
	164	42.6247	-2.71375E-002	2.31043E-006	3.66000E-005	......
	165	42.883	-2.71425E-002	2.31043E-006	-6.34000E-005	......
	166	43.1414	-2.71425E-002	2.31043E-006	3.66000E-005	......
	167	43.3997	-2.71325E-002	2.31043E-006	-1.63400E-004	......
	168	43.658	-2.71375E-002	2.31043E-006	1.36600E-004	......
	169	43.9164	-2.71375E-002	2.31043E-006	-6.34000E-005	......
	170	44.1747	-2.71325E-002	2.31043E-006	3.66000E-005	......
	171	44.433	-2.71375E-002	2.31043E-006	-1.63400E-004	......
	172	44.6913	-2.71375E-002	2.31043E-006	3.66000E-005	......
	173	44.9497	-2.71375E-002	2.31043E-006	3.66000E-005	......
	174	45.208	-2.71275E-002	2.31043E-006	3.66000E-005	......
	175	45.4663	-2.71275E-002	2.31043E-006	-1.63400E-004	......
	176	45.7247	-2.71175E-002	2.31043E-006	1.36600E-004	......
	177	45.983	-2.71275E-002	2.31043E-006	-6.34000E-005	......
	178	46.2413	-2.71225E-002	2.31043E-006	3.66000E-005	......
	179	46.4997	-2.71125E-002	2.31043E-006	-1.63400E-004	......
	180	46.758	-2.71075E-002	2.31043E-006	3.66000E-005	......
	181	47.0163	-2.71125E-002	2.31043E-006	-1.63400E-004	......
	182	47.2747	-2.71125E-002	2.31043E-006	3.66000E-005	......
	183	47.533	-2.70925E-002	2.31043E-006	-1.63400E-004	......
	184	47.7913	-2.70775E-002	2.31043E-006	3.66000E-005	......
	185	48.0497	-2.70775E-002	2.31043E-006	3.66000E-005	......
	186	48.308	-2.70675E-002	2.31043E-006	1.36600E-004	......
	187	48.5663	-2.70675E-002	2.31043E-006	-6.34000E-005	......
	188	48.8247	-2.70625E-002	2.31043E-006	1.36600E-004	......
	189	49.083	-2.70575E-002	2.31043E-006	-2.63400E-004	......
	190	49.3413	-2.70425E-002	2.31043E-006	3.66000E-005	......
	191	49.5996	-2.70475E-002	2.31043E-006	-2.63400E-004	......
	192	49.858	-2.70425E-002	2.31043E-006	3.66000E-005	......
	193	50.1163	-2.70275E-002	2.31043E-006	-6.34000E-005	......
	194	50.3746	-2.70225E-002	2.31043E-006	3.66000E-005	......
	195	50.633	-2.70275E-002	2.31043E-006	-6.34000E-005	......
	196	50.8913	-2.70225E-002	2.31043E-006	3.66000E-005	......
	197	51.1496	-2.70075E-002	2.31043E-006	-6.34000E-005	......
	198	51.408	-2.69975E-002	2.31043E-006	1.36600E-004	......
	199	51.6663	-2.69875E-002	2.31043E-006	-1.63400E-004	......
	200	51.9246	-2.69875E-002	2.31043E-006	1.36600E-004	......
	201	52.183	-2.69775E-002	2.31043E-006	-1.63400E-004	......
	202	52.4413	-2.69775E-002	2.31043E-006	3.66000E-005	......
	203	52.6996	-2.69575E-002	2.31043E-006	-1.63400E-004	......
	204	52.958	-2.69625E-002	2.31043E-006	1.36600E-004	......
	205	53.2163	-2.69475E-002	2.31043E-006	-1.63400E-004	......
	206	53.4746	-2.69325E-002	2.31043E-006	1.36600E-004	......
	207	53.733	-2.69325E-002	2.31043E-006	-2.63400E-004	......
	208	53.9913	-2.69175E-002	2.31043E-006	3.66000E-005	......
	209	54.2496	-2.69075E-002	2.31043E-006	-1.63400E-004	......
	210	54.5079	-2.69125E-002	2.31043E-006	3.66000E-005	......
	211	54.7663	-2.69075E-002	2.31043E-006	-1.63400E-004	......
	212	55.0246	-2.68975E-002	2.31043E-006	3.66000E-005	......
	213	55.2829	-2.69025E-002	2.31043E-006	-6.34000E-005	......
	214	55.5413	-2.68875E-002	2.31043E-006	3.66000E-005	......
	215	55.7996	-2.68875E-002	2.31043E-006	-6.34000E-005	......
	216	56.0579	-2.68725E-002	2.31043E-006	1.36600E-004	......
	217	56.3163	-2.68725E-002	2.31043E-006	-6.34000E-005	......
	218	56.5746	-2.68575E-002	2.31043E-006	-6.34000E-005	......
	219	56.8329	-2.68525E-002	2.31043E-006	-6.34000E-005	......
	220	57.0913	-2.68425E-002	2.31043E-006	1.36600E-004	......
	221	57.3496	-2.68375E-002	2.31043E-006	-1.63400E-004	......
	222	57.6079	-2.68175E-002	2.31043E-006	3.66000E-005	......
	223	57.8663	-2.68125E-002	2.31043E-006	-1.63400E-004	......
	224	58.1246	-2.68125E-002	2.31043E-006	3.66000E-005	......
	225	58.3829	-2.68025E-002	2.31043E-006	-1.63400E-004	......
	226	58.6413	-2.68025E-002	2.31043E-006	3.66000E-005	......
	227	58.8996	-2.67775E-002	2.31043E-006	-1.63400E-004	......
	228	59.1579	-2.67825E-002	2.31043E-006	3.66000E-005	......
	229	59.4162	-2.67775E-002	2.31043E-006	-6.34000E-005	......
	230	59.6746	-2.67625E-002	2.31043E-006	3.66000E-005	......
	231	59.9329	-2.67675E-002	2.31043E-006	-6.34000E-005	......
EOC	QUANT	-0.026767	Open Circuit (V)
PSTATMODEL	IQUANT	32	Pstat Model
PSTATSECTION	LABEL	PStat0	Pstat Section
CTRLMODE	IQUANT	1	Control Mode
IESTAB	IQUANT	0	I/E Stability
CASPEED	IQUANT	1	Control Amp Speed
CONVENTION	IQUANT	1	Current Convention
ICHRANGE	IQUANT	2	Ich Range
ICHRANGEMODE	TOGGLE	F	Ich Auto Range
ICHOFFSETENABLE	TOGGLE	T	Ich Offset Enable
ICHOFFSET	QUANT	0	Ich Offset (V)
ICHFILTER	IQUANT	3	Ich Filter
VCHRANGE	IQUANT	2	Vch Range
VCHRANGEMODE	TOGGLE	F	Vch Auto Range
VCHOFFSETENABLE	TOGGLE	T	Vch Offset Enable
VCHOFFSET	QUANT	0	Vch Offset (V)
VCHFILTER	IQUANT	3	Vch Filter
ACHRANGE	IQUANT	0	Ach Range
IERANGELOWERLIMIT	IQUANT	3	I/E Range Lower Limit
IERANGEMODE	TOGGLE	F	I/E AutoRange
IERANGE	IQUANT	11	I/E Range
POSFEEDENABLE	TOGGLE	F	Positive Feedback IR Comp
POSFEEDRESISTANCE	QUANT	0	Positive Feedback Resistance (ohm)
FC350IDIVISOR	IQUANT	0	FC350 I Divisor
FC350VRANGE	IQUANT	0	FC350 V Range
FRAMEWORKVERSION	QUANT	4.35	Framework Version
ZCURVE	TABLE
	Pt	Time	Freq	Zreal	Zimag	Zsig	Zmod	Zphz	Idc	Vdc	IERange
	#	s	Hz	ohm	ohm	V	ohm	°	A	V	#
	0	6	100007	19.5474	0.14664	1	19.548	0.429811	7.40912E-006	-0.025582	10
	1	10	89134.1	19.5683	0.091984	1	19.5685	0.269325	6.13278E-006	-0.02558	10
	2	12	79433.6	19.3631	0.027333	1	19.3631	0.080878	4.71355E-006	-0.025577	10
	3	17	70800.8	19.5339	0.150656	1	19.5345	0.441888	6.95912E-006	-0.025564	10
	4	19	63105.5	19.4556	0.04414	1	19.4556	0.129989	6.99859E-006	-0.02558	10
	5	23	56243.5	19.5935	-0.088662	1	19.5937	-0.259266	6.12119E-006	-0.025583	10
	6	25	50123.7	19.521	-0.142237	1	19.5216	-0.417471	6.99886E-006	-0.025568	10
	7	29	44681	19.5332	-0.151276	1	19.5338	-0.44372	7.29094E-006	-0.025589	10
	8	33	39811.2	19.3058	-0.326947	1	19.3086	-0.97022	7.19963E-006	-0.025587	10
	9	37	35488.3	19.524	-0.357406	1	19.5272	-1.04874	5.03624E-006	-0.025564	10
	10	39	31634.1	19.5879	-0.54806	1	19.5956	-1.60269	5.60711E-006	-0.025572	10
	11	44	28173.1	19.5986	-0.485729	1	19.6047	-1.41972	5.71242E-006	-0.02558	10
	12	48	25123.7	19.5094	-0.697519	1	19.5219	-2.04762	6.75242E-006	-0.025579	10
	13	52	22389.3	19.6139	-0.868862	1	19.6331	-2.53645	5.73318E-006	-0.025557	10
	14	54	19954.4	19.72	-0.822391	1	19.7371	-2.38805	6.61492E-006	-0.025567	10
	15	58	17778.2	19.6972	-0.768595	1	19.7122	-2.23457	5.75296E-006	-0.025578	10
	16	62	15852.9	19.7968	-1.07266	1	19.8258	-3.10146	6.19231E-006	-0.025589	10
	17	66	14122.3	19.6322	-1.02883	1	19.6592	-2.99985	5.71832E-006	-0.025578	10
	18	70	12587.2	19.7497	-1.21366	1	19.787	-3.5165	5.59621E-006	-0.025578	10
	19	74	11221.1	19.8034	-1.11698	1	19.8348	-3.22828	5.30379E-006	-0.025566	10
	20	76	9998.2	19.8708	-1.34848	1	19.9165	-3.88227	5.71225E-006	-0.025575	10
	21	81	8912.76	19.8245	-1.54076	1	19.8843	-4.44411	6.83238E-006	-0.025589	10
	22	85	7942.6	19.957	-1.59248	1	20.0205	-4.56229	5.59682E-006	-0.025581	10
	23	89	7078.05	19.9801	-1.84339	1	20.065	-5.27126	5.56409E-006	-0.025579	10
	24	93	6311.1	20.1629	-1.8767	1	20.2501	-5.31759	5.6113E-006	-0.025571	10
	25	95	5622.14	20.112	-2.09054	1	20.2203	-5.93431	5.86827E-006	-0.025574	10
	26	99	5011.18	20.4048	-2.3896	1	20.5442	-6.67949	5.4004E-006	-0.025569	10
	27	103	4465.21	20.421	-2.63635	1	20.5905	-7.3562	5.68303E-006	-0.025574	10
	28	107	3980.93	20.3189	-2.71558	1	20.4995	-7.61238	6.05025E-006	-0.025594	10
	29	111	3548.18	20.4851	-3.05952	1	20.7123	-8.49452	4.29489E-006	-0.025565	10
	30	115	3162.67	20.4596	-3.3412	1	20.7306	-9.27494	5.37207E-006	-0.025565	10
	31	117	2819.01	20.511	-3.58841	1	20.8226	-9.9235	6.41325E-006	-0.025572	10
	32	122	2511.16	20.8149	-4.02725	1	21.2009	-10.9502	5.66169E-006	-0.025584	10
	33	126	2238.63	21.1007	-4.57839	1	21.5917	-12.2422	5.66075E-006	-0.025581	10
	34	130	1995.37	21.1613	-4.91481	1	21.7246	-13.0754	5.51523E-006	-0.025573	10
	35	134	1778.51	21.4065	-5.36678	1	22.069	-14.0744	5.59691E-006	-0.025582	10
	36	138	1584.49	21.4415	-5.88899	1	22.2355	-15.3578	5.79842E-006	-0.025577	10
	37	140	1412.76	21.4453	-6.36228	1	22.3692	-16.5243	6.78394E-006	-0.025597	10
	38	144	1259.04	21.6994	-7.07444	1	22.8235	-18.057	5.38391E-006	-0.025581	10
	39	149	1121.63	21.79	-7.93337	1	23.1893	-20.0057	5.66632E-006	-0.025582	10
	40	153	999.95	22.3245	-8.62582	1	23.933	-21.1257	5.58662E-006	-0.025575	10
	41	157	891.184	22.5227	-9.35177	1	24.387	-22.549	5.67867E-006	-0.025566	10
	42	159	794.163	22.8114	-10.3596	1	25.0536	-24.4247	5.58263E-006	-0.025571	10
	43	163	707.867	23.0178	-11.348	1	25.6631	-26.2437	4.35147E-006	-0.025561	10
	44	168	630.984	23.3479	-12.4373	1	26.4539	-28.044	5.49102E-006	-0.025573	10
	45	172	562.189	23.7426	-13.4773	1	27.3011	-29.581	6.04659E-006	-0.025592	10
	46	176	501.303	24.1617	-14.9204	1	28.3973	-31.6963	5.85686E-006	-0.025574	10
	47	178	446.614	24.5913	-16.3774	1	29.5457	-33.663	5.83749E-006	-0.025564	10
	48	180	398.209	25.0482	-17.9691	1	30.827	-35.6549	5.6316E-006	-0.025573	10
	49	182	354.821	25.5683	-19.7552	1	32.3111	-37.6913	5.78013E-006	-0.025573	10
	50	184	316.113	26.1145	-21.6984	1	33.9527	-39.7229	5.56204E-006	-0.025572	10
	51	186	281.926	26.7043	-23.8226	1	35.786	-41.7357	5.61908E-006	-0.02557	10
	52	188	251.185	27.3967	-26.1872	1	37.8992	-43.707	5.59194E-006	-0.025572	10
	53	190	223.946	28.1167	-28.7449	1	40.2097	-45.633	5.64254E-006	-0.025562	10
	54	192	199.495	28.9078	-31.6129	1	42.8373	-47.5592	5.60308E-006	-0.025566	10
