EXPLAIN
TAG	EISPOT
TITLE	LABEL	Tomato_open	Test &Identifier
DATE	LABEL	5/16/2006	Date
TIME	LABEL	16:49:29	Time
NOTES	NOTES	1	&Notes...
	
PSTAT	PSTAT	300	Potentiostat
VDC	POTEN	1.00000E-003	T	DC &Voltage (V)
FREQINIT	QUANT	1.00000E+005	Initial Fre&q. (Hz)
FREQFINAL	QUANT	1.00000E+001	Final Fre&q. (Hz)
PTSPERDEC	QUANT	2.00000E+001	Points/&decade
VAC	QUANT	1.00000E+000	AC &Voltage (mV rms)
AREA	QUANT	1.00000E+000	&Area (cm²)
DENSITY	QUANT	7.87000E+000	&Density (gm/cm³)
EQUIV	QUANT	7.00000E+000	Equiv. &Wt
CONDIT	TWOPARAM	F	6.00000E+001	0.00000E+000	Conditionin&g	Time(s)	E(V)
DELAY	TWOPARAM	T	6.00000E+001	0.00000E+000	Init. De&lay	Time(s)	Stab.(mV/s)
SPEED	SELECTOR	1	&Optimize for:
ZGUESS	QUANT	1.00000E+002	E&stimated Z (ohms)
OCVCURVE	TABLE	232
	Pt	T	Vf	Vm	Ach	Over
	#	s	V vs. Ref.	V	V	bits
	0	0.258332	-6.32925E-002	-1.29457E-008	2.36600E-004	......
	1	0.516663	-6.32425E-002	-1.29457E-008	2.36600E-004	......
	2	0.774994	-6.31875E-002	-1.29457E-008	2.36600E-004	......
	3	1.03333	-6.31425E-002	-1.29457E-008	3.36600E-004	......
	4	1.29166	-6.30875E-002	-1.29457E-008	1.36600E-004	......
	5	1.54999	-6.30275E-002	-1.29457E-008	2.36600E-004	......
	6	1.80832	-6.29775E-002	-1.29457E-008	2.36600E-004	......
	7	2.06665	-6.29375E-002	-1.29457E-008	2.36600E-004	......
	8	2.32498	-6.28775E-002	-1.29457E-008	2.36600E-004	......
	9	2.58332	-6.28275E-002	-1.29457E-008	2.36600E-004	......
	10	2.84165	-6.27775E-002	-1.29457E-008	2.36600E-004	......
	11	3.09998	-6.27225E-002	-1.29457E-008	2.36600E-004	......
	12	3.35831	-6.26725E-002	-1.29457E-008	2.36600E-004	......
	13	3.61664	-6.26225E-002	-1.29457E-008	2.36600E-004	......
	14	3.87497	-6.25725E-002	-1.29457E-008	1.36600E-004	......
	15	4.1333	-6.25225E-002	-1.29457E-008	2.36600E-004	......
	16	4.39164	-6.24675E-002	-1.29457E-008	2.36600E-004	......
	17	4.64997	-6.24175E-002	-1.29457E-008	3.36600E-004	......
	18	4.9083	-6.23725E-002	-1.29457E-008	2.36600E-004	......
	19	5.16663	-6.23125E-002	-1.29457E-008	2.36600E-004	......
	20	5.42496	-6.22625E-002	-1.29457E-008	2.36600E-004	......
	21	5.68329	-6.22125E-002	-1.29457E-008	2.36600E-004	......
	22	5.94162	-6.21675E-002	-1.29457E-008	2.36600E-004	......
	23	6.19996	-6.21125E-002	-1.29457E-008	2.36600E-004	......
	24	6.45829	-6.20575E-002	-1.29457E-008	2.36600E-004	......
	25	6.71662	-6.20125E-002	-1.29457E-008	2.36600E-004	......
	26	6.97495	-6.19625E-002	-1.29457E-008	2.36600E-004	......
	27	7.23328	-6.19075E-002	-1.29457E-008	2.36600E-004	......
	28	7.49161	-6.18675E-002	-1.29457E-008	2.36600E-004	......
	29	7.74995	-6.18075E-002	-1.29457E-008	1.36600E-004	......
	30	8.00828	-6.17575E-002	-1.29457E-008	2.36600E-004	......
	31	8.26661	-6.17075E-002	-1.29457E-008	3.36600E-004	......
	32	8.52494	-6.16575E-002	-1.29457E-008	2.36600E-004	......
	33	8.78327	-6.16075E-002	-1.29457E-008	2.36600E-004	......
	34	9.0416	-6.15575E-002	-1.29457E-008	2.36600E-004	......
	35	9.29993	-6.15075E-002	-1.29457E-008	3.36600E-004	......
	36	9.5583	-6.14575E-002	-1.29457E-008	2.36600E-004	......
	37	9.8166	-6.14125E-002	-1.29457E-008	2.36600E-004	......
	38	10.0749	-6.13625E-002	-1.29457E-008	1.36600E-004	......
	39	10.3333	-6.13125E-002	-1.29457E-008	3.36600E-004	......
	40	10.5916	-6.12725E-002	-1.29457E-008	1.36600E-004	......
	41	10.8499	-6.12175E-002	-1.29457E-008	1.36600E-004	......
	42	11.1083	-6.11575E-002	-1.29457E-008	2.36600E-004	......
	43	11.3666	-6.10975E-002	-1.29457E-008	2.36600E-004	......
	44	11.6249	-6.10575E-002	-1.29457E-008	1.36600E-004	......
	45	11.8832	-6.10125E-002	-1.29457E-008	2.36600E-004	......
	46	12.1416	-6.09625E-002	-1.29457E-008	2.36600E-004	......
	47	12.3999	-6.09175E-002	-1.29457E-008	2.36600E-004	......
	48	12.6582	-6.08725E-002	-1.29457E-008	2.36600E-004	......
	49	12.9166	-6.08125E-002	-1.29457E-008	2.36600E-004	......
	50	13.1749	-6.07775E-002	-1.29457E-008	2.36600E-004	......
	51	13.4332	-6.07275E-002	-1.29457E-008	1.36600E-004	......
	52	13.6916	-6.06825E-002	-1.29457E-008	1.36600E-004	......
	53	13.9499	-6.06275E-002	-1.29457E-008	1.36600E-004	......
	54	14.2082	-6.05725E-002	-1.29457E-008	2.36600E-004	......
	55	14.4666	-6.05225E-002	-1.29457E-008	2.36600E-004	......
	56	14.7249	-6.04825E-002	-1.29457E-008	2.36600E-004	......
	57	14.9832	-6.04325E-002	-1.29457E-008	2.36600E-004	......
	58	15.2416	-6.03825E-002	-1.29457E-008	2.36600E-004	......
	59	15.4999	-6.03375E-002	-1.29457E-008	2.36600E-004	......
	60	15.7582	-6.02875E-002	-1.29457E-008	2.36600E-004	......
	61	16.0166	-6.02375E-002	-1.29457E-008	2.36600E-004	......
	62	16.2749	-6.01875E-002	-1.29457E-008	2.36600E-004	......
	63	16.5332	-6.01425E-002	-1.29457E-008	2.36600E-004	......
	64	16.7915	-6.00925E-002	-1.29457E-008	2.36600E-004	......
	65	17.0499	-6.00425E-002	-1.29457E-008	2.36600E-004	......
	66	17.3082	-5.99975E-002	-1.29457E-008	2.36600E-004	......
	67	17.5665	-5.99525E-002	-1.29457E-008	1.36600E-004	......
	68	17.8249	-5.98975E-002	-1.29457E-008	2.36600E-004	......
	69	18.0832	-5.98525E-002	-1.29457E-008	3.36600E-004	......
	70	18.3415	-5.98025E-002	-1.29457E-008	1.36600E-004	......
	71	18.5999	-5.97575E-002	-1.29457E-008	3.36600E-004	......
	72	18.8582	-5.97075E-002	-1.29457E-008	3.36600E-004	......
	73	19.1165	-5.96625E-002	-1.29457E-008	3.36600E-004	......
	74	19.3749	-5.96125E-002	-1.29457E-008	3.66000E-005	......
	75	19.6332	-5.95575E-002	-1.29457E-008	2.36600E-004	......
	76	19.8915	-5.95075E-002	-1.29457E-008	3.36600E-004	......
	77	20.1499	-5.94775E-002	-1.29457E-008	2.36600E-004	......
	78	20.4082	-5.94075E-002	-1.29457E-008	2.36600E-004	......
	79	20.6665	-5.93825E-002	-1.29457E-008	3.36600E-004	......
	80	20.9249	-5.93225E-002	-1.29457E-008	2.36600E-004	......
	81	21.1832	-5.92775E-002	-1.29457E-008	2.36600E-004	......
	82	21.4415	-5.92225E-002	-1.29457E-008	2.36600E-004	......
	83	21.6998	-5.91825E-002	-1.29457E-008	1.36600E-004	......
	84	21.9582	-5.91375E-002	-1.29457E-008	2.36600E-004	......
	85	22.2165	-5.90925E-002	-1.29457E-008	2.36600E-004	......
	86	22.4748	-5.90475E-002	-1.29457E-008	2.36600E-004	......
	87	22.7332	-5.89925E-002	-1.29457E-008	2.36600E-004	......
	88	22.9915	-5.89525E-002	-1.29457E-008	3.36600E-004	......
	89	23.2498	-5.89025E-002	-1.29457E-008	3.36600E-004	......
	90	23.5082	-5.88625E-002	-1.29457E-008	1.36600E-004	......
	91	23.7665	-5.88125E-002	-1.29457E-008	2.36600E-004	......
	92	24.0248	-5.87575E-002	-1.29457E-008	3.36600E-004	......
	93	24.2832	-5.87275E-002	-1.29457E-008	3.36600E-004	......
	94	24.5415	-5.86675E-002	-1.29457E-008	3.36600E-004	......
	95	24.7998	-5.86225E-002	-1.29457E-008	3.36600E-004	......
	96	25.0582	-5.85725E-002	-1.29457E-008	3.66000E-005	......
	97	25.3165	-5.85275E-002	-1.29457E-008	2.36600E-004	......
	98	25.5748	-5.84775E-002	-1.29457E-008	3.66000E-005	......
	99	25.8332	-5.84325E-002	-1.29457E-008	2.36600E-004	......
	100	26.0915	-5.83825E-002	-1.29457E-008	3.36600E-004	......
	101	26.3498	-5.83425E-002	-1.29457E-008	2.36600E-004	......
	102	26.6081	-5.82975E-002	-1.29457E-008	2.36600E-004	......
	103	26.8665	-5.82575E-002	-1.29457E-008	2.36600E-004	......
	104	27.1248	-5.81975E-002	-1.29457E-008	3.36600E-004	......
	105	27.3831	-5.81575E-002	-1.29457E-008	3.36600E-004	......
	106	27.6415	-5.81225E-002	-1.29457E-008	2.36600E-004	......
	107	27.8998	-5.80675E-002	-1.29457E-008	3.36600E-004	......
	108	28.1581	-5.80225E-002	-1.29457E-008	2.36600E-004	......
	109	28.4165	-5.79825E-002	-1.29457E-008	2.36600E-004	......
	110	28.6748	-5.79225E-002	-1.29457E-008	2.36600E-004	......
	111	28.9331	-5.78825E-002	-1.29457E-008	2.36600E-004	......
	112	29.1915	-5.78375E-002	-1.29457E-008	2.36600E-004	......
	113	29.4498	-5.77975E-002	-1.29457E-008	2.36600E-004	......
	114	29.7081	-5.77425E-002	-1.29457E-008	2.36600E-004	......
	115	29.9665	-5.77125E-002	-1.29457E-008	2.36600E-004	......
	116	30.2248	-5.76675E-002	-1.29457E-008	2.36600E-004	......
	117	30.4831	-5.76175E-002	-1.29457E-008	1.36600E-004	......
	118	30.7414	-5.75725E-002	-1.29457E-008	2.36600E-004	......
	119	30.9998	-5.75225E-002	-1.29457E-008	2.36600E-004	......
	120	31.2581	-5.74775E-002	-1.29457E-008	3.36600E-004	......
	121	31.5164	-5.74425E-002	-1.29457E-008	3.36600E-004	......
	122	31.7748	-5.73825E-002	-1.29457E-008	2.36600E-004	......
	123	32.0331	-5.73475E-002	-1.29457E-008	1.36600E-004	......
	124	32.2914	-5.72975E-002	-1.29457E-008	2.36600E-004	......
	125	32.5498	-5.72575E-002	-1.29457E-008	1.36600E-004	......
	126	32.8081	-5.72025E-002	-1.29457E-008	2.36600E-004	......
	127	33.0664	-5.71675E-002	-1.29457E-008	1.36600E-004	......
	128	33.3248	-5.71175E-002	-1.29457E-008	2.36600E-004	......
	129	33.5831	-5.70975E-002	-1.29457E-008	2.36600E-004	......
	130	33.8414	-5.70275E-002	-1.29457E-008	2.36600E-004	......
	131	34.0998	-5.69925E-002	-1.29457E-008	2.36600E-004	......
	132	34.3581	-5.69525E-002	-1.29457E-008	2.36600E-004	......
	133	34.6164	-5.69075E-002	-1.29457E-008	2.36600E-004	......
	134	34.8748	-5.68575E-002	-1.29457E-008	1.36600E-004	......
	135	35.1331	-5.68125E-002	-1.29457E-008	2.36600E-004	......
	136	35.3914	-5.67775E-002	-1.29457E-008	2.36600E-004	......
	137	35.6497	-5.67275E-002	-1.29457E-008	3.36600E-004	......
	138	35.9081	-5.66875E-002	-1.29457E-008	2.36600E-004	......
	139	36.1664	-5.66375E-002	-1.29457E-008	3.36600E-004	......
	140	36.4247	-5.65975E-002	-1.29457E-008	3.36600E-004	......
	141	36.6831	-5.65525E-002	-1.29457E-008	3.36600E-004	......
	142	36.9414	-5.65175E-002	-1.29457E-008	3.66000E-005	......
	143	37.1997	-5.64775E-002	-1.29457E-008	1.36600E-004	......
	144	37.4581	-5.64275E-002	-1.29457E-008	2.36600E-004	......
	145	37.7164	-5.63775E-002	-1.29457E-008	2.36600E-004	......
	146	37.9747	-5.63475E-002	-1.29457E-008	1.36600E-004	......
	147	38.2331	-5.62975E-002	-1.29457E-008	2.36600E-004	......
	148	38.4914	-5.62525E-002	-1.29457E-008	2.36600E-004	......
	149	38.7497	-5.62075E-002	-1.29457E-008	2.36600E-004	......
	150	39.0081	-5.61675E-002	-1.29457E-008	2.36600E-004	......
	151	39.2664	-5.61225E-002	-1.29457E-008	2.36600E-004	......
	152	39.5247	-5.60775E-002	-1.29457E-008	2.36600E-004	......
	153	39.7831	-5.60425E-002	-1.29457E-008	3.36600E-004	......
	154	40.0414	-5.59925E-002	-1.29457E-008	2.36600E-004	......
	155	40.2997	-5.59475E-002	-1.29457E-008	3.36600E-004	......
	156	40.558	-5.59125E-002	-1.29457E-008	2.36600E-004	......
	157	40.8164	-5.58725E-002	-1.29457E-008	2.36600E-004	......
	158	41.0747	-5.58325E-002	-1.29457E-008	1.36600E-004	......
	159	41.333	-5.57875E-002	-1.29457E-008	2.36600E-004	......
	160	41.5914	-5.57425E-002	-1.29457E-008	3.36600E-004	......
	161	41.8497	-5.57025E-002	-1.29457E-008	3.36600E-004	......
	162	42.108	-5.56575E-002	-1.29457E-008	2.36600E-004	......
	163	42.3664	-5.56125E-002	-1.29457E-008	2.36600E-004	......
	164	42.6247	-5.55725E-002	-1.29457E-008	2.36600E-004	......
	165	42.883	-5.55325E-002	-1.29457E-008	2.36600E-004	......
	166	43.1414	-5.54875E-002	-1.29457E-008	2.36600E-004	......
	167	43.3997	-5.54525E-002	-1.29457E-008	2.36600E-004	......
	168	43.658	-5.54075E-002	-1.29457E-008	1.36600E-004	......
	169	43.9164	-5.53625E-002	-1.29457E-008	3.36600E-004	......
	170	44.1747	-5.53075E-002	-1.29457E-008	3.36600E-004	......
	171	44.433	-5.52675E-002	-1.29457E-008	2.36600E-004	......
	172	44.6913	-5.52375E-002	-1.29457E-008	3.66000E-005	......
	173	44.9497	-5.51925E-002	-1.29457E-008	3.36600E-004	......
	174	45.208	-5.51425E-002	-1.29457E-008	2.36600E-004	......
	175	45.4663	-5.51075E-002	-1.29457E-008	3.36600E-004	......
	176	45.7247	-5.50725E-002	-1.29457E-008	2.36600E-004	......
	177	45.983	-5.50275E-002	-1.29457E-008	2.36600E-004	......
	178	46.2413	-5.49775E-002	-1.29457E-008	2.36600E-004	......
	179	46.4997	-5.49375E-002	-1.29457E-008	3.36600E-004	......
	180	46.758	-5.49025E-002	-1.29457E-008	1.36600E-004	......
	181	47.0163	-5.48575E-002	-1.29457E-008	3.36600E-004	......
	182	47.2747	-5.48175E-002	-1.29457E-008	2.36600E-004	......
	183	47.533	-5.47775E-002	-1.29457E-008	3.36600E-004	......
	184	47.7913	-5.47425E-002	-1.29457E-008	2.36600E-004	......
	185	48.0497	-5.47025E-002	-1.29457E-008	2.36600E-004	......
	186	48.308	-5.46525E-002	-1.29457E-008	2.36600E-004	......
	187	48.5663	-5.46125E-002	-1.29457E-008	3.36600E-004	......
	188	48.8247	-5.45875E-002	-1.29457E-008	3.36600E-004	......
	189	49.083	-5.45375E-002	-1.29457E-008	3.36600E-004	......
	190	49.3413	-5.44875E-002	-1.29457E-008	2.36600E-004	......
	191	49.5996	-5.44575E-002	-1.29457E-008	3.36600E-004	......
	192	49.858	-5.44175E-002	-1.29457E-008	2.36600E-004	......
	193	50.1163	-5.43725E-002	-1.29457E-008	3.36600E-004	......
	194	50.3746	-5.43325E-002	-1.29457E-008	2.36600E-004	......
	195	50.633	-5.42925E-002	-1.29457E-008	3.36600E-004	......
	196	50.8913	-5.42475E-002	-1.29457E-008	2.36600E-004	......
	197	51.1496	-5.42125E-002	-1.29457E-008	3.36600E-004	......
	198	51.408	-5.41725E-002	-1.29457E-008	2.36600E-004	......
	199	51.6663	-5.41325E-002	-1.29457E-008	1.36600E-004	......
	200	51.9246	-5.41025E-002	-1.29457E-008	1.36600E-004	......
	201	52.183	-5.40625E-002	-1.29457E-008	3.36600E-004	......
	202	52.4413	-5.40175E-002	-1.29457E-008	1.36600E-004	......
	203	52.6996	-5.39775E-002	-1.29457E-008	1.36600E-004	......
	204	52.958	-5.39425E-002	-1.29457E-008	3.36600E-004	......
	205	53.2163	-5.38975E-002	-1.29457E-008	2.36600E-004	......
	206	53.4746	-5.38475E-002	-1.29457E-008	2.36600E-004	......
	207	53.733	-5.38025E-002	-1.29457E-008	2.36600E-004	......
	208	53.9913	-5.37675E-002	-1.29457E-008	2.36600E-004	......
	209	54.2496	-5.37325E-002	-1.29457E-008	3.36600E-004	......
	210	54.5079	-5.36925E-002	-1.29457E-008	2.36600E-004	......
	211	54.7663	-5.36675E-002	-1.29457E-008	2.36600E-004	......
	212	55.0246	-5.36225E-002	-1.29457E-008	2.36600E-004	......
	213	55.2829	-5.35775E-002	-1.29457E-008	2.36600E-004	......
	214	55.5413	-5.35425E-002	-1.29457E-008	2.36600E-004	......
	215	55.7996	-5.35075E-002	-1.29457E-008	3.36600E-004	......
	216	56.0579	-5.34575E-002	-1.29457E-008	2.36600E-004	......
	217	56.3163	-5.34225E-002	-1.29457E-008	1.36600E-004	......
	218	56.5746	-5.33775E-002	-1.29457E-008	2.36600E-004	......
	219	56.8329	-5.33425E-002	-1.29457E-008	2.36600E-004	......
	220	57.0913	-5.33025E-002	-1.29457E-008	2.36600E-004	......
	221	57.3496	-5.32675E-002	-1.29457E-008	3.36600E-004	......
	222	57.6079	-5.32175E-002	-1.29457E-008	2.36600E-004	......
	223	57.8663	-5.31825E-002	-1.29457E-008	2.36600E-004	......
	224	58.1246	-5.31425E-002	-1.29457E-008	2.36600E-004	......
	225	58.3829	-5.31075E-002	-1.29457E-008	2.36600E-004	......
	226	58.6413	-5.30675E-002	-1.29457E-008	2.36600E-004	......
	227	58.8996	-5.30375E-002	-1.29457E-008	2.36600E-004	......
	228	59.1579	-5.29875E-002	-1.29457E-008	2.36600E-004	......
	229	59.4162	-5.29575E-002	-1.29457E-008	3.36600E-004	......
	230	59.6746	-5.29075E-002	-1.29457E-008	2.36600E-004	......
	231	59.9329	-5.28775E-002	-1.29457E-008	2.36600E-004	......
EOC	QUANT	-0.052878	Open Circuit (V)
PSTATMODEL	IQUANT	32	Pstat Model
PSTATSECTION	LABEL	PStat0	Pstat Section
CTRLMODE	IQUANT	1	Control Mode
IESTAB	IQUANT	0	I/E Stability
CASPEED	IQUANT	1	Control Amp Speed
CONVENTION	IQUANT	1	Current Convention
ICHRANGE	IQUANT	2	Ich Range
ICHRANGEMODE	TOGGLE	F	Ich Auto Range
ICHOFFSETENABLE	TOGGLE	T	Ich Offset Enable
ICHOFFSET	QUANT	0	Ich Offset (V)
ICHFILTER	IQUANT	3	Ich Filter
VCHRANGE	IQUANT	2	Vch Range
VCHRANGEMODE	TOGGLE	F	Vch Auto Range
VCHOFFSETENABLE	TOGGLE	T	Vch Offset Enable
VCHOFFSET	QUANT	0	Vch Offset (V)
VCHFILTER	IQUANT	3	Vch Filter
ACHRANGE	IQUANT	0	Ach Range
IERANGELOWERLIMIT	IQUANT	3	I/E Range Lower Limit
IERANGEMODE	TOGGLE	F	I/E AutoRange
IERANGE	IQUANT	11	I/E Range
POSFEEDENABLE	TOGGLE	F	Positive Feedback IR Comp
POSFEEDRESISTANCE	QUANT	0	Positive Feedback Resistance (ohm)
FC350IDIVISOR	IQUANT	0	FC350 I Divisor
FC350VRANGE	IQUANT	0	FC350 V Range
FRAMEWORKVERSION	QUANT	4.35	Framework Version
ZCURVE	TABLE
	Pt	Time	Freq	Zreal	Zimag	Zsig	Zmod	Zphz	Idc	Vdc	IERange
	#	s	Hz	ohm	ohm	V	ohm	°	A	V	#
	0	6	100007	269.552	3.10087	1	269.57	0.659089	1.14262E-006	-0.051836	9
	1	10	89134.1	268.804	0.766184	1	268.805	0.163312	1.07454E-006	-0.051833	9
	2	14	79433.6	266.423	-2.43836	1	266.434	-0.52437	9.11775E-007	-0.051801	9
	3	16	70800.8	267.271	-1.11145	1	267.273	-0.238263	1.04909E-006	-0.051793	9
	4	20	63105.5	266.542	0.833481	1	266.544	0.179164	1.03031E-006	-0.051833	9
	5	25	56243.5	265.361	1.50817	1	265.366	0.325635	1.06332E-006	-0.051798	9
	6	27	50123.7	266.631	0.246332	1	266.631	0.052934	1.01591E-006	-0.051836	9
	7	31	44681	265.597	-0.69211	1	265.598	-0.149305	9.03939E-007	-0.051788	9
	8	35	39811.2	264.795	0.423877	1	264.795	0.091718	8.46498E-007	-0.051803	9
	9	39	35488.3	265.23	-0.825378	1	265.232	-0.1783	1.00873E-006	-0.051836	9
	10	43	31634.1	264.777	-1.14112	1	264.78	-0.246927	1.01646E-006	-0.051824	9
	11	45	28173.1	264.647	-0.840682	1	264.649	-0.182006	9.2716E-007	-0.051811	9
	12	49	25123.7	266.393	-1.24561	1	266.396	-0.267903	1.01698E-006	-0.051808	9
	13	53	22389.3	266.647	-1.48048	1	266.651	-0.318114	9.77709E-007	-0.05179	9
	14	58	19954.4	264.833	-1.92831	1	264.84	-0.417176	9.75266E-007	-0.051833	9
	15	62	17778.2	265.818	-3.15648	1	265.837	-0.680332	9.12138E-007	-0.051809	9
	16	66	15852.9	265.244	-0.37251	1	265.244	-0.080467	8.15412E-007	-0.051795	9
	17	68	14122.3	263.853	-2.00189	1	263.861	-0.434702	9.18437E-007	-0.051813	9
	18	72	12587.2	264.923	-2.0326	1	264.931	-0.439589	9.18122E-007	-0.051806	9
	19	76	11221.1	267.079	-1.13817	1	267.081	-0.244168	9.01801E-007	-0.051808	9
	20	80	9998.2	264.338	-2.37794	1	264.349	-0.515409	8.80133E-007	-0.051802	9
	21	84	8912.76	266.589	-2.99282	1	266.606	-0.643194	8.06836E-007	-0.0518	9
	22	87	7942.6	264.626	-1.11527	1	264.628	-0.241473	8.67662E-007	-0.051813	9
	23	91	7078.05	265.541	-3.15848	1	265.56	-0.681474	8.99787E-007	-0.051802	9
	24	95	6311.1	265.939	-3.45564	1	265.961	-0.744467	9.07479E-007	-0.051797	9
	25	99	5622.14	265.444	-2.91013	1	265.46	-0.628123	8.69199E-007	-0.051796	9
	26	103	5011.18	267.355	-5.47947	1	267.411	-1.17412	8.59117E-007	-0.051795	9
	27	107	4465.21	267.428	-3.13518	1	267.446	-0.671675	8.85958E-007	-0.051785	9
	28	109	3980.93	265.548	-4.25534	1	265.582	-0.918073	9.16206E-007	-0.05178	9
	29	113	3548.18	265.788	-5.11246	1	265.838	-1.10195	9.26646E-007	-0.051819	9
	30	117	3162.67	267.017	-3.89509	1	267.046	-0.835738	7.48054E-007	-0.051795	9
	31	122	2819.01	268.605	-3.91758	1	268.634	-0.835594	8.42894E-007	-0.051775	9
	32	126	2511.16	268.53	-3.89461	1	268.559	-0.830927	8.55633E-007	-0.051804	9
	33	130	2238.63	267.531	-5.1587	1	267.581	-1.10468	8.85678E-007	-0.051798	9
	34	132	1995.37	266.658	-4.40056	1	266.695	-0.945443	8.80749E-007	-0.051804	9
	35	136	1778.51	269.835	-4.43407	1	269.871	-0.941431	8.7343E-007	-0.051803	9
	36	140	1584.49	269.435	-7.17655	1	269.531	-1.52574	8.60726E-007	-0.051802	9
	37	144	1412.76	267.864	-9.6917	1	268.04	-2.07214	9.46705E-007	-0.051799	9
	38	148	1259.04	269.827	-6.71243	1	269.91	-1.42504	8.63729E-007	-0.051791	9
	39	151	1121.63	269.878	-9.5532	1	270.047	-2.02733	8.69584E-007	-0.051792	9
	40	155	999.95	269.721	-10.3032	1	269.918	-2.1876	8.62187E-007	-0.051793	9
	41	159	891.184	269.911	-10.8156	1	270.127	-2.29467	8.41573E-007	-0.051796	9
	42	163	794.163	270.904	-8.6808	1	271.043	-1.83535	8.3937E-007	-0.051794	9
	43	167	707.867	271.777	-13.287	1	272.101	-2.79893	9.0217E-007	-0.051779	9
	44	171	630.984	270.539	-13.989	1	270.901	-2.96	8.39432E-007	-0.051794	9
	45	173	562.189	270.021	-15.1523	1	270.446	-3.21179	7.29377E-007	-0.051787	9
	46	178	501.303	271.926	-17.8285	1	272.51	-3.75116	9.27372E-007	-0.051787	9
	47	180	446.614	272.346	-19.4602	1	273.04	-4.08708	8.17382E-007	-0.051797	9
	48	181	398.209	272.955	-21.1943	1	273.776	-4.43998	8.4841E-007	-0.051796	9
	49	183	354.821	273.535	-23.2692	1	274.523	-4.86234	8.84698E-007	-0.051785	9
	50	185	316.113	274.397	-25.5352	1	275.582	-5.3166	8.89426E-007	-0.051791	9
	51	187	281.926	274.924	-27.9721	1	276.343	-5.80955	8.26544E-007	-0.051793	9
	52	189	251.185	275.72	-30.824	1	277.437	-6.37888	8.23023E-007	-0.051789	9
	53	191	223.946	276.741	-33.6764	1	278.782	-6.93817	8.72096E-007	-0.051783	9
