EXPLAIN
TAG	EISPOT
TITLE	LABEL	Tomato_open	Test &Identifier
DATE	LABEL	5/16/2006	Date
TIME	LABEL	16:14:53	Time
NOTES	NOTES	1	&Notes...
	
PSTAT	PSTAT	300	Potentiostat
VDC	POTEN	1.00000E-003	T	DC &Voltage (V)
FREQINIT	QUANT	1.00000E+005	Initial Fre&q. (Hz)
FREQFINAL	QUANT	1.00000E+001	Final Fre&q. (Hz)
PTSPERDEC	QUANT	2.00000E+001	Points/&decade
VAC	QUANT	1.00000E+000	AC &Voltage (mV rms)
AREA	QUANT	1.00000E+000	&Area (cm²)
DENSITY	QUANT	7.87000E+000	&Density (gm/cm³)
EQUIV	QUANT	7.00000E+000	Equiv. &Wt
CONDIT	TWOPARAM	F	6.00000E+001	0.00000E+000	Conditionin&g	Time(s)	E(V)
DELAY	TWOPARAM	T	6.00000E+001	0.00000E+000	Init. De&lay	Time(s)	Stab.(mV/s)
SPEED	SELECTOR	1	&Optimize for:
ZGUESS	QUANT	1.00000E+002	E&stimated Z (ohms)
OCVCURVE	TABLE	232
	Pt	T	Vf	Vm	Ach	Over
	#	s	V vs. Ref.	V	V	bits
	0	0.258332	-1.82178E-002	3.13243E-006	3.66000E-005	......
	1	0.516663	-1.83273E-002	3.13243E-006	-6.34000E-005	......
	2	0.774994	-1.84403E-002	3.13243E-006	3.66000E-005	......
	3	1.03333	-1.85558E-002	3.13243E-006	-6.34000E-005	......
	4	1.29166	-1.86633E-002	3.13243E-006	1.36600E-004	......
	5	1.54999	-1.87698E-002	3.13243E-006	-1.63400E-004	......
	6	1.80832	-1.88748E-002	3.13243E-006	2.36600E-004	......
	7	2.06665	-1.89873E-002	3.13243E-006	-6.34000E-005	......
	8	2.32498	-1.90953E-002	3.13243E-006	3.66000E-005	......
	9	2.58332	-1.92063E-002	3.13243E-006	-6.34000E-005	......
	10	2.84165	-1.93108E-002	3.13243E-006	1.36600E-004	......
	11	3.09998	-1.94208E-002	3.13243E-006	-6.34000E-005	......
	12	3.35831	-1.95258E-002	3.13243E-006	3.66000E-005	......
	13	3.61664	-1.96373E-002	3.13243E-006	-1.63400E-004	......
	14	3.87497	-1.97328E-002	3.13243E-006	3.66000E-005	......
	15	4.1333	-1.98378E-002	3.13243E-006	-1.63400E-004	......
	16	4.39164	-1.99483E-002	3.13243E-006	3.66000E-005	......
	17	4.64997	-2.00508E-002	3.13243E-006	-1.63400E-004	......
	18	4.9083	-2.01508E-002	3.13243E-006	3.66000E-005	......
	19	5.16663	-2.02523E-002	3.13243E-006	-6.34000E-005	......
	20	5.42496	-2.03493E-002	3.13243E-006	3.66000E-005	......
	21	5.68329	-2.04548E-002	3.13243E-006	-6.34000E-005	......
	22	5.94162	-2.05478E-002	3.13243E-006	2.36600E-004	......
	23	6.19996	-2.06488E-002	3.13243E-006	-1.63400E-004	......
	24	6.45829	-2.07588E-002	3.13243E-006	1.36600E-004	......
	25	6.71662	-2.08588E-002	3.13243E-006	-6.34000E-005	......
	26	6.97495	-2.09423E-002	3.13243E-006	3.66000E-005	......
	27	7.23328	-2.10433E-002	3.13243E-006	-6.34000E-005	......
	28	7.49161	-2.11403E-002	3.13243E-006	3.66000E-005	......
	29	7.74995	-2.12428E-002	3.13243E-006	-6.34000E-005	......
	30	8.00828	-2.13373E-002	3.13243E-006	3.66000E-005	......
	31	8.26661	-2.14318E-002	3.13243E-006	-1.63400E-004	......
	32	8.52494	-2.15333E-002	3.13243E-006	2.36600E-004	......
	33	8.78327	-2.16218E-002	3.13243E-006	-1.63400E-004	......
	34	9.0416	-2.17113E-002	3.13243E-006	3.66000E-005	......
	35	9.29993	-2.18098E-002	3.13243E-006	-1.63400E-004	......
	36	9.5583	-2.18943E-002	3.13243E-006	1.36600E-004	......
	37	9.8166	-2.19898E-002	3.13243E-006	-1.63400E-004	......
	38	10.0749	-2.20938E-002	3.13243E-006	1.36600E-004	......
	39	10.3333	-2.21773E-002	3.13243E-006	-1.63400E-004	......
	40	10.5916	-2.22613E-002	3.13243E-006	3.66000E-005	......
	41	10.8499	-2.23578E-002	3.13243E-006	-6.34000E-005	......
	42	11.1083	-2.24483E-002	3.13243E-006	1.36600E-004	......
	43	11.3666	-2.25358E-002	3.13243E-006	-1.63400E-004	......
	44	11.6249	-2.26198E-002	3.13243E-006	3.66000E-005	......
	45	11.8832	-2.27128E-002	3.13243E-006	-6.34000E-005	......
	46	12.1416	-2.28133E-002	3.13243E-006	3.66000E-005	......
	47	12.3999	-2.28793E-002	3.13243E-006	3.66000E-005	......
	48	12.6582	-2.29783E-002	3.13243E-006	3.66000E-005	......
	49	12.9166	-2.30553E-002	3.13243E-006	-1.63400E-004	......
	50	13.1749	-2.31473E-002	3.13243E-006	2.36600E-004	......
	51	13.4332	-2.32348E-002	3.13243E-006	-1.63400E-004	......
	52	13.6916	-2.33168E-002	3.13243E-006	3.66000E-005	......
	53	13.9499	-2.34003E-002	3.13243E-006	-1.63400E-004	......
	54	14.2082	-2.34773E-002	3.13243E-006	1.36600E-004	......
	55	14.4666	-2.35668E-002	3.13243E-006	-1.63400E-004	......
	56	14.7249	-2.36493E-002	3.13243E-006	2.36600E-004	......
	57	14.9832	-2.37343E-002	3.13243E-006	-6.34000E-005	......
	58	15.2416	-2.38138E-002	3.13243E-006	3.66000E-005	......
	59	15.4999	-2.38973E-002	3.13243E-006	-1.63400E-004	......
	60	15.7582	-2.39798E-002	3.13243E-006	2.36600E-004	......
	61	16.0166	-2.40473E-002	3.13243E-006	-1.63400E-004	......
	62	16.2749	-2.41328E-002	3.13243E-006	3.66000E-005	......
	63	16.5332	-2.42143E-002	3.13243E-006	-1.63400E-004	......
	64	16.7915	-2.42968E-002	3.13243E-006	3.66000E-005	......
	65	17.0499	-2.43688E-002	3.13243E-006	-1.63400E-004	......
	66	17.3082	-2.44483E-002	3.13243E-006	1.36600E-004	......
	67	17.5665	-2.45253E-002	3.13243E-006	-6.34000E-005	......
	68	17.8249	-2.45873E-002	3.13243E-006	3.66000E-005	......
	69	18.0832	-2.46668E-002	3.13243E-006	-1.63400E-004	......
	70	18.3415	-2.47388E-002	3.13243E-006	3.36600E-004	......
	71	18.5999	-2.48143E-002	3.13243E-006	-6.34000E-005	......
	72	18.8582	-2.48958E-002	3.13243E-006	3.66000E-005	......
	73	19.1165	-2.49588E-002	3.13243E-006	-1.63400E-004	......
	74	19.3749	-2.50348E-002	3.13243E-006	3.66000E-005	......
	75	19.6332	-2.51103E-002	3.13243E-006	-6.34000E-005	......
	76	19.8915	-2.51803E-002	3.13243E-006	3.66000E-005	......
	77	20.1499	-2.52598E-002	3.13243E-006	-6.34000E-005	......
	78	20.4082	-2.53263E-002	3.13243E-006	3.66000E-005	......
	79	20.6665	-2.54038E-002	3.13243E-006	-6.34000E-005	......
	80	20.9249	-2.54813E-002	3.13243E-006	1.36600E-004	......
	81	21.1832	-2.55493E-002	3.13243E-006	-6.34000E-005	......
	82	21.4415	-2.56198E-002	3.13243E-006	2.36600E-004	......
	83	21.6998	-2.56878E-002	3.13243E-006	-6.34000E-005	......
	84	21.9582	-2.57608E-002	3.13243E-006	2.36600E-004	......
	85	22.2165	-2.58233E-002	3.13243E-006	-1.63400E-004	......
	86	22.4748	-2.58953E-002	3.13243E-006	3.66000E-005	......
	87	22.7332	-2.59618E-002	3.13243E-006	-1.63400E-004	......
	88	22.9915	-2.60333E-002	3.13243E-006	3.66000E-005	......
	89	23.2498	-2.60953E-002	3.13243E-006	-2.63400E-004	......
	90	23.5082	-2.61643E-002	3.13243E-006	3.66000E-005	......
	91	23.7665	-2.62253E-002	3.13243E-006	-1.63400E-004	......
	92	24.0248	-2.63068E-002	3.13243E-006	1.36600E-004	......
	93	24.2832	-2.63658E-002	3.13243E-006	3.66000E-005	......
	94	24.5415	-2.64378E-002	3.13243E-006	3.66000E-005	......
	95	24.7998	-2.65013E-002	3.13243E-006	-1.63400E-004	......
	96	25.0582	-2.65688E-002	3.13243E-006	3.66000E-005	......
	97	25.3165	-2.66308E-002	3.13243E-006	-1.63400E-004	......
	98	25.5748	-2.67038E-002	3.13243E-006	3.66000E-005	......
	99	25.8332	-2.67633E-002	3.13243E-006	-1.63400E-004	......
	100	26.0915	-2.68318E-002	3.13243E-006	3.66000E-005	......
	101	26.3498	-2.69018E-002	3.13243E-006	3.66000E-005	......
	102	26.6081	-2.69648E-002	3.13243E-006	3.66000E-005	......
	103	26.8665	-2.70278E-002	3.13243E-006	-1.63400E-004	......
	104	27.1248	-2.71125E-002	3.13243E-006	-6.34000E-005	......
	105	27.3831	-2.71775E-002	3.13243E-006	-2.63400E-004	......
	106	27.6415	-2.72375E-002	3.13243E-006	3.66000E-005	......
	107	27.8998	-2.72925E-002	3.13243E-006	-6.34000E-005	......
	108	28.1581	-2.73675E-002	3.13243E-006	3.66000E-005	......
	109	28.4165	-2.74225E-002	3.13243E-006	-6.34000E-005	......
	110	28.6748	-2.74875E-002	3.13243E-006	3.66000E-005	......
	111	28.9331	-2.75425E-002	3.13243E-006	-1.63400E-004	......
	112	29.1915	-2.76075E-002	3.13243E-006	-6.34000E-005	......
	113	29.4498	-2.76675E-002	3.13243E-006	-1.63400E-004	......
	114	29.7081	-2.77375E-002	3.13243E-006	1.36600E-004	......
	115	29.9665	-2.77825E-002	3.13243E-006	-1.63400E-004	......
	116	30.2248	-2.78575E-002	3.13243E-006	2.36600E-004	......
	117	30.4831	-2.79025E-002	3.13243E-006	-6.34000E-005	......
	118	30.7414	-2.79825E-002	3.13243E-006	3.66000E-005	......
	119	30.9998	-2.80375E-002	3.13243E-006	-1.63400E-004	......
	120	31.2581	-2.80925E-002	3.13243E-006	3.66000E-005	......
	121	31.5164	-2.81575E-002	3.13243E-006	-6.34000E-005	......
	122	31.7748	-2.82175E-002	3.13243E-006	3.66000E-005	......
	123	32.0331	-2.82825E-002	3.13243E-006	-1.63400E-004	......
	124	32.2914	-2.83275E-002	3.13243E-006	3.66000E-005	......
	125	32.5498	-2.84025E-002	3.13243E-006	-6.34000E-005	......
	126	32.8081	-2.84575E-002	3.13243E-006	3.66000E-005	......
	127	33.0664	-2.85125E-002	3.13243E-006	-6.34000E-005	......
	128	33.3248	-2.85725E-002	3.13243E-006	3.66000E-005	......
	129	33.5831	-2.86325E-002	3.13243E-006	-1.63400E-004	......
	130	33.8414	-2.86875E-002	3.13243E-006	3.66000E-005	......
	131	34.0998	-2.87475E-002	3.13243E-006	-1.63400E-004	......
	132	34.3581	-2.87925E-002	3.13243E-006	1.36600E-004	......
	133	34.6164	-2.88525E-002	3.13243E-006	-1.63400E-004	......
	134	34.8748	-2.89075E-002	3.13243E-006	1.36600E-004	......
	135	35.1331	-2.89725E-002	3.13243E-006	-1.63400E-004	......
	136	35.3914	-2.90175E-002	3.13243E-006	-6.34000E-005	......
	137	35.6497	-2.90775E-002	3.13243E-006	-6.34000E-005	......
	138	35.9081	-2.91325E-002	3.13243E-006	1.36600E-004	......
	139	36.1664	-2.91825E-002	3.13243E-006	-1.63400E-004	......
	140	36.4247	-2.92325E-002	3.13243E-006	3.66000E-005	......
	141	36.6831	-2.92975E-002	3.13243E-006	-1.63400E-004	......
	142	36.9414	-2.93575E-002	3.13243E-006	2.36600E-004	......
	143	37.1997	-2.94025E-002	3.13243E-006	-1.63400E-004	......
	144	37.4581	-2.94575E-002	3.13243E-006	3.66000E-005	......
	145	37.7164	-2.95125E-002	3.13243E-006	-1.63400E-004	......
	146	37.9747	-2.95675E-002	3.13243E-006	1.36600E-004	......
	147	38.2331	-2.96025E-002	3.13243E-006	-6.34000E-005	......
	148	38.4914	-2.96775E-002	3.13243E-006	1.36600E-004	......
	149	38.7497	-2.97225E-002	3.13243E-006	-6.34000E-005	......
	150	39.0081	-2.97775E-002	3.13243E-006	2.36600E-004	......
	151	39.2664	-2.98225E-002	3.13243E-006	-6.34000E-005	......
	152	39.5247	-2.98775E-002	3.13243E-006	2.36600E-004	......
	153	39.7831	-2.99325E-002	3.13243E-006	-6.34000E-005	......
	154	40.0414	-2.99825E-002	3.13243E-006	1.36600E-004	......
	155	40.2997	-3.00325E-002	3.13243E-006	3.66000E-005	......
	156	40.558	-3.00775E-002	3.13243E-006	1.36600E-004	......
	157	40.8164	-3.01325E-002	3.13243E-006	-6.34000E-005	......
	158	41.0747	-3.01725E-002	3.13243E-006	3.66000E-005	......
	159	41.333	-3.02375E-002	3.13243E-006	-6.34000E-005	......
	160	41.5914	-3.02775E-002	3.13243E-006	3.66000E-005	......
	161	41.8497	-3.03225E-002	3.13243E-006	-6.34000E-005	......
	162	42.108	-3.03725E-002	3.13243E-006	2.36600E-004	......
	163	42.3664	-3.04325E-002	3.13243E-006	3.66000E-005	......
	164	42.6247	-3.04775E-002	3.13243E-006	1.36600E-004	......
	165	42.883	-3.05325E-002	3.13243E-006	-6.34000E-005	......
	166	43.1414	-3.05775E-002	3.13243E-006	1.36600E-004	......
	167	43.3997	-3.06275E-002	3.13243E-006	3.66000E-005	......
	168	43.658	-3.06825E-002	3.13243E-006	2.36600E-004	......
	169	43.9164	-3.07125E-002	3.13243E-006	-6.34000E-005	......
	170	44.1747	-3.07625E-002	3.13243E-006	2.36600E-004	......
	171	44.433	-3.08175E-002	3.13243E-006	3.66000E-005	......
	172	44.6913	-3.08575E-002	3.13243E-006	1.36600E-004	......
	173	44.9497	-3.09075E-002	3.13243E-006	-6.34000E-005	......
	174	45.208	-3.09575E-002	3.13243E-006	3.66000E-005	......
	175	45.4663	-3.10125E-002	3.13243E-006	-1.63400E-004	......
	176	45.7247	-3.10525E-002	3.13243E-006	1.36600E-004	......
	177	45.983	-3.10975E-002	3.13243E-006	-6.34000E-005	......
	178	46.2413	-3.11425E-002	3.13243E-006	1.36600E-004	......
	179	46.4997	-3.11925E-002	3.13243E-006	-1.63400E-004	......
	180	46.758	-3.12325E-002	3.13243E-006	3.66000E-005	......
	181	47.0163	-3.12725E-002	3.13243E-006	-1.63400E-004	......
	182	47.2747	-3.13325E-002	3.13243E-006	2.36600E-004	......
	183	47.533	-3.13775E-002	3.13243E-006	-1.63400E-004	......
	184	47.7913	-3.14225E-002	3.13243E-006	1.36600E-004	......
	185	48.0497	-3.14625E-002	3.13243E-006	-6.34000E-005	......
	186	48.308	-3.15175E-002	3.13243E-006	3.66000E-005	......
	187	48.5663	-3.15575E-002	3.13243E-006	-6.34000E-005	......
	188	48.8247	-3.15975E-002	3.13243E-006	3.66000E-005	......
	189	49.083	-3.16425E-002	3.13243E-006	3.66000E-005	......
	190	49.3413	-3.16875E-002	3.13243E-006	3.66000E-005	......
	191	49.5996	-3.17375E-002	3.13243E-006	-6.34000E-005	......
	192	49.858	-3.17825E-002	3.13243E-006	3.66000E-005	......
	193	50.1163	-3.18225E-002	3.13243E-006	-6.34000E-005	......
	194	50.3746	-3.18625E-002	3.13243E-006	2.36600E-004	......
	195	50.633	-3.19025E-002	3.13243E-006	-6.34000E-005	......
	196	50.8913	-3.19425E-002	3.13243E-006	2.36600E-004	......
	197	51.1496	-3.19925E-002	3.13243E-006	-1.63400E-004	......
	198	51.408	-3.20425E-002	3.13243E-006	3.66000E-005	......
	199	51.6663	-3.20825E-002	3.13243E-006	-6.34000E-005	......
	200	51.9246	-3.21275E-002	3.13243E-006	3.66000E-005	......
	201	52.183	-3.21725E-002	3.13243E-006	-6.34000E-005	......
	202	52.4413	-3.22075E-002	3.13243E-006	3.66000E-005	......
	203	52.6996	-3.22575E-002	3.13243E-006	-1.63400E-004	......
	204	52.958	-3.22875E-002	3.13243E-006	3.66000E-005	......
	205	53.2163	-3.23425E-002	3.13243E-006	-6.34000E-005	......
	206	53.4746	-3.23775E-002	3.13243E-006	3.66000E-005	......
	207	53.733	-3.24225E-002	3.13243E-006	-1.63400E-004	......
	208	53.9913	-3.24625E-002	3.13243E-006	3.66000E-005	......
	209	54.2496	-3.25075E-002	3.13243E-006	-1.63400E-004	......
	210	54.5079	-3.25575E-002	3.13243E-006	3.66000E-005	......
	211	54.7663	-3.25975E-002	3.13243E-006	-1.63400E-004	......
	212	55.0246	-3.26325E-002	3.13243E-006	2.36600E-004	......
	213	55.2829	-3.26725E-002	3.13243E-006	-6.34000E-005	......
	214	55.5413	-3.27175E-002	3.13243E-006	3.66000E-005	......
	215	55.7996	-3.27525E-002	3.13243E-006	-1.63400E-004	......
	216	56.0579	-3.28075E-002	3.13243E-006	2.36600E-004	......
	217	56.3163	-3.28375E-002	3.13243E-006	-1.63400E-004	......
	218	56.5746	-3.28875E-002	3.13243E-006	3.66000E-005	......
	219	56.8329	-3.29275E-002	3.13243E-006	-6.34000E-005	......
	220	57.0913	-3.29725E-002	3.13243E-006	3.66000E-005	......
	221	57.3496	-3.30075E-002	3.13243E-006	-6.34000E-005	......
	222	57.6079	-3.30475E-002	3.13243E-006	1.36600E-004	......
	223	57.8663	-3.30925E-002	3.13243E-006	-1.63400E-004	......
	224	58.1246	-3.31275E-002	3.13243E-006	3.66000E-005	......
	225	58.3829	-3.31725E-002	3.13243E-006	-6.34000E-005	......
	226	58.6413	-3.32125E-002	3.13243E-006	3.66000E-005	......
	227	58.8996	-3.32425E-002	3.13243E-006	-6.34000E-005	......
	228	59.1579	-3.32825E-002	3.13243E-006	3.66000E-005	......
	229	59.4162	-3.33325E-002	3.13243E-006	-6.34000E-005	......
	230	59.6746	-3.33675E-002	3.13243E-006	3.66000E-005	......
	231	59.9329	-3.34175E-002	3.13243E-006	3.66000E-005	......
EOC	QUANT	-0.033418	Open Circuit (V)
PSTATMODEL	IQUANT	32	Pstat Model
PSTATSECTION	LABEL	PStat0	Pstat Section
CTRLMODE	IQUANT	1	Control Mode
IESTAB	IQUANT	0	I/E Stability
CASPEED	IQUANT	1	Control Amp Speed
CONVENTION	IQUANT	1	Current Convention
ICHRANGE	IQUANT	2	Ich Range
ICHRANGEMODE	TOGGLE	F	Ich Auto Range
ICHOFFSETENABLE	TOGGLE	T	Ich Offset Enable
ICHOFFSET	QUANT	0	Ich Offset (V)
ICHFILTER	IQUANT	3	Ich Filter
VCHRANGE	IQUANT	2	Vch Range
VCHRANGEMODE	TOGGLE	F	Vch Auto Range
VCHOFFSETENABLE	TOGGLE	T	Vch Offset Enable
VCHOFFSET	QUANT	0	Vch Offset (V)
VCHFILTER	IQUANT	3	Vch Filter
ACHRANGE	IQUANT	0	Ach Range
IERANGELOWERLIMIT	IQUANT	3	I/E Range Lower Limit
IERANGEMODE	TOGGLE	F	I/E AutoRange
IERANGE	IQUANT	11	I/E Range
POSFEEDENABLE	TOGGLE	F	Positive Feedback IR Comp
POSFEEDRESISTANCE	QUANT	0	Positive Feedback Resistance (ohm)
FC350IDIVISOR	IQUANT	0	FC350 I Divisor
FC350VRANGE	IQUANT	0	FC350 V Range
FRAMEWORKVERSION	QUANT	4.35	Framework Version
ZCURVE	TABLE
	Pt	Time	Freq	Zreal	Zimag	Zsig	Zmod	Zphz	Idc	Vdc	IERange
	#	s	Hz	ohm	ohm	V	ohm	°	A	V	#
	0	6	100007	131.658	0.478721	1	131.659	0.208332	8.67112E-007	-0.032366	9
	1	10	89134.1	130.839	-0.372568	1	130.839	-0.163151	8.65699E-007	-0.032364	9
	2	15	79433.6	129.924	-0.822284	1	129.927	-0.362618	9.64366E-007	-0.032372	9
	3	17	70800.8	130.226	0.804761	1	130.228	0.354068	1.0134E-006	-0.032384	9
	4	21	63105.5	131.155	-0.562797	1	131.156	-0.245859	1.03606E-006	-0.032364	9
	5	23	56243.5	130.8	-0.023998	1	130.8	-0.010512	1.0694E-006	-0.032375	9
	6	27	50123.7	130.535	-0.005574	1	130.535	-0.002447	1.02708E-006	-0.032371	9
	7	31	44681	129.945	-0.722185	1	129.947	-0.318425	1.04463E-006	-0.032372	9
	8	35	39811.2	128.816	-0.753567	1	128.818	-0.335173	9.3496E-007	-0.032346	9
	9	39	35488.3	129.674	-1.37093	1	129.681	-0.605715	1.07824E-006	-0.032342	9
	10	41	31634.1	129.618	-0.258697	1	129.618	-0.114354	1.11386E-006	-0.032382	9
	11	45	28173.1	128.955	-1.49111	1	128.963	-0.662483	9.7176E-007	-0.03236	9
	12	50	25123.7	129.431	-1.93994	1	129.446	-0.858694	8.53656E-007	-0.032354	9
	13	54	22389.3	129.33	-3.01443	1	129.365	-1.33521	1.06793E-006	-0.032371	9
	14	58	19954.4	128.798	-1.76404	1	128.81	-0.784681	1.14622E-006	-0.032337	9
	15	60	17778.2	130.099	-0.888691	1	130.102	-0.391376	9.823E-007	-0.032364	9
	16	64	15852.9	128.337	-2.67662	1	128.365	-1.1948	1.09434E-006	-0.032371	9
	17	68	14122.3	129.697	-1.10364	1	129.701	-0.48754	1.02293E-006	-0.032354	9
	18	72	12587.2	130.154	-1.94633	1	130.168	-0.856743	9.81467E-007	-0.032351	9
	19	76	11221.1	129.81	-2.09196	1	129.826	-0.923275	9.81199E-007	-0.032352	9
	20	80	9998.2	129.967	-3.48558	1	130.013	-1.53625	9.56212E-007	-0.032334	9
	21	82	8912.76	129.701	-3.52909	1	129.749	-1.5586	8.06803E-007	-0.03234	9
	22	86	7942.6	130.083	-3.52671	1	130.131	-1.55297	9.81416E-007	-0.032352	9
	23	90	7078.05	131.044	-3.91157	1	131.102	-1.70973	9.85294E-007	-0.032338	9
	24	94	6311.1	131.017	-3.42086	1	131.062	-1.49566	9.9958E-007	-0.032344	9
	25	99	5622.14	129.756	-5.40753	1	129.869	-2.3864	9.74732E-007	-0.032346	9
	26	103	5011.18	131.895	-3.93003	1	131.953	-1.70672	9.82737E-007	-0.032337	9
	27	105	4465.21	131.094	-4.27539	1	131.164	-1.86793	9.80977E-007	-0.032349	9
	28	109	3980.93	131.546	-4.74514	1	131.632	-2.06588	9.90377E-007	-0.032332	9
	29	113	3548.18	131.277	-5.89299	1	131.41	-2.57026	1.06143E-006	-0.032351	9
	30	117	3162.67	131.641	-4.71364	1	131.726	-2.0507	8.17986E-007	-0.032314	9
	31	121	2819.01	131.807	-7.07478	1	131.997	-3.07242	1.04687E-006	-0.032318	9
	32	123	2511.16	131.68	-8.01005	1	131.923	-3.481	9.51375E-007	-0.032333	9
	33	128	2238.63	132.649	-7.20899	1	132.845	-3.11075	9.47147E-007	-0.032331	9
	34	132	1995.37	131.831	-7.70887	1	132.056	-3.34658	9.71671E-007	-0.032334	9
	35	136	1778.51	133.674	-7.73919	1	133.898	-3.31349	9.50325E-007	-0.032345	9
	36	140	1584.49	132.489	-8.61552	1	132.769	-3.7206	9.62776E-007	-0.032344	9
	37	144	1412.76	133.068	-10.8387	1	133.509	-4.65659	1.07071E-006	-0.032356	9
	38	146	1259.04	134.906	-11.0136	1	135.355	-4.66723	9.74973E-007	-0.032346	9
	39	150	1121.63	133.894	-11.923	1	134.424	-5.08867	9.79153E-007	-0.032333	9
	40	154	999.95	135.676	-12.758	1	136.275	-5.37189	9.64206E-007	-0.032345	9
	41	159	891.184	134.989	-13.4678	1	135.659	-5.69755	9.59797E-007	-0.03234	9
	42	163	794.163	135.186	-14.0614	1	135.916	-5.93825	9.89407E-007	-0.03233	9
	43	167	707.867	135.795	-15.7455	1	136.705	-6.61393	1.07272E-006	-0.032347	9
	44	169	630.984	136.332	-18.1063	1	137.529	-7.5652	9.83727E-007	-0.032343	9
	45	173	562.189	138.117	-19.9215	1	139.547	-8.20749	1.05199E-006	-0.032341	9
	46	177	501.303	138.273	-20.7054	1	139.815	-8.51633	1.04023E-006	-0.032322	9
	47	179	446.614	139.081	-22.5974	1	140.904	-9.2286	9.92497E-007	-0.032331	9
	48	181	398.209	139.792	-24.628	1	141.945	-9.9917	1.03827E-006	-0.032323	9
	49	183	354.821	140.565	-26.8979	1	143.115	-10.8329	1.04198E-006	-0.032325	9
	50	185	316.113	141.461	-29.2788	1	144.46	-11.6936	9.93137E-007	-0.032323	9
	51	187	281.926	142.465	-31.8116	1	145.974	-12.5873	9.75763E-007	-0.032323	9
	52	189	251.185	143.446	-34.8924	1	147.628	-13.6714	9.91369E-007	-0.032325	9
	53	191	223.946	144.545	-38.081	1	149.477	-14.7595	1.01045E-006	-0.03232	9
	54	193	199.495	145.815	-41.5522	1	151.62	-15.9057	9.94438E-007	-0.032318	9
