EXPLAIN
TAG	EISPOT
TITLE	LABEL	Tomato_open	Test &Identifier
DATE	LABEL	5/16/2006	Date
TIME	LABEL	14:32:12	Time
NOTES	NOTES	1	&Notes...
	
PSTAT	PSTAT	300	Potentiostat
VDC	POTEN	1.00000E-003	T	DC &Voltage (V)
FREQINIT	QUANT	1.00000E+005	Initial Fre&q. (Hz)
FREQFINAL	QUANT	1.00000E+001	Final Fre&q. (Hz)
PTSPERDEC	QUANT	2.00000E+001	Points/&decade
VAC	QUANT	1.00000E+000	AC &Voltage (mV rms)
AREA	QUANT	1.00000E+000	&Area (cm²)
DENSITY	QUANT	7.87000E+000	&Density (gm/cm³)
EQUIV	QUANT	7.00000E+000	Equiv. &Wt
CONDIT	TWOPARAM	F	6.00000E+001	0.00000E+000	Conditionin&g	Time(s)	E(V)
DELAY	TWOPARAM	T	6.00000E+001	0.00000E+000	Init. De&lay	Time(s)	Stab.(mV/s)
SPEED	SELECTOR	1	&Optimize for:
ZGUESS	QUANT	1.00000E+002	E&stimated Z (ohms)
OCVCURVE	TABLE	232
	Pt	T	Vf	Vm	Ach	Over
	#	s	V vs. Ref.	V	V	bits
	0	0.258332	1.51317E-001	2.58843E-006	3.36600E-004	......
	1	0.516663	1.51252E-001	2.58843E-006	2.36600E-004	......
	2	0.774994	1.51212E-001	2.58843E-006	3.66000E-005	......
	3	1.03333	1.51163E-001	2.58843E-006	2.36600E-004	......
	4	1.29166	1.51102E-001	2.58843E-006	2.36600E-004	......
	5	1.54999	1.51053E-001	2.58843E-006	2.36600E-004	......
	6	1.80832	1.51002E-001	2.58843E-006	1.36600E-004	......
	7	2.06665	1.50943E-001	2.58843E-006	2.36600E-004	......
	8	2.32498	1.50908E-001	2.58843E-006	2.36600E-004	......
	9	2.58332	1.50853E-001	2.58843E-006	3.36600E-004	......
	10	2.84165	1.50802E-001	2.58843E-006	2.36600E-004	......
	11	3.09998	1.50752E-001	2.58843E-006	2.36600E-004	......
	12	3.35831	1.50697E-001	2.58843E-006	2.36600E-004	......
	13	3.61664	1.50658E-001	2.58843E-006	2.36600E-004	......
	14	3.87497	1.50607E-001	2.58843E-006	2.36600E-004	......
	15	4.1333	1.50562E-001	2.58843E-006	1.36600E-004	......
	16	4.39164	1.50503E-001	2.58843E-006	3.36600E-004	......
	17	4.64997	1.50458E-001	2.58843E-006	3.66000E-005	......
	18	4.9083	1.50412E-001	2.58843E-006	2.36600E-004	......
	19	5.16663	1.50363E-001	2.58843E-006	2.36600E-004	......
	20	5.42496	1.50307E-001	2.58843E-006	2.36600E-004	......
	21	5.68329	1.50267E-001	2.58843E-006	2.36600E-004	......
	22	5.94162	1.50222E-001	2.58843E-006	3.66000E-005	......
	23	6.19996	1.50163E-001	2.58843E-006	2.36600E-004	......
	24	6.45829	1.50112E-001	2.58843E-006	3.36600E-004	......
	25	6.71662	1.50077E-001	2.58843E-006	2.36600E-004	......
	26	6.97495	1.50027E-001	2.58843E-006	2.36600E-004	......
	27	7.23328	1.49962E-001	2.58843E-006	1.36600E-004	......
	28	7.49161	1.49933E-001	2.58843E-006	2.36600E-004	......
	29	7.74995	1.49888E-001	2.58843E-006	2.36600E-004	......
	30	8.00828	1.49837E-001	2.58843E-006	2.36600E-004	......
	31	8.26661	1.49797E-001	2.58843E-006	1.36600E-004	......
	32	8.52494	1.49733E-001	2.58843E-006	2.36600E-004	......
	33	8.78327	1.49702E-001	2.58843E-006	3.66000E-005	......
	34	9.0416	1.49648E-001	2.58843E-006	3.36600E-004	......
	35	9.29993	1.49603E-001	2.58843E-006	2.36600E-004	......
	36	9.5583	1.49562E-001	2.58843E-006	2.36600E-004	......
	37	9.8166	1.49522E-001	2.58843E-006	2.36600E-004	......
	38	10.0749	1.49467E-001	2.58843E-006	2.36600E-004	......
	39	10.3333	1.49422E-001	2.58843E-006	3.66000E-005	......
	40	10.5916	1.49383E-001	2.58843E-006	2.36600E-004	......
	41	10.8499	1.49342E-001	2.58843E-006	3.66000E-005	......
	42	11.1083	1.49292E-001	2.58843E-006	3.36600E-004	......
	43	11.3666	1.49247E-001	2.58843E-006	1.36600E-004	......
	44	11.6249	1.49192E-001	2.58843E-006	3.66000E-005	......
	45	11.8832	1.49163E-001	2.58843E-006	1.36600E-004	......
	46	12.1416	1.49108E-001	2.58843E-006	2.36600E-004	......
	47	12.3999	1.49072E-001	2.58843E-006	2.36600E-004	......
	48	12.6582	1.49023E-001	2.58843E-006	2.36600E-004	......
	49	12.9166	1.48988E-001	2.58843E-006	2.36600E-004	......
	50	13.1749	1.48927E-001	2.58843E-006	1.36600E-004	......
	51	13.4332	1.48892E-001	2.58843E-006	2.36600E-004	......
	52	13.6916	1.48852E-001	2.58843E-006	3.36600E-004	......
	53	13.9499	1.48803E-001	2.58843E-006	3.36600E-004	......
	54	14.2082	1.48768E-001	2.58843E-006	3.36600E-004	......
	55	14.4666	1.48717E-001	2.58843E-006	2.36600E-004	......
	56	14.7249	1.48677E-001	2.58843E-006	2.36600E-004	......
	57	14.9832	1.48638E-001	2.58843E-006	2.36600E-004	......
	58	15.2416	1.48587E-001	2.58843E-006	3.36600E-004	......
	59	15.4999	1.48542E-001	2.58843E-006	1.36600E-004	......
	60	15.7582	1.48502E-001	2.58843E-006	3.66000E-005	......
	61	16.0166	1.48467E-001	2.58843E-006	2.36600E-004	......
	62	16.2749	1.48418E-001	2.58843E-006	3.36600E-004	......
	63	16.5332	1.48377E-001	2.58843E-006	2.36600E-004	......
	64	16.7915	1.48332E-001	2.58843E-006	2.36600E-004	......
	65	17.0499	1.48282E-001	2.58843E-006	1.36600E-004	......
	66	17.3082	1.48253E-001	2.58843E-006	2.36600E-004	......
	67	17.5665	1.48212E-001	2.58843E-006	2.36600E-004	......
	68	17.8249	1.48168E-001	2.58843E-006	2.36600E-004	......
	69	18.0832	1.48117E-001	2.58843E-006	2.36600E-004	......
	70	18.3415	1.48088E-001	2.58843E-006	2.36600E-004	......
	71	18.5999	1.48033E-001	2.58843E-006	1.36600E-004	......
	72	18.8582	1.47997E-001	2.58843E-006	2.36600E-004	......
	73	19.1165	1.47958E-001	2.58843E-006	2.36600E-004	......
	74	19.3749	1.47913E-001	2.58843E-006	2.36600E-004	......
	75	19.6332	1.47882E-001	2.58843E-006	2.36600E-004	......
	76	19.8915	1.47828E-001	2.58843E-006	1.36600E-004	......
	77	20.1499	1.47787E-001	2.58843E-006	1.36600E-004	......
	78	20.4082	1.47752E-001	2.58843E-006	3.36600E-004	......
	79	20.6665	1.47707E-001	2.58843E-006	2.36600E-004	......
	80	20.9249	1.47673E-001	2.58843E-006	2.36600E-004	......
	81	21.1832	1.47628E-001	2.58843E-006	2.36600E-004	......
	82	21.4415	1.47598E-001	2.58843E-006	2.36600E-004	......
	83	21.6998	1.47557E-001	2.58843E-006	2.36600E-004	......
	84	21.9582	1.47508E-001	2.58843E-006	2.36600E-004	......
	85	22.2165	1.47463E-001	2.58843E-006	2.36600E-004	......
	86	22.4748	1.47427E-001	2.58843E-006	2.36600E-004	......
	87	22.7332	1.47378E-001	2.58843E-006	2.36600E-004	......
	88	22.9915	1.47347E-001	2.58843E-006	2.36600E-004	......
	89	23.2498	1.47298E-001	2.58843E-006	1.36600E-004	......
	90	23.5082	1.47268E-001	2.58843E-006	1.36600E-004	......
	91	23.7665	1.47233E-001	2.58843E-006	1.36600E-004	......
	92	24.0248	1.47188E-001	2.58843E-006	2.36600E-004	......
	93	24.2832	1.47142E-001	2.58843E-006	2.36600E-004	......
	94	24.5415	1.47103E-001	2.58843E-006	2.36600E-004	......
	95	24.7998	1.47062E-001	2.58843E-006	2.36600E-004	......
	96	25.0582	1.47027E-001	2.58843E-006	3.36600E-004	......
	97	25.3165	1.46993E-001	2.58843E-006	2.36600E-004	......
	98	25.5748	1.46962E-001	2.58843E-006	3.36600E-004	......
	99	25.8332	1.46922E-001	2.58843E-006	2.36600E-004	......
	100	26.0915	1.46887E-001	2.58843E-006	2.36600E-004	......
	101	26.3498	1.46848E-001	2.58843E-006	2.36600E-004	......
	102	26.6081	1.46797E-001	2.58843E-006	3.36600E-004	......
	103	26.8665	1.46763E-001	2.58843E-006	3.36600E-004	......
	104	27.1248	1.46718E-001	2.58843E-006	2.36600E-004	......
	105	27.3831	1.46683E-001	2.58843E-006	2.36600E-004	......
	106	27.6415	1.46653E-001	2.58843E-006	2.36600E-004	......
	107	27.8998	1.46602E-001	2.58843E-006	2.36600E-004	......
	108	28.1581	1.46573E-001	2.58843E-006	2.36600E-004	......
	109	28.4165	1.46532E-001	2.58843E-006	1.36600E-004	......
	110	28.6748	1.46488E-001	2.58843E-006	2.36600E-004	......
	111	28.9331	1.46437E-001	2.58843E-006	2.36600E-004	......
	112	29.1915	1.46407E-001	2.58843E-006	2.36600E-004	......
	113	29.4498	1.46372E-001	2.58843E-006	2.36600E-004	......
	114	29.7081	1.46343E-001	2.58843E-006	3.36600E-004	......
	115	29.9665	1.46302E-001	2.58843E-006	3.36600E-004	......
	116	30.2248	1.46262E-001	2.58843E-006	2.36600E-004	......
	117	30.4831	1.46233E-001	2.58843E-006	2.36600E-004	......
	118	30.7414	1.46192E-001	2.58843E-006	2.36600E-004	......
	119	30.9998	1.46152E-001	2.58843E-006	2.36600E-004	......
	120	31.2581	1.46117E-001	2.58843E-006	2.36600E-004	......
	121	31.5164	1.46083E-001	2.58843E-006	2.36600E-004	......
	122	31.7748	1.46042E-001	2.58843E-006	1.36600E-004	......
	123	32.0331	1.45997E-001	2.58843E-006	2.36600E-004	......
	124	32.2914	1.45973E-001	2.58843E-006	3.36600E-004	......
	125	32.5498	1.45938E-001	2.58843E-006	2.36600E-004	......
	126	32.8081	1.45893E-001	2.58843E-006	2.36600E-004	......
	127	33.0664	1.45863E-001	2.58843E-006	2.36600E-004	......
	128	33.3248	1.45822E-001	2.58843E-006	3.36600E-004	......
	129	33.5831	1.45783E-001	2.58843E-006	3.36600E-004	......
	130	33.8414	1.45737E-001	2.58843E-006	2.36600E-004	......
	131	34.0998	1.45718E-001	2.58843E-006	2.36600E-004	......
	132	34.3581	1.45677E-001	2.58843E-006	1.36600E-004	......
	133	34.6164	1.45643E-001	2.58843E-006	2.36600E-004	......
	134	34.8748	1.45608E-001	2.58843E-006	2.36600E-004	......
	135	35.1331	1.45567E-001	2.58843E-006	3.36600E-004	......
	136	35.3914	1.45527E-001	2.58843E-006	1.36600E-004	......
	137	35.6497	1.45482E-001	2.58843E-006	2.36600E-004	......
	138	35.9081	1.45458E-001	2.58843E-006	1.36600E-004	......
	139	36.1664	1.45423E-001	2.58843E-006	3.66000E-005	......
	140	36.4247	1.45388E-001	2.58843E-006	2.36600E-004	......
	141	36.6831	1.45358E-001	2.58843E-006	3.66000E-005	......
	142	36.9414	1.45317E-001	2.58843E-006	2.36600E-004	......
	143	37.1997	1.45282E-001	2.58843E-006	2.36600E-004	......
	144	37.4581	1.45248E-001	2.58843E-006	3.66000E-005	......
	145	37.7164	1.45207E-001	2.58843E-006	2.36600E-004	......
	146	37.9747	1.45177E-001	2.58843E-006	1.36600E-004	......
	147	38.2331	1.45127E-001	2.58843E-006	2.36600E-004	......
	148	38.4914	1.45097E-001	2.58843E-006	2.36600E-004	......
	149	38.7497	1.45067E-001	2.58843E-006	2.36600E-004	......
	150	39.0081	1.45022E-001	2.58843E-006	3.36600E-004	......
	151	39.2664	1.44993E-001	2.58843E-006	3.36600E-004	......
	152	39.5247	1.44963E-001	2.58843E-006	2.36600E-004	......
	153	39.7831	1.44922E-001	2.58843E-006	1.36600E-004	......
	154	40.0414	1.44898E-001	2.58843E-006	3.66000E-005	......
	155	40.2997	1.44847E-001	2.58843E-006	2.36600E-004	......
	156	40.558	1.44802E-001	2.58843E-006	2.36600E-004	......
	157	40.8164	1.44772E-001	2.58843E-006	3.36600E-004	......
	158	41.0747	1.44733E-001	2.58843E-006	2.36600E-004	......
	159	41.333	1.44708E-001	2.58843E-006	2.36600E-004	......
	160	41.5914	1.44667E-001	2.58843E-006	2.36600E-004	......
	161	41.8497	1.44643E-001	2.58843E-006	2.36600E-004	......
	162	42.108	1.44607E-001	2.58843E-006	1.36600E-004	......
	163	42.3664	1.44572E-001	2.58843E-006	2.36600E-004	......
	164	42.6247	1.44533E-001	2.58843E-006	2.36600E-004	......
	165	42.883	1.44497E-001	2.58843E-006	2.36600E-004	......
	166	43.1414	1.44462E-001	2.58843E-006	1.36600E-004	......
	167	43.3997	1.44423E-001	2.58843E-006	1.36600E-004	......
	168	43.658	1.44387E-001	2.58843E-006	2.36600E-004	......
	169	43.9164	1.44362E-001	2.58843E-006	2.36600E-004	......
	170	44.1747	1.44328E-001	2.58843E-006	3.36600E-004	......
	171	44.433	1.44293E-001	2.58843E-006	1.36600E-004	......
	172	44.6913	1.44267E-001	2.58843E-006	2.36600E-004	......
	173	44.9497	1.44212E-001	2.58843E-006	2.36600E-004	......
	174	45.208	1.44193E-001	2.58843E-006	1.36600E-004	......
	175	45.4663	1.44157E-001	2.58843E-006	2.36600E-004	......
	176	45.7247	1.44122E-001	2.58843E-006	2.36600E-004	......
	177	45.983	1.44077E-001	2.58843E-006	1.36600E-004	......
	178	46.2413	1.44047E-001	2.58843E-006	2.36600E-004	......
	179	46.4997	1.44018E-001	2.58843E-006	2.36600E-004	......
	180	46.758	1.43982E-001	2.58843E-006	2.36600E-004	......
	181	47.0163	1.43943E-001	2.58843E-006	1.36600E-004	......
	182	47.2747	1.43902E-001	2.58843E-006	2.36600E-004	......
	183	47.533	1.43877E-001	2.58843E-006	3.36600E-004	......
	184	47.7913	1.43853E-001	2.58843E-006	3.36600E-004	......
	185	48.0497	1.43812E-001	2.58843E-006	1.36600E-004	......
	186	48.308	1.43778E-001	2.58843E-006	2.36600E-004	......
	187	48.5663	1.43753E-001	2.58843E-006	3.66000E-005	......
	188	48.8247	1.43717E-001	2.58843E-006	2.36600E-004	......
	189	49.083	1.43678E-001	2.58843E-006	2.36600E-004	......
	190	49.3413	1.43648E-001	2.58843E-006	2.36600E-004	......
	191	49.5996	1.43623E-001	2.58843E-006	2.36600E-004	......
	192	49.858	1.43578E-001	2.58843E-006	3.36600E-004	......
	193	50.1163	1.43527E-001	2.58843E-006	1.36600E-004	......
	194	50.3746	1.43517E-001	2.58843E-006	2.36600E-004	......
	195	50.633	1.43462E-001	2.58843E-006	3.36600E-004	......
	196	50.8913	1.43442E-001	2.58843E-006	3.36600E-004	......
	197	51.1496	1.43407E-001	2.58843E-006	1.36600E-004	......
	198	51.408	1.43372E-001	2.58843E-006	2.36600E-004	......
	199	51.6663	1.43328E-001	2.58843E-006	2.36600E-004	......
	200	51.9246	1.43308E-001	2.58843E-006	2.36600E-004	......
	201	52.183	1.43273E-001	2.58843E-006	2.36600E-004	......
	202	52.4413	1.43248E-001	2.58843E-006	2.36600E-004	......
	203	52.6996	1.43212E-001	2.58843E-006	2.36600E-004	......
	204	52.958	1.43177E-001	2.58843E-006	3.66000E-005	......
	205	53.2163	1.43153E-001	2.58843E-006	3.36600E-004	......
	206	53.4746	1.43118E-001	2.58843E-006	3.36600E-004	......
	207	53.733	1.43088E-001	2.58843E-006	3.36600E-004	......
	208	53.9913	1.43057E-001	2.58843E-006	2.36600E-004	......
	209	54.2496	1.43018E-001	2.58843E-006	2.36600E-004	......
	210	54.5079	1.42978E-001	2.58843E-006	2.36600E-004	......
	211	54.7663	1.42947E-001	2.58843E-006	2.36600E-004	......
	212	55.0246	1.42908E-001	2.58843E-006	2.36600E-004	......
	213	55.2829	1.42882E-001	2.58843E-006	2.36600E-004	......
	214	55.5413	1.42853E-001	2.58843E-006	2.36600E-004	......
	215	55.7996	1.42823E-001	2.58843E-006	2.36600E-004	......
	216	56.0579	1.42788E-001	2.58843E-006	2.36600E-004	......
	217	56.3163	1.42762E-001	2.58843E-006	4.36600E-004	......
	218	56.5746	1.42723E-001	2.58843E-006	3.36600E-004	......
	219	56.8329	1.42703E-001	2.58843E-006	2.36600E-004	......
	220	57.0913	1.42662E-001	2.58843E-006	2.36600E-004	......
	221	57.3496	1.42627E-001	2.58843E-006	1.36600E-004	......
	222	57.6079	1.42587E-001	2.58843E-006	2.36600E-004	......
	223	57.8663	1.42562E-001	2.58843E-006	2.36600E-004	......
	224	58.1246	1.42528E-001	2.58843E-006	2.36600E-004	......
	225	58.3829	1.42493E-001	2.58843E-006	2.36600E-004	......
	226	58.6413	1.42458E-001	2.58843E-006	2.36600E-004	......
	227	58.8996	1.42432E-001	2.58843E-006	2.36600E-004	......
	228	59.1579	1.42402E-001	2.58843E-006	2.36600E-004	......
	229	59.4162	1.42367E-001	2.58843E-006	1.36600E-004	......
	230	59.6746	1.42342E-001	2.58843E-006	2.36600E-004	......
	231	59.9329	1.42302E-001	2.58843E-006	2.36600E-004	......
EOC	QUANT	0.142302	Open Circuit (V)
PSTATMODEL	IQUANT	32	Pstat Model
PSTATSECTION	LABEL	PStat0	Pstat Section
CTRLMODE	IQUANT	1	Control Mode
IESTAB	IQUANT	0	I/E Stability
CASPEED	IQUANT	1	Control Amp Speed
CONVENTION	IQUANT	1	Current Convention
ICHRANGE	IQUANT	2	Ich Range
ICHRANGEMODE	TOGGLE	F	Ich Auto Range
ICHOFFSETENABLE	TOGGLE	T	Ich Offset Enable
ICHOFFSET	QUANT	0	Ich Offset (V)
ICHFILTER	IQUANT	3	Ich Filter
VCHRANGE	IQUANT	2	Vch Range
VCHRANGEMODE	TOGGLE	F	Vch Auto Range
VCHOFFSETENABLE	TOGGLE	T	Vch Offset Enable
VCHOFFSET	QUANT	0	Vch Offset (V)
VCHFILTER	IQUANT	3	Vch Filter
ACHRANGE	IQUANT	0	Ach Range
IERANGELOWERLIMIT	IQUANT	3	I/E Range Lower Limit
IERANGEMODE	TOGGLE	F	I/E AutoRange
IERANGE	IQUANT	11	I/E Range
POSFEEDENABLE	TOGGLE	F	Positive Feedback IR Comp
POSFEEDRESISTANCE	QUANT	0	Positive Feedback Resistance (ohm)
FC350IDIVISOR	IQUANT	0	FC350 I Divisor
FC350VRANGE	IQUANT	0	FC350 V Range
FRAMEWORKVERSION	QUANT	4.35	Framework Version
ZCURVE	TABLE
	Pt	Time	Freq	Zreal	Zimag	Zsig	Zmod	Zphz	Idc	Vdc	IERange
	#	s	Hz	ohm	ohm	V	ohm	°	A	V	#
	0	6	100007	128.97	3.07283	1	129.006	1.36487	1.32518E-006	0.143455	9
	1	10	89134.1	128.1	0.280819	1	128.1	0.125603	1.23784E-006	0.14346	9
	2	14	79433.6	126.809	0.249034	1	126.809	0.11252	1.20288E-006	0.143477	9
	3	16	70800.8	127.285	0.06628	1	127.285	0.029835	1.16766E-006	0.143475	9
	4	20	63105.5	125.927	-0.10032	1	125.928	-0.045645	1.18642E-006	0.143467	9
	5	23	56243.5	127.031	0.047668	1	127.031	0.0215	9.84983E-007	0.143485	9
	6	27	50123.7	126.545	-0.192232	1	126.546	-0.087037	1.02394E-006	0.143482	9
	7	31	44681	125.828	0.016093	1	125.828	0.007328	1.20638E-006	0.143457	9
	8	35	39811.2	125.239	-0.693466	1	125.241	-0.317252	1.14562E-006	0.14348	9
	9	39	35488.3	125.956	-0.698421	1	125.958	-0.317698	1.08561E-006	0.143495	9
	10	41	31634.1	125.487	-1.14635	1	125.493	-0.523392	1.1894E-006	0.143454	9
	11	45	28173.1	126.231	-0.155925	1	126.231	-0.070773	1.05411E-006	0.143479	9
	12	49	25123.7	126.133	-0.597806	1	126.134	-0.271551	1.19235E-006	0.143455	9
	13	53	22389.3	125.289	-1.16354	1	125.294	-0.532082	8.83899E-007	0.143496	9
	14	57	19954.4	125.499	-1.08406	1	125.504	-0.494909	1.01139E-006	0.143496	9
	15	59	17778.2	125.374	-1.23701	1	125.38	-0.565293	1.01837E-006	0.143478	9
	16	63	15852.9	125.438	-0.596443	1	125.439	-0.272433	1.20598E-006	0.143464	9
	17	68	14122.3	125.242	-1.54367	1	125.252	-0.70616	1.05577E-006	0.143482	9
	18	71	12587.2	125.476	-0.846779	1	125.479	-0.386656	1.02638E-006	0.143481	9
	19	76	11221.1	125.367	-1.85481	1	125.381	-0.847634	1.02599E-006	0.143483	9
	20	80	9998.2	126.501	-1.86276	1	126.515	-0.843636	1.01559E-006	0.143486	9
	21	82	8912.76	127.118	-1.62729	1	127.128	-0.733427	1.10463E-006	0.143472	9
	22	86	7942.6	126.155	-2.91039	1	126.189	-1.32158	9.94447E-007	0.143485	9
	23	90	7078.05	125.763	-1.88931	1	125.777	-0.860677	1.01601E-006	0.143483	9
	24	94	6311.1	125.462	-2.74311	1	125.492	-1.25252	1.04573E-006	0.143485	9
	25	98	5622.14	127.434	-3.03128	1	127.47	-1.36264	9.67004E-007	0.143484	9
	26	100	5011.18	126.095	-3.06027	1	126.132	-1.39028	9.76119E-007	0.143485	9
	27	104	4465.21	126.185	-4.44797	1	126.263	-2.01882	1.01827E-006	0.143479	9
	28	108	3980.93	126.785	-4.22853	1	126.855	-1.91023	1.10224E-006	0.143489	9
	29	112	3548.18	126.709	-3.7692	1	126.765	-1.70388	8.83053E-007	0.143501	9
	30	116	3162.67	127.45	-4.78038	1	127.54	-2.14804	1.08344E-006	0.143486	9
	31	120	2819.01	127.065	-4.79941	1	127.156	-2.1631	1.20885E-006	0.143465	9
	32	122	2511.16	127.692	-5.49348	1	127.81	-2.46342	1.01607E-006	0.143484	9
	33	127	2238.63	127.37	-6.49995	1	127.536	-2.92139	1.01027E-006	0.143494	9
	34	131	1995.37	128.494	-7.3336	1	128.703	-3.26654	1.0025E-006	0.143487	9
	35	135	1778.51	127.832	-6.08606	1	127.976	-2.72579	9.86909E-007	0.143488	9
	36	139	1584.49	127.082	-7.34274	1	127.294	-3.30685	1.04499E-006	0.143491	9
	37	143	1412.76	128.572	-7.71846	1	128.803	-3.43547	9.20204E-007	0.143509	9
	38	145	1259.04	127.813	-8.74012	1	128.111	-3.91192	1.06509E-006	0.143494	9
	39	149	1121.63	129.219	-9.6548	1	129.579	-4.27301	1.02159E-006	0.143488	9
	40	153	999.95	129.151	-9.8515	1	129.526	-4.36204	9.77214E-007	0.143495	9
	41	157	891.184	129.905	-11.936	1	130.452	-5.24974	1.03208E-006	0.143483	9
	42	161	794.163	129.035	-13.3152	1	129.721	-5.89151	1.03484E-006	0.143493	9
	43	164	707.867	130.099	-14.78	1	130.936	-6.48132	9.6566E-007	0.143492	9
	44	168	630.984	130.686	-16.4013	1	131.711	-7.15332	1.01394E-006	0.143481	9
	45	172	562.189	131.976	-16.9888	1	133.065	-7.33517	1.08415E-006	0.143477	9
	46	176	501.303	131.781	-19.4411	1	133.207	-8.39209	1.05121E-006	0.143485	9
	47	178	446.614	132.279	-21.3409	1	133.989	-9.16471	1.00674E-006	0.143475	9
	48	180	398.209	132.903	-23.4472	1	134.956	-10.0053	1.04786E-006	0.143484	9
	49	182	354.821	133.569	-25.8021	1	136.038	-10.9334	1.05908E-006	0.143485	9
	50	184	316.113	134.202	-28.3575	1	137.166	-11.9314	1.05175E-006	0.143489	9
	51	186	281.926	135.001	-31.0797	1	138.533	-12.9646	1.04868E-006	0.143486	9
	52	188	251.185	135.883	-34.2125	1	140.124	-14.1321	1.05869E-006	0.14349	9
	53	190	223.946	136.858	-37.5179	1	141.908	-15.3303	1.06033E-006	0.143495	9
	54	192	199.495	137.822	-41.2358	1	143.859	-16.657	1.06843E-006	0.143489	9
	55	194	177.836	138.982	-45.3248	1	146.186	-18.0621	1.03748E-006	0.143479	9
	56	196	158.533	140.168	-49.8709	1	148.776	-19.5852	1.06173E-006	0.143486	9
	57	198	141.263	141.581	-54.8972	1	151.852	-21.1935	1.00669E-006	0.143481	9
	58	200	125.911	142.941	-60.3377	1	155.154	-22.8855	9.65565E-007	0.143473	9
	59	202	112.198	144.575	-66.3319	1	159.066	-24.6459	9.90649E-007	0.14348	9
	60	204	100.009	146.417	-73.0154	1	163.613	-26.5046	1.01325E-006	0.143476	9
