EXPLAIN
TAG	EISPOT
TITLE	LABEL	Tomato_open	Test &Identifier
DATE	LABEL	5/16/2006	Date
TIME	LABEL	16:06:55	Time
NOTES	NOTES	1	&Notes...
	
PSTAT	PSTAT	300	Potentiostat
VDC	POTEN	1.00000E-003	T	DC &Voltage (V)
FREQINIT	QUANT	1.00000E+005	Initial Fre&q. (Hz)
FREQFINAL	QUANT	1.00000E+001	Final Fre&q. (Hz)
PTSPERDEC	QUANT	2.00000E+001	Points/&decade
VAC	QUANT	1.00000E+000	AC &Voltage (mV rms)
AREA	QUANT	1.00000E+000	&Area (cm²)
DENSITY	QUANT	7.87000E+000	&Density (gm/cm³)
EQUIV	QUANT	7.00000E+000	Equiv. &Wt
CONDIT	TWOPARAM	F	6.00000E+001	0.00000E+000	Conditionin&g	Time(s)	E(V)
DELAY	TWOPARAM	T	6.00000E+001	0.00000E+000	Init. De&lay	Time(s)	Stab.(mV/s)
SPEED	SELECTOR	1	&Optimize for:
ZGUESS	QUANT	1.00000E+002	E&stimated Z (ohms)
OCVCURVE	TABLE	232
	Pt	T	Vf	Vm	Ach	Over
	#	s	V vs. Ref.	V	V	bits
	0	0.258332	-5.23325E-002	3.13443E-006	-6.34000E-005	......
	1	0.516663	-5.23775E-002	3.13443E-006	3.66000E-005	......
	2	0.774994	-5.24325E-002	3.13443E-006	-1.63400E-004	......
	3	1.03333	-5.24675E-002	3.13443E-006	3.66000E-005	......
	4	1.29166	-5.25275E-002	3.13443E-006	-1.63400E-004	......
	5	1.54999	-5.25725E-002	3.13443E-006	3.66000E-005	......
	6	1.80832	-5.26325E-002	3.13443E-006	-6.34000E-005	......
	7	2.06665	-5.26675E-002	3.13443E-006	3.66000E-005	......
	8	2.32498	-5.27175E-002	3.13443E-006	-1.63400E-004	......
	9	2.58332	-5.27575E-002	3.13443E-006	3.66000E-005	......
	10	2.84165	-5.28075E-002	3.13443E-006	-1.63400E-004	......
	11	3.09998	-5.28575E-002	3.13443E-006	2.36600E-004	......
	12	3.35831	-5.29125E-002	3.13443E-006	-1.63400E-004	......
	13	3.61664	-5.29525E-002	3.13443E-006	3.66000E-005	......
	14	3.87497	-5.29925E-002	3.13443E-006	-6.34000E-005	......
	15	4.1333	-5.30375E-002	3.13443E-006	1.36600E-004	......
	16	4.39164	-5.30775E-002	3.13443E-006	3.66000E-005	......
	17	4.64997	-5.31325E-002	3.13443E-006	1.36600E-004	......
	18	4.9083	-5.31775E-002	3.13443E-006	-6.34000E-005	......
	19	5.16663	-5.32225E-002	3.13443E-006	3.66000E-005	......
	20	5.42496	-5.32775E-002	3.13443E-006	-1.63400E-004	......
	21	5.68329	-5.33025E-002	3.13443E-006	3.66000E-005	......
	22	5.94162	-5.33575E-002	3.13443E-006	-1.63400E-004	......
	23	6.19996	-5.33975E-002	3.13443E-006	1.36600E-004	......
	24	6.45829	-5.34475E-002	3.13443E-006	-2.63400E-004	......
	25	6.71662	-5.34875E-002	3.13443E-006	-6.34000E-005	......
	26	6.97495	-5.35375E-002	3.13443E-006	3.66000E-005	......
	27	7.23328	-5.35825E-002	3.13443E-006	3.66000E-005	......
	28	7.49161	-5.36225E-002	3.13443E-006	-6.34000E-005	......
	29	7.74995	-5.36675E-002	3.13443E-006	3.66000E-005	......
	30	8.00828	-5.37125E-002	3.13443E-006	-6.34000E-005	......
	31	8.26661	-5.37425E-002	3.13443E-006	-6.34000E-005	......
	32	8.52494	-5.37875E-002	3.13443E-006	-6.34000E-005	......
	33	8.78327	-5.38325E-002	3.13443E-006	3.66000E-005	......
	34	9.0416	-5.38775E-002	3.13443E-006	-2.63400E-004	......
	35	9.29993	-5.39125E-002	3.13443E-006	3.66000E-005	......
	36	9.5583	-5.39525E-002	3.13443E-006	-1.63400E-004	......
	37	9.8166	-5.39925E-002	3.13443E-006	3.66000E-005	......
	38	10.0749	-5.40175E-002	3.13443E-006	-1.63400E-004	......
	39	10.3333	-5.40675E-002	3.13443E-006	3.66000E-005	......
	40	10.5916	-5.41125E-002	3.13443E-006	-1.63400E-004	......
	41	10.8499	-5.41525E-002	3.13443E-006	2.36600E-004	......
	42	11.1083	-5.41825E-002	3.13443E-006	-1.63400E-004	......
	43	11.3666	-5.42325E-002	3.13443E-006	3.66000E-005	......
	44	11.6249	-5.42775E-002	3.13443E-006	-6.34000E-005	......
	45	11.8832	-5.43075E-002	3.13443E-006	1.36600E-004	......
	46	12.1416	-5.43425E-002	3.13443E-006	-1.63400E-004	......
	47	12.3999	-5.43825E-002	3.13443E-006	3.66000E-005	......
	48	12.6582	-5.44225E-002	3.13443E-006	3.66000E-005	......
	49	12.9166	-5.44625E-002	3.13443E-006	3.66000E-005	......
	50	13.1749	-5.44975E-002	3.13443E-006	-6.34000E-005	......
	51	13.4332	-5.45325E-002	3.13443E-006	1.36600E-004	......
	52	13.6916	-5.45775E-002	3.13443E-006	-6.34000E-005	......
	53	13.9499	-5.46125E-002	3.13443E-006	3.66000E-005	......
	54	14.2082	-5.46475E-002	3.13443E-006	-1.63400E-004	......
	55	14.4666	-5.46825E-002	3.13443E-006	3.66000E-005	......
	56	14.7249	-5.47175E-002	3.13443E-006	-6.34000E-005	......
	57	14.9832	-5.47575E-002	3.13443E-006	-6.34000E-005	......
	58	15.2416	-5.47925E-002	3.13443E-006	-1.63400E-004	......
	59	15.4999	-5.48325E-002	3.13443E-006	3.66000E-005	......
	60	15.7582	-5.48675E-002	3.13443E-006	-6.34000E-005	......
	61	16.0166	-5.49025E-002	3.13443E-006	-6.34000E-005	......
	62	16.2749	-5.49425E-002	3.13443E-006	-6.34000E-005	......
	63	16.5332	-5.49725E-002	3.13443E-006	-6.34000E-005	......
	64	16.7915	-5.50175E-002	3.13443E-006	-1.63400E-004	......
	65	17.0499	-5.50475E-002	3.13443E-006	1.36600E-004	......
	66	17.3082	-5.50825E-002	3.13443E-006	-1.63400E-004	......
	67	17.5665	-5.51125E-002	3.13443E-006	3.66000E-005	......
	68	17.8249	-5.51475E-002	3.13443E-006	-6.34000E-005	......
	69	18.0832	-5.51775E-002	3.13443E-006	3.66000E-005	......
	70	18.3415	-5.52275E-002	3.13443E-006	-6.34000E-005	......
	71	18.5999	-5.52575E-002	3.13443E-006	1.36600E-004	......
	72	18.8582	-5.52875E-002	3.13443E-006	-1.63400E-004	......
	73	19.1165	-5.53275E-002	3.13443E-006	3.66000E-005	......
	74	19.3749	-5.53625E-002	3.13443E-006	-6.34000E-005	......
	75	19.6332	-5.53825E-002	3.13443E-006	3.66000E-005	......
	76	19.8915	-5.54225E-002	3.13443E-006	-1.63400E-004	......
	77	20.1499	-5.54525E-002	3.13443E-006	3.66000E-005	......
	78	20.4082	-5.54875E-002	3.13443E-006	3.66000E-005	......
	79	20.6665	-5.55225E-002	3.13443E-006	3.66000E-005	......
	80	20.9249	-5.55525E-002	3.13443E-006	-1.63400E-004	......
	81	21.1832	-5.55975E-002	3.13443E-006	1.36600E-004	......
	82	21.4415	-5.56225E-002	3.13443E-006	-6.34000E-005	......
	83	21.6998	-5.56575E-002	3.13443E-006	3.66000E-005	......
	84	21.9582	-5.57025E-002	3.13443E-006	-1.63400E-004	......
	85	22.2165	-5.57225E-002	3.13443E-006	2.36600E-004	......
	86	22.4748	-5.57575E-002	3.13443E-006	-1.63400E-004	......
	87	22.7332	-5.57825E-002	3.13443E-006	3.66000E-005	......
	88	22.9915	-5.58225E-002	3.13443E-006	-1.63400E-004	......
	89	23.2498	-5.58475E-002	3.13443E-006	3.66000E-005	......
	90	23.5082	-5.58725E-002	3.13443E-006	-1.63400E-004	......
	91	23.7665	-5.59025E-002	3.13443E-006	3.66000E-005	......
	92	24.0248	-5.59425E-002	3.13443E-006	-6.34000E-005	......
	93	24.2832	-5.59775E-002	3.13443E-006	-6.34000E-005	......
	94	24.5415	-5.60075E-002	3.13443E-006	-6.34000E-005	......
	95	24.7998	-5.60325E-002	3.13443E-006	-6.34000E-005	......
	96	25.0582	-5.60725E-002	3.13443E-006	-6.34000E-005	......
	97	25.3165	-5.61025E-002	3.13443E-006	3.66000E-005	......
	98	25.5748	-5.61375E-002	3.13443E-006	-1.63400E-004	......
	99	25.8332	-5.61625E-002	3.13443E-006	3.66000E-005	......
	100	26.0915	-5.61975E-002	3.13443E-006	-1.63400E-004	......
	101	26.3498	-5.62175E-002	3.13443E-006	-6.34000E-005	......
	102	26.6081	-5.62525E-002	3.13443E-006	-1.63400E-004	......
	103	26.8665	-5.62875E-002	3.13443E-006	1.36600E-004	......
	104	27.1248	-5.63075E-002	3.13443E-006	-1.63400E-004	......
	105	27.3831	-5.63425E-002	3.13443E-006	3.66000E-005	......
	106	27.6415	-5.63775E-002	3.13443E-006	-6.34000E-005	......
	107	27.8998	-5.64025E-002	3.13443E-006	3.66000E-005	......
	108	28.1581	-5.64375E-002	3.13443E-006	3.66000E-005	......
	109	28.4165	-5.64675E-002	3.13443E-006	3.66000E-005	......
	110	28.6748	-5.65025E-002	3.13443E-006	-6.34000E-005	......
	111	28.9331	-5.65325E-002	3.13443E-006	2.36600E-004	......
	112	29.1915	-5.65625E-002	3.13443E-006	-1.63400E-004	......
	113	29.4498	-5.65875E-002	3.13443E-006	3.66000E-005	......
	114	29.7081	-5.66125E-002	3.13443E-006	-1.63400E-004	......
	115	29.9665	-5.66425E-002	3.13443E-006	3.66000E-005	......
	116	30.2248	-5.66675E-002	3.13443E-006	-1.63400E-004	......
	117	30.4831	-5.66975E-002	3.13443E-006	3.66000E-005	......
	118	30.7414	-5.67275E-002	3.13443E-006	-1.63400E-004	......
	119	30.9998	-5.67625E-002	3.13443E-006	3.66000E-005	......
	120	31.2581	-5.67925E-002	3.13443E-006	-1.63400E-004	......
	121	31.5164	-5.68275E-002	3.13443E-006	1.36600E-004	......
	122	31.7748	-5.68475E-002	3.13443E-006	-1.63400E-004	......
	123	32.0331	-5.68725E-002	3.13443E-006	1.36600E-004	......
	124	32.2914	-5.69025E-002	3.13443E-006	-6.34000E-005	......
	125	32.5498	-5.69325E-002	3.13443E-006	3.66000E-005	......
	126	32.8081	-5.69525E-002	3.13443E-006	-6.34000E-005	......
	127	33.0664	-5.69875E-002	3.13443E-006	-6.34000E-005	......
	128	33.3248	-5.70275E-002	3.13443E-006	-6.34000E-005	......
	129	33.5831	-5.70425E-002	3.13443E-006	3.66000E-005	......
	130	33.8414	-5.70675E-002	3.13443E-006	-1.63400E-004	......
	131	34.0998	-5.71025E-002	3.13443E-006	3.66000E-005	......
	132	34.3581	-5.71225E-002	3.13443E-006	-6.34000E-005	......
	133	34.6164	-5.71475E-002	3.13443E-006	3.66000E-005	......
	134	34.8748	-5.71775E-002	3.13443E-006	-6.34000E-005	......
	135	35.1331	-5.72025E-002	3.13443E-006	3.66000E-005	......
	136	35.3914	-5.72375E-002	3.13443E-006	-6.34000E-005	......
	137	35.6497	-5.72575E-002	3.13443E-006	3.66000E-005	......
	138	35.9081	-5.72925E-002	3.13443E-006	-2.63400E-004	......
	139	36.1664	-5.73175E-002	3.13443E-006	-6.34000E-005	......
	140	36.4247	-5.73475E-002	3.13443E-006	-1.63400E-004	......
	141	36.6831	-5.73675E-002	3.13443E-006	3.66000E-005	......
	142	36.9414	-5.73975E-002	3.13443E-006	-6.34000E-005	......
	143	37.1997	-5.74275E-002	3.13443E-006	-6.34000E-005	......
	144	37.4581	-5.74575E-002	3.13443E-006	-1.63400E-004	......
	145	37.7164	-5.74775E-002	3.13443E-006	-6.34000E-005	......
	146	37.9747	-5.74975E-002	3.13443E-006	-6.34000E-005	......
	147	38.2331	-5.75275E-002	3.13443E-006	3.66000E-005	......
	148	38.4914	-5.75625E-002	3.13443E-006	-6.34000E-005	......
	149	38.7497	-5.75925E-002	3.13443E-006	3.66000E-005	......
	150	39.0081	-5.76075E-002	3.13443E-006	-1.63400E-004	......
	151	39.2664	-5.76225E-002	3.13443E-006	3.66000E-005	......
	152	39.5247	-5.76675E-002	3.13443E-006	-1.63400E-004	......
	153	39.7831	-5.76825E-002	3.13443E-006	3.66000E-005	......
	154	40.0414	-5.77125E-002	3.13443E-006	3.66000E-005	......
	155	40.2997	-5.77425E-002	3.13443E-006	3.66000E-005	......
	156	40.558	-5.77675E-002	3.13443E-006	-6.34000E-005	......
	157	40.8164	-5.77875E-002	3.13443E-006	3.66000E-005	......
	158	41.0747	-5.78225E-002	3.13443E-006	-1.63400E-004	......
	159	41.333	-5.78425E-002	3.13443E-006	3.66000E-005	......
	160	41.5914	-5.78675E-002	3.13443E-006	-1.63400E-004	......
	161	41.8497	-5.78975E-002	3.13443E-006	3.66000E-005	......
	162	42.108	-5.79225E-002	3.13443E-006	-1.63400E-004	......
	163	42.3664	-5.79375E-002	3.13443E-006	-6.34000E-005	......
	164	42.6247	-5.79675E-002	3.13443E-006	-6.34000E-005	......
	165	42.883	-5.79875E-002	3.13443E-006	1.36600E-004	......
	166	43.1414	-5.80175E-002	3.13443E-006	-1.63400E-004	......
	167	43.3997	-5.80525E-002	3.13443E-006	2.36600E-004	......
	168	43.658	-5.80625E-002	3.13443E-006	-6.34000E-005	......
	169	43.9164	-5.80975E-002	3.13443E-006	3.66000E-005	......
	170	44.1747	-5.81225E-002	3.13443E-006	-1.63400E-004	......
	171	44.433	-5.81375E-002	3.13443E-006	3.66000E-005	......
	172	44.6913	-5.81675E-002	3.13443E-006	-1.63400E-004	......
	173	44.9497	-5.81825E-002	3.13443E-006	3.66000E-005	......
	174	45.208	-5.82275E-002	3.13443E-006	-6.34000E-005	......
	175	45.4663	-5.82425E-002	3.13443E-006	3.66000E-005	......
	176	45.7247	-5.82675E-002	3.13443E-006	-1.63400E-004	......
	177	45.983	-5.82925E-002	3.13443E-006	-6.34000E-005	......
	178	46.2413	-5.83075E-002	3.13443E-006	-1.63400E-004	......
	179	46.4997	-5.83475E-002	3.13443E-006	3.66000E-005	......
	180	46.758	-5.83575E-002	3.13443E-006	-1.63400E-004	......
	181	47.0163	-5.83875E-002	3.13443E-006	3.66000E-005	......
	182	47.2747	-5.84125E-002	3.13443E-006	-6.34000E-005	......
	183	47.533	-5.84425E-002	3.13443E-006	3.66000E-005	......
	184	47.7913	-5.84625E-002	3.13443E-006	-6.34000E-005	......
	185	48.0497	-5.84825E-002	3.13443E-006	2.36600E-004	......
	186	48.308	-5.85125E-002	3.13443E-006	3.66000E-005	......
	187	48.5663	-5.85225E-002	3.13443E-006	1.36600E-004	......
	188	48.8247	-5.85575E-002	3.13443E-006	-6.34000E-005	......
	189	49.083	-5.85775E-002	3.13443E-006	3.66000E-005	......
	190	49.3413	-5.86125E-002	3.13443E-006	-1.63400E-004	......
	191	49.5996	-5.86375E-002	3.13443E-006	3.66000E-005	......
	192	49.858	-5.86525E-002	3.13443E-006	-1.63400E-004	......
	193	50.1163	-5.86725E-002	3.13443E-006	3.66000E-005	......
	194	50.3746	-5.87025E-002	3.13443E-006	-1.63400E-004	......
	195	50.633	-5.87175E-002	3.13443E-006	-6.34000E-005	......
	196	50.8913	-5.87425E-002	3.13443E-006	-6.34000E-005	......
	197	51.1496	-5.87725E-002	3.13443E-006	3.66000E-005	......
	198	51.408	-5.87925E-002	3.13443E-006	-6.34000E-005	......
	199	51.6663	-5.88125E-002	3.13443E-006	2.36600E-004	......
	200	51.9246	-5.88325E-002	3.13443E-006	-1.63400E-004	......
	201	52.183	-5.88575E-002	3.13443E-006	-6.34000E-005	......
	202	52.4413	-5.88975E-002	3.13443E-006	-1.63400E-004	......
	203	52.6996	-5.89025E-002	3.13443E-006	3.66000E-005	......
	204	52.958	-5.89225E-002	3.13443E-006	-1.63400E-004	......
	205	53.2163	-5.89625E-002	3.13443E-006	3.66000E-005	......
	206	53.4746	-5.89725E-002	3.13443E-006	-1.63400E-004	......
	207	53.733	-5.90025E-002	3.13443E-006	3.66000E-005	......
	208	53.9913	-5.90275E-002	3.13443E-006	3.66000E-005	......
	209	54.2496	-5.90475E-002	3.13443E-006	3.66000E-005	......
	210	54.5079	-5.90775E-002	3.13443E-006	-6.34000E-005	......
	211	54.7663	-5.90925E-002	3.13443E-006	1.36600E-004	......
	212	55.0246	-5.91175E-002	3.13443E-006	-1.63400E-004	......
	213	55.2829	-5.91325E-002	3.13443E-006	1.36600E-004	......
	214	55.5413	-5.91525E-002	3.13443E-006	-6.34000E-005	......
	215	55.7996	-5.91825E-002	3.13443E-006	3.66000E-005	......
	216	56.0579	-5.92025E-002	3.13443E-006	-1.63400E-004	......
	217	56.3163	-5.92325E-002	3.13443E-006	3.66000E-005	......
	218	56.5746	-5.92475E-002	3.13443E-006	-1.63400E-004	......
	219	56.8329	-5.92675E-002	3.13443E-006	3.66000E-005	......
	220	57.0913	-5.92875E-002	3.13443E-006	-1.63400E-004	......
	221	57.3496	-5.93125E-002	3.13443E-006	3.66000E-005	......
	222	57.6079	-5.93275E-002	3.13443E-006	-6.34000E-005	......
	223	57.8663	-5.93625E-002	3.13443E-006	3.66000E-005	......
	224	58.1246	-5.93875E-002	3.13443E-006	-6.34000E-005	......
	225	58.3829	-5.94125E-002	3.13443E-006	3.66000E-005	......
	226	58.6413	-5.94275E-002	3.13443E-006	-1.63400E-004	......
	227	58.8996	-5.94525E-002	3.13443E-006	-6.34000E-005	......
	228	59.1579	-5.94725E-002	3.13443E-006	-6.34000E-005	......
	229	59.4162	-5.94975E-002	3.13443E-006	3.66000E-005	......
	230	59.6746	-5.95225E-002	3.13443E-006	-6.34000E-005	......
	231	59.9329	-5.95425E-002	3.13443E-006	3.66000E-005	......
EOC	QUANT	-0.059542	Open Circuit (V)
PSTATMODEL	IQUANT	32	Pstat Model
PSTATSECTION	LABEL	PStat0	Pstat Section
CTRLMODE	IQUANT	1	Control Mode
IESTAB	IQUANT	0	I/E Stability
CASPEED	IQUANT	1	Control Amp Speed
CONVENTION	IQUANT	1	Current Convention
ICHRANGE	IQUANT	2	Ich Range
ICHRANGEMODE	TOGGLE	F	Ich Auto Range
ICHOFFSETENABLE	TOGGLE	T	Ich Offset Enable
ICHOFFSET	QUANT	0	Ich Offset (V)
ICHFILTER	IQUANT	3	Ich Filter
VCHRANGE	IQUANT	2	Vch Range
VCHRANGEMODE	TOGGLE	F	Vch Auto Range
VCHOFFSETENABLE	TOGGLE	T	Vch Offset Enable
VCHOFFSET	QUANT	0	Vch Offset (V)
VCHFILTER	IQUANT	3	Vch Filter
ACHRANGE	IQUANT	0	Ach Range
IERANGELOWERLIMIT	IQUANT	3	I/E Range Lower Limit
IERANGEMODE	TOGGLE	F	I/E AutoRange
IERANGE	IQUANT	11	I/E Range
POSFEEDENABLE	TOGGLE	F	Positive Feedback IR Comp
POSFEEDRESISTANCE	QUANT	0	Positive Feedback Resistance (ohm)
FC350IDIVISOR	IQUANT	0	FC350 I Divisor
FC350VRANGE	IQUANT	0	FC350 V Range
FRAMEWORKVERSION	QUANT	4.35	Framework Version
ZCURVE	TABLE
	Pt	Time	Freq	Zreal	Zimag	Zsig	Zmod	Zphz	Idc	Vdc	IERange
	#	s	Hz	ohm	ohm	V	ohm	°	A	V	#
	0	6	100007	86.5186	-0.048931	1	86.5186	-0.032404	2.64896E-006	-0.058337	10
	1	10	89134.1	86.1439	-0.229631	1	86.1442	-0.152731	4.21467E-006	-0.058344	10
	2	14	79433.6	86.0108	-0.022079	1	86.0108	-0.014708	2.76182E-006	-0.058365	10
	3	18	70800.8	86.3231	-0.007511	1	86.3231	-0.004985	2.53749E-006	-0.058334	10
	4	22	63105.5	85.8383	-0.409391	1	85.8392	-0.27326	4.26484E-006	-0.058343	10
	5	26	56243.5	85.7228	-0.200958	1	85.7231	-0.134317	2.51309E-006	-0.058325	10
	6	30	50123.7	85.2085	-0.648754	1	85.211	-0.436225	2.61777E-006	-0.058375	10
	7	34	44681	85.4869	-0.596915	1	85.489	-0.400063	3.86371E-006	-0.058389	10
	8	38	39811.2	87.9359	1.49529	1	87.9486	0.97418	3.59296E-006	-0.058338	10
	9	42	35488.3	85.4798	-1.32884	1	85.4902	-0.890631	1.80392E-006	-0.058357	10
	10	46	31634.1	85.4538	-0.911806	1	85.4586	-0.611332	4.16786E-006	-0.058346	10
	11	50	28173.1	86.0195	-1.03612	1	86.0257	-0.690104	3.02038E-006	-0.058365	10
	12	54	25123.7	86.0273	-0.858826	1	86.0316	-0.571975	4.15745E-006	-0.058348	10
	13	58	22389.3	85.8106	-1.37903	1	85.8217	-0.920698	2.34278E-006	-0.058341	10
	14	62	19954.4	85.5342	-1.10965	1	85.5414	-0.743264	3.67483E-006	-0.058388	10
	15	66	17778.2	86.1716	-1.71928	1	86.1887	-1.14301	2.82726E-006	-0.058363	10
	16	71	15852.9	86.2642	-1.65566	1	86.2801	-1.09953	3.90252E-006	-0.05834	10
	17	74	14122.3	85.9871	-2.32357	1	86.0185	-1.54789	2.8455E-006	-0.058358	10
	18	78	12587.2	86.2975	-2.3627	1	86.3298	-1.56828	2.84795E-006	-0.058358	10
	19	82	11221.1	86.2912	-2.18644	1	86.3189	-1.45144	2.85788E-006	-0.058361	10
	20	86	9998.2	85.9412	-2.27111	1	85.9712	-1.51376	2.88622E-006	-0.058358	10
	21	91	8912.76	86.8045	-2.16235	1	86.8314	-1.42697	3.82987E-006	-0.058348	10
	22	95	7942.6	87.011	-1.81165	1	87.0298	-1.19278	2.77518E-006	-0.058367	10
	23	99	7078.05	87.8983	-2.54525	1	87.9351	-1.65864	2.59555E-006	-0.058359	10
	24	103	6311.1	87.2463	-2.27084	1	87.2759	-1.49096	2.69581E-006	-0.058354	10
	25	107	5622.14	86.6301	-3.04663	1	86.6837	-2.01416	2.7664E-006	-0.058362	10
	26	111	5011.18	87.1437	-3.64052	1	87.2197	-2.3922	2.80409E-006	-0.058357	10
	27	115	4465.21	87.3035	-3.74172	1	87.3837	-2.45412	2.76435E-006	-0.058345	10
	28	118	3980.93	87.5622	-4.25462	1	87.6656	-2.7818	3.91482E-006	-0.058342	10
	29	122	3548.18	87.69	-4.64921	1	87.8132	-3.03491	4.0114E-006	-0.058346	10
	30	126	3162.67	88.1049	-4.51013	1	88.2202	-2.93044	3.95166E-006	-0.058354	10
	31	130	2819.01	87.6524	-4.74635	1	87.7808	-3.09952	1.63854E-006	-0.058367	10
	32	134	2511.16	88.4549	-5.56743	1	88.63	-3.60149	2.8335E-006	-0.058357	10
	33	138	2238.63	88.5225	-6.44065	1	88.7565	-4.16135	2.85857E-006	-0.058356	10
	34	141	1995.37	88.9237	-6.27449	1	89.1448	-4.03612	2.79643E-006	-0.058363	10
	35	146	1778.51	88.7983	-6.6845	1	89.0495	-4.30496	2.72408E-006	-0.058363	10
	36	150	1584.49	89.2424	-7.39003	1	89.5479	-4.73378	2.70101E-006	-0.058363	10
	37	154	1412.76	89.5766	-8.55225	1	89.9839	-5.45374	3.15868E-006	-0.05835	10
	38	158	1259.04	90.2023	-8.41604	1	90.5941	-5.33037	2.60967E-006	-0.058367	10
	39	162	1121.63	90.1557	-9.5344	1	90.6585	-6.03686	2.64199E-006	-0.058371	10
	40	165	999.95	89.7513	-10.0432	1	90.3115	-6.38487	2.76057E-006	-0.05837	10
	41	170	891.184	91.0702	-11.0596	1	91.7393	-6.92411	2.69892E-006	-0.058375	10
	42	174	794.163	92.2395	-11.9296	1	93.0078	-7.36935	2.73663E-006	-0.058366	10
	43	178	707.867	91.6228	-13.6473	1	92.6336	-8.47196	3.77714E-006	-0.058358	10
	44	182	630.984	91.6621	-14.7225	1	92.837	-9.12475	2.78727E-006	-0.058359	10
	45	185	562.189	93.458	-15.6399	1	94.7576	-9.5002	2.01599E-006	-0.058352	10
	46	189	501.303	93.1872	-17.2354	1	94.7676	-10.4787	2.53258E-006	-0.05838	10
	47	191	446.614	93.5897	-18.9945	1	95.498	-11.4726	2.67654E-006	-0.058378	10
	48	193	398.209	94.2223	-20.7879	1	96.488	-12.4417	2.5749E-006	-0.058367	10
	49	195	354.821	94.9814	-22.8221	1	97.685	-13.5109	2.53324E-006	-0.058369	10
	50	197	316.113	95.696	-24.9336	1	98.891	-14.6037	2.6691E-006	-0.058361	10
	51	199	281.926	96.437	-27.3611	1	100.244	-15.8396	2.60791E-006	-0.058368	10
	52	201	251.185	97.324	-29.9233	1	101.82	-17.0906	1.15512E-006	-0.058369	9
	53	203	223.946	98.268	-32.6826	1	103.56	-18.3965	9.19297E-007	-0.058376	9
	54	205	199.495	99.2	-35.8663	1	105.485	-19.8778	9.92021E-007	-0.058376	9
