EXPLAIN
TAG	EISPOT
TITLE	LABEL	Tomato_open	Test &Identifier
DATE	LABEL	5/16/2006	Date
TIME	LABEL	15:32:05	Time
NOTES	NOTES	1	&Notes...
	
PSTAT	PSTAT	300	Potentiostat
VDC	POTEN	1.00000E-003	T	DC &Voltage (V)
FREQINIT	QUANT	1.00000E+005	Initial Fre&q. (Hz)
FREQFINAL	QUANT	1.00000E+001	Final Fre&q. (Hz)
PTSPERDEC	QUANT	2.00000E+001	Points/&decade
VAC	QUANT	1.00000E+000	AC &Voltage (mV rms)
AREA	QUANT	1.00000E+000	&Area (cm²)
DENSITY	QUANT	7.87000E+000	&Density (gm/cm³)
EQUIV	QUANT	7.00000E+000	Equiv. &Wt
CONDIT	TWOPARAM	F	6.00000E+001	0.00000E+000	Conditionin&g	Time(s)	E(V)
DELAY	TWOPARAM	T	6.00000E+001	0.00000E+000	Init. De&lay	Time(s)	Stab.(mV/s)
SPEED	SELECTOR	1	&Optimize for:
ZGUESS	QUANT	1.00000E+002	E&stimated Z (ohms)
OCVCURVE	TABLE	232
	Pt	T	Vf	Vm	Ach	Over
	#	s	V vs. Ref.	V	V	bits
	0	0.258332	7.69375E-002	3.86043E-006	2.36600E-004	......
	1	0.516663	7.68875E-002	3.86043E-006	2.36600E-004	......
	2	0.774994	7.68425E-002	3.86043E-006	2.36600E-004	......
	3	1.03333	7.67825E-002	3.86043E-006	3.36600E-004	......
	4	1.29166	7.67425E-002	3.86043E-006	2.36600E-004	......
	5	1.54999	7.66725E-002	3.86043E-006	3.36600E-004	......
	6	1.80832	7.66275E-002	3.86043E-006	3.36600E-004	......
	7	2.06665	7.65775E-002	3.86043E-006	3.36600E-004	......
	8	2.32498	7.65225E-002	3.86043E-006	3.36600E-004	......
	9	2.58332	7.64825E-002	3.86043E-006	1.36600E-004	......
	10	2.84165	7.64225E-002	3.86043E-006	3.36600E-004	......
	11	3.09998	7.63575E-002	3.86043E-006	2.36600E-004	......
	12	3.35831	7.63125E-002	3.86043E-006	1.36600E-004	......
	13	3.61664	7.62525E-002	3.86043E-006	2.36600E-004	......
	14	3.87497	7.62025E-002	3.86043E-006	3.36600E-004	......
	15	4.1333	7.61475E-002	3.86043E-006	3.36600E-004	......
	16	4.39164	7.60925E-002	3.86043E-006	1.36600E-004	......
	17	4.64997	7.60575E-002	3.86043E-006	2.36600E-004	......
	18	4.9083	7.59825E-002	3.86043E-006	2.36600E-004	......
	19	5.16663	7.59225E-002	3.86043E-006	1.36600E-004	......
	20	5.42496	7.58725E-002	3.86043E-006	2.36600E-004	......
	21	5.68329	7.58125E-002	3.86043E-006	3.36600E-004	......
	22	5.94162	7.57575E-002	3.86043E-006	2.36600E-004	......
	23	6.19996	7.57025E-002	3.86043E-006	2.36600E-004	......
	24	6.45829	7.56525E-002	3.86043E-006	2.36600E-004	......
	25	6.71662	7.55975E-002	3.86043E-006	3.66000E-005	......
	26	6.97495	7.55225E-002	3.86043E-006	3.36600E-004	......
	27	7.23328	7.54675E-002	3.86043E-006	1.36600E-004	......
	28	7.49161	7.54125E-002	3.86043E-006	1.36600E-004	......
	29	7.74995	7.53475E-002	3.86043E-006	3.36600E-004	......
	30	8.00828	7.53025E-002	3.86043E-006	2.36600E-004	......
	31	8.26661	7.52475E-002	3.86043E-006	2.36600E-004	......
	32	8.52494	7.51875E-002	3.86043E-006	2.36600E-004	......
	33	8.78327	7.51325E-002	3.86043E-006	2.36600E-004	......
	34	9.0416	7.50825E-002	3.86043E-006	2.36600E-004	......
	35	9.29993	7.50175E-002	3.86043E-006	1.36600E-004	......
	36	9.5583	7.49575E-002	3.86043E-006	2.36600E-004	......
	37	9.8166	7.49075E-002	3.86043E-006	3.66000E-005	......
	38	10.0749	7.48475E-002	3.86043E-006	2.36600E-004	......
	39	10.3333	7.47925E-002	3.86043E-006	2.36600E-004	......
	40	10.5916	7.47325E-002	3.86043E-006	2.36600E-004	......
	41	10.8499	7.46725E-002	3.86043E-006	3.36600E-004	......
	42	11.1083	7.46175E-002	3.86043E-006	2.36600E-004	......
	43	11.3666	7.45575E-002	3.86043E-006	2.36600E-004	......
	44	11.6249	7.45075E-002	3.86043E-006	2.36600E-004	......
	45	11.8832	7.44425E-002	3.86043E-006	3.36600E-004	......
	46	12.1416	7.43875E-002	3.86043E-006	2.36600E-004	......
	47	12.3999	7.43325E-002	3.86043E-006	1.36600E-004	......
	48	12.6582	7.42775E-002	3.86043E-006	1.36600E-004	......
	49	12.9166	7.42225E-002	3.86043E-006	2.36600E-004	......
	50	13.1749	7.41625E-002	3.86043E-006	3.36600E-004	......
	51	13.4332	7.40975E-002	3.86043E-006	3.36600E-004	......
	52	13.6916	7.40475E-002	3.86043E-006	3.36600E-004	......
	53	13.9499	7.39925E-002	3.86043E-006	2.36600E-004	......
	54	14.2082	7.39325E-002	3.86043E-006	2.36600E-004	......
	55	14.4666	7.38825E-002	3.86043E-006	2.36600E-004	......
	56	14.7249	7.38175E-002	3.86043E-006	3.36600E-004	......
	57	14.9832	7.37575E-002	3.86043E-006	2.36600E-004	......
	58	15.2416	7.37075E-002	3.86043E-006	3.66000E-005	......
	59	15.4999	7.36625E-002	3.86043E-006	1.36600E-004	......
	60	15.7582	7.36025E-002	3.86043E-006	2.36600E-004	......
	61	16.0166	7.35425E-002	3.86043E-006	2.36600E-004	......
	62	16.2749	7.34825E-002	3.86043E-006	2.36600E-004	......
	63	16.5332	7.34225E-002	3.86043E-006	2.36600E-004	......
	64	16.7915	7.33725E-002	3.86043E-006	3.36600E-004	......
	65	17.0499	7.33125E-002	3.86043E-006	3.36600E-004	......
	66	17.3082	7.32575E-002	3.86043E-006	1.36600E-004	......
	67	17.5665	7.32075E-002	3.86043E-006	2.36600E-004	......
	68	17.8249	7.31475E-002	3.86043E-006	2.36600E-004	......
	69	18.0832	7.30975E-002	3.86043E-006	2.36600E-004	......
	70	18.3415	7.30425E-002	3.86043E-006	2.36600E-004	......
	71	18.5999	7.29775E-002	3.86043E-006	2.36600E-004	......
	72	18.8582	7.29325E-002	3.86043E-006	1.36600E-004	......
	73	19.1165	7.28775E-002	3.86043E-006	2.36600E-004	......
	74	19.3749	7.28175E-002	3.86043E-006	3.36600E-004	......
	75	19.6332	7.27625E-002	3.86043E-006	2.36600E-004	......
	76	19.8915	7.27075E-002	3.86043E-006	2.36600E-004	......
	77	20.1499	7.26475E-002	3.86043E-006	2.36600E-004	......
	78	20.4082	7.25975E-002	3.86043E-006	2.36600E-004	......
	79	20.6665	7.25375E-002	3.86043E-006	2.36600E-004	......
	80	20.9249	7.24875E-002	3.86043E-006	2.36600E-004	......
	81	21.1832	7.24225E-002	3.86043E-006	2.36600E-004	......
	82	21.4415	7.23725E-002	3.86043E-006	2.36600E-004	......
	83	21.6998	7.23225E-002	3.86043E-006	1.36600E-004	......
	84	21.9582	7.22625E-002	3.86043E-006	2.36600E-004	......
	85	22.2165	7.22075E-002	3.86043E-006	3.66000E-005	......
	86	22.4748	7.21675E-002	3.86043E-006	2.36600E-004	......
	87	22.7332	7.21025E-002	3.86043E-006	2.36600E-004	......
	88	22.9915	7.20475E-002	3.86043E-006	3.36600E-004	......
	89	23.2498	7.20025E-002	3.86043E-006	1.36600E-004	......
	90	23.5082	7.19425E-002	3.86043E-006	2.36600E-004	......
	91	23.7665	7.18875E-002	3.86043E-006	2.36600E-004	......
	92	24.0248	7.18275E-002	3.86043E-006	3.36600E-004	......
	93	24.2832	7.17875E-002	3.86043E-006	2.36600E-004	......
	94	24.5415	7.17325E-002	3.86043E-006	3.36600E-004	......
	95	24.7998	7.16725E-002	3.86043E-006	2.36600E-004	......
	96	25.0582	7.16225E-002	3.86043E-006	3.36600E-004	......
	97	25.3165	7.15675E-002	3.86043E-006	2.36600E-004	......
	98	25.5748	7.15125E-002	3.86043E-006	1.36600E-004	......
	99	25.8332	7.14675E-002	3.86043E-006	2.36600E-004	......
	100	26.0915	7.14175E-002	3.86043E-006	3.36600E-004	......
	101	26.3498	7.13525E-002	3.86043E-006	4.36600E-004	......
	102	26.6081	7.13125E-002	3.86043E-006	2.36600E-004	......
	103	26.8665	7.12475E-002	3.86043E-006	2.36600E-004	......
	104	27.1248	7.11975E-002	3.86043E-006	2.36600E-004	......
	105	27.3831	7.11425E-002	3.86043E-006	2.36600E-004	......
	106	27.6415	7.10975E-002	3.86043E-006	3.36600E-004	......
	107	27.8998	7.10475E-002	3.86043E-006	2.36600E-004	......
	108	28.1581	7.09975E-002	3.86043E-006	3.66000E-005	......
	109	28.4165	7.09325E-002	3.86043E-006	1.36600E-004	......
	110	28.6748	7.08875E-002	3.86043E-006	2.36600E-004	......
	111	28.9331	7.08375E-002	3.86043E-006	2.36600E-004	......
	112	29.1915	7.07925E-002	3.86043E-006	3.66000E-005	......
	113	29.4498	7.07225E-002	3.86043E-006	2.36600E-004	......
	114	29.7081	7.06825E-002	3.86043E-006	2.36600E-004	......
	115	29.9665	7.06225E-002	3.86043E-006	2.36600E-004	......
	116	30.2248	7.05725E-002	3.86043E-006	2.36600E-004	......
	117	30.4831	7.05275E-002	3.86043E-006	3.36600E-004	......
	118	30.7414	7.04775E-002	3.86043E-006	3.36600E-004	......
	119	30.9998	7.04275E-002	3.86043E-006	1.36600E-004	......
	120	31.2581	7.03675E-002	3.86043E-006	2.36600E-004	......
	121	31.5164	7.03175E-002	3.86043E-006	3.36600E-004	......
	122	31.7748	7.02775E-002	3.86043E-006	3.36600E-004	......
	123	32.0331	7.02225E-002	3.86043E-006	2.36600E-004	......
	124	32.2914	7.01675E-002	3.86043E-006	2.36600E-004	......
	125	32.5498	7.01225E-002	3.86043E-006	3.36600E-004	......
	126	32.8081	7.00775E-002	3.86043E-006	2.36600E-004	......
	127	33.0664	7.00175E-002	3.86043E-006	2.36600E-004	......
	128	33.3248	6.99775E-002	3.86043E-006	2.36600E-004	......
	129	33.5831	6.99225E-002	3.86043E-006	3.36600E-004	......
	130	33.8414	6.98675E-002	3.86043E-006	2.36600E-004	......
	131	34.0998	6.98325E-002	3.86043E-006	3.36600E-004	......
	132	34.3581	6.97725E-002	3.86043E-006	2.36600E-004	......
	133	34.6164	6.97325E-002	3.86043E-006	2.36600E-004	......
	134	34.8748	6.96725E-002	3.86043E-006	3.36600E-004	......
	135	35.1331	6.96275E-002	3.86043E-006	2.36600E-004	......
	136	35.3914	6.95675E-002	3.86043E-006	1.36600E-004	......
	137	35.6497	6.95275E-002	3.86043E-006	1.36600E-004	......
	138	35.9081	6.94825E-002	3.86043E-006	3.36600E-004	......
	139	36.1664	6.94225E-002	3.86043E-006	1.36600E-004	......
	140	36.4247	6.93825E-002	3.86043E-006	2.36600E-004	......
	141	36.6831	6.93325E-002	3.86043E-006	3.66000E-005	......
	142	36.9414	6.92825E-002	3.86043E-006	2.36600E-004	......
	143	37.1997	6.92375E-002	3.86043E-006	3.66000E-005	......
	144	37.4581	6.91925E-002	3.86043E-006	3.36600E-004	......
	145	37.7164	6.91475E-002	3.86043E-006	2.36600E-004	......
	146	37.9747	6.90975E-002	3.86043E-006	2.36600E-004	......
	147	38.2331	6.90425E-002	3.86043E-006	3.36600E-004	......
	148	38.4914	6.90025E-002	3.86043E-006	1.36600E-004	......
	149	38.7497	6.89475E-002	3.86043E-006	2.36600E-004	......
	150	39.0081	6.88975E-002	3.86043E-006	2.36600E-004	......
	151	39.2664	6.88575E-002	3.86043E-006	2.36600E-004	......
	152	39.5247	6.88075E-002	3.86043E-006	2.36600E-004	......
	153	39.7831	6.87625E-002	3.86043E-006	2.36600E-004	......
	154	40.0414	6.87025E-002	3.86043E-006	1.36600E-004	......
	155	40.2997	6.86575E-002	3.86043E-006	2.36600E-004	......
	156	40.558	6.86075E-002	3.86043E-006	2.36600E-004	......
	157	40.8164	6.85625E-002	3.86043E-006	2.36600E-004	......
	158	41.0747	6.85175E-002	3.86043E-006	2.36600E-004	......
	159	41.333	6.84725E-002	3.86043E-006	1.36600E-004	......
	160	41.5914	6.84225E-002	3.86043E-006	2.36600E-004	......
	161	41.8497	6.83625E-002	3.86043E-006	3.36600E-004	......
	162	42.108	6.83275E-002	3.86043E-006	3.66000E-005	......
	163	42.3664	6.82875E-002	3.86043E-006	3.36600E-004	......
	164	42.6247	6.82425E-002	3.86043E-006	2.36600E-004	......
	165	42.883	6.81925E-002	3.86043E-006	2.36600E-004	......
	166	43.1414	6.81425E-002	3.86043E-006	1.36600E-004	......
	167	43.3997	6.81025E-002	3.86043E-006	2.36600E-004	......
	168	43.658	6.80425E-002	3.86043E-006	1.36600E-004	......
	169	43.9164	6.80025E-002	3.86043E-006	3.66000E-005	......
	170	44.1747	6.79675E-002	3.86043E-006	2.36600E-004	......
	171	44.433	6.79175E-002	3.86043E-006	2.36600E-004	......
	172	44.6913	6.78775E-002	3.86043E-006	2.36600E-004	......
	173	44.9497	6.78275E-002	3.86043E-006	2.36600E-004	......
	174	45.208	6.77875E-002	3.86043E-006	2.36600E-004	......
	175	45.4663	6.77375E-002	3.86043E-006	3.36600E-004	......
	176	45.7247	6.76875E-002	3.86043E-006	2.36600E-004	......
	177	45.983	6.76425E-002	3.86043E-006	2.36600E-004	......
	178	46.2413	6.76075E-002	3.86043E-006	2.36600E-004	......
	179	46.4997	6.75575E-002	3.86043E-006	2.36600E-004	......
	180	46.758	6.75125E-002	3.86043E-006	1.36600E-004	......
	181	47.0163	6.74675E-002	3.86043E-006	2.36600E-004	......
	182	47.2747	6.74175E-002	3.86043E-006	3.66000E-005	......
	183	47.533	6.73725E-002	3.86043E-006	2.36600E-004	......
	184	47.7913	6.73225E-002	3.86043E-006	2.36600E-004	......
	185	48.0497	6.72875E-002	3.86043E-006	2.36600E-004	......
	186	48.308	6.72475E-002	3.86043E-006	2.36600E-004	......
	187	48.5663	6.71925E-002	3.86043E-006	2.36600E-004	......
	188	48.8247	6.71575E-002	3.86043E-006	3.36600E-004	......
	189	49.083	6.71075E-002	3.86043E-006	3.36600E-004	......
	190	49.3413	6.70575E-002	3.86043E-006	1.36600E-004	......
	191	49.5996	6.70275E-002	3.86043E-006	2.36600E-004	......
	192	49.858	6.69775E-002	3.86043E-006	2.36600E-004	......
	193	50.1163	6.69375E-002	3.86043E-006	2.36600E-004	......
	194	50.3746	6.68975E-002	3.86043E-006	2.36600E-004	......
	195	50.633	6.68425E-002	3.86043E-006	1.36600E-004	......
	196	50.8913	6.68025E-002	3.86043E-006	3.36600E-004	......
	197	51.1496	6.67575E-002	3.86043E-006	2.36600E-004	......
	198	51.408	6.67225E-002	3.86043E-006	3.36600E-004	......
	199	51.6663	6.66725E-002	3.86043E-006	3.66000E-005	......
	200	51.9246	6.66325E-002	3.86043E-006	2.36600E-004	......
	201	52.183	6.65825E-002	3.86043E-006	2.36600E-004	......
	202	52.4413	6.65425E-002	3.86043E-006	2.36600E-004	......
	203	52.6996	6.64975E-002	3.86043E-006	3.36600E-004	......
	204	52.958	6.64575E-002	3.86043E-006	3.36600E-004	......
	205	53.2163	6.64225E-002	3.86043E-006	1.36600E-004	......
	206	53.4746	6.63775E-002	3.86043E-006	2.36600E-004	......
	207	53.733	6.63325E-002	3.86043E-006	3.66000E-005	......
	208	53.9913	6.62875E-002	3.86043E-006	1.36600E-004	......
	209	54.2496	6.62575E-002	3.86043E-006	2.36600E-004	......
	210	54.5079	6.62075E-002	3.86043E-006	4.36600E-004	......
	211	54.7663	6.61625E-002	3.86043E-006	1.36600E-004	......
	212	55.0246	6.61275E-002	3.86043E-006	3.36600E-004	......
	213	55.2829	6.60725E-002	3.86043E-006	3.36600E-004	......
	214	55.5413	6.60375E-002	3.86043E-006	2.36600E-004	......
	215	55.7996	6.59975E-002	3.86043E-006	3.36600E-004	......
	216	56.0579	6.59575E-002	3.86043E-006	1.36600E-004	......
	217	56.3163	6.59125E-002	3.86043E-006	2.36600E-004	......
	218	56.5746	6.58875E-002	3.86043E-006	2.36600E-004	......
	219	56.8329	6.58425E-002	3.86043E-006	3.36600E-004	......
	220	57.0913	6.57975E-002	3.86043E-006	2.36600E-004	......
	221	57.3496	6.57575E-002	3.86043E-006	3.66000E-005	......
	222	57.6079	6.57175E-002	3.86043E-006	2.36600E-004	......
	223	57.8663	6.56775E-002	3.86043E-006	1.36600E-004	......
	224	58.1246	6.56325E-002	3.86043E-006	2.36600E-004	......
	225	58.3829	6.55825E-002	3.86043E-006	3.36600E-004	......
	226	58.6413	6.55425E-002	3.86043E-006	1.36600E-004	......
	227	58.8996	6.55075E-002	3.86043E-006	2.36600E-004	......
	228	59.1579	6.54575E-002	3.86043E-006	2.36600E-004	......
	229	59.4162	6.54225E-002	3.86043E-006	2.36600E-004	......
	230	59.6746	6.53775E-002	3.86043E-006	2.36600E-004	......
	231	59.9329	6.53425E-002	3.86043E-006	1.36600E-004	......
EOC	QUANT	0.065343	Open Circuit (V)
PSTATMODEL	IQUANT	32	Pstat Model
PSTATSECTION	LABEL	PStat0	Pstat Section
CTRLMODE	IQUANT	1	Control Mode
IESTAB	IQUANT	0	I/E Stability
CASPEED	IQUANT	1	Control Amp Speed
CONVENTION	IQUANT	1	Current Convention
ICHRANGE	IQUANT	2	Ich Range
ICHRANGEMODE	TOGGLE	F	Ich Auto Range
ICHOFFSETENABLE	TOGGLE	T	Ich Offset Enable
ICHOFFSET	QUANT	0	Ich Offset (V)
ICHFILTER	IQUANT	3	Ich Filter
VCHRANGE	IQUANT	2	Vch Range
VCHRANGEMODE	TOGGLE	F	Vch Auto Range
VCHOFFSETENABLE	TOGGLE	T	Vch Offset Enable
VCHOFFSET	QUANT	0	Vch Offset (V)
VCHFILTER	IQUANT	3	Vch Filter
ACHRANGE	IQUANT	0	Ach Range
IERANGELOWERLIMIT	IQUANT	3	I/E Range Lower Limit
IERANGEMODE	TOGGLE	F	I/E AutoRange
IERANGE	IQUANT	11	I/E Range
POSFEEDENABLE	TOGGLE	F	Positive Feedback IR Comp
POSFEEDRESISTANCE	QUANT	0	Positive Feedback Resistance (ohm)
FC350IDIVISOR	IQUANT	0	FC350 I Divisor
FC350VRANGE	IQUANT	0	FC350 V Range
FRAMEWORKVERSION	QUANT	4.35	Framework Version
ZCURVE	TABLE
	Pt	Time	Freq	Zreal	Zimag	Zsig	Zmod	Zphz	Idc	Vdc	IERange
	#	s	Hz	ohm	ohm	V	ohm	°	A	V	#
	0	6	100007	59.8777	-0.39681	1	59.879	-0.379694	6.68967E-006	0.066415	10
	1	10	89134.1	59.4445	-0.136611	1	59.4446	-0.131673	5.34689E-006	0.066384	10
	2	15	79433.6	59.905	-0.032294	1	59.905	-0.030887	5.26657E-006	0.066386	10
	3	18	70800.8	59.8142	-0.435411	1	59.8158	-0.417071	6.39592E-006	0.066383	10
	4	22	63105.5	59.8508	-0.801754	1	59.8561	-0.767482	6.51425E-006	0.06638	10
	5	26	56243.5	59.6755	-0.385833	1	59.6768	-0.370442	6.62857E-006	0.06641	10
	6	29	50123.7	59.4018	-0.548855	1	59.4043	-0.529381	6.70109E-006	0.066406	10
	7	33	44681	59.2369	-0.568116	1	59.2396	-0.549483	6.71852E-006	0.066406	10
	8	37	39811.2	59.7885	-1.71882	1	59.8132	-1.6467	5.3595E-006	0.06638	10
	9	41	35488.3	59.4037	-0.408754	1	59.4051	-0.394243	6.6753E-006	0.066381	10
	10	45	31634.1	59.2093	-1.06887	1	59.219	-1.03421	6.48617E-006	0.066388	10
	11	48	28173.1	59.0506	-0.775887	1	59.0557	-0.752787	5.54293E-006	0.066408	10
	12	52	25123.7	59.1928	-0.9855	1	59.201	-0.95383	5.9242E-006	0.066422	10
	13	56	22389.3	59.0886	-1.02455	1	59.0975	-0.99336	4.82384E-006	0.066425	10
	14	61	19954.4	59.2241	-1.85043	1	59.253	-1.7896	4.36528E-006	0.06642	10
	15	65	17778.2	59.7767	-1.05538	1	59.786	-1.01147	5.48885E-006	0.066411	10
	16	67	15852.9	59.3359	-1.50312	1	59.355	-1.45113	6.42219E-006	0.066395	10
	17	71	14122.3	59.6953	-1.46246	1	59.7132	-1.4034	5.30714E-006	0.06641	10
	18	75	12587.2	59.7851	-1.72275	1	59.8099	-1.65056	5.32986E-006	0.066406	10
	19	79	11221.1	60.0454	-1.61138	1	60.067	-1.53722	5.24226E-006	0.066408	10
	20	83	9998.2	59.5465	-1.84585	1	59.5751	-1.77551	5.3622E-006	0.066419	10
	21	86	8912.76	59.6531	-2.4263	1	59.7024	-2.32913	6.34555E-006	0.066392	10
	22	90	7942.6	59.6922	-2.09018	1	59.7288	-2.00545	5.5011E-006	0.066415	10
	23	95	7078.05	60.3157	-2.57128	1	60.3705	-2.44106	5.48843E-006	0.06641	10
	24	99	6311.1	60.2857	-2.44987	1	60.3355	-2.32708	5.41677E-006	0.06642	10
	25	103	5622.14	59.8222	-2.86728	1	59.8909	-2.74409	5.40866E-006	0.066418	10
	26	107	5011.18	60.2113	-3.28793	1	60.301	-3.12561	5.27993E-006	0.066438	10
	27	109	4465.21	60.4733	-2.85486	1	60.5407	-2.70285	5.38951E-006	0.066423	10
	28	113	3980.93	60.8043	-3.77392	1	60.9213	-3.5516	4.60158E-006	0.066446	10
	29	117	3548.18	60.7094	-4.4042	1	60.8689	-4.14929	6.42976E-006	0.066435	10
	30	122	3162.67	60.8313	-4.48847	1	60.9967	-4.21995	4.18253E-006	0.066429	10
	31	126	2819.01	61.1773	-4.46837	1	61.3403	-4.17745	6.27547E-006	0.066399	10
	32	130	2511.16	61.211	-5.03717	1	61.418	-4.70438	5.48071E-006	0.066425	10
	33	132	2238.63	61.2705	-5.2033	1	61.491	-4.85411	5.48603E-006	0.066419	10
	34	136	1995.37	61.4399	-6.24692	1	61.7567	-5.80561	5.43423E-006	0.066418	10
	35	141	1778.51	61.7515	-7.26377	1	62.1773	-6.70882	5.41589E-006	0.066405	10
	36	145	1584.49	61.9967	-7.35292	1	62.4312	-6.76378	5.4073E-006	0.066406	10
	37	149	1412.76	61.8895	-7.86916	1	62.3878	-7.24619	4.23601E-006	0.066408	10
	38	153	1259.04	62.4212	-8.42888	1	62.9877	-7.69027	5.4055E-006	0.066416	10
	39	155	1121.63	62.2606	-9.14969	1	62.9293	-8.36023	5.30631E-006	0.066412	10
	40	159	999.95	62.9655	-10.3424	1	63.8092	-9.3278	5.34911E-006	0.066408	10
	41	164	891.184	62.807	-11.8865	1	63.9219	-10.7168	5.47042E-006	0.066411	10
	42	168	794.163	64.0051	-12.7905	1	65.2706	-11.3008	5.27043E-006	0.066412	10
	43	172	707.867	64.2097	-14.0017	1	65.7186	-12.3015	5.05505E-006	0.066389	10
	44	175	630.984	63.6744	-15.1088	1	65.4424	-13.3484	5.1573E-006	0.066403	10
	45	179	562.189	64.8155	-16.2235	1	66.8151	-14.0526	4.87013E-006	0.066378	10
	46	183	501.303	65.3985	-18.2074	1	67.8857	-15.5576	5.24732E-006	0.066403	10
	47	185	446.614	65.8834	-19.949	1	68.8374	-16.8459	5.25701E-006	0.066403	10
	48	187	398.209	66.4626	-21.9137	1	69.9821	-18.2482	5.23893E-006	0.0664	10
	49	189	354.821	67.0955	-24.0314	1	71.2693	-19.7059	5.20499E-006	0.066409	10
	50	191	316.113	67.7786	-26.369	1	72.7273	-21.2583	5.26757E-006	0.066403	10
	51	193	281.926	68.4894	-28.9382	1	74.352	-22.905	5.05335E-006	0.066393	10
	52	195	251.185	69.2793	-31.7985	1	76.2284	-24.6546	5.14835E-006	0.066397	10
	53	197	223.946	70.1511	-34.8231	1	78.3188	-26.3998	5.33719E-006	0.066404	10
	54	199	199.495	71.2095	-38.3201	1	80.8654	-28.2861	5.16202E-006	0.066412	10
	55	201	177.836	72.2372	-42.0884	1	83.6041	-30.2269	5.11705E-006	0.066399	10
	56	203	158.533	73.3481	-46.201	1	86.6861	-32.2063	5.29799E-006	0.066407	10
	57	205	141.263	74.736	-50.804	1	90.3688	-34.207	5.24863E-006	0.066398	10
	58	207	125.911	75.9747	-55.8238	1	94.2786	-36.3073	5.21832E-006	0.066396	10
	59	209	112.198	77.5068	-61.3146	1	98.827	-38.347	5.32555E-006	0.066401	10
