EXPLAIN
TAG	EISPOT
TITLE	LABEL	Tomato_open	Test &Identifier
DATE	LABEL	5/16/2006	Date
TIME	LABEL	15:53:11	Time
NOTES	NOTES	1	&Notes...
	
PSTAT	PSTAT	300	Potentiostat
VDC	POTEN	1.00000E-003	T	DC &Voltage (V)
FREQINIT	QUANT	1.00000E+005	Initial Fre&q. (Hz)
FREQFINAL	QUANT	1.00000E+001	Final Fre&q. (Hz)
PTSPERDEC	QUANT	2.00000E+001	Points/&decade
VAC	QUANT	1.00000E+000	AC &Voltage (mV rms)
AREA	QUANT	1.00000E+000	&Area (cm²)
DENSITY	QUANT	7.87000E+000	&Density (gm/cm³)
EQUIV	QUANT	7.00000E+000	Equiv. &Wt
CONDIT	TWOPARAM	F	6.00000E+001	0.00000E+000	Conditionin&g	Time(s)	E(V)
DELAY	TWOPARAM	T	6.00000E+001	0.00000E+000	Init. De&lay	Time(s)	Stab.(mV/s)
SPEED	SELECTOR	1	&Optimize for:
ZGUESS	QUANT	1.00000E+002	E&stimated Z (ohms)
OCVCURVE	TABLE	232
	Pt	T	Vf	Vm	Ach	Over
	#	s	V vs. Ref.	V	V	bits
	0	0.258332	6.74165E-003	3.31443E-006	1.36600E-004	......
	1	0.516663	6.63215E-003	3.31443E-006	-6.34000E-005	......
	2	0.774994	6.52415E-003	3.31443E-006	3.66000E-005	......
	3	1.03333	6.41915E-003	3.31443E-006	-1.63400E-004	......
	4	1.29166	6.31365E-003	3.31443E-006	3.66000E-005	......
	5	1.54999	6.20415E-003	3.31443E-006	-1.63400E-004	......
	6	1.80832	6.09565E-003	3.31443E-006	-6.34000E-005	......
	7	2.06665	5.99765E-003	3.31443E-006	-2.63400E-004	......
	8	2.32498	5.88665E-003	3.31443E-006	2.36600E-004	......
	9	2.58332	5.78265E-003	3.31443E-006	-1.63400E-004	......
	10	2.84165	5.67965E-003	3.31443E-006	3.66000E-005	......
	11	3.09998	5.57915E-003	3.31443E-006	-6.34000E-005	......
	12	3.35831	5.48115E-003	3.31443E-006	3.66000E-005	......
	13	3.61664	5.38465E-003	3.31443E-006	-6.34000E-005	......
	14	3.87497	5.27765E-003	3.31443E-006	3.66000E-005	......
	15	4.1333	5.18015E-003	3.31443E-006	-6.34000E-005	......
	16	4.39164	5.08765E-003	3.31443E-006	3.66000E-005	......
	17	4.64997	4.98615E-003	3.31443E-006	-6.34000E-005	......
	18	4.9083	4.89065E-003	3.31443E-006	3.66000E-005	......
	19	5.16663	4.79015E-003	3.31443E-006	-1.63400E-004	......
	20	5.42496	4.70515E-003	3.31443E-006	1.36600E-004	......
	21	5.68329	4.60915E-003	3.31443E-006	-1.63400E-004	......
	22	5.94162	4.51465E-003	3.31443E-006	3.66000E-005	......
	23	6.19996	4.42215E-003	3.31443E-006	-1.63400E-004	......
	24	6.45829	4.33615E-003	3.31443E-006	3.66000E-005	......
	25	6.71662	4.24065E-003	3.31443E-006	-6.34000E-005	......
	26	6.97495	4.15765E-003	3.31443E-006	3.66000E-005	......
	27	7.23328	4.06515E-003	3.31443E-006	3.66000E-005	......
	28	7.49161	3.98015E-003	3.31443E-006	-6.34000E-005	......
	29	7.74995	3.89065E-003	3.31443E-006	-1.63400E-004	......
	30	8.00828	3.80765E-003	3.31443E-006	3.66000E-005	......
	31	8.26661	3.73065E-003	3.31443E-006	-6.34000E-005	......
	32	8.52494	3.63615E-003	3.31443E-006	3.66000E-005	......
	33	8.78327	3.54715E-003	3.31443E-006	-1.63400E-004	......
	34	9.0416	3.46165E-003	3.31443E-006	3.66000E-005	......
	35	9.29993	3.38565E-003	3.31443E-006	-1.63400E-004	......
	36	9.5583	3.30515E-003	3.31443E-006	3.66000E-005	......
	37	9.8166	3.21865E-003	3.31443E-006	-6.34000E-005	......
	38	10.0749	3.13815E-003	3.31443E-006	3.66000E-005	......
	39	10.3333	3.05615E-003	3.31443E-006	-6.34000E-005	......
	40	10.5916	2.97715E-003	3.31443E-006	-6.34000E-005	......
	41	10.8499	2.89515E-003	3.31443E-006	-6.34000E-005	......
	42	11.1083	2.81815E-003	3.31443E-006	2.36600E-004	......
	43	11.3666	2.74215E-003	3.31443E-006	-1.63400E-004	......
	44	11.6249	2.66465E-003	3.31443E-006	1.36600E-004	......
	45	11.8832	2.59065E-003	3.31443E-006	-1.63400E-004	......
	46	12.1416	2.51915E-003	3.31443E-006	2.36600E-004	......
	47	12.3999	2.44265E-003	3.31443E-006	-1.63400E-004	......
	48	12.6582	2.36215E-003	3.31443E-006	3.66000E-005	......
	49	12.9166	2.28465E-003	3.31443E-006	-6.34000E-005	......
	50	13.1749	2.21215E-003	3.31443E-006	3.66000E-005	......
	51	13.4332	2.14715E-003	3.31443E-006	-1.63400E-004	......
	52	13.6916	2.07065E-003	3.31443E-006	1.36600E-004	......
	53	13.9499	1.99965E-003	3.31443E-006	-6.34000E-005	......
	54	14.2082	1.93065E-003	3.31443E-006	3.66000E-005	......
	55	14.4666	1.86115E-003	3.31443E-006	-1.63400E-004	......
	56	14.7249	1.78715E-003	3.31443E-006	2.36600E-004	......
	57	14.9832	1.71815E-003	3.31443E-006	-1.63400E-004	......
	58	15.2416	1.65065E-003	3.31443E-006	3.66000E-005	......
	59	15.4999	1.58265E-003	3.31443E-006	-1.63400E-004	......
	60	15.7582	1.51715E-003	3.31443E-006	3.66000E-005	......
	61	16.0166	1.44515E-003	3.31443E-006	-1.63400E-004	......
	62	16.2749	1.38065E-003	3.31443E-006	3.66000E-005	......
	63	16.5332	1.31215E-003	3.31443E-006	-1.63400E-004	......
	64	16.7915	1.25265E-003	3.31443E-006	3.66000E-005	......
	65	17.0499	1.18615E-003	3.31443E-006	-1.63400E-004	......
	66	17.3082	1.12165E-003	3.31443E-006	3.66000E-005	......
	67	17.5665	1.04915E-003	3.31443E-006	-6.34000E-005	......
	68	17.8249	9.98654E-004	3.31443E-006	3.66000E-005	......
	69	18.0832	9.32654E-004	3.31443E-006	-1.63400E-004	......
	70	18.3415	8.75654E-004	3.31443E-006	3.66000E-005	......
	71	18.5999	8.08654E-004	3.31443E-006	-6.34000E-005	......
	72	18.8582	7.49654E-004	3.31443E-006	2.36600E-004	......
	73	19.1165	6.89654E-004	3.31443E-006	-2.63400E-004	......
	74	19.3749	6.26654E-004	3.31443E-006	2.36600E-004	......
	75	19.6332	5.65154E-004	3.31443E-006	-1.63400E-004	......
	76	19.8915	5.00154E-004	3.31443E-006	3.66000E-005	......
	77	20.1499	4.52154E-004	3.31443E-006	-1.63400E-004	......
	78	20.4082	3.85654E-004	3.31443E-006	2.36600E-004	......
	79	20.6665	3.32654E-004	3.31443E-006	-6.34000E-005	......
	80	20.9249	2.72654E-004	3.31443E-006	-6.34000E-005	......
	81	21.1832	2.20654E-004	3.31443E-006	-1.63400E-004	......
	82	21.4415	1.61154E-004	3.31443E-006	1.36600E-004	......
	83	21.6998	1.12154E-004	3.31443E-006	-6.34000E-005	......
	84	21.9582	4.66539E-005	3.31443E-006	3.66000E-005	......
	85	22.2165	-1.43461E-005	3.31443E-006	-6.34000E-005	......
	86	22.4748	-6.93461E-005	3.31443E-006	-6.34000E-005	......
	87	22.7332	-1.24846E-004	3.31443E-006	-6.34000E-005	......
	88	22.9915	-1.68846E-004	3.31443E-006	3.66000E-005	......
	89	23.2498	-2.27346E-004	3.31443E-006	-1.63400E-004	......
	90	23.5082	-2.87846E-004	3.31443E-006	3.66000E-005	......
	91	23.7665	-3.38846E-004	3.31443E-006	-6.34000E-005	......
	92	24.0248	-3.84846E-004	3.31443E-006	3.66000E-005	......
	93	24.2832	-4.39846E-004	3.31443E-006	-6.34000E-005	......
	94	24.5415	-4.92346E-004	3.31443E-006	3.66000E-005	......
	95	24.7998	-5.39346E-004	3.31443E-006	-6.34000E-005	......
	96	25.0582	-5.98346E-004	3.31443E-006	3.66000E-005	......
	97	25.3165	-6.47346E-004	3.31443E-006	-1.63400E-004	......
	98	25.5748	-7.08346E-004	3.31443E-006	3.66000E-005	......
	99	25.8332	-7.55846E-004	3.31443E-006	-1.63400E-004	......
	100	26.0915	-8.10346E-004	3.31443E-006	2.36600E-004	......
	101	26.3498	-8.52346E-004	3.31443E-006	-1.63400E-004	......
	102	26.6081	-8.93846E-004	3.31443E-006	3.66000E-005	......
	103	26.8665	-9.55346E-004	3.31443E-006	-6.34000E-005	......
	104	27.1248	-9.94346E-004	3.31443E-006	3.66000E-005	......
	105	27.3831	-1.04485E-003	3.31443E-006	-6.34000E-005	......
	106	27.6415	-1.09835E-003	3.31443E-006	1.36600E-004	......
	107	27.8998	-1.15085E-003	3.31443E-006	-1.63400E-004	......
	108	28.1581	-1.19385E-003	3.31443E-006	2.36600E-004	......
	109	28.4165	-1.23685E-003	3.31443E-006	-6.34000E-005	......
	110	28.6748	-1.29185E-003	3.31443E-006	1.36600E-004	......
	111	28.9331	-1.32635E-003	3.31443E-006	-6.34000E-005	......
	112	29.1915	-1.38135E-003	3.31443E-006	3.66000E-005	......
	113	29.4498	-1.42435E-003	3.31443E-006	-6.34000E-005	......
	114	29.7081	-1.46685E-003	3.31443E-006	3.66000E-005	......
	115	29.9665	-1.51235E-003	3.31443E-006	-6.34000E-005	......
	116	30.2248	-1.56385E-003	3.31443E-006	3.66000E-005	......
	117	30.4831	-1.60335E-003	3.31443E-006	3.66000E-005	......
	118	30.7414	-1.65935E-003	3.31443E-006	2.36600E-004	......
	119	30.9998	-1.69735E-003	3.31443E-006	-1.63400E-004	......
	120	31.2581	-1.75385E-003	3.31443E-006	1.36600E-004	......
	121	31.5164	-1.78735E-003	3.31443E-006	-6.34000E-005	......
	122	31.7748	-1.83485E-003	3.31443E-006	3.66000E-005	......
	123	32.0331	-1.87335E-003	3.31443E-006	-1.63400E-004	......
	124	32.2914	-1.91835E-003	3.31443E-006	3.66000E-005	......
	125	32.5498	-1.95985E-003	3.31443E-006	-1.63400E-004	......
	126	32.8081	-2.00085E-003	3.31443E-006	2.36600E-004	......
	127	33.0664	-2.04885E-003	3.31443E-006	-6.34000E-005	......
	128	33.3248	-2.09185E-003	3.31443E-006	3.66000E-005	......
	129	33.5831	-2.13085E-003	3.31443E-006	-1.63400E-004	......
	130	33.8414	-2.17185E-003	3.31443E-006	3.66000E-005	......
	131	34.0998	-2.21435E-003	3.31443E-006	-1.63400E-004	......
	132	34.3581	-2.25885E-003	3.31443E-006	3.66000E-005	......
	133	34.6164	-2.30035E-003	3.31443E-006	-6.34000E-005	......
	134	34.8748	-2.34685E-003	3.31443E-006	3.66000E-005	......
	135	35.1331	-2.38335E-003	3.31443E-006	-6.34000E-005	......
	136	35.3914	-2.41785E-003	3.31443E-006	3.66000E-005	......
	137	35.6497	-2.46935E-003	3.31443E-006	-6.34000E-005	......
	138	35.9081	-2.50485E-003	3.31443E-006	1.36600E-004	......
	139	36.1664	-2.54235E-003	3.31443E-006	-6.34000E-005	......
	140	36.4247	-2.58585E-003	3.31443E-006	1.36600E-004	......
	141	36.6831	-2.62185E-003	3.31443E-006	3.66000E-005	......
	142	36.9414	-2.65785E-003	3.31443E-006	1.36600E-004	......
	143	37.1997	-2.69885E-003	3.31443E-006	3.66000E-005	......
	144	37.4581	-2.73235E-003	3.31443E-006	3.66000E-005	......
	145	37.7164	-2.77735E-003	3.31443E-006	-1.63400E-004	......
	146	37.9747	-2.80885E-003	3.31443E-006	3.66000E-005	......
	147	38.2331	-2.85035E-003	3.31443E-006	-1.63400E-004	......
	148	38.4914	-2.89885E-003	3.31443E-006	2.36600E-004	......
	149	38.7497	-2.93185E-003	3.31443E-006	-1.63400E-004	......
	150	39.0081	-2.96735E-003	3.31443E-006	3.66000E-005	......
	151	39.2664	-3.00235E-003	3.31443E-006	-6.34000E-005	......
	152	39.5247	-3.04285E-003	3.31443E-006	2.36600E-004	......
	153	39.7831	-3.07735E-003	3.31443E-006	-1.63400E-004	......
	154	40.0414	-3.11335E-003	3.31443E-006	1.36600E-004	......
	155	40.2997	-3.15285E-003	3.31443E-006	-1.63400E-004	......
	156	40.558	-3.18835E-003	3.31443E-006	1.36600E-004	......
	157	40.8164	-3.22785E-003	3.31443E-006	-1.63400E-004	......
	158	41.0747	-3.26035E-003	3.31443E-006	1.36600E-004	......
	159	41.333	-3.30135E-003	3.31443E-006	-6.34000E-005	......
	160	41.5914	-3.32785E-003	3.31443E-006	-6.34000E-005	......
	161	41.8497	-3.37035E-003	3.31443E-006	-1.63400E-004	......
	162	42.108	-3.41135E-003	3.31443E-006	2.36600E-004	......
	163	42.3664	-3.43785E-003	3.31443E-006	-1.63400E-004	......
	164	42.6247	-3.46985E-003	3.31443E-006	2.36600E-004	......
	165	42.883	-3.50935E-003	3.31443E-006	-6.34000E-005	......
	166	43.1414	-3.54085E-003	3.31443E-006	1.36600E-004	......
	167	43.3997	-3.58485E-003	3.31443E-006	-1.63400E-004	......
	168	43.658	-3.62435E-003	3.31443E-006	3.66000E-005	......
	169	43.9164	-3.65435E-003	3.31443E-006	-1.63400E-004	......
	170	44.1747	-3.68285E-003	3.31443E-006	1.36600E-004	......
	171	44.433	-3.71935E-003	3.31443E-006	-1.63400E-004	......
	172	44.6913	-3.75035E-003	3.31443E-006	3.66000E-005	......
	173	44.9497	-3.78185E-003	3.31443E-006	-1.63400E-004	......
	174	45.208	-3.81985E-003	3.31443E-006	1.36600E-004	......
	175	45.4663	-3.84685E-003	3.31443E-006	3.66000E-005	......
	176	45.7247	-3.88635E-003	3.31443E-006	2.36600E-004	......
	177	45.983	-3.91485E-003	3.31443E-006	3.66000E-005	......
	178	46.2413	-3.94635E-003	3.31443E-006	1.36600E-004	......
	179	46.4997	-3.97835E-003	3.31443E-006	-1.63400E-004	......
	180	46.758	-4.01235E-003	3.31443E-006	3.66000E-005	......
	181	47.0163	-4.04335E-003	3.31443E-006	-6.34000E-005	......
	182	47.2747	-4.08085E-003	3.31443E-006	1.36600E-004	......
	183	47.533	-4.11285E-003	3.31443E-006	-1.63400E-004	......
	184	47.7913	-4.14335E-003	3.31443E-006	2.36600E-004	......
	185	48.0497	-4.17635E-003	3.31443E-006	-1.63400E-004	......
	186	48.308	-4.20835E-003	3.31443E-006	2.36600E-004	......
	187	48.5663	-4.23885E-003	3.31443E-006	-1.63400E-004	......
	188	48.8247	-4.26835E-003	3.31443E-006	3.66000E-005	......
	189	49.083	-4.29585E-003	3.31443E-006	-6.34000E-005	......
	190	49.3413	-4.31835E-003	3.31443E-006	3.66000E-005	......
	191	49.5996	-4.35685E-003	3.31443E-006	-6.34000E-005	......
	192	49.858	-4.39585E-003	3.31443E-006	3.66000E-005	......
	193	50.1163	-4.42135E-003	3.31443E-006	-6.34000E-005	......
	194	50.3746	-4.45435E-003	3.31443E-006	-6.34000E-005	......
	195	50.633	-4.47485E-003	3.31443E-006	-1.63400E-004	......
	196	50.8913	-4.50735E-003	3.31443E-006	1.36600E-004	......
	197	51.1496	-4.54185E-003	3.31443E-006	-6.34000E-005	......
	198	51.408	-4.57535E-003	3.31443E-006	3.66000E-005	......
	199	51.6663	-4.59685E-003	3.31443E-006	-1.63400E-004	......
	200	51.9246	-4.62685E-003	3.31443E-006	-6.34000E-005	......
	201	52.183	-4.65635E-003	3.31443E-006	-1.63400E-004	......
	202	52.4413	-4.69385E-003	3.31443E-006	3.66000E-005	......
	203	52.6996	-4.71235E-003	3.31443E-006	-1.63400E-004	......
	204	52.958	-4.74035E-003	3.31443E-006	3.66000E-005	......
	205	53.2163	-4.77635E-003	3.31443E-006	-1.63400E-004	......
	206	53.4746	-4.80785E-003	3.31443E-006	3.66000E-005	......
	207	53.733	-4.82985E-003	3.31443E-006	-6.34000E-005	......
	208	53.9913	-4.86635E-003	3.31443E-006	2.36600E-004	......
	209	54.2496	-4.89035E-003	3.31443E-006	3.66000E-005	......
	210	54.5079	-4.92035E-003	3.31443E-006	3.66000E-005	......
	211	54.7663	-4.94785E-003	3.31443E-006	-6.34000E-005	......
	212	55.0246	-4.98035E-003	3.31443E-006	3.66000E-005	......
	213	55.2829	-5.00785E-003	3.31443E-006	-6.34000E-005	......
	214	55.5413	-5.02785E-003	3.31443E-006	1.36600E-004	......
	215	55.7996	-5.06035E-003	3.31443E-006	-6.34000E-005	......
	216	56.0579	-5.07935E-003	3.31443E-006	-6.34000E-005	......
	217	56.3163	-5.11685E-003	3.31443E-006	-6.34000E-005	......
	218	56.5746	-5.13635E-003	3.31443E-006	3.66000E-005	......
	219	56.8329	-5.15985E-003	3.31443E-006	-6.34000E-005	......
	220	57.0913	-5.19035E-003	3.31443E-006	3.66000E-005	......
	221	57.3496	-5.22385E-003	3.31443E-006	-1.63400E-004	......
	222	57.6079	-5.24785E-003	3.31443E-006	3.66000E-005	......
	223	57.8663	-5.27685E-003	3.31443E-006	-6.34000E-005	......
	224	58.1246	-5.29135E-003	3.31443E-006	3.66000E-005	......
	225	58.3829	-5.33335E-003	3.31443E-006	-6.34000E-005	......
	226	58.6413	-5.34635E-003	3.31443E-006	1.36600E-004	......
	227	58.8996	-5.38285E-003	3.31443E-006	-6.34000E-005	......
	228	59.1579	-5.40785E-003	3.31443E-006	3.66000E-005	......
	229	59.4162	-5.43235E-003	3.31443E-006	-1.63400E-004	......
	230	59.6746	-5.45735E-003	3.31443E-006	3.66000E-005	......
	231	59.9329	-5.48835E-003	3.31443E-006	3.66000E-005	......
EOC	QUANT	-0.005488	Open Circuit (V)
PSTATMODEL	IQUANT	32	Pstat Model
PSTATSECTION	LABEL	PStat0	Pstat Section
CTRLMODE	IQUANT	1	Control Mode
IESTAB	IQUANT	0	I/E Stability
CASPEED	IQUANT	1	Control Amp Speed
CONVENTION	IQUANT	1	Current Convention
ICHRANGE	IQUANT	2	Ich Range
ICHRANGEMODE	TOGGLE	F	Ich Auto Range
ICHOFFSETENABLE	TOGGLE	T	Ich Offset Enable
ICHOFFSET	QUANT	0	Ich Offset (V)
ICHFILTER	IQUANT	3	Ich Filter
VCHRANGE	IQUANT	2	Vch Range
VCHRANGEMODE	TOGGLE	F	Vch Auto Range
VCHOFFSETENABLE	TOGGLE	T	Vch Offset Enable
VCHOFFSET	QUANT	0	Vch Offset (V)
VCHFILTER	IQUANT	3	Vch Filter
ACHRANGE	IQUANT	0	Ach Range
IERANGELOWERLIMIT	IQUANT	3	I/E Range Lower Limit
IERANGEMODE	TOGGLE	F	I/E AutoRange
IERANGE	IQUANT	11	I/E Range
POSFEEDENABLE	TOGGLE	F	Positive Feedback IR Comp
POSFEEDRESISTANCE	QUANT	0	Positive Feedback Resistance (ohm)
FC350IDIVISOR	IQUANT	0	FC350 I Divisor
FC350VRANGE	IQUANT	0	FC350 V Range
FRAMEWORKVERSION	QUANT	4.35	Framework Version
ZCURVE	TABLE
	Pt	Time	Freq	Zreal	Zimag	Zsig	Zmod	Zphz	Idc	Vdc	IERange
	#	s	Hz	ohm	ohm	V	ohm	°	A	V	#
	0	7	100007	59.7152	0.100799	1	59.7153	0.096715	3.71492E-006	-0.004365	10
	1	11	89134.1	59.0922	-0.190177	1	59.0925	-0.184395	3.64729E-006	-0.004365	10
	2	15	79433.6	59.4902	-0.008928	1	59.4902	-0.008599	4.37995E-006	-0.004369	10
	3	18	70800.8	59.7454	-0.146372	1	59.7455	-0.140371	2.98816E-006	-0.004409	10
	4	22	63105.5	59.449	-0.395209	1	59.4503	-0.380889	3.13198E-006	-0.004408	10
	5	26	56243.5	59.626	-0.174822	1	59.6262	-0.16799	2.12394E-006	-0.004379	10
	6	29	50123.7	59.4497	-0.385583	1	59.4509	-0.371608	4.26585E-006	-0.004379	10
	7	34	44681	59.3175	-0.330528	1	59.3185	-0.319259	4.29914E-006	-0.004373	10
	8	38	39811.2	58.0212	-1.45602	1	58.0395	-1.43751	4.18766E-006	-0.004404	10
	9	42	35488.3	59.2598	-0.272288	1	59.2604	-0.263262	4.13501E-006	-0.004402	10
	10	46	31634.1	59.2779	-0.247831	1	59.2784	-0.239543	2.51352E-006	-0.004365	10
	11	50	28173.1	59.0007	-0.694548	1	59.0048	-0.674447	3.20579E-006	-0.004385	10
	12	54	25123.7	59.7415	-1.01491	1	59.7502	-0.97327	4.05378E-006	-0.004403	10
	13	58	22389.3	59.4863	-1.12166	1	59.4968	-1.08023	2.90858E-006	-0.004401	10
	14	62	19954.4	59.2082	-0.77676	1	59.2133	-0.751627	4.19667E-006	-0.004361	10
	15	66	17778.2	59.7207	-1.16271	1	59.732	-1.11536	3.13987E-006	-0.004359	10
	16	69	15852.9	59.702	-1.53586	1	59.7218	-1.47364	2.84229E-006	-0.0044	10
	17	73	14122.3	59.9678	-1.54319	1	59.9876	-1.47411	3.16905E-006	-0.004379	10
	18	77	12587.2	59.5791	-1.90019	1	59.6094	-1.82674	3.10461E-006	-0.004377	10
	19	81	11221.1	59.8666	-1.80407	1	59.8937	-1.72608	3.29354E-006	-0.00438	10
	20	86	9998.2	60.0272	-1.92954	1	60.0582	-1.8411	3.24406E-006	-0.004376	10
	21	88	8912.76	59.5385	-1.61984	1	59.5605	-1.55844	4.23004E-006	-0.004369	10
	22	92	7942.6	59.7151	-2.39344	1	59.763	-2.29524	3.07311E-006	-0.004383	10
	23	96	7078.05	60.0024	-2.56184	1	60.0571	-2.44479	3.08335E-006	-0.004389	10
	24	100	6311.1	60.1904	-3.04625	1	60.2674	-2.89728	2.99662E-006	-0.004395	10
	25	104	5622.14	60.5473	-2.76853	1	60.6105	-2.61803	2.90922E-006	-0.004386	10
	26	108	5011.18	60.5892	-3.32952	1	60.6806	-3.14538	2.96259E-006	-0.004392	10
	27	111	4465.21	60.4575	-3.0954	1	60.5367	-2.93096	3.06793E-006	-0.004389	10
	28	115	3980.93	60.8495	-3.37884	1	60.9433	-3.17824	2.09592E-006	-0.004368	10
	29	119	3548.18	61.0518	-4.03455	1	61.1849	-3.78084	3.72473E-006	-0.004408	10
	30	123	3162.67	60.7752	-4.29192	1	60.9266	-4.03949	3.36773E-006	-0.004378	10
	31	127	2819.01	61.3729	-4.23195	1	61.5186	-3.94457	2.11965E-006	-0.004388	10
	32	131	2511.16	61.2966	-4.74742	1	61.4802	-4.42872	2.82429E-006	-0.0044	10
	33	134	2238.63	61.3721	-5.26049	1	61.5971	-4.89912	2.94979E-006	-0.004396	10
	34	138	1995.37	61.0871	-6.16813	1	61.3977	-5.76577	2.98152E-006	-0.004394	10
	35	142	1778.51	61.7039	-6.70882	1	62.0676	-6.20516	3.02806E-006	-0.004395	10
	36	146	1584.49	62.0746	-6.86324	1	62.4528	-6.30925	2.81423E-006	-0.004396	10
	37	150	1412.76	62.3348	-7.76496	1	62.8165	-7.10069	3.72348E-006	-0.004414	10
	38	154	1259.04	62.0782	-8.54242	1	62.6632	-7.83512	2.83305E-006	-0.004397	10
	39	158	1121.63	62.7422	-9.35398	1	63.4356	-8.47954	2.95211E-006	-0.0044	10
	40	162	999.95	63.385	-9.5627	1	64.1023	-8.57934	3.03177E-006	-0.004398	10
	41	166	891.184	63.2834	-11.0128	1	64.2345	-9.872	2.95287E-006	-0.004403	10
	42	170	794.163	64.6861	-12.3192	1	65.8487	-10.7826	3.01516E-006	-0.004404	10
	43	174	707.867	64.0932	-13.4826	1	65.496	-11.8795	2.08013E-006	-0.004374	10
	44	177	630.984	64.6761	-14.448	1	66.2702	-12.5926	2.98321E-006	-0.004399	10
	45	181	562.189	65.4063	-15.7736	1	67.2814	-13.5587	1.67421E-006	-0.004389	10
	46	185	501.303	65.5172	-17.3546	1	67.7767	-14.8361	2.89635E-006	-0.004397	10
	47	187	446.614	66.0643	-19.0137	1	68.7459	-16.0561	2.8768E-006	-0.004396	10
	48	189	398.209	66.596	-20.8575	1	69.7858	-17.3902	2.96754E-006	-0.004388	10
	49	191	354.821	67.2228	-22.853	1	71.0012	-18.7759	2.85646E-006	-0.004392	10
	50	193	316.113	67.8612	-25.0758	1	72.346	-20.2801	2.86799E-006	-0.004395	10
	51	195	281.926	68.671	-27.495	1	73.9708	-21.8205	2.84838E-006	-0.004393	10
	52	197	251.185	69.4941	-30.087	1	75.7276	-23.4099	2.81672E-006	-0.004395	10
	53	199	223.946	70.3858	-33.0087	1	77.7415	-25.1251	2.96115E-006	-0.004401	10
	54	201	199.495	71.2749	-36.2506	1	79.9639	-26.958	2.95358E-006	-0.00439	10
	55	203	177.836	72.3588	-39.7502	1	82.5583	-28.7821	2.80437E-006	-0.004395	10
