EXPLAIN
TAG	EISPOT
TITLE	LABEL	Tomato_open	Test &Identifier
DATE	LABEL	5/16/2006	Date
TIME	LABEL	15:39:37	Time
NOTES	NOTES	1	&Notes...
	
PSTAT	PSTAT	300	Potentiostat
VDC	POTEN	1.00000E-003	T	DC &Voltage (V)
FREQINIT	QUANT	1.00000E+005	Initial Fre&q. (Hz)
FREQFINAL	QUANT	1.00000E+001	Final Fre&q. (Hz)
PTSPERDEC	QUANT	2.00000E+001	Points/&decade
VAC	QUANT	1.00000E+000	AC &Voltage (mV rms)
AREA	QUANT	1.00000E+000	&Area (cm²)
DENSITY	QUANT	7.87000E+000	&Density (gm/cm³)
EQUIV	QUANT	7.00000E+000	Equiv. &Wt
CONDIT	TWOPARAM	F	6.00000E+001	0.00000E+000	Conditionin&g	Time(s)	E(V)
DELAY	TWOPARAM	T	6.00000E+001	0.00000E+000	Init. De&lay	Time(s)	Stab.(mV/s)
SPEED	SELECTOR	1	&Optimize for:
ZGUESS	QUANT	1.00000E+002	E&stimated Z (ohms)
OCVCURVE	TABLE	232
	Pt	T	Vf	Vm	Ach	Over
	#	s	V vs. Ref.	V	V	bits
	0	0.258332	6.16765E-003	3.22743E-006	-1.63400E-004	......
	1	0.516663	6.10865E-003	3.22743E-006	3.66000E-005	......
	2	0.774994	6.05715E-003	3.22743E-006	-1.63400E-004	......
	3	1.03333	6.00165E-003	3.22743E-006	3.66000E-005	......
	4	1.29166	5.95765E-003	3.22743E-006	-1.63400E-004	......
	5	1.54999	5.89665E-003	3.22743E-006	3.66000E-005	......
	6	1.80832	5.84665E-003	3.22743E-006	-1.63400E-004	......
	7	2.06665	5.80365E-003	3.22743E-006	3.66000E-005	......
	8	2.32498	5.74365E-003	3.22743E-006	-1.63400E-004	......
	9	2.58332	5.70515E-003	3.22743E-006	3.66000E-005	......
	10	2.84165	5.64115E-003	3.22743E-006	-1.63400E-004	......
	11	3.09998	5.58965E-003	3.22743E-006	3.66000E-005	......
	12	3.35831	5.54315E-003	3.22743E-006	-1.63400E-004	......
	13	3.61664	5.49515E-003	3.22743E-006	2.36600E-004	......
	14	3.87497	5.44315E-003	3.22743E-006	-6.34000E-005	......
	15	4.1333	5.38965E-003	3.22743E-006	3.66000E-005	......
	16	4.39164	5.34265E-003	3.22743E-006	-1.63400E-004	......
	17	4.64997	5.29265E-003	3.22743E-006	3.66000E-005	......
	18	4.9083	5.24715E-003	3.22743E-006	-6.34000E-005	......
	19	5.16663	5.19065E-003	3.22743E-006	3.66000E-005	......
	20	5.42496	5.13915E-003	3.22743E-006	-6.34000E-005	......
	21	5.68329	5.08465E-003	3.22743E-006	1.36600E-004	......
	22	5.94162	5.04415E-003	3.22743E-006	-6.34000E-005	......
	23	6.19996	4.98865E-003	3.22743E-006	2.36600E-004	......
	24	6.45829	4.94865E-003	3.22743E-006	-6.34000E-005	......
	25	6.71662	4.89815E-003	3.22743E-006	3.66000E-005	......
	26	6.97495	4.85015E-003	3.22743E-006	-6.34000E-005	......
	27	7.23328	4.80215E-003	3.22743E-006	1.36600E-004	......
	28	7.49161	4.75365E-003	3.22743E-006	-1.63400E-004	......
	29	7.74995	4.70815E-003	3.22743E-006	2.36600E-004	......
	30	8.00828	4.66415E-003	3.22743E-006	-6.34000E-005	......
	31	8.26661	4.61565E-003	3.22743E-006	1.36600E-004	......
	32	8.52494	4.56365E-003	3.22743E-006	-1.63400E-004	......
	33	8.78327	4.51665E-003	3.22743E-006	3.66000E-005	......
	34	9.0416	4.47065E-003	3.22743E-006	-1.63400E-004	......
	35	9.29993	4.41615E-003	3.22743E-006	2.36600E-004	......
	36	9.5583	4.37565E-003	3.22743E-006	-2.63400E-004	......
	37	9.8166	4.32015E-003	3.22743E-006	3.66000E-005	......
	38	10.0749	4.28315E-003	3.22743E-006	-6.34000E-005	......
	39	10.3333	4.23215E-003	3.22743E-006	3.66000E-005	......
	40	10.5916	4.18915E-003	3.22743E-006	-6.34000E-005	......
	41	10.8499	4.13865E-003	3.22743E-006	3.66000E-005	......
	42	11.1083	4.10065E-003	3.22743E-006	-1.63400E-004	......
	43	11.3666	4.04915E-003	3.22743E-006	3.66000E-005	......
	44	11.6249	4.00415E-003	3.22743E-006	-1.63400E-004	......
	45	11.8832	3.96565E-003	3.22743E-006	3.66000E-005	......
	46	12.1416	3.93015E-003	3.22743E-006	-6.34000E-005	......
	47	12.3999	3.87915E-003	3.22743E-006	3.66000E-005	......
	48	12.6582	3.83615E-003	3.22743E-006	-6.34000E-005	......
	49	12.9166	3.79165E-003	3.22743E-006	3.66000E-005	......
	50	13.1749	3.75215E-003	3.22743E-006	-1.63400E-004	......
	51	13.4332	3.70415E-003	3.22743E-006	3.66000E-005	......
	52	13.6916	3.66515E-003	3.22743E-006	-6.34000E-005	......
	53	13.9499	3.62915E-003	3.22743E-006	-6.34000E-005	......
	54	14.2082	3.57365E-003	3.22743E-006	-1.63400E-004	......
	55	14.4666	3.53565E-003	3.22743E-006	1.36600E-004	......
	56	14.7249	3.49065E-003	3.22743E-006	-1.63400E-004	......
	57	14.9832	3.45165E-003	3.22743E-006	3.66000E-005	......
	58	15.2416	3.41815E-003	3.22743E-006	-6.34000E-005	......
	59	15.4999	3.36715E-003	3.22743E-006	1.36600E-004	......
	60	15.7582	3.33265E-003	3.22743E-006	-1.63400E-004	......
	61	16.0166	3.29165E-003	3.22743E-006	3.66000E-005	......
	62	16.2749	3.25015E-003	3.22743E-006	-6.34000E-005	......
	63	16.5332	3.20565E-003	3.22743E-006	1.36600E-004	......
	64	16.7915	3.17665E-003	3.22743E-006	-1.63400E-004	......
	65	17.0499	3.13015E-003	3.22743E-006	1.36600E-004	......
	66	17.3082	3.08215E-003	3.22743E-006	-1.63400E-004	......
	67	17.5665	3.03915E-003	3.22743E-006	3.66000E-005	......
	68	17.8249	3.00915E-003	3.22743E-006	-6.34000E-005	......
	69	18.0832	2.96565E-003	3.22743E-006	3.66000E-005	......
	70	18.3415	2.92565E-003	3.22743E-006	3.66000E-005	......
	71	18.5999	2.88415E-003	3.22743E-006	2.36600E-004	......
	72	18.8582	2.85515E-003	3.22743E-006	-1.63400E-004	......
	73	19.1165	2.80815E-003	3.22743E-006	3.66000E-005	......
	74	19.3749	2.77215E-003	3.22743E-006	3.66000E-005	......
	75	19.6332	2.73615E-003	3.22743E-006	2.36600E-004	......
	76	19.8915	2.69965E-003	3.22743E-006	-1.63400E-004	......
	77	20.1499	2.65965E-003	3.22743E-006	1.36600E-004	......
	78	20.4082	2.62265E-003	3.22743E-006	3.66000E-005	......
	79	20.6665	2.58665E-003	3.22743E-006	3.66000E-005	......
	80	20.9249	2.54965E-003	3.22743E-006	-1.63400E-004	......
	81	21.1832	2.50765E-003	3.22743E-006	1.36600E-004	......
	82	21.4415	2.46715E-003	3.22743E-006	-6.34000E-005	......
	83	21.6998	2.44165E-003	3.22743E-006	3.66000E-005	......
	84	21.9582	2.40215E-003	3.22743E-006	-1.63400E-004	......
	85	22.2165	2.35665E-003	3.22743E-006	3.66000E-005	......
	86	22.4748	2.32515E-003	3.22743E-006	-2.63400E-004	......
	87	22.7332	2.28965E-003	3.22743E-006	-6.34000E-005	......
	88	22.9915	2.26165E-003	3.22743E-006	-1.63400E-004	......
	89	23.2498	2.22115E-003	3.22743E-006	3.66000E-005	......
	90	23.5082	2.18015E-003	3.22743E-006	-6.34000E-005	......
	91	23.7665	2.13965E-003	3.22743E-006	3.66000E-005	......
	92	24.0248	2.10665E-003	3.22743E-006	-6.34000E-005	......
	93	24.2832	2.07065E-003	3.22743E-006	1.36600E-004	......
	94	24.5415	2.04265E-003	3.22743E-006	-6.34000E-005	......
	95	24.7998	2.00765E-003	3.22743E-006	3.66000E-005	......
	96	25.0582	1.97865E-003	3.22743E-006	-6.34000E-005	......
	97	25.3165	1.94215E-003	3.22743E-006	1.36600E-004	......
	98	25.5748	1.90415E-003	3.22743E-006	-2.63400E-004	......
	99	25.8332	1.86565E-003	3.22743E-006	3.66000E-005	......
	100	26.0915	1.83715E-003	3.22743E-006	-6.34000E-005	......
	101	26.3498	1.80515E-003	3.22743E-006	3.66000E-005	......
	102	26.6081	1.76765E-003	3.22743E-006	-1.63400E-004	......
	103	26.8665	1.74165E-003	3.22743E-006	1.36600E-004	......
	104	27.1248	1.70515E-003	3.22743E-006	3.66000E-005	......
	105	27.3831	1.67165E-003	3.22743E-006	3.66000E-005	......
	106	27.6415	1.64515E-003	3.22743E-006	-6.34000E-005	......
	107	27.8998	1.60365E-003	3.22743E-006	3.66000E-005	......
	108	28.1581	1.57065E-003	3.22743E-006	-1.63400E-004	......
	109	28.4165	1.53865E-003	3.22743E-006	3.66000E-005	......
	110	28.6748	1.50415E-003	3.22743E-006	-1.63400E-004	......
	111	28.9331	1.47415E-003	3.22743E-006	3.66000E-005	......
	112	29.1915	1.44315E-003	3.22743E-006	-6.34000E-005	......
	113	29.4498	1.41565E-003	3.22743E-006	3.66000E-005	......
	114	29.7081	1.37565E-003	3.22743E-006	-6.34000E-005	......
	115	29.9665	1.34065E-003	3.22743E-006	2.36600E-004	......
	116	30.2248	1.31415E-003	3.22743E-006	-1.63400E-004	......
	117	30.4831	1.27715E-003	3.22743E-006	3.66000E-005	......
	118	30.7414	1.24865E-003	3.22743E-006	-6.34000E-005	......
	119	30.9998	1.23065E-003	3.22743E-006	3.66000E-005	......
	120	31.2581	1.19015E-003	3.22743E-006	-1.63400E-004	......
	121	31.5164	1.15615E-003	3.22743E-006	2.36600E-004	......
	122	31.7748	1.13565E-003	3.22743E-006	-1.63400E-004	......
	123	32.0331	1.09815E-003	3.22743E-006	3.66000E-005	......
	124	32.2914	1.06915E-003	3.22743E-006	-6.34000E-005	......
	125	32.5498	1.04315E-003	3.22743E-006	3.66000E-005	......
	126	32.8081	1.01415E-003	3.22743E-006	3.66000E-005	......
	127	33.0664	9.85154E-004	3.22743E-006	3.66000E-005	......
	128	33.3248	9.57154E-004	3.22743E-006	3.66000E-005	......
	129	33.5831	9.13654E-004	3.22743E-006	3.66000E-005	......
	130	33.8414	8.84654E-004	3.22743E-006	-6.34000E-005	......
	131	34.0998	8.64154E-004	3.22743E-006	3.66000E-005	......
	132	34.3581	8.44654E-004	3.22743E-006	-6.34000E-005	......
	133	34.6164	8.07654E-004	3.22743E-006	-6.34000E-005	......
	134	34.8748	7.80654E-004	3.22743E-006	-6.34000E-005	......
	135	35.1331	7.52654E-004	3.22743E-006	-6.34000E-005	......
	136	35.3914	7.33154E-004	3.22743E-006	3.66000E-005	......
	137	35.6497	6.86154E-004	3.22743E-006	1.36600E-004	......
	138	35.9081	6.63654E-004	3.22743E-006	-1.63400E-004	......
	139	36.1664	6.33654E-004	3.22743E-006	2.36600E-004	......
	140	36.4247	6.10654E-004	3.22743E-006	-6.34000E-005	......
	141	36.6831	5.77654E-004	3.22743E-006	3.66000E-005	......
	142	36.9414	5.52654E-004	3.22743E-006	-1.63400E-004	......
	143	37.1997	5.24154E-004	3.22743E-006	3.66000E-005	......
	144	37.4581	4.95654E-004	3.22743E-006	-6.34000E-005	......
	145	37.7164	4.66654E-004	3.22743E-006	3.66000E-005	......
	146	37.9747	4.43154E-004	3.22743E-006	-6.34000E-005	......
	147	38.2331	4.12154E-004	3.22743E-006	1.36600E-004	......
	148	38.4914	3.83654E-004	3.22743E-006	-6.34000E-005	......
	149	38.7497	3.62654E-004	3.22743E-006	3.66000E-005	......
	150	39.0081	3.39154E-004	3.22743E-006	-1.63400E-004	......
	151	39.2664	3.10154E-004	3.22743E-006	3.66000E-005	......
	152	39.5247	2.92154E-004	3.22743E-006	-1.63400E-004	......
	153	39.7831	2.62154E-004	3.22743E-006	1.36600E-004	......
	154	40.0414	2.29654E-004	3.22743E-006	-1.63400E-004	......
	155	40.2997	2.01154E-004	3.22743E-006	3.66000E-005	......
	156	40.558	1.79154E-004	3.22743E-006	-6.34000E-005	......
	157	40.8164	1.57654E-004	3.22743E-006	3.66000E-005	......
	158	41.0747	1.21154E-004	3.22743E-006	-1.63400E-004	......
	159	41.333	1.02154E-004	3.22743E-006	-6.34000E-005	......
	160	41.5914	8.21539E-005	3.22743E-006	-6.34000E-005	......
	161	41.8497	5.36539E-005	3.22743E-006	2.36600E-004	......
	162	42.108	1.71539E-005	3.22743E-006	-1.63400E-004	......
	163	42.3664	5.65392E-006	3.22743E-006	3.66000E-005	......
	164	42.6247	-2.58461E-005	3.22743E-006	-1.63400E-004	......
	165	42.883	-5.13461E-005	3.22743E-006	3.66000E-005	......
	166	43.1414	-7.68461E-005	3.22743E-006	-6.34000E-005	......
	167	43.3997	-1.06846E-004	3.22743E-006	3.66000E-005	......
	168	43.658	-1.24846E-004	3.22743E-006	-6.34000E-005	......
	169	43.9164	-1.52846E-004	3.22743E-006	1.36600E-004	......
	170	44.1747	-1.76846E-004	3.22743E-006	-6.34000E-005	......
	171	44.433	-1.94846E-004	3.22743E-006	3.66000E-005	......
	172	44.6913	-2.30846E-004	3.22743E-006	-1.63400E-004	......
	173	44.9497	-2.45346E-004	3.22743E-006	1.36600E-004	......
	174	45.208	-2.71346E-004	3.22743E-006	-6.34000E-005	......
	175	45.4663	-2.98346E-004	3.22743E-006	3.66000E-005	......
	176	45.7247	-3.18846E-004	3.22743E-006	-1.63400E-004	......
	177	45.983	-3.47346E-004	3.22743E-006	-1.63400E-004	......
	178	46.2413	-3.75346E-004	3.22743E-006	-1.63400E-004	......
	179	46.4997	-3.95346E-004	3.22743E-006	3.66000E-005	......
	180	46.758	-4.21846E-004	3.22743E-006	-1.63400E-004	......
	181	47.0163	-4.38846E-004	3.22743E-006	3.66000E-005	......
	182	47.2747	-4.69346E-004	3.22743E-006	-6.34000E-005	......
	183	47.533	-4.84346E-004	3.22743E-006	3.66000E-005	......
	184	47.7913	-5.14846E-004	3.22743E-006	-1.63400E-004	......
	185	48.0497	-5.35346E-004	3.22743E-006	-6.34000E-005	......
	186	48.308	-5.56346E-004	3.22743E-006	-1.63400E-004	......
	187	48.5663	-5.77846E-004	3.22743E-006	3.66000E-005	......
	188	48.8247	-6.02846E-004	3.22743E-006	3.66000E-005	......
	189	49.083	-6.35346E-004	3.22743E-006	3.66000E-005	......
	190	49.3413	-6.58346E-004	3.22743E-006	-6.34000E-005	......
	191	49.5996	-6.71846E-004	3.22743E-006	3.66000E-005	......
	192	49.858	-6.98346E-004	3.22743E-006	-1.63400E-004	......
	193	50.1163	-7.12846E-004	3.22743E-006	1.36600E-004	......
	194	50.3746	-7.38346E-004	3.22743E-006	-6.34000E-005	......
	195	50.633	-7.58346E-004	3.22743E-006	3.66000E-005	......
	196	50.8913	-7.82846E-004	3.22743E-006	-1.63400E-004	......
	197	51.1496	-7.97346E-004	3.22743E-006	3.66000E-005	......
	198	51.408	-8.30846E-004	3.22743E-006	-1.63400E-004	......
	199	51.6663	-8.47846E-004	3.22743E-006	3.66000E-005	......
	200	51.9246	-8.66346E-004	3.22743E-006	-6.34000E-005	......
	201	52.183	-8.90846E-004	3.22743E-006	1.36600E-004	......
	202	52.4413	-9.14346E-004	3.22743E-006	-1.63400E-004	......
	203	52.6996	-9.34846E-004	3.22743E-006	3.66000E-005	......
	204	52.958	-9.61846E-004	3.22743E-006	-1.63400E-004	......
	205	53.2163	-9.85846E-004	3.22743E-006	3.66000E-005	......
	206	53.4746	-9.96346E-004	3.22743E-006	-1.63400E-004	......
	207	53.733	-1.01585E-003	3.22743E-006	3.66000E-005	......
	208	53.9913	-1.03535E-003	3.22743E-006	-6.34000E-005	......
	209	54.2496	-1.06785E-003	3.22743E-006	-6.34000E-005	......
	210	54.5079	-1.09085E-003	3.22743E-006	-6.34000E-005	......
	211	54.7663	-1.10635E-003	3.22743E-006	-6.34000E-005	......
	212	55.0246	-1.12435E-003	3.22743E-006	-1.63400E-004	......
	213	55.2829	-1.14135E-003	3.22743E-006	3.66000E-005	......
	214	55.5413	-1.16935E-003	3.22743E-006	-6.34000E-005	......
	215	55.7996	-1.18785E-003	3.22743E-006	3.66000E-005	......
	216	56.0579	-1.21135E-003	3.22743E-006	-6.34000E-005	......
	217	56.3163	-1.21935E-003	3.22743E-006	3.66000E-005	......
	218	56.5746	-1.25085E-003	3.22743E-006	3.66000E-005	......
	219	56.8329	-1.26885E-003	3.22743E-006	3.66000E-005	......
	220	57.0913	-1.28085E-003	3.22743E-006	-1.63400E-004	......
	221	57.3496	-1.30335E-003	3.22743E-006	3.66000E-005	......
	222	57.6079	-1.32335E-003	3.22743E-006	-2.63400E-004	......
	223	57.8663	-1.35235E-003	3.22743E-006	3.66000E-005	......
	224	58.1246	-1.36835E-003	3.22743E-006	-1.63400E-004	......
	225	58.3829	-1.39085E-003	3.22743E-006	3.66000E-005	......
	226	58.6413	-1.40935E-003	3.22743E-006	-1.63400E-004	......
	227	58.8996	-1.42285E-003	3.22743E-006	2.36600E-004	......
	228	59.1579	-1.44735E-003	3.22743E-006	-6.34000E-005	......
	229	59.4162	-1.46235E-003	3.22743E-006	1.36600E-004	......
	230	59.6746	-1.48485E-003	3.22743E-006	-6.34000E-005	......
	231	59.9329	-1.51385E-003	3.22743E-006	1.36600E-004	......
EOC	QUANT	-0.001514	Open Circuit (V)
PSTATMODEL	IQUANT	32	Pstat Model
PSTATSECTION	LABEL	PStat0	Pstat Section
CTRLMODE	IQUANT	1	Control Mode
IESTAB	IQUANT	0	I/E Stability
CASPEED	IQUANT	1	Control Amp Speed
CONVENTION	IQUANT	1	Current Convention
ICHRANGE	IQUANT	2	Ich Range
ICHRANGEMODE	TOGGLE	F	Ich Auto Range
ICHOFFSETENABLE	TOGGLE	T	Ich Offset Enable
ICHOFFSET	QUANT	0	Ich Offset (V)
ICHFILTER	IQUANT	3	Ich Filter
VCHRANGE	IQUANT	2	Vch Range
VCHRANGEMODE	TOGGLE	F	Vch Auto Range
VCHOFFSETENABLE	TOGGLE	T	Vch Offset Enable
VCHOFFSET	QUANT	0	Vch Offset (V)
VCHFILTER	IQUANT	3	Vch Filter
ACHRANGE	IQUANT	0	Ach Range
IERANGELOWERLIMIT	IQUANT	3	I/E Range Lower Limit
IERANGEMODE	TOGGLE	F	I/E AutoRange
IERANGE	IQUANT	11	I/E Range
POSFEEDENABLE	TOGGLE	F	Positive Feedback IR Comp
POSFEEDRESISTANCE	QUANT	0	Positive Feedback Resistance (ohm)
FC350IDIVISOR	IQUANT	0	FC350 I Divisor
FC350VRANGE	IQUANT	0	FC350 V Range
FRAMEWORKVERSION	QUANT	4.35	Framework Version
ZCURVE	TABLE
	Pt	Time	Freq	Zreal	Zimag	Zsig	Zmod	Zphz	Idc	Vdc	IERange
	#	s	Hz	ohm	ohm	V	ohm	°	A	V	#
	0	6	100007	59.4176	-0.031211	1	59.4176	-0.030097	6.07657E-006	-0.000366	10
	1	10	89134.1	59.3206	0.499606	1	59.3227	0.482541	4.68844E-006	-0.000384	10
	2	14	79433.6	59.2797	-0.660775	1	59.2834	-0.638634	5.97707E-006	-0.000356	10
	3	17	70800.8	59.3811	-0.469141	1	59.383	-0.452657	4.95011E-006	-0.00036	10
	4	21	63105.5	58.5727	-0.479206	1	58.5746	-0.468748	4.54812E-006	-0.000372	10
	5	25	56243.5	59.0627	-0.300452	1	59.0634	-0.291461	6.58261E-006	-0.000385	10
	6	28	50123.7	58.9119	-0.753319	1	58.9167	-0.732614	4.48769E-006	-0.000369	10
	7	32	44681	58.9488	-0.905697	1	58.9558	-0.88023	6.74774E-006	-0.000354	10
	8	36	39811.2	59.9648	-1.15191	1	59.9759	-1.10051	4.52507E-006	-0.00037	10
	9	41	35488.3	58.7713	-0.655552	1	58.7749	-0.639068	6.71702E-006	-0.000356	10
	10	44	31634.1	58.6447	-0.735864	1	58.6493	-0.718901	6.81162E-006	-0.000363	10
	11	48	28173.1	58.8658	-1.1866	1	58.8778	-1.15479	5.65114E-006	-0.00037	10
	12	52	25123.7	58.8334	-1.20687	1	58.8458	-1.17516	6.51407E-006	-0.000385	10
	13	56	22389.3	59.1807	-0.689319	1	59.1847	-0.667334	6.6986E-006	-0.000354	10
	14	60	19954.4	58.6773	-1.11841	1	58.6879	-1.09195	4.86604E-006	-0.000345	10
	15	64	17778.2	58.8772	-1.0082	1	58.8859	-0.98102	5.57813E-006	-0.000355	10
	16	66	15852.9	59.164	-1.13054	1	59.1748	-1.09471	5.35338E-006	-0.000385	10
	17	71	14122.3	59.0643	-1.25682	1	59.0777	-1.21901	5.56498E-006	-0.000368	10
	18	75	12587.2	58.9732	-1.83992	1	59.0019	-1.78701	5.53108E-006	-0.000363	10
	19	79	11221.1	59.6644	-1.97759	1	59.6971	-1.89839	5.49465E-006	-0.000355	10
	20	83	9998.2	58.9118	-1.6849	1	58.9358	-1.63824	5.32783E-006	-0.000351	10
	21	87	8912.76	59.4325	-2.0584	1	59.4682	-1.9836	5.78808E-006	-0.000329	10
	22	90	7942.6	59.2554	-2.7807	1	59.3206	-2.68678	5.43674E-006	-0.000356	10
	23	94	7078.05	59.4711	-2.32881	1	59.5167	-2.24248	5.52419E-006	-0.000357	10
	24	98	6311.1	59.634	-2.58406	1	59.69	-2.48119	5.51594E-006	-0.000358	10
	25	102	5622.14	59.495	-2.70529	1	59.5565	-2.6035	5.33583E-006	-0.000352	10
	26	106	5011.18	59.5148	-3.02455	1	59.5916	-2.90928	5.47314E-006	-0.000349	10
	27	109	4465.21	59.6358	-3.14817	1	59.7188	-3.02183	5.43464E-006	-0.000357	10
	28	113	3980.93	59.4089	-3.51564	1	59.5129	-3.38664	6.25078E-006	-0.000371	10
	29	117	3548.18	60.4067	-3.77823	1	60.5248	-3.57899	6.31837E-006	-0.000339	10
	30	121	3162.67	60.0671	-4.43892	1	60.2309	-4.22644	5.19988E-006	-0.000384	10
	31	125	2819.01	60.138	-4.84272	1	60.3327	-4.60391	5.68294E-006	-0.000335	10
	32	129	2511.16	61.0751	-5.20681	1	61.2966	-4.87283	5.42048E-006	-0.000344	10
	33	132	2238.63	60.6538	-5.18492	1	60.875	-4.88599	5.29467E-006	-0.000349	10
	34	136	1995.37	60.5495	-6.24843	1	60.8711	-5.8918	5.41843E-006	-0.00035	10
	35	140	1778.51	60.8897	-6.81333	1	61.2697	-6.38462	5.18005E-006	-0.00035	10
	36	144	1584.49	61.8614	-7.39684	1	62.302	-6.81855	5.34484E-006	-0.000355	10
	37	148	1412.76	61.2645	-7.79332	1	61.7582	-7.24953	5.61097E-006	-0.000332	10
	38	151	1259.04	61.5463	-9.10212	1	62.2157	-8.41253	5.32446E-006	-0.000357	10
	39	155	1121.63	62.2169	-9.20648	1	62.8944	-8.4172	5.29688E-006	-0.000363	10
	40	159	999.95	62.6919	-9.8706	1	63.4641	-8.94759	5.19703E-006	-0.00036	10
	41	163	891.184	63.0949	-11.3902	1	64.1148	-10.2331	5.22747E-006	-0.000367	10
	42	168	794.163	62.8906	-12.3995	1	64.1013	-11.1534	5.19622E-006	-0.000361	10
	43	172	707.867	63.6153	-13.5195	1	65.036	-11.998	4.47122E-006	-0.000339	10
	44	175	630.984	64.0398	-14.9945	1	65.7718	-13.178	5.13875E-006	-0.000357	10
	45	179	562.189	64.3342	-16.0272	1	66.3005	-13.989	5.49837E-006	-0.000339	10
	46	183	501.303	64.8047	-17.5547	1	67.1403	-15.1569	5.21435E-006	-0.000369	10
	47	185	446.614	65.336	-19.257	1	68.1148	-16.4222	5.31769E-006	-0.000359	10
	48	187	398.209	65.9234	-21.0508	1	69.2028	-17.7094	5.21651E-006	-0.00036	10
	49	189	354.821	66.5344	-23.1012	1	70.4307	-19.1474	5.3113E-006	-0.000351	10
	50	191	316.113	67.2098	-25.2907	1	71.8107	-20.6211	5.18085E-006	-0.000364	10
	51	193	281.926	67.9722	-27.814	1	73.4427	-22.2542	5.1693E-006	-0.000366	10
	52	195	251.185	68.7483	-30.5498	1	75.2305	-23.959	5.19724E-006	-0.000366	10
	53	197	223.946	69.6758	-33.4861	1	77.3048	-25.6689	5.09604E-006	-0.000368	10
	54	199	199.495	70.6054	-36.7589	1	79.6011	-27.5026	5.33769E-006	-0.000353	10
	55	201	177.836	71.6557	-40.2616	1	82.192	-29.3306	5.13688E-006	-0.000361	10
	56	203	158.533	72.6696	-44.2849	1	85.1001	-31.3582	5.39002E-006	-0.000357	10
