EXPLAIN
TAG	EISPOT
TITLE	LABEL	Tomato_open	Test &Identifier
DATE	LABEL	5/16/2006	Date
TIME	LABEL	16:00:14	Time
NOTES	NOTES	1	&Notes...
	
PSTAT	PSTAT	300	Potentiostat
VDC	POTEN	1.00000E-003	T	DC &Voltage (V)
FREQINIT	QUANT	1.00000E+005	Initial Fre&q. (Hz)
FREQFINAL	QUANT	1.00000E+001	Final Fre&q. (Hz)
PTSPERDEC	QUANT	2.00000E+001	Points/&decade
VAC	QUANT	1.00000E+000	AC &Voltage (mV rms)
AREA	QUANT	1.00000E+000	&Area (cm²)
DENSITY	QUANT	7.87000E+000	&Density (gm/cm³)
EQUIV	QUANT	7.00000E+000	Equiv. &Wt
CONDIT	TWOPARAM	F	6.00000E+001	0.00000E+000	Conditionin&g	Time(s)	E(V)
DELAY	TWOPARAM	T	6.00000E+001	0.00000E+000	Init. De&lay	Time(s)	Stab.(mV/s)
SPEED	SELECTOR	1	&Optimize for:
ZGUESS	QUANT	1.00000E+002	E&stimated Z (ohms)
OCVCURVE	TABLE	232
	Pt	T	Vf	Vm	Ach	Over
	#	s	V vs. Ref.	V	V	bits
	0	0.258332	-2.70075E-002	3.30443E-006	2.36600E-004	......
	1	0.516663	-2.70675E-002	3.30443E-006	-1.63400E-004	......
	2	0.774994	-2.71525E-002	3.30443E-006	1.36600E-004	......
	3	1.03333	-2.72275E-002	3.30443E-006	-1.63400E-004	......
	4	1.29166	-2.73075E-002	3.30443E-006	3.66000E-005	......
	5	1.54999	-2.73775E-002	3.30443E-006	-1.63400E-004	......
	6	1.80832	-2.74525E-002	3.30443E-006	3.66000E-005	......
	7	2.06665	-2.75325E-002	3.30443E-006	-1.63400E-004	......
	8	2.32498	-2.76175E-002	3.30443E-006	-6.34000E-005	......
	9	2.58332	-2.76775E-002	3.30443E-006	-1.63400E-004	......
	10	2.84165	-2.77675E-002	3.30443E-006	1.36600E-004	......
	11	3.09998	-2.78425E-002	3.30443E-006	-1.63400E-004	......
	12	3.35831	-2.79125E-002	3.30443E-006	2.36600E-004	......
	13	3.61664	-2.79875E-002	3.30443E-006	-1.63400E-004	......
	14	3.87497	-2.80625E-002	3.30443E-006	3.66000E-005	......
	15	4.1333	-2.81425E-002	3.30443E-006	-1.63400E-004	......
	16	4.39164	-2.82125E-002	3.30443E-006	3.66000E-005	......
	17	4.64997	-2.82825E-002	3.30443E-006	-1.63400E-004	......
	18	4.9083	-2.83575E-002	3.30443E-006	3.66000E-005	......
	19	5.16663	-2.84225E-002	3.30443E-006	-1.63400E-004	......
	20	5.42496	-2.84975E-002	3.30443E-006	3.66000E-005	......
	21	5.68329	-2.85625E-002	3.30443E-006	-1.63400E-004	......
	22	5.94162	-2.86475E-002	3.30443E-006	1.36600E-004	......
	23	6.19996	-2.87175E-002	3.30443E-006	-6.34000E-005	......
	24	6.45829	-2.87725E-002	3.30443E-006	2.36600E-004	......
	25	6.71662	-2.88475E-002	3.30443E-006	-6.34000E-005	......
	26	6.97495	-2.89075E-002	3.30443E-006	-6.34000E-005	......
	27	7.23328	-2.89825E-002	3.30443E-006	3.66000E-005	......
	28	7.49161	-2.90425E-002	3.30443E-006	-6.34000E-005	......
	29	7.74995	-2.91025E-002	3.30443E-006	-6.34000E-005	......
	30	8.00828	-2.91725E-002	3.30443E-006	-6.34000E-005	......
	31	8.26661	-2.92375E-002	3.30443E-006	-6.34000E-005	......
	32	8.52494	-2.93025E-002	3.30443E-006	3.36600E-004	......
	33	8.78327	-2.93625E-002	3.30443E-006	-6.34000E-005	......
	34	9.0416	-2.94175E-002	3.30443E-006	3.66000E-005	......
	35	9.29993	-2.94725E-002	3.30443E-006	-1.63400E-004	......
	36	9.5583	-2.95375E-002	3.30443E-006	3.66000E-005	......
	37	9.8166	-2.96025E-002	3.30443E-006	-1.63400E-004	......
	38	10.0749	-2.96625E-002	3.30443E-006	3.66000E-005	......
	39	10.3333	-2.97175E-002	3.30443E-006	-1.63400E-004	......
	40	10.5916	-2.97775E-002	3.30443E-006	2.36600E-004	......
	41	10.8499	-2.98375E-002	3.30443E-006	-6.34000E-005	......
	42	11.1083	-2.98925E-002	3.30443E-006	2.36600E-004	......
	43	11.3666	-2.99425E-002	3.30443E-006	-1.63400E-004	......
	44	11.6249	-3.00075E-002	3.30443E-006	2.36600E-004	......
	45	11.8832	-3.00575E-002	3.30443E-006	-1.63400E-004	......
	46	12.1416	-3.01125E-002	3.30443E-006	1.36600E-004	......
	47	12.3999	-3.01525E-002	3.30443E-006	-1.63400E-004	......
	48	12.6582	-3.02125E-002	3.30443E-006	3.66000E-005	......
	49	12.9166	-3.02625E-002	3.30443E-006	-6.34000E-005	......
	50	13.1749	-3.03175E-002	3.30443E-006	3.66000E-005	......
	51	13.4332	-3.03625E-002	3.30443E-006	-1.63400E-004	......
	52	13.6916	-3.04125E-002	3.30443E-006	3.66000E-005	......
	53	13.9499	-3.04625E-002	3.30443E-006	-1.63400E-004	......
	54	14.2082	-3.05225E-002	3.30443E-006	2.36600E-004	......
	55	14.4666	-3.05725E-002	3.30443E-006	-1.63400E-004	......
	56	14.7249	-3.06225E-002	3.30443E-006	3.66000E-005	......
	57	14.9832	-3.06675E-002	3.30443E-006	-1.63400E-004	......
	58	15.2416	-3.07125E-002	3.30443E-006	3.66000E-005	......
	59	15.4999	-3.07575E-002	3.30443E-006	-6.34000E-005	......
	60	15.7582	-3.08025E-002	3.30443E-006	2.36600E-004	......
	61	16.0166	-3.08575E-002	3.30443E-006	-6.34000E-005	......
	62	16.2749	-3.08925E-002	3.30443E-006	3.66000E-005	......
	63	16.5332	-3.09375E-002	3.30443E-006	-1.63400E-004	......
	64	16.7915	-3.09825E-002	3.30443E-006	2.36600E-004	......
	65	17.0499	-3.10375E-002	3.30443E-006	-6.34000E-005	......
	66	17.3082	-3.10675E-002	3.30443E-006	3.66000E-005	......
	67	17.5665	-3.11125E-002	3.30443E-006	-2.63400E-004	......
	68	17.8249	-3.11625E-002	3.30443E-006	-6.34000E-005	......
	69	18.0832	-3.12125E-002	3.30443E-006	-6.34000E-005	......
	70	18.3415	-3.12475E-002	3.30443E-006	2.36600E-004	......
	71	18.5999	-3.12925E-002	3.30443E-006	-6.34000E-005	......
	72	18.8582	-3.13375E-002	3.30443E-006	2.36600E-004	......
	73	19.1165	-3.13725E-002	3.30443E-006	-6.34000E-005	......
	74	19.3749	-3.14225E-002	3.30443E-006	-6.34000E-005	......
	75	19.6332	-3.14525E-002	3.30443E-006	-6.34000E-005	......
	76	19.8915	-3.14975E-002	3.30443E-006	2.36600E-004	......
	77	20.1499	-3.15425E-002	3.30443E-006	-6.34000E-005	......
	78	20.4082	-3.15825E-002	3.30443E-006	3.66000E-005	......
	79	20.6665	-3.16125E-002	3.30443E-006	-6.34000E-005	......
	80	20.9249	-3.16575E-002	3.30443E-006	1.36600E-004	......
	81	21.1832	-3.16925E-002	3.30443E-006	-6.34000E-005	......
	82	21.4415	-3.17275E-002	3.30443E-006	1.36600E-004	......
	83	21.6998	-3.17775E-002	3.30443E-006	-6.34000E-005	......
	84	21.9582	-3.18075E-002	3.30443E-006	3.66000E-005	......
	85	22.2165	-3.18525E-002	3.30443E-006	-6.34000E-005	......
	86	22.4748	-3.18875E-002	3.30443E-006	3.66000E-005	......
	87	22.7332	-3.19225E-002	3.30443E-006	-1.63400E-004	......
	88	22.9915	-3.19525E-002	3.30443E-006	3.66000E-005	......
	89	23.2498	-3.19875E-002	3.30443E-006	-3.63400E-004	......
	90	23.5082	-3.20325E-002	3.30443E-006	1.36600E-004	......
	91	23.7665	-3.20575E-002	3.30443E-006	-1.63400E-004	......
	92	24.0248	-3.20875E-002	3.30443E-006	3.66000E-005	......
	93	24.2832	-3.21325E-002	3.30443E-006	-1.63400E-004	......
	94	24.5415	-3.21725E-002	3.30443E-006	-6.34000E-005	......
	95	24.7998	-3.22125E-002	3.30443E-006	-1.63400E-004	......
	96	25.0582	-3.22375E-002	3.30443E-006	3.66000E-005	......
	97	25.3165	-3.22625E-002	3.30443E-006	-6.34000E-005	......
	98	25.5748	-3.23025E-002	3.30443E-006	2.36600E-004	......
	99	25.8332	-3.23375E-002	3.30443E-006	-1.63400E-004	......
	100	26.0915	-3.23675E-002	3.30443E-006	3.66000E-005	......
	101	26.3498	-3.24075E-002	3.30443E-006	-1.63400E-004	......
	102	26.6081	-3.24375E-002	3.30443E-006	3.66000E-005	......
	103	26.8665	-3.24625E-002	3.30443E-006	-1.63400E-004	......
	104	27.1248	-3.25075E-002	3.30443E-006	1.36600E-004	......
	105	27.3831	-3.25275E-002	3.30443E-006	-1.63400E-004	......
	106	27.6415	-3.25625E-002	3.30443E-006	3.66000E-005	......
	107	27.8998	-3.26025E-002	3.30443E-006	-1.63400E-004	......
	108	28.1581	-3.26175E-002	3.30443E-006	3.66000E-005	......
	109	28.4165	-3.26475E-002	3.30443E-006	-1.63400E-004	......
	110	28.6748	-3.26825E-002	3.30443E-006	3.66000E-005	......
	111	28.9331	-3.27175E-002	3.30443E-006	-1.63400E-004	......
	112	29.1915	-3.27425E-002	3.30443E-006	2.36600E-004	......
	113	29.4498	-3.27675E-002	3.30443E-006	-6.34000E-005	......
	114	29.7081	-3.28025E-002	3.30443E-006	1.36600E-004	......
	115	29.9665	-3.28375E-002	3.30443E-006	-2.63400E-004	......
	116	30.2248	-3.28675E-002	3.30443E-006	1.36600E-004	......
	117	30.4831	-3.28925E-002	3.30443E-006	-6.34000E-005	......
	118	30.7414	-3.29225E-002	3.30443E-006	2.36600E-004	......
	119	30.9998	-3.29575E-002	3.30443E-006	3.66000E-005	......
	120	31.2581	-3.29825E-002	3.30443E-006	3.66000E-005	......
	121	31.5164	-3.30075E-002	3.30443E-006	-6.34000E-005	......
	122	31.7748	-3.30425E-002	3.30443E-006	3.66000E-005	......
	123	32.0331	-3.30625E-002	3.30443E-006	-6.34000E-005	......
	124	32.2914	-3.31025E-002	3.30443E-006	2.36600E-004	......
	125	32.5498	-3.31175E-002	3.30443E-006	-1.63400E-004	......
	126	32.8081	-3.31525E-002	3.30443E-006	3.66000E-005	......
	127	33.0664	-3.31775E-002	3.30443E-006	-1.63400E-004	......
	128	33.3248	-3.32075E-002	3.30443E-006	3.66000E-005	......
	129	33.5831	-3.32225E-002	3.30443E-006	-1.63400E-004	......
	130	33.8414	-3.32575E-002	3.30443E-006	2.36600E-004	......
	131	34.0998	-3.32875E-002	3.30443E-006	-1.63400E-004	......
	132	34.3581	-3.33125E-002	3.30443E-006	2.36600E-004	......
	133	34.6164	-3.33325E-002	3.30443E-006	-6.34000E-005	......
	134	34.8748	-3.33675E-002	3.30443E-006	1.36600E-004	......
	135	35.1331	-3.33875E-002	3.30443E-006	-6.34000E-005	......
	136	35.3914	-3.34125E-002	3.30443E-006	1.36600E-004	......
	137	35.6497	-3.34425E-002	3.30443E-006	-1.63400E-004	......
	138	35.9081	-3.34575E-002	3.30443E-006	3.66000E-005	......
	139	36.1664	-3.34825E-002	3.30443E-006	-2.63400E-004	......
	140	36.4247	-3.35125E-002	3.30443E-006	2.36600E-004	......
	141	36.6831	-3.35375E-002	3.30443E-006	-6.34000E-005	......
	142	36.9414	-3.35575E-002	3.30443E-006	2.36600E-004	......
	143	37.1997	-3.35775E-002	3.30443E-006	-1.63400E-004	......
	144	37.4581	-3.36025E-002	3.30443E-006	1.36600E-004	......
	145	37.7164	-3.36325E-002	3.30443E-006	-6.34000E-005	......
	146	37.9747	-3.36525E-002	3.30443E-006	1.36600E-004	......
	147	38.2331	-3.36775E-002	3.30443E-006	-1.63400E-004	......
	148	38.4914	-3.37025E-002	3.30443E-006	2.36600E-004	......
	149	38.7497	-3.37275E-002	3.30443E-006	-1.63400E-004	......
	150	39.0081	-3.37475E-002	3.30443E-006	1.36600E-004	......
	151	39.2664	-3.37825E-002	3.30443E-006	-1.63400E-004	......
	152	39.5247	-3.37975E-002	3.30443E-006	1.36600E-004	......
	153	39.7831	-3.38225E-002	3.30443E-006	-1.63400E-004	......
	154	40.0414	-3.38425E-002	3.30443E-006	1.36600E-004	......
	155	40.2997	-3.38625E-002	3.30443E-006	-6.34000E-005	......
	156	40.558	-3.38725E-002	3.30443E-006	1.36600E-004	......
	157	40.8164	-3.39125E-002	3.30443E-006	-1.63400E-004	......
	158	41.0747	-3.39275E-002	3.30443E-006	1.36600E-004	......
	159	41.333	-3.39475E-002	3.30443E-006	-6.34000E-005	......
	160	41.5914	-3.39725E-002	3.30443E-006	3.66000E-005	......
	161	41.8497	-3.39925E-002	3.30443E-006	-6.34000E-005	......
	162	42.108	-3.40225E-002	3.30443E-006	3.66000E-005	......
	163	42.3664	-3.40425E-002	3.30443E-006	-6.34000E-005	......
	164	42.6247	-3.40575E-002	3.30443E-006	3.66000E-005	......
	165	42.883	-3.40775E-002	3.30443E-006	-6.34000E-005	......
	166	43.1414	-3.40975E-002	3.30443E-006	2.36600E-004	......
	167	43.3997	-3.41225E-002	3.30443E-006	-1.63400E-004	......
	168	43.658	-3.41425E-002	3.30443E-006	-6.34000E-005	......
	169	43.9164	-3.41525E-002	3.30443E-006	3.66000E-005	......
	170	44.1747	-3.41725E-002	3.30443E-006	3.66000E-005	......
	171	44.433	-3.41975E-002	3.30443E-006	-1.63400E-004	......
	172	44.6913	-3.42225E-002	3.30443E-006	3.66000E-005	......
	173	44.9497	-3.42325E-002	3.30443E-006	-1.63400E-004	......
	174	45.208	-3.42575E-002	3.30443E-006	2.36600E-004	......
	175	45.4663	-3.42725E-002	3.30443E-006	-6.34000E-005	......
	176	45.7247	-3.42975E-002	3.30443E-006	2.36600E-004	......
	177	45.983	-3.43225E-002	3.30443E-006	-1.63400E-004	......
	178	46.2413	-3.43375E-002	3.30443E-006	3.66000E-005	......
	179	46.4997	-3.43625E-002	3.30443E-006	3.66000E-005	......
	180	46.758	-3.43725E-002	3.30443E-006	1.36600E-004	......
	181	47.0163	-3.43975E-002	3.30443E-006	-1.63400E-004	......
	182	47.2747	-3.44025E-002	3.30443E-006	-6.34000E-005	......
	183	47.533	-3.44325E-002	3.30443E-006	-6.34000E-005	......
	184	47.7913	-3.44575E-002	3.30443E-006	3.66000E-005	......
	185	48.0497	-3.44675E-002	3.30443E-006	-6.34000E-005	......
	186	48.308	-3.44825E-002	3.30443E-006	3.66000E-005	......
	187	48.5663	-3.45025E-002	3.30443E-006	-1.63400E-004	......
	188	48.8247	-3.45225E-002	3.30443E-006	3.66000E-005	......
	189	49.083	-3.45425E-002	3.30443E-006	-6.34000E-005	......
	190	49.3413	-3.45575E-002	3.30443E-006	3.66000E-005	......
	191	49.5996	-3.45775E-002	3.30443E-006	-1.63400E-004	......
	192	49.858	-3.45975E-002	3.30443E-006	3.66000E-005	......
	193	50.1163	-3.46125E-002	3.30443E-006	-1.63400E-004	......
	194	50.3746	-3.46375E-002	3.30443E-006	2.36600E-004	......
	195	50.633	-3.46475E-002	3.30443E-006	-1.63400E-004	......
	196	50.8913	-3.46575E-002	3.30443E-006	3.66000E-005	......
	197	51.1496	-3.46825E-002	3.30443E-006	-1.63400E-004	......
	198	51.408	-3.47075E-002	3.30443E-006	3.66000E-005	......
	199	51.6663	-3.47175E-002	3.30443E-006	-1.63400E-004	......
	200	51.9246	-3.47275E-002	3.30443E-006	3.66000E-005	......
	201	52.183	-3.47525E-002	3.30443E-006	3.66000E-005	......
	202	52.4413	-3.47725E-002	3.30443E-006	2.36600E-004	......
	203	52.6996	-3.47825E-002	3.30443E-006	-1.63400E-004	......
	204	52.958	-3.48025E-002	3.30443E-006	3.66000E-005	......
	205	53.2163	-3.48225E-002	3.30443E-006	-6.34000E-005	......
	206	53.4746	-3.48425E-002	3.30443E-006	1.36600E-004	......
	207	53.733	-3.48525E-002	3.30443E-006	-1.63400E-004	......
	208	53.9913	-3.48675E-002	3.30443E-006	3.66000E-005	......
	209	54.2496	-3.48825E-002	3.30443E-006	-6.34000E-005	......
	210	54.5079	-3.48925E-002	3.30443E-006	2.36600E-004	......
	211	54.7663	-3.49175E-002	3.30443E-006	-6.34000E-005	......
	212	55.0246	-3.49325E-002	3.30443E-006	3.66000E-005	......
	213	55.2829	-3.49425E-002	3.30443E-006	-1.63400E-004	......
	214	55.5413	-3.49575E-002	3.30443E-006	3.66000E-005	......
	215	55.7996	-3.49775E-002	3.30443E-006	3.66000E-005	......
	216	56.0579	-3.49975E-002	3.30443E-006	3.66000E-005	......
	217	56.3163	-3.50125E-002	3.30443E-006	-6.34000E-005	......
	218	56.5746	-3.50375E-002	3.30443E-006	3.66000E-005	......
	219	56.8329	-3.50425E-002	3.30443E-006	-1.63400E-004	......
	220	57.0913	-3.50625E-002	3.30443E-006	1.36600E-004	......
	221	57.3496	-3.50725E-002	3.30443E-006	-1.63400E-004	......
	222	57.6079	-3.50875E-002	3.30443E-006	1.36600E-004	......
	223	57.8663	-3.51025E-002	3.30443E-006	-6.34000E-005	......
	224	58.1246	-3.51175E-002	3.30443E-006	3.66000E-005	......
	225	58.3829	-3.51375E-002	3.30443E-006	-1.63400E-004	......
	226	58.6413	-3.51475E-002	3.30443E-006	2.36600E-004	......
	227	58.8996	-3.51625E-002	3.30443E-006	-6.34000E-005	......
	228	59.1579	-3.51775E-002	3.30443E-006	2.36600E-004	......
	229	59.4162	-3.51925E-002	3.30443E-006	-1.63400E-004	......
	230	59.6746	-3.52075E-002	3.30443E-006	3.66000E-005	......
	231	59.9329	-3.52225E-002	3.30443E-006	-1.63400E-004	......
EOC	QUANT	-0.035223	Open Circuit (V)
PSTATMODEL	IQUANT	32	Pstat Model
PSTATSECTION	LABEL	PStat0	Pstat Section
CTRLMODE	IQUANT	1	Control Mode
IESTAB	IQUANT	0	I/E Stability
CASPEED	IQUANT	1	Control Amp Speed
CONVENTION	IQUANT	1	Current Convention
ICHRANGE	IQUANT	2	Ich Range
ICHRANGEMODE	TOGGLE	F	Ich Auto Range
ICHOFFSETENABLE	TOGGLE	T	Ich Offset Enable
ICHOFFSET	QUANT	0	Ich Offset (V)
ICHFILTER	IQUANT	3	Ich Filter
VCHRANGE	IQUANT	2	Vch Range
VCHRANGEMODE	TOGGLE	F	Vch Auto Range
VCHOFFSETENABLE	TOGGLE	T	Vch Offset Enable
VCHOFFSET	QUANT	0	Vch Offset (V)
VCHFILTER	IQUANT	3	Vch Filter
ACHRANGE	IQUANT	0	Ach Range
IERANGELOWERLIMIT	IQUANT	3	I/E Range Lower Limit
IERANGEMODE	TOGGLE	F	I/E AutoRange
IERANGE	IQUANT	11	I/E Range
POSFEEDENABLE	TOGGLE	F	Positive Feedback IR Comp
POSFEEDRESISTANCE	QUANT	0	Positive Feedback Resistance (ohm)
FC350IDIVISOR	IQUANT	0	FC350 I Divisor
FC350VRANGE	IQUANT	0	FC350 V Range
FRAMEWORKVERSION	QUANT	4.35	Framework Version
ZCURVE	TABLE
	Pt	Time	Freq	Zreal	Zimag	Zsig	Zmod	Zphz	Idc	Vdc	IERange
	#	s	Hz	ohm	ohm	V	ohm	°	A	V	#
	0	6	100007	63.7136	0.116146	1	63.7137	0.104446	3.33142E-006	-0.034177	10
	1	10	89134.1	63.1452	0.083123	1	63.1453	0.075423	3.30039E-006	-0.034175	10
	2	15	79433.6	63.0787	-0.196607	1	63.079	-0.178582	3.30624E-006	-0.034171	10
	3	18	70800.8	62.7008	-0.473293	1	62.7026	-0.432486	4.80208E-006	-0.034138	10
	4	22	63105.5	62.4235	-0.378446	1	62.4246	-0.347355	2.42459E-006	-0.034152	10
	5	26	56243.5	62.6216	-0.435305	1	62.6231	-0.398277	4.6197E-006	-0.034174	10
	6	29	50123.7	62.5891	-0.56942	1	62.5917	-0.521249	3.45004E-006	-0.034177	10
	7	33	44681	62.233	-0.762029	1	62.2377	-0.701539	4.86065E-006	-0.034156	10
	8	37	39811.2	64.2897	-1.11178	1	64.2993	-0.99073	4.37087E-006	-0.034184	10
	9	41	35488.3	63.0638	-0.505824	1	63.0658	-0.45955	2.70687E-006	-0.034144	10
	10	45	31634.1	62.5824	-0.95365	1	62.5896	-0.873026	2.66035E-006	-0.034135	10
	11	48	28173.1	63.0732	-1.22757	1	63.0851	-1.11498	3.33662E-006	-0.034161	10
	12	52	25123.7	62.6197	-1.16102	1	62.6304	-1.06219	4.44166E-006	-0.034152	10
	13	56	22389.3	62.3987	-0.948096	1	62.4059	-0.870495	4.36466E-006	-0.034162	10
	14	60	19954.4	62.4864	-0.9555	1	62.4937	-0.876062	3.66487E-006	-0.034158	10
	15	65	17778.2	62.551	-1.52524	1	62.5695	-1.39682	3.14843E-006	-0.034157	10
	16	67	15852.9	63.3397	-0.941443	1	63.3467	-0.851547	4.0729E-006	-0.034182	10
	17	71	14122.3	62.4817	-0.898811	1	62.4881	-0.824154	3.22515E-006	-0.034173	10
	18	75	12587.2	63.3775	-0.896728	1	63.3838	-0.810624	3.20286E-006	-0.034165	10
	19	79	11221.1	63.0998	-1.75616	1	63.1243	-1.59421	3.23107E-006	-0.034168	10
	20	83	9998.2	63.261	-1.76843	1	63.2857	-1.60126	3.25773E-006	-0.034175	10
	21	87	8912.76	62.9701	-2.09897	1	63.0051	-1.90912	2.36238E-006	-0.034144	10
	22	90	7942.6	63.6192	-1.90493	1	63.6477	-1.71508	3.05924E-006	-0.034169	10
	23	94	7078.05	63.543	-1.88356	1	63.5709	-1.69788	3.07353E-006	-0.034166	10
	24	98	6311.1	63.5986	-2.79776	1	63.6601	-2.51887	2.95465E-006	-0.034156	10
	25	102	5622.14	63.158	-2.86177	1	63.2228	-2.59438	2.9287E-006	-0.03416	10
	26	107	5011.18	63.9664	-3.11921	1	64.0424	-2.79171	3.14824E-006	-0.034152	10
	27	109	4465.21	64.1253	-3.14792	1	64.2025	-2.8104	2.84857E-006	-0.034155	10
	28	113	3980.93	64.2812	-3.72673	1	64.3891	-3.31803	2.59364E-006	-0.034183	10
	29	117	3548.18	64.3663	-3.79322	1	64.478	-3.37264	1.7103E-006	-0.034172	10
	30	122	3162.67	64.3343	-4.23706	1	64.4736	-3.76806	2.65801E-006	-0.034186	10
	31	126	2819.01	64.6427	-4.53357	1	64.8015	-4.01174	2.57974E-006	-0.034187	10
	32	130	2511.16	64.9311	-5.02891	1	65.1255	-4.42871	2.87574E-006	-0.034158	10
	33	133	2238.63	64.4808	-5.63911	1	64.7269	-4.99804	2.92898E-006	-0.034163	10
	34	137	1995.37	64.6769	-5.4681	1	64.9076	-4.83257	2.89631E-006	-0.034166	10
	35	141	1778.51	65.0674	-6.53431	1	65.3947	-5.73463	3.04244E-006	-0.034172	10
	36	146	1584.49	65.765	-7.46238	1	66.1871	-6.47368	3.07781E-006	-0.034176	10
	37	150	1412.76	65.1218	-7.24908	1	65.5241	-6.35177	1.83138E-006	-0.034169	10
	38	154	1259.04	66.0061	-8.6118	1	66.5655	-7.43338	3.05945E-006	-0.034164	10
	39	156	1121.63	66.0028	-8.97036	1	66.6096	-7.73958	3.05343E-006	-0.034182	10
	40	160	999.95	66.6039	-9.8624	1	67.3301	-8.42287	2.86865E-006	-0.034183	10
	41	165	891.184	67.663	-11.1806	1	68.5805	-9.38276	2.92104E-006	-0.034174	10
	42	169	794.163	67.1894	-12.2365	1	68.2945	-10.3216	3.00368E-006	-0.034172	10
	43	173	707.867	67.4979	-13.5948	1	68.8533	-11.3876	2.43505E-006	-0.034199	10
	44	177	630.984	67.8462	-14.0876	1	69.2934	-11.7302	2.93048E-006	-0.034167	10
	45	179	562.189	68.9177	-16.2576	1	70.8093	-13.2733	2.51558E-006	-0.034193	10
	46	183	501.303	68.8996	-17.0379	1	70.975	-13.8898	2.97307E-006	-0.034167	10
	47	185	446.614	69.4139	-18.634	1	71.8715	-15.0266	2.98832E-006	-0.034164	10
	48	187	398.209	69.9187	-20.4271	1	72.8415	-16.286	2.91335E-006	-0.034166	10
	49	189	354.821	70.5957	-22.4325	1	74.0741	-17.6281	2.97955E-006	-0.034163	10
	50	191	316.113	71.2575	-24.5186	1	75.3577	-18.9875	2.9288E-006	-0.034166	10
	51	193	281.926	71.9974	-26.9539	1	76.8774	-20.5246	2.96565E-006	-0.034167	10
	52	195	251.185	72.8543	-29.4785	1	78.5922	-22.0293	2.99213E-006	-0.034171	10
	53	197	223.946	73.578	-32.2928	1	80.3527	-23.6963	2.85252E-006	-0.034174	10
