EXPLAIN
TAG	EISPOT
TITLE	LABEL	Tomato_open	Test &Identifier
DATE	LABEL	5/16/2006	Date
TIME	LABEL	14:23:00	Time
NOTES	NOTES	1	&Notes...
	
PSTAT	PSTAT	300	Potentiostat
VDC	POTEN	1.00000E-003	T	DC &Voltage (V)
FREQINIT	QUANT	1.00000E+005	Initial Fre&q. (Hz)
FREQFINAL	QUANT	1.00000E+001	Final Fre&q. (Hz)
PTSPERDEC	QUANT	2.00000E+001	Points/&decade
VAC	QUANT	1.00000E+000	AC &Voltage (mV rms)
AREA	QUANT	1.00000E+000	&Area (cm²)
DENSITY	QUANT	7.87000E+000	&Density (gm/cm³)
EQUIV	QUANT	7.00000E+000	Equiv. &Wt
CONDIT	TWOPARAM	F	6.00000E+001	0.00000E+000	Conditionin&g	Time(s)	E(V)
DELAY	TWOPARAM	T	6.00000E+001	0.00000E+000	Init. De&lay	Time(s)	Stab.(mV/s)
SPEED	SELECTOR	1	&Optimize for:
ZGUESS	QUANT	1.00000E+002	E&stimated Z (ohms)
OCVCURVE	TABLE	232
	Pt	T	Vf	Vm	Ach	Over
	#	s	V vs. Ref.	V	V	bits
	0	0.258332	-2.00943E-002	4.81234E-006	3.36600E-004	......
	1	0.516663	-2.00363E-002	4.81234E-006	2.36600E-004	......
	2	0.774994	-1.99733E-002	4.81234E-006	3.36600E-004	......
	3	1.03333	-1.99318E-002	4.81234E-006	2.36600E-004	......
	4	1.29166	-1.98808E-002	4.81234E-006	1.36600E-004	......
	5	1.54999	-1.98273E-002	4.81234E-006	2.36600E-004	......
	6	1.80832	-1.97758E-002	4.81234E-006	1.36600E-004	......
	7	2.06665	-1.97223E-002	4.81234E-006	3.36600E-004	......
	8	2.32498	-1.96743E-002	4.81234E-006	2.36600E-004	......
	9	2.58332	-1.96348E-002	4.81234E-006	2.36600E-004	......
	10	2.84165	-1.95733E-002	4.81234E-006	2.36600E-004	......
	11	3.09998	-1.95223E-002	4.81234E-006	2.36600E-004	......
	12	3.35831	-1.94778E-002	4.81234E-006	2.36600E-004	......
	13	3.61664	-1.94273E-002	4.81234E-006	2.36600E-004	......
	14	3.87497	-1.93793E-002	4.81234E-006	3.36600E-004	......
	15	4.1333	-1.93293E-002	4.81234E-006	2.36600E-004	......
	16	4.39164	-1.92853E-002	4.81234E-006	2.36600E-004	......
	17	4.64997	-1.92398E-002	4.81234E-006	2.36600E-004	......
	18	4.9083	-1.91888E-002	4.81234E-006	1.36600E-004	......
	19	5.16663	-1.91448E-002	4.81234E-006	3.36600E-004	......
	20	5.42496	-1.91028E-002	4.81234E-006	2.36600E-004	......
	21	5.68329	-1.90638E-002	4.81234E-006	2.36600E-004	......
	22	5.94162	-1.90298E-002	4.81234E-006	3.36600E-004	......
	23	6.19996	-1.89713E-002	4.81234E-006	2.36600E-004	......
	24	6.45829	-1.89303E-002	4.81234E-006	3.36600E-004	......
	25	6.71662	-1.88863E-002	4.81234E-006	3.36600E-004	......
	26	6.97495	-1.88358E-002	4.81234E-006	3.36600E-004	......
	27	7.23328	-1.88058E-002	4.81234E-006	2.36600E-004	......
	28	7.49161	-1.87633E-002	4.81234E-006	2.36600E-004	......
	29	7.74995	-1.87183E-002	4.81234E-006	2.36600E-004	......
	30	8.00828	-1.86778E-002	4.81234E-006	2.36600E-004	......
	31	8.26661	-1.86333E-002	4.81234E-006	2.36600E-004	......
	32	8.52494	-1.85913E-002	4.81234E-006	3.66000E-005	......
	33	8.78327	-1.85538E-002	4.81234E-006	2.36600E-004	......
	34	9.0416	-1.85143E-002	4.81234E-006	3.36600E-004	......
	35	9.29993	-1.84698E-002	4.81234E-006	3.36600E-004	......
	36	9.5583	-1.84313E-002	4.81234E-006	2.36600E-004	......
	37	9.8166	-1.83898E-002	4.81234E-006	1.36600E-004	......
	38	10.0749	-1.83523E-002	4.81234E-006	2.36600E-004	......
	39	10.3333	-1.83088E-002	4.81234E-006	2.36600E-004	......
	40	10.5916	-1.82718E-002	4.81234E-006	2.36600E-004	......
	41	10.8499	-1.82413E-002	4.81234E-006	2.36600E-004	......
	42	11.1083	-1.81963E-002	4.81234E-006	3.36600E-004	......
	43	11.3666	-1.81658E-002	4.81234E-006	3.66000E-005	......
	44	11.6249	-1.81308E-002	4.81234E-006	2.36600E-004	......
	45	11.8832	-1.80923E-002	4.81234E-006	2.36600E-004	......
	46	12.1416	-1.80533E-002	4.81234E-006	2.36600E-004	......
	47	12.3999	-1.80193E-002	4.81234E-006	2.36600E-004	......
	48	12.6582	-1.79808E-002	4.81234E-006	2.36600E-004	......
	49	12.9166	-1.79363E-002	4.81234E-006	2.36600E-004	......
	50	13.1749	-1.79068E-002	4.81234E-006	3.36600E-004	......
	51	13.4332	-1.78668E-002	4.81234E-006	2.36600E-004	......
	52	13.6916	-1.78403E-002	4.81234E-006	3.36600E-004	......
	53	13.9499	-1.77988E-002	4.81234E-006	2.36600E-004	......
	54	14.2082	-1.77628E-002	4.81234E-006	1.36600E-004	......
	55	14.4666	-1.77283E-002	4.81234E-006	3.36600E-004	......
	56	14.7249	-1.76993E-002	4.81234E-006	2.36600E-004	......
	57	14.9832	-1.76598E-002	4.81234E-006	2.36600E-004	......
	58	15.2416	-1.76318E-002	4.81234E-006	1.36600E-004	......
	59	15.4999	-1.75968E-002	4.81234E-006	3.66000E-005	......
	60	15.7582	-1.75593E-002	4.81234E-006	2.36600E-004	......
	61	16.0166	-1.75323E-002	4.81234E-006	2.36600E-004	......
	62	16.2749	-1.74973E-002	4.81234E-006	2.36600E-004	......
	63	16.5332	-1.74668E-002	4.81234E-006	2.36600E-004	......
	64	16.7915	-1.74228E-002	4.81234E-006	3.36600E-004	......
	65	17.0499	-1.74008E-002	4.81234E-006	3.36600E-004	......
	66	17.3082	-1.73668E-002	4.81234E-006	3.36600E-004	......
	67	17.5665	-1.73418E-002	4.81234E-006	2.36600E-004	......
	68	17.8249	-1.72933E-002	4.81234E-006	3.36600E-004	......
	69	18.0832	-1.72673E-002	4.81234E-006	3.36600E-004	......
	70	18.3415	-1.72408E-002	4.81234E-006	3.36600E-004	......
	71	18.5999	-1.72038E-002	4.81234E-006	2.36600E-004	......
	72	18.8582	-1.71763E-002	4.81234E-006	2.36600E-004	......
	73	19.1165	-1.71418E-002	4.81234E-006	2.36600E-004	......
	74	19.3749	-1.71168E-002	4.81234E-006	3.36600E-004	......
	75	19.6332	-1.70853E-002	4.81234E-006	3.66000E-005	......
	76	19.8915	-1.70573E-002	4.81234E-006	1.36600E-004	......
	77	20.1499	-1.70253E-002	4.81234E-006	2.36600E-004	......
	78	20.4082	-1.69873E-002	4.81234E-006	2.36600E-004	......
	79	20.6665	-1.69603E-002	4.81234E-006	2.36600E-004	......
	80	20.9249	-1.69423E-002	4.81234E-006	2.36600E-004	......
	81	21.1832	-1.69063E-002	4.81234E-006	1.36600E-004	......
	82	21.4415	-1.68673E-002	4.81234E-006	3.66000E-005	......
	83	21.6998	-1.68408E-002	4.81234E-006	3.66000E-005	......
	84	21.9582	-1.68238E-002	4.81234E-006	2.36600E-004	......
	85	22.2165	-1.67868E-002	4.81234E-006	3.36600E-004	......
	86	22.4748	-1.67583E-002	4.81234E-006	2.36600E-004	......
	87	22.7332	-1.67358E-002	4.81234E-006	2.36600E-004	......
	88	22.9915	-1.67098E-002	4.81234E-006	2.36600E-004	......
	89	23.2498	-1.66798E-002	4.81234E-006	3.36600E-004	......
	90	23.5082	-1.66508E-002	4.81234E-006	2.36600E-004	......
	91	23.7665	-1.66148E-002	4.81234E-006	2.36600E-004	......
	92	24.0248	-1.65958E-002	4.81234E-006	2.36600E-004	......
	93	24.2832	-1.65643E-002	4.81234E-006	2.36600E-004	......
	94	24.5415	-1.65353E-002	4.81234E-006	3.36600E-004	......
	95	24.7998	-1.65038E-002	4.81234E-006	2.36600E-004	......
	96	25.0582	-1.64763E-002	4.81234E-006	2.36600E-004	......
	97	25.3165	-1.64493E-002	4.81234E-006	2.36600E-004	......
	98	25.5748	-1.64338E-002	4.81234E-006	2.36600E-004	......
	99	25.8332	-1.64068E-002	4.81234E-006	2.36600E-004	......
	100	26.0915	-1.63698E-002	4.81234E-006	2.36600E-004	......
	101	26.3498	-1.63543E-002	4.81234E-006	2.36600E-004	......
	102	26.6081	-1.63198E-002	4.81234E-006	3.36600E-004	......
	103	26.8665	-1.62983E-002	4.81234E-006	2.36600E-004	......
	104	27.1248	-1.62733E-002	4.81234E-006	3.36600E-004	......
	105	27.3831	-1.62468E-002	4.81234E-006	2.36600E-004	......
	106	27.6415	-1.62268E-002	4.81234E-006	2.36600E-004	......
	107	27.8998	-1.61978E-002	4.81234E-006	3.36600E-004	......
	108	28.1581	-1.61658E-002	4.81234E-006	2.36600E-004	......
	109	28.4165	-1.61318E-002	4.81234E-006	1.36600E-004	......
	110	28.6748	-1.61173E-002	4.81234E-006	3.36600E-004	......
	111	28.9331	-1.60868E-002	4.81234E-006	2.36600E-004	......
	112	29.1915	-1.60698E-002	4.81234E-006	2.36600E-004	......
	113	29.4498	-1.60478E-002	4.81234E-006	1.36600E-004	......
	114	29.7081	-1.60183E-002	4.81234E-006	2.36600E-004	......
	115	29.9665	-1.60013E-002	4.81234E-006	2.36600E-004	......
	116	30.2248	-1.59668E-002	4.81234E-006	3.36600E-004	......
	117	30.4831	-1.59448E-002	4.81234E-006	2.36600E-004	......
	118	30.7414	-1.59168E-002	4.81234E-006	3.36600E-004	......
	119	30.9998	-1.58898E-002	4.81234E-006	3.36600E-004	......
	120	31.2581	-1.58743E-002	4.81234E-006	3.66000E-005	......
	121	31.5164	-1.58413E-002	4.81234E-006	2.36600E-004	......
	122	31.7748	-1.58303E-002	4.81234E-006	1.36600E-004	......
	123	32.0331	-1.58013E-002	4.81234E-006	2.36600E-004	......
	124	32.2914	-1.57823E-002	4.81234E-006	2.36600E-004	......
	125	32.5498	-1.57538E-002	4.81234E-006	2.36600E-004	......
	126	32.8081	-1.57353E-002	4.81234E-006	1.36600E-004	......
	127	33.0664	-1.57038E-002	4.81234E-006	1.36600E-004	......
	128	33.3248	-1.56898E-002	4.81234E-006	3.36600E-004	......
	129	33.5831	-1.56583E-002	4.81234E-006	2.36600E-004	......
	130	33.8414	-1.56303E-002	4.81234E-006	2.36600E-004	......
	131	34.0998	-1.56178E-002	4.81234E-006	2.36600E-004	......
	132	34.3581	-1.55948E-002	4.81234E-006	2.36600E-004	......
	133	34.6164	-1.55743E-002	4.81234E-006	2.36600E-004	......
	134	34.8748	-1.55553E-002	4.81234E-006	3.36600E-004	......
	135	35.1331	-1.55258E-002	4.81234E-006	2.36600E-004	......
	136	35.3914	-1.55063E-002	4.81234E-006	2.36600E-004	......
	137	35.6497	-1.54738E-002	4.81234E-006	3.36600E-004	......
	138	35.9081	-1.54588E-002	4.81234E-006	3.36600E-004	......
	139	36.1664	-1.54308E-002	4.81234E-006	2.36600E-004	......
	140	36.4247	-1.54158E-002	4.81234E-006	2.36600E-004	......
	141	36.6831	-1.53833E-002	4.81234E-006	2.36600E-004	......
	142	36.9414	-1.53653E-002	4.81234E-006	2.36600E-004	......
	143	37.1997	-1.53443E-002	4.81234E-006	3.66000E-005	......
	144	37.4581	-1.53298E-002	4.81234E-006	3.36600E-004	......
	145	37.7164	-1.53013E-002	4.81234E-006	2.36600E-004	......
	146	37.9747	-1.52883E-002	4.81234E-006	2.36600E-004	......
	147	38.2331	-1.52603E-002	4.81234E-006	2.36600E-004	......
	148	38.4914	-1.52413E-002	4.81234E-006	2.36600E-004	......
	149	38.7497	-1.52183E-002	4.81234E-006	2.36600E-004	......
	150	39.0081	-1.51948E-002	4.81234E-006	2.36600E-004	......
	151	39.2664	-1.51753E-002	4.81234E-006	2.36600E-004	......
	152	39.5247	-1.51458E-002	4.81234E-006	2.36600E-004	......
	153	39.7831	-1.51343E-002	4.81234E-006	2.36600E-004	......
	154	40.0414	-1.51093E-002	4.81234E-006	3.36600E-004	......
	155	40.2997	-1.50913E-002	4.81234E-006	3.66000E-005	......
	156	40.558	-1.50703E-002	4.81234E-006	3.66000E-005	......
	157	40.8164	-1.50433E-002	4.81234E-006	2.36600E-004	......
	158	41.0747	-1.50378E-002	4.81234E-006	2.36600E-004	......
	159	41.333	-1.50143E-002	4.81234E-006	2.36600E-004	......
	160	41.5914	-1.49843E-002	4.81234E-006	2.36600E-004	......
	161	41.8497	-1.49638E-002	4.81234E-006	2.36600E-004	......
	162	42.108	-1.49558E-002	4.81234E-006	1.36600E-004	......
	163	42.3664	-1.49218E-002	4.81234E-006	3.36600E-004	......
	164	42.6247	-1.49023E-002	4.81234E-006	2.36600E-004	......
	165	42.883	-1.48798E-002	4.81234E-006	2.36600E-004	......
	166	43.1414	-1.48623E-002	4.81234E-006	3.36600E-004	......
	167	43.3997	-1.48383E-002	4.81234E-006	1.36600E-004	......
	168	43.658	-1.48248E-002	4.81234E-006	2.36600E-004	......
	169	43.9164	-1.48008E-002	4.81234E-006	2.36600E-004	......
	170	44.1747	-1.47868E-002	4.81234E-006	2.36600E-004	......
	171	44.433	-1.47603E-002	4.81234E-006	3.36600E-004	......
	172	44.6913	-1.47423E-002	4.81234E-006	3.36600E-004	......
	173	44.9497	-1.47283E-002	4.81234E-006	2.36600E-004	......
	174	45.208	-1.47028E-002	4.81234E-006	2.36600E-004	......
	175	45.4663	-1.46923E-002	4.81234E-006	2.36600E-004	......
	176	45.7247	-1.46693E-002	4.81234E-006	2.36600E-004	......
	177	45.983	-1.46453E-002	4.81234E-006	3.66000E-005	......
	178	46.2413	-1.46278E-002	4.81234E-006	2.36600E-004	......
	179	46.4997	-1.46103E-002	4.81234E-006	3.36600E-004	......
	180	46.758	-1.45918E-002	4.81234E-006	2.36600E-004	......
	181	47.0163	-1.45693E-002	4.81234E-006	2.36600E-004	......
	182	47.2747	-1.45538E-002	4.81234E-006	2.36600E-004	......
	183	47.533	-1.45328E-002	4.81234E-006	1.36600E-004	......
	184	47.7913	-1.45068E-002	4.81234E-006	3.36600E-004	......
	185	48.0497	-1.44928E-002	4.81234E-006	3.36600E-004	......
	186	48.308	-1.44703E-002	4.81234E-006	1.36600E-004	......
	187	48.5663	-1.44598E-002	4.81234E-006	2.36600E-004	......
	188	48.8247	-1.44318E-002	4.81234E-006	2.36600E-004	......
	189	49.083	-1.44123E-002	4.81234E-006	3.66000E-005	......
	190	49.3413	-1.44038E-002	4.81234E-006	2.36600E-004	......
	191	49.5996	-1.43738E-002	4.81234E-006	3.36600E-004	......
	192	49.858	-1.43648E-002	4.81234E-006	3.66000E-005	......
	193	50.1163	-1.43463E-002	4.81234E-006	2.36600E-004	......
	194	50.3746	-1.43248E-002	4.81234E-006	2.36600E-004	......
	195	50.633	-1.43078E-002	4.81234E-006	2.36600E-004	......
	196	50.8913	-1.42908E-002	4.81234E-006	1.36600E-004	......
	197	51.1496	-1.42723E-002	4.81234E-006	3.36600E-004	......
	198	51.408	-1.42503E-002	4.81234E-006	3.36600E-004	......
	199	51.6663	-1.42363E-002	4.81234E-006	2.36600E-004	......
	200	51.9246	-1.42083E-002	4.81234E-006	3.36600E-004	......
	201	52.183	-1.42038E-002	4.81234E-006	2.36600E-004	......
	202	52.4413	-1.41838E-002	4.81234E-006	2.36600E-004	......
	203	52.6996	-1.41668E-002	4.81234E-006	2.36600E-004	......
	204	52.958	-1.41393E-002	4.81234E-006	2.36600E-004	......
	205	53.2163	-1.41193E-002	4.81234E-006	3.36600E-004	......
	206	53.4746	-1.41063E-002	4.81234E-006	2.36600E-004	......
	207	53.733	-1.40898E-002	4.81234E-006	2.36600E-004	......
	208	53.9913	-1.40643E-002	4.81234E-006	2.36600E-004	......
	209	54.2496	-1.40503E-002	4.81234E-006	3.36600E-004	......
	210	54.5079	-1.40363E-002	4.81234E-006	2.36600E-004	......
	211	54.7663	-1.40248E-002	4.81234E-006	2.36600E-004	......
	212	55.0246	-1.40023E-002	4.81234E-006	2.36600E-004	......
	213	55.2829	-1.39828E-002	4.81234E-006	2.36600E-004	......
	214	55.5413	-1.39593E-002	4.81234E-006	2.36600E-004	......
	215	55.7996	-1.39468E-002	4.81234E-006	2.36600E-004	......
	216	56.0579	-1.39243E-002	4.81234E-006	3.36600E-004	......
	217	56.3163	-1.39093E-002	4.81234E-006	3.66000E-005	......
	218	56.5746	-1.38988E-002	4.81234E-006	3.36600E-004	......
	219	56.8329	-1.38793E-002	4.81234E-006	1.36600E-004	......
	220	57.0913	-1.38608E-002	4.81234E-006	2.36600E-004	......
	221	57.3496	-1.38468E-002	4.81234E-006	3.36600E-004	......
	222	57.6079	-1.38313E-002	4.81234E-006	3.66000E-005	......
	223	57.8663	-1.38138E-002	4.81234E-006	2.36600E-004	......
	224	58.1246	-1.37918E-002	4.81234E-006	2.36600E-004	......
	225	58.3829	-1.37748E-002	4.81234E-006	3.36600E-004	......
	226	58.6413	-1.37578E-002	4.81234E-006	2.36600E-004	......
	227	58.8996	-1.37413E-002	4.81234E-006	1.36600E-004	......
	228	59.1579	-1.37248E-002	4.81234E-006	3.36600E-004	......
	229	59.4162	-1.37113E-002	4.81234E-006	2.36600E-004	......
	230	59.6746	-1.36998E-002	4.81234E-006	2.36600E-004	......
	231	59.9329	-1.36903E-002	4.81234E-006	3.36600E-004	......
EOC	QUANT	-0.01369	Open Circuit (V)
PSTATMODEL	IQUANT	32	Pstat Model
PSTATSECTION	LABEL	PStat0	Pstat Section
CTRLMODE	IQUANT	1	Control Mode
IESTAB	IQUANT	0	I/E Stability
CASPEED	IQUANT	1	Control Amp Speed
CONVENTION	IQUANT	1	Current Convention
ICHRANGE	IQUANT	2	Ich Range
ICHRANGEMODE	TOGGLE	F	Ich Auto Range
ICHOFFSETENABLE	TOGGLE	T	Ich Offset Enable
ICHOFFSET	QUANT	0	Ich Offset (V)
ICHFILTER	IQUANT	3	Ich Filter
VCHRANGE	IQUANT	2	Vch Range
VCHRANGEMODE	TOGGLE	F	Vch Auto Range
VCHOFFSETENABLE	TOGGLE	T	Vch Offset Enable
VCHOFFSET	QUANT	0	Vch Offset (V)
VCHFILTER	IQUANT	3	Vch Filter
ACHRANGE	IQUANT	0	Ach Range
IERANGELOWERLIMIT	IQUANT	3	I/E Range Lower Limit
IERANGEMODE	TOGGLE	F	I/E AutoRange
IERANGE	IQUANT	11	I/E Range
POSFEEDENABLE	TOGGLE	F	Positive Feedback IR Comp
POSFEEDRESISTANCE	QUANT	0	Positive Feedback Resistance (ohm)
FC350IDIVISOR	IQUANT	0	FC350 I Divisor
FC350VRANGE	IQUANT	0	FC350 V Range
FRAMEWORKVERSION	QUANT	4.35	Framework Version
ZCURVE	TABLE
	Pt	Time	Freq	Zreal	Zimag	Zsig	Zmod	Zphz	Idc	Vdc	IERange
	#	s	Hz	ohm	ohm	V	ohm	°	A	V	#
	0	6	100007	74.9405	0.133657	1	74.9406	0.102187	2.81351E-006	-0.012578	10
	1	11	89134.1	74.1684	0.021214	1	74.1684	0.016388	3.82192E-006	-0.012585	10
	2	15	79433.6	74.127	-0.31475	1	74.1277	-0.243282	3.80226E-006	-0.012584	10
	3	18	70800.8	73.6918	-0.248279	1	73.6923	-0.193038	4.16722E-006	-0.012623	10
	4	22	63105.5	74.727	-0.355954	1	74.7279	-0.27292	4.59193E-006	-0.012588	10
	5	26	56243.5	73.8466	-0.465339	1	73.848	-0.36104	3.39161E-006	-0.012614	10
	6	30	50123.7	74.0767	-0.93393	1	74.0826	-0.722324	3.53028E-006	-0.012623	10
	7	35	44681	73.8272	-0.538266	1	73.8292	-0.41773	2.91361E-006	-0.012601	10
	8	39	39811.2	74.0726	-2.62961	1	74.1192	-2.03317	4.43154E-006	-0.012588	10
	9	43	35488.3	73.5224	-1.09448	1	73.5305	-0.852864	3.4743E-006	-0.012581	10
	10	47	31634.1	73.9011	-0.910024	1	73.9067	-0.705509	3.55504E-006	-0.012581	10
	11	51	28173.1	74.0161	-1.23876	1	74.0264	-0.95883	4.42139E-006	-0.012605	10
	12	55	25123.7	74.2822	-1.1604	1	74.2913	-0.89497	4.68736E-006	-0.012584	10
	13	59	22389.3	73.9396	-1.70373	1	73.9592	-1.31999	5.07804E-006	-0.012621	10
	14	63	19954.4	73.4279	-1.44255	1	73.4421	-1.12548	5.17962E-006	-0.012628	10
	15	68	17778.2	74.0828	-1.36936	1	74.0955	-1.05894	4.38701E-006	-0.012593	10
	16	70	15852.9	73.5222	-1.51672	1	73.5379	-1.18181	4.1837E-006	-0.012626	10
	17	74	14122.3	74.6459	-1.47982	1	74.6605	-1.13572	4.67842E-006	-0.012597	10
	18	78	12587.2	74.5651	-2.38894	1	74.6034	-1.83503	4.76628E-006	-0.012595	10
	19	82	11221.1	73.9465	-2.21423	1	73.9797	-1.71514	4.63859E-006	-0.012597	10
	20	87	9998.2	74.1351	-2.4871	1	74.1768	-1.92145	4.81886E-006	-0.012593	10
	21	91	8912.76	74.5998	-2.23668	1	74.6333	-1.71735	5.65139E-006	-0.01257	10
	22	94	7942.6	73.9767	-2.60572	1	74.0225	-2.01732	4.74731E-006	-0.012579	10
	23	98	7078.05	74.8557	-3.07892	1	74.919	-2.35533	4.89707E-006	-0.012582	10
	24	102	6311.1	74.9567	-3.43629	1	75.0354	-2.62481	4.65783E-006	-0.012584	10
	25	107	5622.14	75.4444	-3.45842	1	75.5236	-2.62464	4.51406E-006	-0.012586	10
	26	111	5011.18	75.0558	-3.88255	1	75.1562	-2.96121	4.30705E-006	-0.012579	10
	27	115	4465.21	75.4688	-4.29386	1	75.5909	-3.25638	4.27213E-006	-0.012578	10
	28	117	3980.93	75.2847	-4.45611	1	75.4165	-3.38739	3.7886E-006	-0.0126	10
	29	122	3548.18	75.0284	-4.69842	1	75.1754	-3.58329	2.81681E-006	-0.012585	10
	30	126	3162.67	75.4502	-5.72491	1	75.6671	-4.3391	2.75743E-006	-0.012596	10
	31	130	2819.01	75.1089	-6.02054	1	75.3498	-4.58289	4.24491E-006	-0.012578	10
	32	134	2511.16	75.4592	-6.43542	1	75.7332	-4.87458	3.69749E-006	-0.01259	10
	33	137	2238.63	75.421	-7.33688	1	75.777	-5.55619	3.67722E-006	-0.012589	10
	34	141	1995.37	75.0342	-8.57549	1	75.5227	-6.51992	3.50269E-006	-0.012599	10
	35	145	1778.51	76.199	-8.53297	1	76.6753	-6.38952	3.37715E-006	-0.012594	10
	36	149	1584.49	76.53	-9.00358	1	77.0578	-6.70987	3.20029E-006	-0.012609	10
	37	153	1412.76	77.3722	-10.1916	1	78.0406	-7.50386	3.61166E-006	-0.012585	10
	38	158	1259.04	77.5978	-11.2813	1	78.4136	-8.27177	2.89004E-006	-0.012593	10
	39	160	1121.63	77.8741	-12.3144	1	78.8417	-8.98588	3.02947E-006	-0.012608	10
	40	164	999.95	77.5023	-13.3595	1	78.6453	-9.7802	3.1585E-006	-0.012614	10
	41	169	891.184	78.5535	-14.6927	1	79.9157	-10.5942	3.11474E-006	-0.012621	10
	42	173	794.163	79.1975	-16.4728	1	80.8925	-11.7498	3.10129E-006	-0.012616	10
	43	177	707.867	78.9323	-17.7316	1	80.8994	-12.6609	3.44062E-006	-0.012595	10
	44	181	630.984	79.2438	-19.4346	1	81.5922	-13.7798	2.90192E-006	-0.012607	10
	45	183	562.189	80.5316	-22.0209	1	83.4881	-15.2934	2.66955E-006	-0.012637	10
	46	188	501.303	80.7484	-23.7861	1	84.1788	-16.4134	3.04557E-006	-0.012623	10
	47	190	446.614	81.3365	-26.1884	1	85.4486	-17.8473	3.11555E-006	-0.012616	10
	48	192	398.209	82.062	-28.8675	1	86.9914	-19.3807	3.02101E-006	-0.012619	10
	49	193	354.821	82.8885	-31.6773	1	88.7353	-20.9152	3.13544E-006	-0.012603	10
	50	195	316.113	83.6835	-34.9342	1	90.6826	-22.6584	3.16102E-006	-0.012609	10
	51	197	281.926	84.6726	-38.2945	1	92.9297	-24.3356	3.11488E-006	-0.01261	10
	52	199	251.185	85.6285	-42.1372	1	95.435	-26.2015	2.90388E-006	-0.012617	10
	53	201	223.946	86.8877	-46.3004	1	98.454	-28.0521	2.78852E-006	-0.012617	10
	54	203	199.495	88.2735	-50.9556	1	101.925	-29.9955	2.84863E-006	-0.012621	10
	55	205	177.836	89.5108	-56.0523	1	105.613	-32.0551	1.10087E-006	-0.012612	9
