EXPLAIN
TAG	EISPOT
TITLE	LABEL	Tomato_open	Test &Identifier
DATE	LABEL	5/16/2006	Date
TIME	LABEL	15:15:15	Time
NOTES	NOTES	1	&Notes...
	
PSTAT	PSTAT	300	Potentiostat
VDC	POTEN	1.00000E-003	T	DC &Voltage (V)
FREQINIT	QUANT	1.00000E+005	Initial Fre&q. (Hz)
FREQFINAL	QUANT	1.00000E+001	Final Fre&q. (Hz)
PTSPERDEC	QUANT	2.00000E+001	Points/&decade
VAC	QUANT	1.00000E+000	AC &Voltage (mV rms)
AREA	QUANT	1.00000E+000	&Area (cm²)
DENSITY	QUANT	7.87000E+000	&Density (gm/cm³)
EQUIV	QUANT	7.00000E+000	Equiv. &Wt
CONDIT	TWOPARAM	F	6.00000E+001	0.00000E+000	Conditionin&g	Time(s)	E(V)
DELAY	TWOPARAM	T	6.00000E+001	0.00000E+000	Init. De&lay	Time(s)	Stab.(mV/s)
SPEED	SELECTOR	1	&Optimize for:
ZGUESS	QUANT	1.00000E+002	E&stimated Z (ohms)
OCVCURVE	TABLE	232
	Pt	T	Vf	Vm	Ach	Over
	#	s	V vs. Ref.	V	V	bits
	0	0.258332	5.85075E-002	4.02243E-006	-1.63400E-004	......
	1	0.516663	5.83375E-002	4.02243E-006	3.66000E-005	......
	2	0.774994	5.81425E-002	4.02243E-006	-1.63400E-004	......
	3	1.03333	5.79575E-002	4.02243E-006	3.66000E-005	......
	4	1.29166	5.77675E-002	4.02243E-006	-6.34000E-005	......
	5	1.54999	5.76025E-002	4.02243E-006	2.36600E-004	......
	6	1.80832	5.74075E-002	4.02243E-006	-1.63400E-004	......
	7	2.06665	5.72275E-002	4.02243E-006	1.36600E-004	......
	8	2.32498	5.70475E-002	4.02243E-006	-6.34000E-005	......
	9	2.58332	5.68725E-002	4.02243E-006	3.66000E-005	......
	10	2.84165	5.67075E-002	4.02243E-006	-1.63400E-004	......
	11	3.09998	5.65175E-002	4.02243E-006	3.66000E-005	......
	12	3.35831	5.63525E-002	4.02243E-006	-6.34000E-005	......
	13	3.61664	5.61775E-002	4.02243E-006	3.66000E-005	......
	14	3.87497	5.59975E-002	4.02243E-006	-1.63400E-004	......
	15	4.1333	5.58175E-002	4.02243E-006	2.36600E-004	......
	16	4.39164	5.56575E-002	4.02243E-006	-3.63400E-004	......
	17	4.64997	5.54825E-002	4.02243E-006	1.36600E-004	......
	18	4.9083	5.53225E-002	4.02243E-006	-1.63400E-004	......
	19	5.16663	5.51625E-002	4.02243E-006	3.66000E-005	......
	20	5.42496	5.49975E-002	4.02243E-006	-1.63400E-004	......
	21	5.68329	5.48375E-002	4.02243E-006	2.36600E-004	......
	22	5.94162	5.46675E-002	4.02243E-006	-6.34000E-005	......
	23	6.19996	5.45225E-002	4.02243E-006	3.66000E-005	......
	24	6.45829	5.43775E-002	4.02243E-006	-6.34000E-005	......
	25	6.71662	5.42075E-002	4.02243E-006	3.66000E-005	......
	26	6.97495	5.40525E-002	4.02243E-006	-1.63400E-004	......
	27	7.23328	5.38975E-002	4.02243E-006	3.66000E-005	......
	28	7.49161	5.37475E-002	4.02243E-006	-6.34000E-005	......
	29	7.74995	5.35825E-002	4.02243E-006	3.66000E-005	......
	30	8.00828	5.34425E-002	4.02243E-006	-1.63400E-004	......
	31	8.26661	5.32875E-002	4.02243E-006	1.36600E-004	......
	32	8.52494	5.31375E-002	4.02243E-006	-1.63400E-004	......
	33	8.78327	5.29825E-002	4.02243E-006	3.66000E-005	......
	34	9.0416	5.28425E-002	4.02243E-006	-1.63400E-004	......
	35	9.29993	5.26875E-002	4.02243E-006	1.36600E-004	......
	36	9.5583	5.25425E-002	4.02243E-006	-1.63400E-004	......
	37	9.8166	5.23975E-002	4.02243E-006	3.66000E-005	......
	38	10.0749	5.22625E-002	4.02243E-006	-6.34000E-005	......
	39	10.3333	5.21175E-002	4.02243E-006	2.36600E-004	......
	40	10.5916	5.19725E-002	4.02243E-006	3.66000E-005	......
	41	10.8499	5.18375E-002	4.02243E-006	1.36600E-004	......
	42	11.1083	5.17025E-002	4.02243E-006	-1.63400E-004	......
	43	11.3666	5.15575E-002	4.02243E-006	2.36600E-004	......
	44	11.6249	5.14175E-002	4.02243E-006	3.66000E-005	......
	45	11.8832	5.12825E-002	4.02243E-006	1.36600E-004	......
	46	12.1416	5.11525E-002	4.02243E-006	-1.63400E-004	......
	47	12.3999	5.10075E-002	4.02243E-006	3.66000E-005	......
	48	12.6582	5.08775E-002	4.02243E-006	-1.63400E-004	......
	49	12.9166	5.07575E-002	4.02243E-006	2.36600E-004	......
	50	13.1749	5.06225E-002	4.02243E-006	3.66000E-005	......
	51	13.4332	5.04825E-002	4.02243E-006	3.66000E-005	......
	52	13.6916	5.03525E-002	4.02243E-006	-6.34000E-005	......
	53	13.9499	5.02225E-002	4.02243E-006	1.36600E-004	......
	54	14.2082	5.00875E-002	4.02243E-006	-6.34000E-005	......
	55	14.4666	4.99725E-002	4.02243E-006	3.66000E-005	......
	56	14.7249	4.98375E-002	4.02243E-006	-6.34000E-005	......
	57	14.9832	4.97225E-002	4.02243E-006	3.66000E-005	......
	58	15.2416	4.96025E-002	4.02243E-006	-1.63400E-004	......
	59	15.4999	4.94675E-002	4.02243E-006	3.66000E-005	......
	60	15.7582	4.93575E-002	4.02243E-006	-1.63400E-004	......
	61	16.0166	4.92225E-002	4.02243E-006	3.66000E-005	......
	62	16.2749	4.91125E-002	4.02243E-006	-1.63400E-004	......
	63	16.5332	4.89825E-002	4.02243E-006	-6.34000E-005	......
	64	16.7915	4.88675E-002	4.02243E-006	-1.63400E-004	......
	65	17.0499	4.87475E-002	4.02243E-006	1.36600E-004	......
	66	17.3082	4.86425E-002	4.02243E-006	-6.34000E-005	......
	67	17.5665	4.85175E-002	4.02243E-006	3.66000E-005	......
	68	17.8249	4.84025E-002	4.02243E-006	-6.34000E-005	......
	69	18.0832	4.82825E-002	4.02243E-006	3.66000E-005	......
	70	18.3415	4.81575E-002	4.02243E-006	-1.63400E-004	......
	71	18.5999	4.80525E-002	4.02243E-006	3.66000E-005	......
	72	18.8582	4.79375E-002	4.02243E-006	-6.34000E-005	......
	73	19.1165	4.78125E-002	4.02243E-006	2.36600E-004	......
	74	19.3749	4.77025E-002	4.02243E-006	-1.63400E-004	......
	75	19.6332	4.75925E-002	4.02243E-006	3.66000E-005	......
	76	19.8915	4.74725E-002	4.02243E-006	-1.63400E-004	......
	77	20.1499	4.73675E-002	4.02243E-006	3.66000E-005	......
	78	20.4082	4.72425E-002	4.02243E-006	-1.63400E-004	......
	79	20.6665	4.71475E-002	4.02243E-006	1.36600E-004	......
	80	20.9249	4.70275E-002	4.02243E-006	-1.63400E-004	......
	81	21.1832	4.69325E-002	4.02243E-006	1.36600E-004	......
	82	21.4415	4.68075E-002	4.02243E-006	-6.34000E-005	......
	83	21.6998	4.67125E-002	4.02243E-006	3.66000E-005	......
	84	21.9582	4.66175E-002	4.02243E-006	3.66000E-005	......
	85	22.2165	4.65025E-002	4.02243E-006	1.36600E-004	......
	86	22.4748	4.64125E-002	4.02243E-006	-1.63400E-004	......
	87	22.7332	4.63025E-002	4.02243E-006	2.36600E-004	......
	88	22.9915	4.61975E-002	4.02243E-006	-1.63400E-004	......
	89	23.2498	4.61025E-002	4.02243E-006	3.66000E-005	......
	90	23.5082	4.59925E-002	4.02243E-006	-6.34000E-005	......
	91	23.7665	4.58925E-002	4.02243E-006	3.66000E-005	......
	92	24.0248	4.57975E-002	4.02243E-006	-6.34000E-005	......
	93	24.2832	4.56975E-002	4.02243E-006	3.66000E-005	......
	94	24.5415	4.55975E-002	4.02243E-006	-6.34000E-005	......
	95	24.7998	4.55025E-002	4.02243E-006	1.36600E-004	......
	96	25.0582	4.54175E-002	4.02243E-006	-1.63400E-004	......
	97	25.3165	4.53075E-002	4.02243E-006	3.66000E-005	......
	98	25.5748	4.52125E-002	4.02243E-006	-1.63400E-004	......
	99	25.8332	4.51175E-002	4.02243E-006	1.36600E-004	......
	100	26.0915	4.50225E-002	4.02243E-006	-2.63400E-004	......
	101	26.3498	4.49175E-002	4.02243E-006	3.66000E-005	......
	102	26.6081	4.48375E-002	4.02243E-006	-6.34000E-005	......
	103	26.8665	4.47325E-002	4.02243E-006	2.36600E-004	......
	104	27.1248	4.46375E-002	4.02243E-006	-6.34000E-005	......
	105	27.3831	4.45525E-002	4.02243E-006	3.66000E-005	......
	106	27.6415	4.44625E-002	4.02243E-006	-1.63400E-004	......
	107	27.8998	4.43675E-002	4.02243E-006	1.36600E-004	......
	108	28.1581	4.42775E-002	4.02243E-006	-1.63400E-004	......
	109	28.4165	4.41875E-002	4.02243E-006	1.36600E-004	......
	110	28.6748	4.40925E-002	4.02243E-006	-1.63400E-004	......
	111	28.9331	4.40125E-002	4.02243E-006	3.66000E-005	......
	112	29.1915	4.39075E-002	4.02243E-006	-3.63400E-004	......
	113	29.4498	4.38125E-002	4.02243E-006	3.66000E-005	......
	114	29.7081	4.37325E-002	4.02243E-006	-6.34000E-005	......
	115	29.9665	4.36425E-002	4.02243E-006	3.66000E-005	......
	116	30.2248	4.35575E-002	4.02243E-006	-6.34000E-005	......
	117	30.4831	4.34775E-002	4.02243E-006	1.36600E-004	......
	118	30.7414	4.33875E-002	4.02243E-006	-6.34000E-005	......
	119	30.9998	4.32975E-002	4.02243E-006	3.66000E-005	......
	120	31.2581	4.32125E-002	4.02243E-006	-2.63400E-004	......
	121	31.5164	4.31375E-002	4.02243E-006	1.36600E-004	......
	122	31.7748	4.30425E-002	4.02243E-006	-1.63400E-004	......
	123	32.0331	4.29575E-002	4.02243E-006	1.36600E-004	......
	124	32.2914	4.28975E-002	4.02243E-006	-6.34000E-005	......
	125	32.5498	4.28025E-002	4.02243E-006	2.36600E-004	......
	126	32.8081	4.27225E-002	4.02243E-006	-1.63400E-004	......
	127	33.0664	4.26325E-002	4.02243E-006	3.66000E-005	......
	128	33.3248	4.25375E-002	4.02243E-006	-1.63400E-004	......
	129	33.5831	4.24575E-002	4.02243E-006	3.66000E-005	......
	130	33.8414	4.23825E-002	4.02243E-006	-1.63400E-004	......
	131	34.0998	4.23025E-002	4.02243E-006	1.36600E-004	......
	132	34.3581	4.22375E-002	4.02243E-006	-6.34000E-005	......
	133	34.6164	4.21425E-002	4.02243E-006	3.66000E-005	......
	134	34.8748	4.20775E-002	4.02243E-006	-6.34000E-005	......
	135	35.1331	4.20025E-002	4.02243E-006	3.66000E-005	......
	136	35.3914	4.19175E-002	4.02243E-006	3.66000E-005	......
	137	35.6497	4.18575E-002	4.02243E-006	-6.34000E-005	......
	138	35.9081	4.17775E-002	4.02243E-006	-1.63400E-004	......
	139	36.1664	4.16925E-002	4.02243E-006	3.66000E-005	......
	140	36.4247	4.16225E-002	4.02243E-006	-1.63400E-004	......
	141	36.6831	4.15325E-002	4.02243E-006	3.66000E-005	......
	142	36.9414	4.14575E-002	4.02243E-006	-6.34000E-005	......
	143	37.1997	4.13825E-002	4.02243E-006	3.66000E-005	......
	144	37.4581	4.13075E-002	4.02243E-006	-6.34000E-005	......
	145	37.7164	4.12425E-002	4.02243E-006	3.66000E-005	......
	146	37.9747	4.11575E-002	4.02243E-006	-1.63400E-004	......
	147	38.2331	4.10925E-002	4.02243E-006	3.66000E-005	......
	148	38.4914	4.10225E-002	4.02243E-006	-1.63400E-004	......
	149	38.7497	4.09525E-002	4.02243E-006	1.36600E-004	......
	150	39.0081	4.08675E-002	4.02243E-006	-1.63400E-004	......
	151	39.2664	4.08025E-002	4.02243E-006	2.36600E-004	......
	152	39.5247	4.07225E-002	4.02243E-006	-1.63400E-004	......
	153	39.7831	4.06625E-002	4.02243E-006	3.66000E-005	......
	154	40.0414	4.05825E-002	4.02243E-006	-6.34000E-005	......
	155	40.2997	4.05175E-002	4.02243E-006	2.36600E-004	......
	156	40.558	4.04575E-002	4.02243E-006	3.66000E-005	......
	157	40.8164	4.03875E-002	4.02243E-006	2.36600E-004	......
	158	41.0747	4.03175E-002	4.02243E-006	3.66000E-005	......
	159	41.333	4.02475E-002	4.02243E-006	3.66000E-005	......
	160	41.5914	4.01725E-002	4.02243E-006	-6.34000E-005	......
	161	41.8497	4.01175E-002	4.02243E-006	3.66000E-005	......
	162	42.108	4.00475E-002	4.02243E-006	-1.63400E-004	......
	163	42.3664	3.99725E-002	4.02243E-006	1.36600E-004	......
	164	42.6247	3.99025E-002	4.02243E-006	3.66000E-005	......
	165	42.883	3.98375E-002	4.02243E-006	3.66000E-005	......
	166	43.1414	3.97675E-002	4.02243E-006	-1.63400E-004	......
	167	43.3997	3.97075E-002	4.02243E-006	1.36600E-004	......
	168	43.658	3.96425E-002	4.02243E-006	3.66000E-005	......
	169	43.9164	3.95675E-002	4.02243E-006	3.66000E-005	......
	170	44.1747	3.95025E-002	4.02243E-006	-1.63400E-004	......
	171	44.433	3.94425E-002	4.02243E-006	3.66000E-005	......
	172	44.6913	3.93825E-002	4.02243E-006	-6.34000E-005	......
	173	44.9497	3.93125E-002	4.02243E-006	3.66000E-005	......
	174	45.208	3.92475E-002	4.02243E-006	-1.63400E-004	......
	175	45.4663	3.91825E-002	4.02243E-006	1.36600E-004	......
	176	45.7247	3.91175E-002	4.02243E-006	-1.63400E-004	......
	177	45.983	3.90575E-002	4.02243E-006	3.66000E-005	......
	178	46.2413	3.90025E-002	4.02243E-006	-1.63400E-004	......
	179	46.4997	3.89375E-002	4.02243E-006	3.66000E-005	......
	180	46.758	3.88675E-002	4.02243E-006	-1.63400E-004	......
	181	47.0163	3.88175E-002	4.02243E-006	3.66000E-005	......
	182	47.2747	3.87475E-002	4.02243E-006	-6.34000E-005	......
	183	47.533	3.86925E-002	4.02243E-006	1.36600E-004	......
	184	47.7913	3.86175E-002	4.02243E-006	-6.34000E-005	......
	185	48.0497	3.85575E-002	4.02243E-006	3.66000E-005	......
	186	48.308	3.84875E-002	4.02243E-006	-6.34000E-005	......
	187	48.5663	3.84375E-002	4.02243E-006	3.66000E-005	......
	188	48.8247	3.83825E-002	4.02243E-006	-1.63400E-004	......
	189	49.083	3.83275E-002	4.02243E-006	3.66000E-005	......
	190	49.3413	3.82625E-002	4.02243E-006	-1.63400E-004	......
	191	49.5996	3.82075E-002	4.02243E-006	2.36600E-004	......
	192	49.858	3.81525E-002	4.02243E-006	-1.63400E-004	......
	193	50.1163	3.80925E-002	4.02243E-006	-6.34000E-005	......
	194	50.3746	3.80275E-002	4.02243E-006	-1.63400E-004	......
	195	50.633	3.79775E-002	4.02243E-006	3.66000E-005	......
	196	50.8913	3.79175E-002	4.02243E-006	3.66000E-005	......
	197	51.1496	3.78475E-002	4.02243E-006	2.36600E-004	......
	198	51.408	3.77975E-002	4.02243E-006	-6.34000E-005	......
	199	51.6663	3.77475E-002	4.02243E-006	2.36600E-004	......
	200	51.9246	3.76875E-002	4.02243E-006	-1.63400E-004	......
	201	52.183	3.76325E-002	4.02243E-006	3.66000E-005	......
	202	52.4413	3.75575E-002	4.02243E-006	-6.34000E-005	......
	203	52.6996	3.75175E-002	4.02243E-006	2.36600E-004	......
	204	52.958	3.74625E-002	4.02243E-006	-6.34000E-005	......
	205	53.2163	3.73975E-002	4.02243E-006	3.66000E-005	......
	206	53.4746	3.73475E-002	4.02243E-006	-6.34000E-005	......
	207	53.733	3.72875E-002	4.02243E-006	2.36600E-004	......
	208	53.9913	3.72275E-002	4.02243E-006	-6.34000E-005	......
	209	54.2496	3.71825E-002	4.02243E-006	2.36600E-004	......
	210	54.5079	3.71225E-002	4.02243E-006	-1.63400E-004	......
	211	54.7663	3.70675E-002	4.02243E-006	3.66000E-005	......
	212	55.0246	3.70075E-002	4.02243E-006	-6.34000E-005	......
	213	55.2829	3.69575E-002	4.02243E-006	3.66000E-005	......
	214	55.5413	3.69125E-002	4.02243E-006	3.66000E-005	......
	215	55.7996	3.68675E-002	4.02243E-006	3.66000E-005	......
	216	56.0579	3.68025E-002	4.02243E-006	-1.63400E-004	......
	217	56.3163	3.67475E-002	4.02243E-006	3.66000E-005	......
	218	56.5746	3.66925E-002	4.02243E-006	-6.34000E-005	......
	219	56.8329	3.66475E-002	4.02243E-006	2.36600E-004	......
	220	57.0913	3.65925E-002	4.02243E-006	-6.34000E-005	......
	221	57.3496	3.65375E-002	4.02243E-006	1.36600E-004	......
	222	57.6079	3.64825E-002	4.02243E-006	-6.34000E-005	......
	223	57.8663	3.64275E-002	4.02243E-006	1.36600E-004	......
	224	58.1246	3.63825E-002	4.02243E-006	-6.34000E-005	......
	225	58.3829	3.63225E-002	4.02243E-006	3.66000E-005	......
	226	58.6413	3.62675E-002	4.02243E-006	-1.63400E-004	......
	227	58.8996	3.62175E-002	4.02243E-006	1.36600E-004	......
	228	59.1579	3.61775E-002	4.02243E-006	-6.34000E-005	......
	229	59.4162	3.61175E-002	4.02243E-006	3.66000E-005	......
	230	59.6746	3.60625E-002	4.02243E-006	-1.63400E-004	......
	231	59.9329	3.60175E-002	4.02243E-006	3.66000E-005	......
EOC	QUANT	0.036017	Open Circuit (V)
PSTATMODEL	IQUANT	32	Pstat Model
PSTATSECTION	LABEL	PStat0	Pstat Section
CTRLMODE	IQUANT	1	Control Mode
IESTAB	IQUANT	0	I/E Stability
CASPEED	IQUANT	1	Control Amp Speed
CONVENTION	IQUANT	1	Current Convention
ICHRANGE	IQUANT	2	Ich Range
ICHRANGEMODE	TOGGLE	F	Ich Auto Range
ICHOFFSETENABLE	TOGGLE	T	Ich Offset Enable
ICHOFFSET	QUANT	0	Ich Offset (V)
ICHFILTER	IQUANT	3	Ich Filter
VCHRANGE	IQUANT	2	Vch Range
VCHRANGEMODE	TOGGLE	F	Vch Auto Range
VCHOFFSETENABLE	TOGGLE	T	Vch Offset Enable
VCHOFFSET	QUANT	0	Vch Offset (V)
VCHFILTER	IQUANT	3	Vch Filter
ACHRANGE	IQUANT	0	Ach Range
IERANGELOWERLIMIT	IQUANT	3	I/E Range Lower Limit
IERANGEMODE	TOGGLE	F	I/E AutoRange
IERANGE	IQUANT	11	I/E Range
POSFEEDENABLE	TOGGLE	F	Positive Feedback IR Comp
POSFEEDRESISTANCE	QUANT	0	Positive Feedback Resistance (ohm)
FC350IDIVISOR	IQUANT	0	FC350 I Divisor
FC350VRANGE	IQUANT	0	FC350 V Range
FRAMEWORKVERSION	QUANT	4.35	Framework Version
ZCURVE	TABLE
	Pt	Time	Freq	Zreal	Zimag	Zsig	Zmod	Zphz	Idc	Vdc	IERange
	#	s	Hz	ohm	ohm	V	ohm	°	A	V	#
	0	6	100007	95.121	0.730453	1	95.123	0.439979	6.27007E-006	0.037018	10
	1	10	89134.1	94.1445	-0.676681	1	94.147	-0.411816	4.3427E-006	0.037046	10
	2	14	79433.6	94.1669	-0.11809	1	94.167	-0.071852	6.17701E-006	0.037031	10
	3	18	70800.8	94.1055	-0.614404	1	94.1075	-0.374073	6.11805E-006	0.037058	10
	4	22	63105.5	94.1854	-1.63311	1	94.1996	-0.99337	6.58806E-006	0.037057	10
	5	27	56243.5	93.9313	-0.751543	1	93.9343	-0.458413	4.40546E-006	0.03705	10
	6	31	50123.7	93.9328	-0.276615	1	93.9332	-0.168725	5.10024E-006	0.037022	10
	7	35	44681	93.404	-0.921488	1	93.4085	-0.56524	6.511E-006	0.037055	10
	8	39	39811.2	95.116	4.23018	1	95.21	2.54648	5.18703E-006	0.037034	10
	9	43	35488.3	93.2562	-1.20987	1	93.264	-0.743292	4.76716E-006	0.037078	10
	10	47	31634.1	93.655	-0.747668	1	93.658	-0.457395	4.41669E-006	0.037068	10
	11	51	28173.1	93.8852	-0.063604	1	93.8852	-0.038816	5.4667E-006	0.037058	10
	12	55	25123.7	93.5361	-0.9694	1	93.5412	-0.593786	6.17358E-006	0.037027	10
	13	59	22389.3	93.8265	-1.17907	1	93.8339	-0.719971	5.92793E-006	0.03707	10
	14	64	19954.4	93.6494	-1.97532	1	93.6703	-1.20834	4.31747E-006	0.037051	10
	15	68	17778.2	93.1263	-1.80804	1	93.1438	-1.11225	5.5401E-006	0.037049	10
	16	72	15852.9	93.9579	-1.64752	1	93.9723	-1.00456	4.8404E-006	0.037076	10
	17	76	14122.3	93.8538	-2.31879	1	93.8825	-1.41529	5.37333E-006	0.037052	10
	18	80	12587.2	93.058	-1.68033	1	93.0731	-1.03447	5.29828E-006	0.037046	10
	19	84	11221.1	94.4866	-2.30688	1	94.5148	-1.39859	5.20365E-006	0.037047	10
	20	88	9998.2	94.6502	-2.09473	1	94.6734	-1.26782	5.34275E-006	0.03705	10
	21	92	8912.76	94.575	-1.70043	1	94.5903	-1.03005	4.22911E-006	0.037048	10
	22	96	7942.6	94.2321	-2.24598	1	94.2588	-1.36536	5.41503E-006	0.037064	10
	23	101	7078.05	94.6983	-2.86965	1	94.7417	-1.73571	5.38191E-006	0.037057	10
	24	105	6311.1	93.8477	-2.03068	1	93.8697	-1.23957	5.24152E-006	0.037057	10
	25	109	5622.14	94.7161	-3.33473	1	94.7748	-2.01642	5.15803E-006	0.037055	10
	26	113	5011.18	94.5651	-3.92731	1	94.6467	-2.37814	5.15907E-006	0.037062	10
	27	117	4465.21	94.8126	-3.90823	1	94.8931	-2.36043	5.34637E-006	0.037068	10
	28	120	3980.93	93.9134	-3.88184	1	93.9935	-2.36693	6.25008E-006	0.03707	10
	29	124	3548.18	94.7514	-4.61918	1	94.8639	-2.79099	5.95553E-006	0.037036	10
	30	128	3162.67	94.3512	-4.82275	1	94.4744	-2.92612	4.56546E-006	0.037083	10
	31	132	2819.01	94.7905	-5.63769	1	94.958	-3.40367	4.74302E-006	0.037033	10
	32	136	2511.16	95.665	-5.01179	1	95.796	-2.99893	5.16385E-006	0.037058	10
	33	140	2238.63	95.41	-6.4761	1	95.629	-3.8831	5.2709E-006	0.037071	10
	34	143	1995.37	95.489	-6.34297	1	95.7	-3.80035	5.22696E-006	0.037068	10
	35	148	1778.51	95.962	-8.14004	1	96.307	-4.84855	5.2131E-006	0.037063	10
	36	152	1584.49	97.049	-8.0364	1	97.381	-4.73375	5.12857E-006	0.037061	10
	37	156	1412.76	95.797	-8.72595	1	96.193	-5.20461	6.1565E-006	0.037067	10
	38	160	1259.04	96.328	-8.64181	1	96.715	-5.12641	5.17003E-006	0.03707	10
	39	164	1121.63	96.401	-10.4029	1	96.961	-6.1591	5.06319E-006	0.037073	10
	40	167	999.95	96.973	-11.9892	1	97.712	-7.04795	4.91589E-006	0.037073	10
	41	172	891.184	97.68	-12.5053	1	98.478	-7.29548	5.16704E-006	0.037065	10
	42	176	794.163	96.181	-13.3798	1	97.107	-7.91966	5.22497E-006	0.037062	10
	43	180	707.867	97.73	-15.3066	1	98.921	-8.90147	5.55153E-006	0.037072	10
	44	184	630.984	98.972	-17.0139	1	100.423	-9.7542	5.2778E-006	0.037057	10
	45	187	562.189	99.355	-18.1271	1	100.995	-10.3398	1.46232E-006	0.037042	9
	46	191	501.303	99.87	-20.1499	1	101.883	-11.4069	1.2496E-006	0.037058	9
	47	193	446.614	100.406	-22.094	1	102.808	-12.4099	1.20299E-006	0.03706	9
	48	195	398.209	101.094	-24.3034	1	103.974	-13.5176	1.21146E-006	0.037068	9
	49	197	354.821	101.762	-26.6722	1	105.199	-14.6871	1.23913E-006	0.037064	9
	50	199	316.113	102.574	-29.2573	1	106.665	-15.9199	1.2422E-006	0.03707	9
	51	201	281.926	103.328	-32.141	1	108.211	-17.2787	1.15994E-006	0.03706	9
	52	203	251.185	104.28	-35.2462	1	110.076	-18.675	1.18749E-006	0.037063	9
	53	205	223.946	105.297	-38.788	1	112.214	-20.2222	1.21752E-006	0.037068	9
	54	207	199.495	106.293	-42.6451	1	114.529	-21.8608	1.24796E-006	0.037066	9
	55	209	177.836	107.537	-46.7595	1	117.263	-23.5004	1.14984E-006	0.037067	9
	56	211	158.533	108.783	-51.4803	1	120.349	-25.3254	1.1675E-006	0.037067	9
	57	213	141.263	110.254	-56.5811	1	123.925	-27.1665	1.18407E-006	0.03707	9
	58	215	125.911	111.754	-62.116	1	127.857	-29.0665	1.10711E-006	0.03706	9
