EXPLAIN
TAG	EISPOT
TITLE	LABEL	Tomato_open	Test &Identifier
DATE	LABEL	5/16/2006	Date
TIME	LABEL	21:00:50	Time
NOTES	NOTES	1	&Notes...
	
PSTAT	PSTAT	300	Potentiostat
VDC	POTEN	1.00000E-003	T	DC &Voltage (V)
FREQINIT	QUANT	1.00000E+005	Initial Fre&q. (Hz)
FREQFINAL	QUANT	1.00000E+001	Final Fre&q. (Hz)
PTSPERDEC	QUANT	2.00000E+001	Points/&decade
VAC	QUANT	1.00000E+000	AC &Voltage (mV rms)
AREA	QUANT	1.00000E+000	&Area (cm²)
DENSITY	QUANT	7.87000E+000	&Density (gm/cm³)
EQUIV	QUANT	7.00000E+000	Equiv. &Wt
CONDIT	TWOPARAM	F	6.00000E+001	0.00000E+000	Conditionin&g	Time(s)	E(V)
DELAY	TWOPARAM	T	6.00000E+001	0.00000E+000	Init. De&lay	Time(s)	Stab.(mV/s)
SPEED	SELECTOR	1	&Optimize for:
ZGUESS	QUANT	1.00000E+002	E&stimated Z (ohms)
OCVCURVE	TABLE	232
	Pt	T	Vf	Vm	Ach	Over
	#	s	V vs. Ref.	V	V	bits
	0	0.258332	-1.67503E-002	2.60043E-006	2.36600E-004	......
	1	0.516663	-1.67578E-002	2.60043E-006	2.36600E-004	......
	2	0.774994	-1.67818E-002	2.60043E-006	2.36600E-004	......
	3	1.03333	-1.67968E-002	2.60043E-006	1.36600E-004	......
	4	1.29166	-1.68193E-002	2.60043E-006	2.36600E-004	......
	5	1.54999	-1.68408E-002	2.60043E-006	2.36600E-004	......
	6	1.80832	-1.68473E-002	2.60043E-006	3.36600E-004	......
	7	2.06665	-1.68873E-002	2.60043E-006	3.36600E-004	......
	8	2.32498	-1.68993E-002	2.60043E-006	2.36600E-004	......
	9	2.58332	-1.69178E-002	2.60043E-006	2.36600E-004	......
	10	2.84165	-1.69533E-002	2.60043E-006	1.36600E-004	......
	11	3.09998	-1.69813E-002	2.60043E-006	3.36600E-004	......
	12	3.35831	-1.70038E-002	2.60043E-006	1.36600E-004	......
	13	3.61664	-1.70293E-002	2.60043E-006	2.36600E-004	......
	14	3.87497	-1.70598E-002	2.60043E-006	3.66000E-005	......
	15	4.1333	-1.70828E-002	2.60043E-006	3.36600E-004	......
	16	4.39164	-1.71118E-002	2.60043E-006	3.36600E-004	......
	17	4.64997	-1.71463E-002	2.60043E-006	3.36600E-004	......
	18	4.9083	-1.71908E-002	2.60043E-006	3.36600E-004	......
	19	5.16663	-1.71993E-002	2.60043E-006	2.36600E-004	......
	20	5.42496	-1.72388E-002	2.60043E-006	2.36600E-004	......
	21	5.68329	-1.72633E-002	2.60043E-006	3.36600E-004	......
	22	5.94162	-1.72983E-002	2.60043E-006	2.36600E-004	......
	23	6.19996	-1.73238E-002	2.60043E-006	2.36600E-004	......
	24	6.45829	-1.73613E-002	2.60043E-006	3.36600E-004	......
	25	6.71662	-1.73893E-002	2.60043E-006	2.36600E-004	......
	26	6.97495	-1.74283E-002	2.60043E-006	2.36600E-004	......
	27	7.23328	-1.74648E-002	2.60043E-006	3.36600E-004	......
	28	7.49161	-1.74878E-002	2.60043E-006	1.36600E-004	......
	29	7.74995	-1.75288E-002	2.60043E-006	2.36600E-004	......
	30	8.00828	-1.75718E-002	2.60043E-006	2.36600E-004	......
	31	8.26661	-1.76013E-002	2.60043E-006	2.36600E-004	......
	32	8.52494	-1.76333E-002	2.60043E-006	2.36600E-004	......
	33	8.78327	-1.76718E-002	2.60043E-006	3.36600E-004	......
	34	9.0416	-1.77098E-002	2.60043E-006	2.36600E-004	......
	35	9.29993	-1.77393E-002	2.60043E-006	3.36600E-004	......
	36	9.5583	-1.77763E-002	2.60043E-006	3.36600E-004	......
	37	9.8166	-1.78158E-002	2.60043E-006	2.36600E-004	......
	38	10.0749	-1.78503E-002	2.60043E-006	2.36600E-004	......
	39	10.3333	-1.78923E-002	2.60043E-006	3.66000E-005	......
	40	10.5916	-1.79263E-002	2.60043E-006	2.36600E-004	......
	41	10.8499	-1.79628E-002	2.60043E-006	2.36600E-004	......
	42	11.1083	-1.80023E-002	2.60043E-006	3.36600E-004	......
	43	11.3666	-1.80423E-002	2.60043E-006	2.36600E-004	......
	44	11.6249	-1.80898E-002	2.60043E-006	1.36600E-004	......
	45	11.8832	-1.81263E-002	2.60043E-006	1.36600E-004	......
	46	12.1416	-1.81588E-002	2.60043E-006	2.36600E-004	......
	47	12.3999	-1.81973E-002	2.60043E-006	2.36600E-004	......
	48	12.6582	-1.82438E-002	2.60043E-006	2.36600E-004	......
	49	12.9166	-1.82833E-002	2.60043E-006	3.36600E-004	......
	50	13.1749	-1.83223E-002	2.60043E-006	1.36600E-004	......
	51	13.4332	-1.83613E-002	2.60043E-006	3.36600E-004	......
	52	13.6916	-1.84023E-002	2.60043E-006	2.36600E-004	......
	53	13.9499	-1.84383E-002	2.60043E-006	4.36600E-004	......
	54	14.2082	-1.84778E-002	2.60043E-006	2.36600E-004	......
	55	14.4666	-1.85293E-002	2.60043E-006	2.36600E-004	......
	56	14.7249	-1.85553E-002	2.60043E-006	2.36600E-004	......
	57	14.9832	-1.86013E-002	2.60043E-006	3.36600E-004	......
	58	15.2416	-1.86363E-002	2.60043E-006	3.36600E-004	......
	59	15.4999	-1.86798E-002	2.60043E-006	2.36600E-004	......
	60	15.7582	-1.87263E-002	2.60043E-006	3.36600E-004	......
	61	16.0166	-1.87698E-002	2.60043E-006	2.36600E-004	......
	62	16.2749	-1.88078E-002	2.60043E-006	2.36600E-004	......
	63	16.5332	-1.88393E-002	2.60043E-006	3.36600E-004	......
	64	16.7915	-1.88883E-002	2.60043E-006	2.36600E-004	......
	65	17.0499	-1.89213E-002	2.60043E-006	1.36600E-004	......
	66	17.3082	-1.89663E-002	2.60043E-006	3.36600E-004	......
	67	17.5665	-1.90048E-002	2.60043E-006	2.36600E-004	......
	68	17.8249	-1.90463E-002	2.60043E-006	3.66000E-005	......
	69	18.0832	-1.90833E-002	2.60043E-006	3.36600E-004	......
	70	18.3415	-1.91298E-002	2.60043E-006	3.36600E-004	......
	71	18.5999	-1.91613E-002	2.60043E-006	3.36600E-004	......
	72	18.8582	-1.92038E-002	2.60043E-006	2.36600E-004	......
	73	19.1165	-1.92408E-002	2.60043E-006	2.36600E-004	......
	74	19.3749	-1.92798E-002	2.60043E-006	3.36600E-004	......
	75	19.6332	-1.93198E-002	2.60043E-006	2.36600E-004	......
	76	19.8915	-1.93663E-002	2.60043E-006	3.36600E-004	......
	77	20.1499	-1.93968E-002	2.60043E-006	2.36600E-004	......
	78	20.4082	-1.94368E-002	2.60043E-006	2.36600E-004	......
	79	20.6665	-1.94768E-002	2.60043E-006	3.36600E-004	......
	80	20.9249	-1.95198E-002	2.60043E-006	2.36600E-004	......
	81	21.1832	-1.95628E-002	2.60043E-006	3.36600E-004	......
	82	21.4415	-1.95998E-002	2.60043E-006	3.36600E-004	......
	83	21.6998	-1.96363E-002	2.60043E-006	3.36600E-004	......
	84	21.9582	-1.96758E-002	2.60043E-006	2.36600E-004	......
	85	22.2165	-1.97188E-002	2.60043E-006	2.36600E-004	......
	86	22.4748	-1.97643E-002	2.60043E-006	1.36600E-004	......
	87	22.7332	-1.97948E-002	2.60043E-006	2.36600E-004	......
	88	22.9915	-1.98323E-002	2.60043E-006	3.36600E-004	......
	89	23.2498	-1.98643E-002	2.60043E-006	1.36600E-004	......
	90	23.5082	-1.99093E-002	2.60043E-006	3.36600E-004	......
	91	23.7665	-1.99478E-002	2.60043E-006	3.36600E-004	......
	92	24.0248	-1.99768E-002	2.60043E-006	2.36600E-004	......
	93	24.2832	-2.00153E-002	2.60043E-006	2.36600E-004	......
	94	24.5415	-2.00573E-002	2.60043E-006	3.36600E-004	......
	95	24.7998	-2.00873E-002	2.60043E-006	2.36600E-004	......
	96	25.0582	-2.01318E-002	2.60043E-006	2.36600E-004	......
	97	25.3165	-2.01688E-002	2.60043E-006	2.36600E-004	......
	98	25.5748	-2.02123E-002	2.60043E-006	2.36600E-004	......
	99	25.8332	-2.02503E-002	2.60043E-006	3.36600E-004	......
	100	26.0915	-2.02873E-002	2.60043E-006	1.36600E-004	......
	101	26.3498	-2.03208E-002	2.60043E-006	2.36600E-004	......
	102	26.6081	-2.03658E-002	2.60043E-006	2.36600E-004	......
	103	26.8665	-2.04108E-002	2.60043E-006	2.36600E-004	......
	104	27.1248	-2.04393E-002	2.60043E-006	3.36600E-004	......
	105	27.3831	-2.04718E-002	2.60043E-006	3.36600E-004	......
	106	27.6415	-2.05198E-002	2.60043E-006	2.36600E-004	......
	107	27.8998	-2.05453E-002	2.60043E-006	2.36600E-004	......
	108	28.1581	-2.05873E-002	2.60043E-006	3.36600E-004	......
	109	28.4165	-2.06248E-002	2.60043E-006	1.36600E-004	......
	110	28.6748	-2.06628E-002	2.60043E-006	2.36600E-004	......
	111	28.9331	-2.07078E-002	2.60043E-006	3.36600E-004	......
	112	29.1915	-2.07423E-002	2.60043E-006	2.36600E-004	......
	113	29.4498	-2.07768E-002	2.60043E-006	2.36600E-004	......
	114	29.7081	-2.08283E-002	2.60043E-006	2.36600E-004	......
	115	29.9665	-2.08573E-002	2.60043E-006	3.36600E-004	......
	116	30.2248	-2.08888E-002	2.60043E-006	1.36600E-004	......
	117	30.4831	-2.09253E-002	2.60043E-006	2.36600E-004	......
	118	30.7414	-2.09678E-002	2.60043E-006	3.36600E-004	......
	119	30.9998	-2.09998E-002	2.60043E-006	3.36600E-004	......
	120	31.2581	-2.10278E-002	2.60043E-006	2.36600E-004	......
	121	31.5164	-2.10708E-002	2.60043E-006	1.36600E-004	......
	122	31.7748	-2.11113E-002	2.60043E-006	3.36600E-004	......
	123	32.0331	-2.11453E-002	2.60043E-006	2.36600E-004	......
	124	32.2914	-2.11738E-002	2.60043E-006	2.36600E-004	......
	125	32.5498	-2.12113E-002	2.60043E-006	2.36600E-004	......
	126	32.8081	-2.12483E-002	2.60043E-006	2.36600E-004	......
	127	33.0664	-2.12758E-002	2.60043E-006	2.36600E-004	......
	128	33.3248	-2.13213E-002	2.60043E-006	2.36600E-004	......
	129	33.5831	-2.13498E-002	2.60043E-006	3.36600E-004	......
	130	33.8414	-2.13948E-002	2.60043E-006	2.36600E-004	......
	131	34.0998	-2.14248E-002	2.60043E-006	2.36600E-004	......
	132	34.3581	-2.14628E-002	2.60043E-006	2.36600E-004	......
	133	34.6164	-2.14903E-002	2.60043E-006	2.36600E-004	......
	134	34.8748	-2.15343E-002	2.60043E-006	2.36600E-004	......
	135	35.1331	-2.15618E-002	2.60043E-006	1.36600E-004	......
	136	35.3914	-2.16063E-002	2.60043E-006	2.36600E-004	......
	137	35.6497	-2.16378E-002	2.60043E-006	3.36600E-004	......
	138	35.9081	-2.16693E-002	2.60043E-006	3.36600E-004	......
	139	36.1664	-2.17048E-002	2.60043E-006	3.36600E-004	......
	140	36.4247	-2.17373E-002	2.60043E-006	2.36600E-004	......
	141	36.6831	-2.17753E-002	2.60043E-006	3.36600E-004	......
	142	36.9414	-2.17968E-002	2.60043E-006	2.36600E-004	......
	143	37.1997	-2.18448E-002	2.60043E-006	3.36600E-004	......
	144	37.4581	-2.18758E-002	2.60043E-006	2.36600E-004	......
	145	37.7164	-2.19143E-002	2.60043E-006	3.36600E-004	......
	146	37.9747	-2.19438E-002	2.60043E-006	2.36600E-004	......
	147	38.2331	-2.19738E-002	2.60043E-006	3.66000E-005	......
	148	38.4914	-2.20108E-002	2.60043E-006	2.36600E-004	......
	149	38.7497	-2.20308E-002	2.60043E-006	1.36600E-004	......
	150	39.0081	-2.20688E-002	2.60043E-006	3.66000E-005	......
	151	39.2664	-2.21093E-002	2.60043E-006	3.36600E-004	......
	152	39.5247	-2.21378E-002	2.60043E-006	2.36600E-004	......
	153	39.7831	-2.21753E-002	2.60043E-006	2.36600E-004	......
	154	40.0414	-2.22058E-002	2.60043E-006	3.36600E-004	......
	155	40.2997	-2.22463E-002	2.60043E-006	2.36600E-004	......
	156	40.558	-2.22753E-002	2.60043E-006	3.36600E-004	......
	157	40.8164	-2.23158E-002	2.60043E-006	3.36600E-004	......
	158	41.0747	-2.23363E-002	2.60043E-006	2.36600E-004	......
	159	41.333	-2.23728E-002	2.60043E-006	2.36600E-004	......
	160	41.5914	-2.24068E-002	2.60043E-006	2.36600E-004	......
	161	41.8497	-2.24418E-002	2.60043E-006	2.36600E-004	......
	162	42.108	-2.24813E-002	2.60043E-006	2.36600E-004	......
	163	42.3664	-2.25123E-002	2.60043E-006	3.36600E-004	......
	164	42.6247	-2.25403E-002	2.60043E-006	3.36600E-004	......
	165	42.883	-2.25753E-002	2.60043E-006	2.36600E-004	......
	166	43.1414	-2.26083E-002	2.60043E-006	2.36600E-004	......
	167	43.3997	-2.26448E-002	2.60043E-006	2.36600E-004	......
	168	43.658	-2.26668E-002	2.60043E-006	2.36600E-004	......
	169	43.9164	-2.27043E-002	2.60043E-006	3.36600E-004	......
	170	44.1747	-2.27278E-002	2.60043E-006	3.36600E-004	......
	171	44.433	-2.27663E-002	2.60043E-006	2.36600E-004	......
	172	44.6913	-2.27973E-002	2.60043E-006	3.66000E-005	......
	173	44.9497	-2.28253E-002	2.60043E-006	4.36600E-004	......
	174	45.208	-2.28588E-002	2.60043E-006	3.36600E-004	......
	175	45.4663	-2.28923E-002	2.60043E-006	2.36600E-004	......
	176	45.7247	-2.29243E-002	2.60043E-006	3.36600E-004	......
	177	45.983	-2.29598E-002	2.60043E-006	3.36600E-004	......
	178	46.2413	-2.29818E-002	2.60043E-006	2.36600E-004	......
	179	46.4997	-2.30188E-002	2.60043E-006	3.36600E-004	......
	180	46.758	-2.30488E-002	2.60043E-006	3.66000E-005	......
	181	47.0163	-2.30858E-002	2.60043E-006	3.36600E-004	......
	182	47.2747	-2.31158E-002	2.60043E-006	2.36600E-004	......
	183	47.533	-2.31398E-002	2.60043E-006	2.36600E-004	......
	184	47.7913	-2.31713E-002	2.60043E-006	2.36600E-004	......
	185	48.0497	-2.31988E-002	2.60043E-006	2.36600E-004	......
	186	48.308	-2.32213E-002	2.60043E-006	2.36600E-004	......
	187	48.5663	-2.32678E-002	2.60043E-006	2.36600E-004	......
	188	48.8247	-2.32963E-002	2.60043E-006	2.36600E-004	......
	189	49.083	-2.33263E-002	2.60043E-006	3.36600E-004	......
	190	49.3413	-2.33543E-002	2.60043E-006	2.36600E-004	......
	191	49.5996	-2.33793E-002	2.60043E-006	2.36600E-004	......
	192	49.858	-2.34083E-002	2.60043E-006	2.36600E-004	......
	193	50.1163	-2.34373E-002	2.60043E-006	3.36600E-004	......
	194	50.3746	-2.34653E-002	2.60043E-006	1.36600E-004	......
	195	50.633	-2.35048E-002	2.60043E-006	2.36600E-004	......
	196	50.8913	-2.35318E-002	2.60043E-006	3.36600E-004	......
	197	51.1496	-2.35658E-002	2.60043E-006	2.36600E-004	......
	198	51.408	-2.35833E-002	2.60043E-006	1.36600E-004	......
	199	51.6663	-2.36163E-002	2.60043E-006	2.36600E-004	......
	200	51.9246	-2.36458E-002	2.60043E-006	3.36600E-004	......
	201	52.183	-2.36683E-002	2.60043E-006	2.36600E-004	......
	202	52.4413	-2.37113E-002	2.60043E-006	3.36600E-004	......
	203	52.6996	-2.37323E-002	2.60043E-006	2.36600E-004	......
	204	52.958	-2.37633E-002	2.60043E-006	2.36600E-004	......
	205	53.2163	-2.37983E-002	2.60043E-006	3.36600E-004	......
	206	53.4746	-2.38218E-002	2.60043E-006	2.36600E-004	......
	207	53.733	-2.38453E-002	2.60043E-006	3.66000E-005	......
	208	53.9913	-2.38758E-002	2.60043E-006	3.36600E-004	......
	209	54.2496	-2.38998E-002	2.60043E-006	3.36600E-004	......
	210	54.5079	-2.39343E-002	2.60043E-006	2.36600E-004	......
	211	54.7663	-2.39623E-002	2.60043E-006	3.66000E-005	......
	212	55.0246	-2.39853E-002	2.60043E-006	2.36600E-004	......
	213	55.2829	-2.40193E-002	2.60043E-006	2.36600E-004	......
	214	55.5413	-2.40403E-002	2.60043E-006	3.36600E-004	......
	215	55.7996	-2.40838E-002	2.60043E-006	3.36600E-004	......
	216	56.0579	-2.40998E-002	2.60043E-006	2.36600E-004	......
	217	56.3163	-2.41308E-002	2.60043E-006	3.36600E-004	......
	218	56.5746	-2.41578E-002	2.60043E-006	3.36600E-004	......
	219	56.8329	-2.41848E-002	2.60043E-006	2.36600E-004	......
	220	57.0913	-2.42038E-002	2.60043E-006	3.36600E-004	......
	221	57.3496	-2.42383E-002	2.60043E-006	2.36600E-004	......
	222	57.6079	-2.42663E-002	2.60043E-006	4.36600E-004	......
	223	57.8663	-2.42898E-002	2.60043E-006	2.36600E-004	......
	224	58.1246	-2.43178E-002	2.60043E-006	2.36600E-004	......
	225	58.3829	-2.43453E-002	2.60043E-006	2.36600E-004	......
	226	58.6413	-2.43768E-002	2.60043E-006	2.36600E-004	......
	227	58.8996	-2.44003E-002	2.60043E-006	2.36600E-004	......
	228	59.1579	-2.44213E-002	2.60043E-006	1.36600E-004	......
	229	59.4162	-2.44623E-002	2.60043E-006	2.36600E-004	......
	230	59.6746	-2.44863E-002	2.60043E-006	3.36600E-004	......
	231	59.9329	-2.45058E-002	2.60043E-006	2.36600E-004	......
EOC	QUANT	-0.024506	Open Circuit (V)
PSTATMODEL	IQUANT	32	Pstat Model
PSTATSECTION	LABEL	PStat0	Pstat Section
CTRLMODE	IQUANT	1	Control Mode
IESTAB	IQUANT	0	I/E Stability
CASPEED	IQUANT	1	Control Amp Speed
CONVENTION	IQUANT	1	Current Convention
ICHRANGE	IQUANT	2	Ich Range
ICHRANGEMODE	TOGGLE	F	Ich Auto Range
ICHOFFSETENABLE	TOGGLE	T	Ich Offset Enable
ICHOFFSET	QUANT	0	Ich Offset (V)
ICHFILTER	IQUANT	3	Ich Filter
VCHRANGE	IQUANT	2	Vch Range
VCHRANGEMODE	TOGGLE	F	Vch Auto Range
VCHOFFSETENABLE	TOGGLE	T	Vch Offset Enable
VCHOFFSET	QUANT	0	Vch Offset (V)
VCHFILTER	IQUANT	3	Vch Filter
ACHRANGE	IQUANT	0	Ach Range
IERANGELOWERLIMIT	IQUANT	3	I/E Range Lower Limit
IERANGEMODE	TOGGLE	F	I/E AutoRange
IERANGE	IQUANT	11	I/E Range
POSFEEDENABLE	TOGGLE	F	Positive Feedback IR Comp
POSFEEDRESISTANCE	QUANT	0	Positive Feedback Resistance (ohm)
FC350IDIVISOR	IQUANT	0	FC350 I Divisor
FC350VRANGE	IQUANT	0	FC350 V Range
FRAMEWORKVERSION	QUANT	4.35	Framework Version
ZCURVE	TABLE
	Pt	Time	Freq	Zreal	Zimag	Zsig	Zmod	Zphz	Idc	Vdc	IERange
	#	s	Hz	ohm	ohm	V	ohm	°	A	V	#
	0	6	100007	24.8808	0.171279	1	24.8814	0.394417	4.91902E-006	-0.023303	10
	1	10	89134.1	24.8056	0.15688	1	24.8061	0.362355	7.26067E-006	-0.023279	10
	2	13	79433.6	24.8149	0.256258	1	24.8162	0.591661	7.30435E-006	-0.023316	10
	3	17	70800.8	24.7428	0.013467	1	24.7428	0.031186	5.97308E-006	-0.023285	10
	4	19	63105.5	24.6049	0.078617	1	24.605	0.183071	6.85854E-006	-0.023286	10
	5	23	56243.5	24.609	-0.017033	1	24.609	-0.039657	4.98678E-006	-0.023295	10
	6	28	50123.7	24.6166	-0.125042	1	24.6169	-0.291036	6.39918E-006	-0.023316	10
	7	30	44681	24.3846	-0.297598	1	24.3864	-0.699224	6.09107E-006	-0.023295	10
	8	34	39811.2	24.6347	-0.437658	1	24.6386	-1.0178	6.00717E-006	-0.023292	10
	9	38	35488.3	24.519	-0.377521	1	24.5219	-0.882116	6.05613E-006	-0.023293	10
	10	42	31634.1	24.4161	-0.488984	1	24.421	-1.14731	6.40052E-006	-0.023318	10
	11	46	28173.1	24.4583	-0.61136	1	24.466	-1.43187	6.21705E-006	-0.023297	10
	12	48	25123.7	24.791	-0.519215	1	24.7965	-1.19981	5.98774E-006	-0.02329	10
	13	53	22389.3	24.4455	-0.710142	1	24.4558	-1.66398	4.98952E-006	-0.023306	10
	14	57	19954.4	24.7076	-0.697893	1	24.7175	-1.61795	7.33143E-006	-0.023311	10
	15	61	17778.2	24.5712	-0.831951	1	24.5853	-1.93922	6.42885E-006	-0.023305	10
	16	65	15852.9	24.7172	-0.799196	1	24.7302	-1.85193	6.10418E-006	-0.023281	10
	17	67	14122.3	24.8219	-0.94268	1	24.8398	-2.17492	6.17168E-006	-0.023299	10
	18	71	12587.2	24.8177	-1.07015	1	24.8408	-2.46908	6.20135E-006	-0.023308	10
	19	75	11221.1	24.6489	-1.103	1	24.6735	-2.56218	5.83923E-006	-0.023303	10
	20	79	9998.2	24.8897	-1.39742	1	24.9289	-3.21348	5.99915E-006	-0.023303	10
	21	83	8912.76	25.0803	-1.47272	1	25.1235	-3.36056	5.76409E-006	-0.023275	10
	22	85	7942.6	24.8546	-1.62968	1	24.9079	-3.75144	6.07124E-006	-0.023302	10
	23	89	7078.05	25.0291	-1.95571	1	25.1054	-4.46786	5.89719E-006	-0.023299	10
	24	94	6311.1	25.1807	-1.8869	1	25.2513	-4.28542	5.91814E-006	-0.0233	10
	25	98	5622.14	25.2572	-2.31409	1	25.363	-5.23489	5.80514E-006	-0.023298	10
	26	102	5011.18	25.3208	-2.18145	1	25.4146	-4.92401	5.78872E-006	-0.0233	10
	27	106	4465.21	25.2219	-2.49334	1	25.3449	-5.64568	6.00319E-006	-0.023301	10
	28	108	3980.93	25.3999	-2.66927	1	25.5398	-5.99918	5.98272E-006	-0.023307	10
	29	112	3548.18	25.378	-3.0751	1	25.5637	-6.90895	5.88161E-006	-0.023287	10
	30	116	3162.67	25.4985	-3.34623	1	25.7171	-7.47635	5.81893E-006	-0.02329	10
	31	121	2819.01	25.6287	-3.69506	1	25.8937	-8.20416	7.19643E-006	-0.023315	10
	32	125	2511.16	25.6564	-3.94184	1	25.9574	-8.7346	5.59563E-006	-0.023299	10
	33	129	2238.63	25.8379	-4.42607	1	26.2143	-9.7205	5.87383E-006	-0.023296	10
	34	131	1995.37	26.0053	-4.80733	1	26.4459	-10.4734	5.52512E-006	-0.023304	10
	35	135	1778.51	26.1924	-5.40587	1	26.7445	-11.6616	5.78454E-006	-0.02331	10
	36	139	1584.49	26.1806	-6.11116	1	26.8844	-13.1389	5.88435E-006	-0.023308	10
	37	144	1412.76	26.7482	-6.50425	1	27.5277	-13.6671	4.57354E-006	-0.023304	10
	38	148	1259.04	26.6404	-7.19833	1	27.5958	-15.1204	6.01909E-006	-0.023293	10
	39	150	1121.63	26.7579	-7.88511	1	27.8955	-16.4194	5.78626E-006	-0.023302	10
	40	154	999.95	27.2615	-8.54698	1	28.5699	-17.4072	5.88507E-006	-0.023298	10
	41	158	891.184	27.4034	-9.33294	1	28.9491	-18.8076	5.78366E-006	-0.023306	10
	42	162	794.163	27.7036	-10.356	1	29.576	-20.4963	5.84965E-006	-0.023305	10
	43	166	707.867	28.0126	-11.3224	1	30.2143	-22.0079	4.66046E-006	-0.023295	10
	44	170	630.984	28.3389	-12.3509	1	30.9134	-23.5489	5.91796E-006	-0.023307	10
	45	173	562.189	28.4142	-14.1637	1	31.7487	-26.495	6.02015E-006	-0.023321	10
	46	177	501.303	28.9242	-15.0916	1	32.6246	-27.554	5.87494E-006	-0.023304	10
	47	179	446.614	29.3358	-16.6201	1	33.7167	-29.5336	5.98674E-006	-0.023302	10
	48	181	398.209	29.7761	-18.2787	1	34.9389	-31.5446	5.96358E-006	-0.023299	10
	49	183	354.821	30.2541	-20.114	1	36.3302	-33.6174	5.94968E-006	-0.023295	10
	50	185	316.113	30.7821	-22.1279	1	37.9102	-35.7107	5.75154E-006	-0.023286	10
	51	187	281.926	31.3651	-24.3529	1	39.7093	-37.827	5.65541E-006	-0.023298	10
	52	189	251.185	31.9985	-26.7918	1	41.7337	-39.9389	5.88396E-006	-0.023294	10
	53	191	223.946	32.729	-29.4576	1	44.0334	-41.9887	5.82613E-006	-0.023304	10
	54	193	199.495	33.4871	-32.4693	1	46.6437	-44.116	5.92454E-006	-0.023297	10
	55	195	177.836	34.3572	-35.6959	1	49.5441	-46.0948	5.75826E-006	-0.023292	10
