EXPLAIN
TAG	EISPOT
TITLE	LABEL	Tomato_open	Test &Identifier
DATE	LABEL	5/16/2006	Date
TIME	LABEL	20:52:46	Time
NOTES	NOTES	1	&Notes...
	
PSTAT	PSTAT	300	Potentiostat
VDC	POTEN	1.00000E-003	T	DC &Voltage (V)
FREQINIT	QUANT	1.00000E+005	Initial Fre&q. (Hz)
FREQFINAL	QUANT	1.00000E+001	Final Fre&q. (Hz)
PTSPERDEC	QUANT	2.00000E+001	Points/&decade
VAC	QUANT	1.00000E+000	AC &Voltage (mV rms)
AREA	QUANT	1.00000E+000	&Area (cm²)
DENSITY	QUANT	7.87000E+000	&Density (gm/cm³)
EQUIV	QUANT	7.00000E+000	Equiv. &Wt
CONDIT	TWOPARAM	F	6.00000E+001	0.00000E+000	Conditionin&g	Time(s)	E(V)
DELAY	TWOPARAM	T	6.00000E+001	0.00000E+000	Init. De&lay	Time(s)	Stab.(mV/s)
SPEED	SELECTOR	1	&Optimize for:
ZGUESS	QUANT	1.00000E+002	E&stimated Z (ohms)
OCVCURVE	TABLE	232
	Pt	T	Vf	Vm	Ach	Over
	#	s	V vs. Ref.	V	V	bits
	0	0.258332	-1.45453E-002	3.98343E-006	-6.34000E-005	......
	1	0.516663	-1.45673E-002	3.98343E-006	-6.34000E-005	......
	2	0.774994	-1.45983E-002	3.98343E-006	3.66000E-005	......
	3	1.03333	-1.46208E-002	3.98343E-006	-6.34000E-005	......
	4	1.29166	-1.46523E-002	3.98343E-006	3.66000E-005	......
	5	1.54999	-1.46858E-002	3.98343E-006	-1.63400E-004	......
	6	1.80832	-1.47068E-002	3.98343E-006	3.66000E-005	......
	7	2.06665	-1.47408E-002	3.98343E-006	-1.63400E-004	......
	8	2.32498	-1.47678E-002	3.98343E-006	2.36600E-004	......
	9	2.58332	-1.47948E-002	3.98343E-006	-6.34000E-005	......
	10	2.84165	-1.48383E-002	3.98343E-006	3.66000E-005	......
	11	3.09998	-1.48578E-002	3.98343E-006	-1.63400E-004	......
	12	3.35831	-1.48768E-002	3.98343E-006	3.66000E-005	......
	13	3.61664	-1.49163E-002	3.98343E-006	-1.63400E-004	......
	14	3.87497	-1.49443E-002	3.98343E-006	3.66000E-005	......
	15	4.1333	-1.49593E-002	3.98343E-006	-6.34000E-005	......
	16	4.39164	-1.49973E-002	3.98343E-006	3.66000E-005	......
	17	4.64997	-1.50323E-002	3.98343E-006	-1.63400E-004	......
	18	4.9083	-1.50668E-002	3.98343E-006	3.66000E-005	......
	19	5.16663	-1.50868E-002	3.98343E-006	-6.34000E-005	......
	20	5.42496	-1.51163E-002	3.98343E-006	3.66000E-005	......
	21	5.68329	-1.51578E-002	3.98343E-006	-1.63400E-004	......
	22	5.94162	-1.51828E-002	3.98343E-006	-6.34000E-005	......
	23	6.19996	-1.52103E-002	3.98343E-006	-1.63400E-004	......
	24	6.45829	-1.52453E-002	3.98343E-006	2.36600E-004	......
	25	6.71662	-1.52698E-002	3.98343E-006	-1.63400E-004	......
	26	6.97495	-1.52993E-002	3.98343E-006	2.36600E-004	......
	27	7.23328	-1.53408E-002	3.98343E-006	-1.63400E-004	......
	28	7.49161	-1.53598E-002	3.98343E-006	2.36600E-004	......
	29	7.74995	-1.53933E-002	3.98343E-006	-1.63400E-004	......
	30	8.00828	-1.54283E-002	3.98343E-006	1.36600E-004	......
	31	8.26661	-1.54568E-002	3.98343E-006	-1.63400E-004	......
	32	8.52494	-1.54888E-002	3.98343E-006	2.36600E-004	......
	33	8.78327	-1.55183E-002	3.98343E-006	-1.63400E-004	......
	34	9.0416	-1.55508E-002	3.98343E-006	3.66000E-005	......
	35	9.29993	-1.55733E-002	3.98343E-006	-6.34000E-005	......
	36	9.5583	-1.56028E-002	3.98343E-006	3.66000E-005	......
	37	9.8166	-1.56343E-002	3.98343E-006	-1.63400E-004	......
	38	10.0749	-1.56713E-002	3.98343E-006	3.66000E-005	......
	39	10.3333	-1.57038E-002	3.98343E-006	-6.34000E-005	......
	40	10.5916	-1.57418E-002	3.98343E-006	2.36600E-004	......
	41	10.8499	-1.57693E-002	3.98343E-006	-2.63400E-004	......
	42	11.1083	-1.58038E-002	3.98343E-006	3.66000E-005	......
	43	11.3666	-1.58243E-002	3.98343E-006	-1.63400E-004	......
	44	11.6249	-1.58533E-002	3.98343E-006	2.36600E-004	......
	45	11.8832	-1.58843E-002	3.98343E-006	-6.34000E-005	......
	46	12.1416	-1.59173E-002	3.98343E-006	1.36600E-004	......
	47	12.3999	-1.59463E-002	3.98343E-006	-6.34000E-005	......
	48	12.6582	-1.59758E-002	3.98343E-006	2.36600E-004	......
	49	12.9166	-1.60088E-002	3.98343E-006	-1.63400E-004	......
	50	13.1749	-1.60358E-002	3.98343E-006	3.66000E-005	......
	51	13.4332	-1.60793E-002	3.98343E-006	-1.63400E-004	......
	52	13.6916	-1.61073E-002	3.98343E-006	3.66000E-005	......
	53	13.9499	-1.61308E-002	3.98343E-006	-1.63400E-004	......
	54	14.2082	-1.61653E-002	3.98343E-006	2.36600E-004	......
	55	14.4666	-1.62003E-002	3.98343E-006	-6.34000E-005	......
	56	14.7249	-1.62173E-002	3.98343E-006	3.66000E-005	......
	57	14.9832	-1.62543E-002	3.98343E-006	-1.63400E-004	......
	58	15.2416	-1.62768E-002	3.98343E-006	1.36600E-004	......
	59	15.4999	-1.63148E-002	3.98343E-006	-1.63400E-004	......
	60	15.7582	-1.63378E-002	3.98343E-006	3.66000E-005	......
	61	16.0166	-1.63688E-002	3.98343E-006	-6.34000E-005	......
	62	16.2749	-1.64068E-002	3.98343E-006	1.36600E-004	......
	63	16.5332	-1.64293E-002	3.98343E-006	-1.63400E-004	......
	64	16.7915	-1.64588E-002	3.98343E-006	2.36600E-004	......
	65	17.0499	-1.64943E-002	3.98343E-006	-6.34000E-005	......
	66	17.3082	-1.65233E-002	3.98343E-006	2.36600E-004	......
	67	17.5665	-1.65423E-002	3.98343E-006	-1.63400E-004	......
	68	17.8249	-1.65748E-002	3.98343E-006	3.66000E-005	......
	69	18.0832	-1.66048E-002	3.98343E-006	-6.34000E-005	......
	70	18.3415	-1.66363E-002	3.98343E-006	1.36600E-004	......
	71	18.5999	-1.66698E-002	3.98343E-006	-1.63400E-004	......
	72	18.8582	-1.67008E-002	3.98343E-006	2.36600E-004	......
	73	19.1165	-1.67278E-002	3.98343E-006	-1.63400E-004	......
	74	19.3749	-1.67518E-002	3.98343E-006	2.36600E-004	......
	75	19.6332	-1.67798E-002	3.98343E-006	-6.34000E-005	......
	76	19.8915	-1.68118E-002	3.98343E-006	3.66000E-005	......
	77	20.1499	-1.68373E-002	3.98343E-006	-1.63400E-004	......
	78	20.4082	-1.68628E-002	3.98343E-006	-6.34000E-005	......
	79	20.6665	-1.68918E-002	3.98343E-006	-1.63400E-004	......
	80	20.9249	-1.69178E-002	3.98343E-006	3.66000E-005	......
	81	21.1832	-1.69658E-002	3.98343E-006	-6.34000E-005	......
	82	21.4415	-1.69778E-002	3.98343E-006	3.66000E-005	......
	83	21.6998	-1.70098E-002	3.98343E-006	3.66000E-005	......
	84	21.9582	-1.70308E-002	3.98343E-006	3.66000E-005	......
	85	22.2165	-1.70628E-002	3.98343E-006	-1.63400E-004	......
	86	22.4748	-1.70868E-002	3.98343E-006	3.66000E-005	......
	87	22.7332	-1.71253E-002	3.98343E-006	-1.63400E-004	......
	88	22.9915	-1.71453E-002	3.98343E-006	2.36600E-004	......
	89	23.2498	-1.71673E-002	3.98343E-006	-1.63400E-004	......
	90	23.5082	-1.72088E-002	3.98343E-006	3.66000E-005	......
	91	23.7665	-1.72263E-002	3.98343E-006	-1.63400E-004	......
	92	24.0248	-1.72523E-002	3.98343E-006	1.36600E-004	......
	93	24.2832	-1.72803E-002	3.98343E-006	-6.34000E-005	......
	94	24.5415	-1.73018E-002	3.98343E-006	3.36600E-004	......
	95	24.7998	-1.73403E-002	3.98343E-006	-1.63400E-004	......
	96	25.0582	-1.73638E-002	3.98343E-006	3.66000E-005	......
	97	25.3165	-1.73903E-002	3.98343E-006	-6.34000E-005	......
	98	25.5748	-1.74163E-002	3.98343E-006	2.36600E-004	......
	99	25.8332	-1.74448E-002	3.98343E-006	-1.63400E-004	......
	100	26.0915	-1.74733E-002	3.98343E-006	3.66000E-005	......
	101	26.3498	-1.74948E-002	3.98343E-006	-6.34000E-005	......
	102	26.6081	-1.75263E-002	3.98343E-006	2.36600E-004	......
	103	26.8665	-1.75493E-002	3.98343E-006	-1.63400E-004	......
	104	27.1248	-1.75763E-002	3.98343E-006	3.66000E-005	......
	105	27.3831	-1.75973E-002	3.98343E-006	-6.34000E-005	......
	106	27.6415	-1.76218E-002	3.98343E-006	3.66000E-005	......
	107	27.8998	-1.76463E-002	3.98343E-006	-1.63400E-004	......
	108	28.1581	-1.76788E-002	3.98343E-006	3.66000E-005	......
	109	28.4165	-1.77083E-002	3.98343E-006	-6.34000E-005	......
	110	28.6748	-1.77323E-002	3.98343E-006	2.36600E-004	......
	111	28.9331	-1.77643E-002	3.98343E-006	-1.63400E-004	......
	112	29.1915	-1.77828E-002	3.98343E-006	3.66000E-005	......
	113	29.4498	-1.78128E-002	3.98343E-006	-6.34000E-005	......
	114	29.7081	-1.78318E-002	3.98343E-006	3.66000E-005	......
	115	29.9665	-1.78613E-002	3.98343E-006	-1.63400E-004	......
	116	30.2248	-1.78788E-002	3.98343E-006	3.66000E-005	......
	117	30.4831	-1.79028E-002	3.98343E-006	-1.63400E-004	......
	118	30.7414	-1.79268E-002	3.98343E-006	1.36600E-004	......
	119	30.9998	-1.79548E-002	3.98343E-006	-6.34000E-005	......
	120	31.2581	-1.79718E-002	3.98343E-006	1.36600E-004	......
	121	31.5164	-1.80003E-002	3.98343E-006	-1.63400E-004	......
	122	31.7748	-1.80238E-002	3.98343E-006	3.66000E-005	......
	123	32.0331	-1.80583E-002	3.98343E-006	3.66000E-005	......
	124	32.2914	-1.80883E-002	3.98343E-006	2.36600E-004	......
	125	32.5498	-1.80903E-002	3.98343E-006	-6.34000E-005	......
	126	32.8081	-1.81213E-002	3.98343E-006	2.36600E-004	......
	127	33.0664	-1.81468E-002	3.98343E-006	-1.63400E-004	......
	128	33.3248	-1.81668E-002	3.98343E-006	1.36600E-004	......
	129	33.5831	-1.81883E-002	3.98343E-006	-6.34000E-005	......
	130	33.8414	-1.82098E-002	3.98343E-006	3.66000E-005	......
	131	34.0998	-1.82333E-002	3.98343E-006	-2.63400E-004	......
	132	34.3581	-1.82583E-002	3.98343E-006	3.66000E-005	......
	133	34.6164	-1.82818E-002	3.98343E-006	-6.34000E-005	......
	134	34.8748	-1.83058E-002	3.98343E-006	2.36600E-004	......
	135	35.1331	-1.83328E-002	3.98343E-006	-6.34000E-005	......
	136	35.3914	-1.83518E-002	3.98343E-006	3.66000E-005	......
	137	35.6497	-1.83803E-002	3.98343E-006	-6.34000E-005	......
	138	35.9081	-1.84053E-002	3.98343E-006	1.36600E-004	......
	139	36.1664	-1.84188E-002	3.98343E-006	-1.63400E-004	......
	140	36.4247	-1.84463E-002	3.98343E-006	3.66000E-005	......
	141	36.6831	-1.84713E-002	3.98343E-006	-1.63400E-004	......
	142	36.9414	-1.84958E-002	3.98343E-006	3.66000E-005	......
	143	37.1997	-1.85193E-002	3.98343E-006	-6.34000E-005	......
	144	37.4581	-1.85388E-002	3.98343E-006	1.36600E-004	......
	145	37.7164	-1.85653E-002	3.98343E-006	-1.63400E-004	......
	146	37.9747	-1.85803E-002	3.98343E-006	3.66000E-005	......
	147	38.2331	-1.86023E-002	3.98343E-006	-1.63400E-004	......
	148	38.4914	-1.86328E-002	3.98343E-006	3.66000E-005	......
	149	38.7497	-1.86473E-002	3.98343E-006	-6.34000E-005	......
	150	39.0081	-1.86748E-002	3.98343E-006	3.66000E-005	......
	151	39.2664	-1.86943E-002	3.98343E-006	-6.34000E-005	......
	152	39.5247	-1.87113E-002	3.98343E-006	3.66000E-005	......
	153	39.7831	-1.87313E-002	3.98343E-006	-1.63400E-004	......
	154	40.0414	-1.87483E-002	3.98343E-006	1.36600E-004	......
	155	40.2997	-1.87798E-002	3.98343E-006	-1.63400E-004	......
	156	40.558	-1.87973E-002	3.98343E-006	3.66000E-005	......
	157	40.8164	-1.88208E-002	3.98343E-006	-6.34000E-005	......
	158	41.0747	-1.88428E-002	3.98343E-006	1.36600E-004	......
	159	41.333	-1.88588E-002	3.98343E-006	-6.34000E-005	......
	160	41.5914	-1.88838E-002	3.98343E-006	1.36600E-004	......
	161	41.8497	-1.89088E-002	3.98343E-006	-1.63400E-004	......
	162	42.108	-1.89148E-002	3.98343E-006	1.36600E-004	......
	163	42.3664	-1.89393E-002	3.98343E-006	-6.34000E-005	......
	164	42.6247	-1.89593E-002	3.98343E-006	1.36600E-004	......
	165	42.883	-1.89893E-002	3.98343E-006	-1.63400E-004	......
	166	43.1414	-1.90103E-002	3.98343E-006	-6.34000E-005	......
	167	43.3997	-1.90313E-002	3.98343E-006	-2.63400E-004	......
	168	43.658	-1.90568E-002	3.98343E-006	1.36600E-004	......
	169	43.9164	-1.90728E-002	3.98343E-006	-6.34000E-005	......
	170	44.1747	-1.90903E-002	3.98343E-006	1.36600E-004	......
	171	44.433	-1.91128E-002	3.98343E-006	-1.63400E-004	......
	172	44.6913	-1.91258E-002	3.98343E-006	3.66000E-005	......
	173	44.9497	-1.91493E-002	3.98343E-006	-6.34000E-005	......
	174	45.208	-1.91773E-002	3.98343E-006	2.36600E-004	......
	175	45.4663	-1.91898E-002	3.98343E-006	-6.34000E-005	......
	176	45.7247	-1.92118E-002	3.98343E-006	3.66000E-005	......
	177	45.983	-1.92328E-002	3.98343E-006	-1.63400E-004	......
	178	46.2413	-1.92573E-002	3.98343E-006	3.66000E-005	......
	179	46.4997	-1.92718E-002	3.98343E-006	-1.63400E-004	......
	180	46.758	-1.93013E-002	3.98343E-006	2.36600E-004	......
	181	47.0163	-1.93138E-002	3.98343E-006	-1.63400E-004	......
	182	47.2747	-1.93378E-002	3.98343E-006	1.36600E-004	......
	183	47.533	-1.93598E-002	3.98343E-006	-1.63400E-004	......
	184	47.7913	-1.93838E-002	3.98343E-006	3.66000E-005	......
	185	48.0497	-1.93928E-002	3.98343E-006	-1.63400E-004	......
	186	48.308	-1.94168E-002	3.98343E-006	2.36600E-004	......
	187	48.5663	-1.94398E-002	3.98343E-006	-6.34000E-005	......
	188	48.8247	-1.94553E-002	3.98343E-006	3.66000E-005	......
	189	49.083	-1.94863E-002	3.98343E-006	-6.34000E-005	......
	190	49.3413	-1.94958E-002	3.98343E-006	2.36600E-004	......
	191	49.5996	-1.95288E-002	3.98343E-006	-6.34000E-005	......
	192	49.858	-1.95498E-002	3.98343E-006	1.36600E-004	......
	193	50.1163	-1.95593E-002	3.98343E-006	-1.63400E-004	......
	194	50.3746	-1.95848E-002	3.98343E-006	3.66000E-005	......
	195	50.633	-1.96083E-002	3.98343E-006	-1.63400E-004	......
	196	50.8913	-1.96213E-002	3.98343E-006	3.66000E-005	......
	197	51.1496	-1.96488E-002	3.98343E-006	-6.34000E-005	......
	198	51.408	-1.96673E-002	3.98343E-006	3.66000E-005	......
	199	51.6663	-1.96813E-002	3.98343E-006	-1.63400E-004	......
	200	51.9246	-1.97133E-002	3.98343E-006	2.36600E-004	......
	201	52.183	-1.97243E-002	3.98343E-006	-1.63400E-004	......
	202	52.4413	-1.97563E-002	3.98343E-006	1.36600E-004	......
	203	52.6996	-1.97643E-002	3.98343E-006	-6.34000E-005	......
	204	52.958	-1.97833E-002	3.98343E-006	3.66000E-005	......
	205	53.2163	-1.98093E-002	3.98343E-006	-6.34000E-005	......
	206	53.4746	-1.98223E-002	3.98343E-006	2.36600E-004	......
	207	53.733	-1.98453E-002	3.98343E-006	3.66000E-005	......
	208	53.9913	-1.98653E-002	3.98343E-006	2.36600E-004	......
	209	54.2496	-1.98813E-002	3.98343E-006	-6.34000E-005	......
	210	54.5079	-1.99053E-002	3.98343E-006	2.36600E-004	......
	211	54.7663	-1.99213E-002	3.98343E-006	-6.34000E-005	......
	212	55.0246	-1.99423E-002	3.98343E-006	3.66000E-005	......
	213	55.2829	-1.99693E-002	3.98343E-006	3.66000E-005	......
	214	55.5413	-1.99893E-002	3.98343E-006	3.36600E-004	......
	215	55.7996	-1.99973E-002	3.98343E-006	-6.34000E-005	......
	216	56.0579	-2.00218E-002	3.98343E-006	3.66000E-005	......
	217	56.3163	-2.00458E-002	3.98343E-006	-1.63400E-004	......
	218	56.5746	-2.00608E-002	3.98343E-006	1.36600E-004	......
	219	56.8329	-2.00803E-002	3.98343E-006	-6.34000E-005	......
	220	57.0913	-2.01073E-002	3.98343E-006	1.36600E-004	......
	221	57.3496	-2.01263E-002	3.98343E-006	-1.63400E-004	......
	222	57.6079	-2.01283E-002	3.98343E-006	3.66000E-005	......
	223	57.8663	-2.01628E-002	3.98343E-006	-1.63400E-004	......
	224	58.1246	-2.01848E-002	3.98343E-006	3.66000E-005	......
	225	58.3829	-2.01953E-002	3.98343E-006	3.66000E-005	......
	226	58.6413	-2.02218E-002	3.98343E-006	2.36600E-004	......
	227	58.8996	-2.02393E-002	3.98343E-006	3.66000E-005	......
	228	59.1579	-2.02568E-002	3.98343E-006	1.36600E-004	......
	229	59.4162	-2.02833E-002	3.98343E-006	-1.63400E-004	......
	230	59.6746	-2.02928E-002	3.98343E-006	2.36600E-004	......
	231	59.9329	-2.03118E-002	3.98343E-006	-1.63400E-004	......
EOC	QUANT	-0.020312	Open Circuit (V)
PSTATMODEL	IQUANT	32	Pstat Model
PSTATSECTION	LABEL	PStat0	Pstat Section
CTRLMODE	IQUANT	1	Control Mode
IESTAB	IQUANT	0	I/E Stability
CASPEED	IQUANT	1	Control Amp Speed
CONVENTION	IQUANT	1	Current Convention
ICHRANGE	IQUANT	2	Ich Range
ICHRANGEMODE	TOGGLE	F	Ich Auto Range
ICHOFFSETENABLE	TOGGLE	T	Ich Offset Enable
ICHOFFSET	QUANT	0	Ich Offset (V)
ICHFILTER	IQUANT	3	Ich Filter
VCHRANGE	IQUANT	2	Vch Range
VCHRANGEMODE	TOGGLE	F	Vch Auto Range
VCHOFFSETENABLE	TOGGLE	T	Vch Offset Enable
VCHOFFSET	QUANT	0	Vch Offset (V)
VCHFILTER	IQUANT	3	Vch Filter
ACHRANGE	IQUANT	0	Ach Range
IERANGELOWERLIMIT	IQUANT	3	I/E Range Lower Limit
IERANGEMODE	TOGGLE	F	I/E AutoRange
IERANGE	IQUANT	11	I/E Range
POSFEEDENABLE	TOGGLE	F	Positive Feedback IR Comp
POSFEEDRESISTANCE	QUANT	0	Positive Feedback Resistance (ohm)
FC350IDIVISOR	IQUANT	0	FC350 I Divisor
FC350VRANGE	IQUANT	0	FC350 V Range
FRAMEWORKVERSION	QUANT	4.35	Framework Version
ZCURVE	TABLE
	Pt	Time	Freq	Zreal	Zimag	Zsig	Zmod	Zphz	Idc	Vdc	IERange
	#	s	Hz	ohm	ohm	V	ohm	°	A	V	#
	0	7	100007	227.493	-0.137302	1	227.493	-0.034581	1.20687E-006	-0.019009	9
	1	11	89134.1	224.955	0.489579	1	224.956	0.124695	9.35028E-007	-0.018971	9
	2	15	79433.6	225.449	-0.091532	1	225.449	-0.023262	9.43862E-007	-0.018967	9
	3	17	70800.8	225.646	1.2408	1	225.649	0.315059	1.1254E-006	-0.018991	9
	4	21	63105.5	224.953	-0.651582	1	224.954	-0.165958	1.09223E-006	-0.019009	9
	5	25	56243.5	223.421	-0.335062	1	223.421	-0.085926	9.63876E-007	-0.018961	9
	6	28	50123.7	223.354	-0.90087	1	223.356	-0.231094	1.06302E-006	-0.018972	9
	7	32	44681	222.158	-1.29765	1	222.162	-0.334667	9.07683E-007	-0.018984	9
	8	36	39811.2	223.583	-1.07322	1	223.586	-0.275022	9.29961E-007	-0.018966	9
	9	40	35488.3	221.34	-0.584132	1	221.341	-0.151207	9.28507E-007	-0.018959	9
	10	44	31634.1	222.897	-1.53804	1	222.902	-0.395348	1.04107E-006	-0.018959	9
	11	46	28173.1	221.787	-1.5424	1	221.792	-0.398451	1.00158E-006	-0.018974	9
	12	50	25123.7	221.579	-0.780191	1	221.581	-0.20174	1.0574E-006	-0.018972	9
	13	54	22389.3	222.528	-1.40414	1	222.533	-0.361528	9.07213E-007	-0.018959	9
	14	59	19954.4	223.3	-0.809468	1	223.301	-0.207698	8.68838E-007	-0.018973	9
	15	63	17778.2	222.411	0.23405	1	222.411	0.060294	9.80208E-007	-0.018979	9
	16	67	15852.9	222.333	-1.18218	1	222.337	-0.304647	9.86437E-007	-0.018993	9
	17	69	14122.3	222.957	-1.73189	1	222.964	-0.445055	9.78695E-007	-0.018978	9
	18	73	12587.2	221.853	-0.700028	1	221.855	-0.180788	9.66423E-007	-0.018978	9
	19	77	11221.1	222.667	-0.458534	1	222.668	-0.117988	9.711E-007	-0.018981	9
	20	81	9998.2	221.44	-0.705366	1	221.441	-0.182507	9.66214E-007	-0.018973	9
	21	85	8912.76	222.186	-1.76934	1	222.194	-0.456253	8.91099E-007	-0.018958	9
	22	87	7942.6	223.262	-1.04298	1	223.264	-0.26766	9.53847E-007	-0.018972	9
	23	91	7078.05	224.755	-1.268	1	224.758	-0.323243	9.36566E-007	-0.018973	9
	24	96	6311.1	221.928	-2.77652	1	221.945	-0.716787	9.40336E-007	-0.01898	9
	25	100	5622.14	224.024	-1.69456	1	224.031	-0.433387	9.7283E-007	-0.018975	9
	26	104	5011.18	221.797	-3.60922	1	221.826	-0.932271	9.58881E-007	-0.018971	9
	27	108	4465.21	223.006	-5.50716	1	223.074	-1.41464	9.56195E-007	-0.018962	9
	28	110	3980.93	222.579	-2.94791	1	222.599	-0.758799	8.44121E-007	-0.01895	9
	29	114	3548.18	222.452	-4.89745	1	222.506	-1.26121	1.02975E-006	-0.018969	9
	30	118	3162.67	224.172	-4.72148	1	224.222	-1.20658	1.00885E-006	-0.019	9
	31	122	2819.01	222.689	-5.47494	1	222.756	-1.40837	9.54324E-007	-0.018959	9
	32	126	2511.16	224.249	-4.65303	1	224.298	-1.18868	9.42697E-007	-0.018967	9
	33	131	2238.63	223.572	-5.46992	1	223.639	-1.40152	9.14398E-007	-0.018964	9
	34	133	1995.37	224.587	-7.44851	1	224.711	-1.89954	9.27862E-007	-0.018972	9
	35	137	1778.51	224.278	-6.67587	1	224.377	-1.70497	9.17953E-007	-0.018975	9
	36	141	1584.49	223.186	-6.42827	1	223.278	-1.6498	9.07237E-007	-0.018978	9
	37	145	1412.76	224.923	-8.57823	1	225.086	-2.18412	1.0268E-006	-0.018972	9
	38	149	1259.04	226.328	-10.5668	1	226.574	-2.67309	9.06319E-007	-0.018965	9
	39	151	1121.63	223.903	-10.0489	1	224.128	-2.56974	9.27353E-007	-0.018977	9
	40	155	999.95	223.172	-10.9619	1	223.441	-2.81203	9.24485E-007	-0.018979	9
	41	159	891.184	223.922	-12.0225	1	224.245	-3.07328	9.00615E-007	-0.018981	9
	42	164	794.163	224.432	-12.3613	1	224.772	-3.15256	9.32426E-007	-0.018973	9
	43	168	707.867	226.478	-13.9518	1	226.908	-3.52514	9.47992E-007	-0.018994	9
	44	172	630.984	227.533	-16.0752	1	228.1	-4.04124	9.36297E-007	-0.018965	9
	45	174	562.189	227.461	-16.3397	1	228.047	-4.1088	9.26002E-007	-0.018988	9
	46	178	501.303	227.911	-18.2055	1	228.637	-4.56708	8.95685E-007	-0.018979	9
	47	180	446.614	228.205	-20.1445	1	229.092	-5.04465	9.02069E-007	-0.018978	9
	48	182	398.209	228.825	-22.1012	1	229.89	-5.51683	9.5996E-007	-0.018982	9
	49	184	354.821	229.6	-24.2308	1	230.875	-6.02439	9.26788E-007	-0.018978	9
	50	186	316.113	230.304	-26.5139	1	231.825	-6.56729	9.72837E-007	-0.018977	9
	51	188	281.926	231.131	-29.2578	1	232.975	-7.21444	8.97519E-007	-0.018981	9
	52	190	251.185	231.902	-31.9742	1	234.096	-7.85033	9.70524E-007	-0.018977	9
	53	192	223.946	232.869	-35.0907	1	235.498	-8.56935	8.93304E-007	-0.018984	9
	54	194	199.495	233.804	-38.5126	1	236.955	-9.35387	9.06196E-007	-0.018974	9
