EXPLAIN
TAG	EISPOT
TITLE	LABEL	Tomato_open	Test &Identifier
DATE	LABEL	5/16/2006	Date
TIME	LABEL	16:42:53	Time
NOTES	NOTES	1	&Notes...
	
PSTAT	PSTAT	300	Potentiostat
VDC	POTEN	1.00000E-003	T	DC &Voltage (V)
FREQINIT	QUANT	1.00000E+005	Initial Fre&q. (Hz)
FREQFINAL	QUANT	1.00000E+001	Final Fre&q. (Hz)
PTSPERDEC	QUANT	2.00000E+001	Points/&decade
VAC	QUANT	1.00000E+000	AC &Voltage (mV rms)
AREA	QUANT	1.00000E+000	&Area (cm²)
DENSITY	QUANT	7.87000E+000	&Density (gm/cm³)
EQUIV	QUANT	7.00000E+000	Equiv. &Wt
CONDIT	TWOPARAM	F	6.00000E+001	0.00000E+000	Conditionin&g	Time(s)	E(V)
DELAY	TWOPARAM	T	6.00000E+001	0.00000E+000	Init. De&lay	Time(s)	Stab.(mV/s)
SPEED	SELECTOR	1	&Optimize for:
ZGUESS	QUANT	1.00000E+002	E&stimated Z (ohms)
OCVCURVE	TABLE	232
	Pt	T	Vf	Vm	Ach	Over
	#	s	V vs. Ref.	V	V	bits
	0	0.258332	-5.08475E-002	3.26043E-006	-1.63400E-004	......
	1	0.516663	-5.06225E-002	3.26043E-006	3.66000E-005	......
	2	0.774994	-5.04125E-002	3.26043E-006	-1.63400E-004	......
	3	1.03333	-5.02025E-002	3.26043E-006	3.66000E-005	......
	4	1.29166	-4.99975E-002	3.26043E-006	-6.34000E-005	......
	5	1.54999	-4.97825E-002	3.26043E-006	2.36600E-004	......
	6	1.80832	-4.95775E-002	3.26043E-006	-1.63400E-004	......
	7	2.06665	-4.93775E-002	3.26043E-006	3.66000E-005	......
	8	2.32498	-4.91825E-002	3.26043E-006	-1.63400E-004	......
	9	2.58332	-4.89825E-002	3.26043E-006	3.66000E-005	......
	10	2.84165	-4.87975E-002	3.26043E-006	-6.34000E-005	......
	11	3.09998	-4.86125E-002	3.26043E-006	2.36600E-004	......
	12	3.35831	-4.84275E-002	3.26043E-006	-6.34000E-005	......
	13	3.61664	-4.82375E-002	3.26043E-006	2.36600E-004	......
	14	3.87497	-4.80525E-002	3.26043E-006	-1.63400E-004	......
	15	4.1333	-4.78725E-002	3.26043E-006	1.36600E-004	......
	16	4.39164	-4.77025E-002	3.26043E-006	-1.63400E-004	......
	17	4.64997	-4.75275E-002	3.26043E-006	2.36600E-004	......
	18	4.9083	-4.73275E-002	3.26043E-006	-1.63400E-004	......
	19	5.16663	-4.71625E-002	3.26043E-006	2.36600E-004	......
	20	5.42496	-4.69775E-002	3.26043E-006	-1.63400E-004	......
	21	5.68329	-4.68025E-002	3.26043E-006	2.36600E-004	......
	22	5.94162	-4.66375E-002	3.26043E-006	-6.34000E-005	......
	23	6.19996	-4.64675E-002	3.26043E-006	-6.34000E-005	......
	24	6.45829	-4.62925E-002	3.26043E-006	-6.34000E-005	......
	25	6.71662	-4.61175E-002	3.26043E-006	2.36600E-004	......
	26	6.97495	-4.59475E-002	3.26043E-006	-1.63400E-004	......
	27	7.23328	-4.57775E-002	3.26043E-006	3.66000E-005	......
	28	7.49161	-4.56175E-002	3.26043E-006	-6.34000E-005	......
	29	7.74995	-4.54525E-002	3.26043E-006	3.66000E-005	......
	30	8.00828	-4.52775E-002	3.26043E-006	-6.34000E-005	......
	31	8.26661	-4.51075E-002	3.26043E-006	-6.34000E-005	......
	32	8.52494	-4.49475E-002	3.26043E-006	-6.34000E-005	......
	33	8.78327	-4.47725E-002	3.26043E-006	3.66000E-005	......
	34	9.0416	-4.46175E-002	3.26043E-006	-1.63400E-004	......
	35	9.29993	-4.44625E-002	3.26043E-006	3.66000E-005	......
	36	9.5583	-4.43075E-002	3.26043E-006	3.66000E-005	......
	37	9.8166	-4.41525E-002	3.26043E-006	3.66000E-005	......
	38	10.0749	-4.39975E-002	3.26043E-006	-1.63400E-004	......
	39	10.3333	-4.38475E-002	3.26043E-006	1.36600E-004	......
	40	10.5916	-4.37025E-002	3.26043E-006	-1.63400E-004	......
	41	10.8499	-4.35425E-002	3.26043E-006	3.66000E-005	......
	42	11.1083	-4.34025E-002	3.26043E-006	-6.34000E-005	......
	43	11.3666	-4.32475E-002	3.26043E-006	3.66000E-005	......
	44	11.6249	-4.31075E-002	3.26043E-006	-3.63400E-004	......
	45	11.8832	-4.29725E-002	3.26043E-006	1.36600E-004	......
	46	12.1416	-4.28225E-002	3.26043E-006	-1.63400E-004	......
	47	12.3999	-4.26775E-002	3.26043E-006	3.66000E-005	......
	48	12.6582	-4.25425E-002	3.26043E-006	-6.34000E-005	......
	49	12.9166	-4.24075E-002	3.26043E-006	3.66000E-005	......
	50	13.1749	-4.22575E-002	3.26043E-006	-1.63400E-004	......
	51	13.4332	-4.21225E-002	3.26043E-006	1.36600E-004	......
	52	13.6916	-4.19825E-002	3.26043E-006	-6.34000E-005	......
	53	13.9499	-4.18425E-002	3.26043E-006	3.66000E-005	......
	54	14.2082	-4.17025E-002	3.26043E-006	-1.63400E-004	......
	55	14.4666	-4.15625E-002	3.26043E-006	1.36600E-004	......
	56	14.7249	-4.14225E-002	3.26043E-006	-1.63400E-004	......
	57	14.9832	-4.12925E-002	3.26043E-006	3.66000E-005	......
	58	15.2416	-4.11375E-002	3.26043E-006	-1.63400E-004	......
	59	15.4999	-4.09875E-002	3.26043E-006	3.66000E-005	......
	60	15.7582	-4.08575E-002	3.26043E-006	-6.34000E-005	......
	61	16.0166	-4.07025E-002	3.26043E-006	3.66000E-005	......
	62	16.2749	-4.05725E-002	3.26043E-006	-6.34000E-005	......
	63	16.5332	-4.04375E-002	3.26043E-006	3.66000E-005	......
	64	16.7915	-4.03075E-002	3.26043E-006	-2.63400E-004	......
	65	17.0499	-4.01775E-002	3.26043E-006	3.66000E-005	......
	66	17.3082	-4.00425E-002	3.26043E-006	-1.63400E-004	......
	67	17.5665	-3.99125E-002	3.26043E-006	2.36600E-004	......
	68	17.8249	-3.97825E-002	3.26043E-006	-1.63400E-004	......
	69	18.0832	-3.96575E-002	3.26043E-006	1.36600E-004	......
	70	18.3415	-3.95275E-002	3.26043E-006	-1.63400E-004	......
	71	18.5999	-3.93975E-002	3.26043E-006	2.36600E-004	......
	72	18.8582	-3.92725E-002	3.26043E-006	-1.63400E-004	......
	73	19.1165	-3.91525E-002	3.26043E-006	2.36600E-004	......
	74	19.3749	-3.90225E-002	3.26043E-006	-1.63400E-004	......
	75	19.6332	-3.88975E-002	3.26043E-006	3.66000E-005	......
	76	19.8915	-3.87825E-002	3.26043E-006	-6.34000E-005	......
	77	20.1499	-3.86575E-002	3.26043E-006	3.66000E-005	......
	78	20.4082	-3.85375E-002	3.26043E-006	-1.63400E-004	......
	79	20.6665	-3.84225E-002	3.26043E-006	3.66000E-005	......
	80	20.9249	-3.83025E-002	3.26043E-006	-1.63400E-004	......
	81	21.1832	-3.81875E-002	3.26043E-006	1.36600E-004	......
	82	21.4415	-3.80625E-002	3.26043E-006	-1.63400E-004	......
	83	21.6998	-3.79575E-002	3.26043E-006	1.36600E-004	......
	84	21.9582	-3.78375E-002	3.26043E-006	-1.63400E-004	......
	85	22.2165	-3.77075E-002	3.26043E-006	3.66000E-005	......
	86	22.4748	-3.76025E-002	3.26043E-006	-6.34000E-005	......
	87	22.7332	-3.74825E-002	3.26043E-006	3.66000E-005	......
	88	22.9915	-3.73675E-002	3.26043E-006	-1.63400E-004	......
	89	23.2498	-3.72475E-002	3.26043E-006	3.66000E-005	......
	90	23.5082	-3.71425E-002	3.26043E-006	-1.63400E-004	......
	91	23.7665	-3.70425E-002	3.26043E-006	3.66000E-005	......
	92	24.0248	-3.69175E-002	3.26043E-006	-6.34000E-005	......
	93	24.2832	-3.68025E-002	3.26043E-006	1.36600E-004	......
	94	24.5415	-3.66975E-002	3.26043E-006	-6.34000E-005	......
	95	24.7998	-3.65875E-002	3.26043E-006	3.66000E-005	......
	96	25.0582	-3.64825E-002	3.26043E-006	-1.63400E-004	......
	97	25.3165	-3.63725E-002	3.26043E-006	3.66000E-005	......
	98	25.5748	-3.62575E-002	3.26043E-006	-1.63400E-004	......
	99	25.8332	-3.61425E-002	3.26043E-006	-6.34000E-005	......
	100	26.0915	-3.60425E-002	3.26043E-006	-1.63400E-004	......
	101	26.3498	-3.59275E-002	3.26043E-006	3.66000E-005	......
	102	26.6081	-3.58225E-002	3.26043E-006	-1.63400E-004	......
	103	26.8665	-3.57125E-002	3.26043E-006	3.66000E-005	......
	104	27.1248	-3.56075E-002	3.26043E-006	-1.63400E-004	......
	105	27.3831	-3.55025E-002	3.26043E-006	3.66000E-005	......
	106	27.6415	-3.53925E-002	3.26043E-006	-6.34000E-005	......
	107	27.8998	-3.52825E-002	3.26043E-006	3.66000E-005	......
	108	28.1581	-3.51825E-002	3.26043E-006	-1.63400E-004	......
	109	28.4165	-3.50825E-002	3.26043E-006	3.66000E-005	......
	110	28.6748	-3.49725E-002	3.26043E-006	-6.34000E-005	......
	111	28.9331	-3.48725E-002	3.26043E-006	1.36600E-004	......
	112	29.1915	-3.47675E-002	3.26043E-006	-1.63400E-004	......
	113	29.4498	-3.46675E-002	3.26043E-006	3.66000E-005	......
	114	29.7081	-3.45675E-002	3.26043E-006	-6.34000E-005	......
	115	29.9665	-3.44625E-002	3.26043E-006	3.66000E-005	......
	116	30.2248	-3.43775E-002	3.26043E-006	-1.63400E-004	......
	117	30.4831	-3.42625E-002	3.26043E-006	3.66000E-005	......
	118	30.7414	-3.41675E-002	3.26043E-006	-1.63400E-004	......
	119	30.9998	-3.40625E-002	3.26043E-006	3.66000E-005	......
	120	31.2581	-3.39625E-002	3.26043E-006	-6.34000E-005	......
	121	31.5164	-3.38575E-002	3.26043E-006	1.36600E-004	......
	122	31.7748	-3.37675E-002	3.26043E-006	-2.63400E-004	......
	123	32.0331	-3.36725E-002	3.26043E-006	1.36600E-004	......
	124	32.2914	-3.35725E-002	3.26043E-006	-1.63400E-004	......
	125	32.5498	-3.34575E-002	3.26043E-006	3.66000E-005	......
	126	32.8081	-3.33675E-002	3.26043E-006	-6.34000E-005	......
	127	33.0664	-3.32575E-002	3.26043E-006	3.66000E-005	......
	128	33.3248	-3.31575E-002	3.26043E-006	-1.63400E-004	......
	129	33.5831	-3.30725E-002	3.26043E-006	3.66000E-005	......
	130	33.8414	-3.29575E-002	3.26043E-006	-1.63400E-004	......
	131	34.0998	-3.28525E-002	3.26043E-006	1.36600E-004	......
	132	34.3581	-3.27625E-002	3.26043E-006	-6.34000E-005	......
	133	34.6164	-3.26525E-002	3.26043E-006	3.66000E-005	......
	134	34.8748	-3.25625E-002	3.26043E-006	-1.63400E-004	......
	135	35.1331	-3.24525E-002	3.26043E-006	1.36600E-004	......
	136	35.3914	-3.23575E-002	3.26043E-006	-6.34000E-005	......
	137	35.6497	-3.22475E-002	3.26043E-006	1.36600E-004	......
	138	35.9081	-3.21475E-002	3.26043E-006	-1.63400E-004	......
	139	36.1664	-3.20525E-002	3.26043E-006	1.36600E-004	......
	140	36.4247	-3.19525E-002	3.26043E-006	-6.34000E-005	......
	141	36.6831	-3.18575E-002	3.26043E-006	1.36600E-004	......
	142	36.9414	-3.17575E-002	3.26043E-006	-6.34000E-005	......
	143	37.1997	-3.16525E-002	3.26043E-006	1.36600E-004	......
	144	37.4581	-3.15425E-002	3.26043E-006	-6.34000E-005	......
	145	37.7164	-3.14525E-002	3.26043E-006	3.66000E-005	......
	146	37.9747	-3.13475E-002	3.26043E-006	-1.63400E-004	......
	147	38.2331	-3.12425E-002	3.26043E-006	1.36600E-004	......
	148	38.4914	-3.11425E-002	3.26043E-006	-1.63400E-004	......
	149	38.7497	-3.10525E-002	3.26043E-006	3.66000E-005	......
	150	39.0081	-3.09425E-002	3.26043E-006	-6.34000E-005	......
	151	39.2664	-3.08425E-002	3.26043E-006	-6.34000E-005	......
	152	39.5247	-3.07375E-002	3.26043E-006	-6.34000E-005	......
	153	39.7831	-3.06275E-002	3.26043E-006	3.66000E-005	......
	154	40.0414	-3.05325E-002	3.26043E-006	-1.63400E-004	......
	155	40.2997	-3.04225E-002	3.26043E-006	3.66000E-005	......
	156	40.558	-3.03325E-002	3.26043E-006	-6.34000E-005	......
	157	40.8164	-3.02275E-002	3.26043E-006	1.36600E-004	......
	158	41.0747	-3.01225E-002	3.26043E-006	-6.34000E-005	......
	159	41.333	-3.00175E-002	3.26043E-006	2.36600E-004	......
	160	41.5914	-2.99175E-002	3.26043E-006	3.66000E-005	......
	161	41.8497	-2.98225E-002	3.26043E-006	1.36600E-004	......
	162	42.108	-2.97175E-002	3.26043E-006	-1.63400E-004	......
	163	42.3664	-2.96125E-002	3.26043E-006	3.66000E-005	......
	164	42.6247	-2.95225E-002	3.26043E-006	-1.63400E-004	......
	165	42.883	-2.94175E-002	3.26043E-006	2.36600E-004	......
	166	43.1414	-2.93175E-002	3.26043E-006	-6.34000E-005	......
	167	43.3997	-2.92075E-002	3.26043E-006	3.66000E-005	......
	168	43.658	-2.91125E-002	3.26043E-006	-1.63400E-004	......
	169	43.9164	-2.90125E-002	3.26043E-006	1.36600E-004	......
	170	44.1747	-2.89075E-002	3.26043E-006	-6.34000E-005	......
	171	44.433	-2.88025E-002	3.26043E-006	3.66000E-005	......
	172	44.6913	-2.87025E-002	3.26043E-006	-2.63400E-004	......
	173	44.9497	-2.86175E-002	3.26043E-006	3.66000E-005	......
	174	45.208	-2.85225E-002	3.26043E-006	-6.34000E-005	......
	175	45.4663	-2.84075E-002	3.26043E-006	2.36600E-004	......
	176	45.7247	-2.83175E-002	3.26043E-006	-2.63400E-004	......
	177	45.983	-2.82025E-002	3.26043E-006	3.66000E-005	......
	178	46.2413	-2.81175E-002	3.26043E-006	-2.63400E-004	......
	179	46.4997	-2.80225E-002	3.26043E-006	3.66000E-005	......
	180	46.758	-2.79075E-002	3.26043E-006	-1.63400E-004	......
	181	47.0163	-2.78125E-002	3.26043E-006	1.36600E-004	......
	182	47.2747	-2.77075E-002	3.26043E-006	-6.34000E-005	......
	183	47.533	-2.76125E-002	3.26043E-006	3.66000E-005	......
	184	47.7913	-2.75275E-002	3.26043E-006	-1.63400E-004	......
	185	48.0497	-2.74225E-002	3.26043E-006	3.66000E-005	......
	186	48.308	-2.73275E-002	3.26043E-006	-1.63400E-004	......
	187	48.5663	-2.72275E-002	3.26043E-006	3.66000E-005	......
	188	48.8247	-2.71425E-002	3.26043E-006	-6.34000E-005	......
	189	49.083	-2.70425E-002	3.26043E-006	2.36600E-004	......
	190	49.3413	-2.69475E-002	3.26043E-006	-1.63400E-004	......
	191	49.5996	-2.68525E-002	3.26043E-006	3.66000E-005	......
	192	49.858	-2.67625E-002	3.26043E-006	-6.34000E-005	......
	193	50.1163	-2.66625E-002	3.26043E-006	3.66000E-005	......
	194	50.3746	-2.65575E-002	3.26043E-006	-1.63400E-004	......
	195	50.633	-2.64725E-002	3.26043E-006	3.66000E-005	......
	196	50.8913	-2.63775E-002	3.26043E-006	-1.63400E-004	......
	197	51.1496	-2.62925E-002	3.26043E-006	3.66000E-005	......
	198	51.408	-2.61975E-002	3.26043E-006	-6.34000E-005	......
	199	51.6663	-2.60925E-002	3.26043E-006	3.66000E-005	......
	200	51.9246	-2.60025E-002	3.26043E-006	-1.63400E-004	......
	201	52.183	-2.59225E-002	3.26043E-006	3.66000E-005	......
	202	52.4413	-2.58325E-002	3.26043E-006	-1.63400E-004	......
	203	52.6996	-2.57225E-002	3.26043E-006	3.66000E-005	......
	204	52.958	-2.56375E-002	3.26043E-006	-6.34000E-005	......
	205	53.2163	-2.55425E-002	3.26043E-006	3.66000E-005	......
	206	53.4746	-2.54575E-002	3.26043E-006	-1.63400E-004	......
	207	53.733	-2.53675E-002	3.26043E-006	2.36600E-004	......
	208	53.9913	-2.52725E-002	3.26043E-006	-1.63400E-004	......
	209	54.2496	-2.51825E-002	3.26043E-006	3.66000E-005	......
	210	54.5079	-2.50975E-002	3.26043E-006	-1.63400E-004	......
	211	54.7663	-2.50025E-002	3.26043E-006	3.66000E-005	......
	212	55.0246	-2.49175E-002	3.26043E-006	-6.34000E-005	......
	213	55.2829	-2.48275E-002	3.26043E-006	3.66000E-005	......
	214	55.5413	-2.47375E-002	3.26043E-006	-6.34000E-005	......
	215	55.7996	-2.46475E-002	3.26043E-006	3.66000E-005	......
	216	56.0579	-2.45488E-002	3.26043E-006	-6.34000E-005	......
	217	56.3163	-2.44508E-002	3.26043E-006	3.66000E-005	......
	218	56.5746	-2.43803E-002	3.26043E-006	-1.63400E-004	......
	219	56.8329	-2.42898E-002	3.26043E-006	3.66000E-005	......
	220	57.0913	-2.42008E-002	3.26043E-006	-6.34000E-005	......
	221	57.3496	-2.41083E-002	3.26043E-006	2.36600E-004	......
	222	57.6079	-2.40283E-002	3.26043E-006	-1.63400E-004	......
	223	57.8663	-2.39433E-002	3.26043E-006	3.66000E-005	......
	224	58.1246	-2.38598E-002	3.26043E-006	-6.34000E-005	......
	225	58.3829	-2.37798E-002	3.26043E-006	3.66000E-005	......
	226	58.6413	-2.36903E-002	3.26043E-006	-1.63400E-004	......
	227	58.8996	-2.36033E-002	3.26043E-006	3.66000E-005	......
	228	59.1579	-2.35283E-002	3.26043E-006	-1.63400E-004	......
	229	59.4162	-2.34298E-002	3.26043E-006	2.36600E-004	......
	230	59.6746	-2.33508E-002	3.26043E-006	-1.63400E-004	......
	231	59.9329	-2.32738E-002	3.26043E-006	2.36600E-004	......
EOC	QUANT	-0.023274	Open Circuit (V)
PSTATMODEL	IQUANT	32	Pstat Model
PSTATSECTION	LABEL	PStat0	Pstat Section
CTRLMODE	IQUANT	1	Control Mode
IESTAB	IQUANT	0	I/E Stability
CASPEED	IQUANT	1	Control Amp Speed
CONVENTION	IQUANT	1	Current Convention
ICHRANGE	IQUANT	2	Ich Range
ICHRANGEMODE	TOGGLE	F	Ich Auto Range
ICHOFFSETENABLE	TOGGLE	T	Ich Offset Enable
ICHOFFSET	QUANT	0	Ich Offset (V)
ICHFILTER	IQUANT	3	Ich Filter
VCHRANGE	IQUANT	2	Vch Range
VCHRANGEMODE	TOGGLE	F	Vch Auto Range
VCHOFFSETENABLE	TOGGLE	T	Vch Offset Enable
VCHOFFSET	QUANT	0	Vch Offset (V)
VCHFILTER	IQUANT	3	Vch Filter
ACHRANGE	IQUANT	0	Ach Range
IERANGELOWERLIMIT	IQUANT	3	I/E Range Lower Limit
IERANGEMODE	TOGGLE	F	I/E AutoRange
IERANGE	IQUANT	11	I/E Range
POSFEEDENABLE	TOGGLE	F	Positive Feedback IR Comp
POSFEEDRESISTANCE	QUANT	0	Positive Feedback Resistance (ohm)
FC350IDIVISOR	IQUANT	0	FC350 I Divisor
FC350VRANGE	IQUANT	0	FC350 V Range
FRAMEWORKVERSION	QUANT	4.35	Framework Version
ZCURVE	TABLE
	Pt	Time	Freq	Zreal	Zimag	Zsig	Zmod	Zphz	Idc	Vdc	IERange
	#	s	Hz	ohm	ohm	V	ohm	°	A	V	#
	0	6	100007	19896.7	-14177.2	1	24431	-35.4713	1.02928E-006	-0.022112	9
	1	10	89134.1	21822.7	-10859	1	24375.1	-26.4549	9.04711E-007	-0.022106	9
	2	14	79433.6	25808.1	-13038.8	1	28914.9	-26.8038	9.10826E-007	-0.022096	9
	3	18	70800.8	22553.2	-14672.3	1	26905.8	-33.0465	8.66045E-007	-0.022118	9
	4	23	63105.5	24171.3	-9201.81	1	25863.6	-20.8414	6.76152E-007	-0.02215	9
	5	27	56243.5	23114.6	-8751.47	1	24715.9	-20.7373	8.88184E-007	-0.022097	9
	6	31	50123.7	28064.6	-10139	1	29839.9	-19.8635	9.09715E-007	-0.022089	9
	7	35	44681	30209.4	-8177.21	1	31296.5	-15.1461	8.18045E-007	-0.022093	9
	8	39	39811.2	-45038.9	-28214.2	1	53146.4	-147.935	7.04084E-007	-0.02214	9
	9	43	35488.3	27861.3	-7734.25	1	28914.9	-15.5146	8.7718E-007	-0.022113	9
	10	47	31634.1	38513.3	-6317.52	1	39028	-9.31555	8.00338E-007	-0.022085	9
	11	51	28173.1	30200.6	-4198.76	1	30491.1	-7.91505	5.86371E-008	-0.022115	8
	12	55	25123.7	29763.9	-4051.83	1	30038.4	-7.75215	9.81548E-008	-0.022116	8
	13	60	22389.3	29674.6	-3436.14	1	29872.9	-6.60509	6.54293E-009	-0.02213	8
	14	64	19954.4	29890	-2955.9	1	30035.8	-5.64775	3.56955E-009	-0.021976	7
	15	68	17778.2	29939.7	-2582.36	1	30050.8	-4.92969	-2.02267E-008	-0.022108	7
	16	72	15852.9	29925.4	-2169.12	1	30003.9	-4.1458	2.22953E-009	-0.021984	7
	17	76	14122.3	29864	-2016.98	1	29932.1	-3.86381	-2.03568E-008	-0.022109	7
	18	78	12587.2	29886.2	-1571.78	1	29927.5	-3.01053	-2.09701E-008	-0.022109	7
	19	82	11221.1	30049.1	-1447.31	1	30083.9	-2.75751	-2.1988E-008	-0.02212	7
	20	86	9998.2	29730.1	-1486.83	1	29767.3	-2.86303	-2.15738E-008	-0.022117	7
	21	90	8912.76	29854.9	-1346.53	1	29885.2	-2.58243	-5.36876E-009	-0.022059	7
	22	95	7942.6	29616.9	-1051.76	1	29635.5	-2.03385	-1.85547E-008	-0.02211	7
	23	99	7078.05	29731.4	-1126.12	1	29752.7	-2.16913	-2.03017E-008	-0.022118	7
	24	101	6311.1	29627	-1238.95	1	29652.9	-2.39462	-1.92293E-008	-0.02211	7
	25	105	5622.14	29538.6	-817.424	1	29549.9	-1.58514	-2.05316E-008	-0.022124	7
	26	109	5011.18	29589.6	-832.388	1	29601.3	-1.61137	-1.91209E-008	-0.022117	7
	27	113	4465.21	29460.3	-584.746	1	29466.1	-1.13709	-1.88297E-008	-0.022112	7
	28	117	3980.93	29233	-601.219	1	29239.2	-1.1782	-2.89349E-008	-0.022183	7
	29	121	3548.18	29310.2	-536.674	1	29315.1	-1.04898	-4.08958E-009	-0.022052	7
	30	125	3162.67	29205.8	-268.803	1	29207.1	-0.527321	-3.0397E-008	-0.022169	7
	31	129	2819.01	29072.9	-441.854	1	29076.2	-0.870723	-2.91384E-008	-0.022189	7
	32	133	2511.16	29091.3	-456.934	1	29094.9	-0.899866	-1.86783E-008	-0.022115	7
	33	137	2238.63	28871.5	-256.787	1	28872.7	-0.509582	-1.87475E-008	-0.022121	7
	34	142	1995.37	28873.7	-342.154	1	28875.7	-0.678924	-1.82183E-008	-0.022115	7
	35	144	1778.51	28828.6	-299.411	1	28830.2	-0.595048	-1.69794E-008	-0.022102	7
	36	148	1584.49	28959.1	-192.629	1	28959.8	-0.381112	-1.83511E-008	-0.022119	7
	37	152	1412.76	28520.9	-305.452	1	28522.5	-0.6136	-1.88135E-009	-0.02206	7
	38	156	1259.04	28601.4	-407.427	1	28604.3	-0.816123	-1.66824E-008	-0.022118	7
	39	160	1121.63	28558.3	-92.9217	1	28558.4	-0.186426	-1.65055E-008	-0.022116	7
	40	164	999.95	28536.7	-163.559	1	28537.1	-0.328389	-1.64108E-008	-0.022109	7
	41	168	891.184	28481.1	-287.346	1	28482.6	-0.578038	-1.74938E-008	-0.022128	7
	42	173	794.163	28317.5	-227.988	1	28318.4	-0.461286	-1.5997E-008	-0.022125	7
	43	177	707.867	28617	-322.37	1	28618.8	-0.64541	-7.2728E-009	-0.022053	7
	44	181	630.984	28503.2	-65.2827	1	28503.2	-0.131228	-1.44147E-008	-0.022116	7
	45	185	562.189	28396.9	-260.557	1	28398.1	-0.525705	8.30577E-009	-0.021978	7
	46	187	501.303	28206	-97.841	1	28206.2	-0.198747	-1.47024E-008	-0.022107	7
	47	189	446.614	28196.8	-93.2982	1	28197	-0.189581	-1.46755E-008	-0.022119	7
	48	191	398.209	28165.3	-94.2259	1	28165.4	-0.19168	-1.51066E-008	-0.022105	7
	49	193	354.821	28119.4	-82.3913	1	28119.6	-0.167879	-1.44341E-008	-0.02212	7
	50	195	316.113	28104.4	-87.3929	1	28104.5	-0.178165	-1.42485E-008	-0.022118	7
	51	197	281.926	28071.6	-100.589	1	28071.8	-0.205308	-1.43559E-008	-0.022102	7
	52	199	251.185	28043.7	-105.789	1	28043.9	-0.216134	-1.44065E-008	-0.022122	7
	53	201	223.946	28004.9	-95.309	1	28005	-0.194995	-1.4124E-008	-0.022121	7
	54	203	199.495	27981.7	-103.045	1	27981.9	-0.210996	-1.42028E-008	-0.022124	7
