EXPLAIN
TAG	EISPOT
TITLE	LABEL	Tomato_open	Test &Identifier
DATE	LABEL	5/16/2006	Date
TIME	LABEL	15:06:49	Time
NOTES	NOTES	1	&Notes...
	
PSTAT	PSTAT	300	Potentiostat
VDC	POTEN	1.00000E-003	T	DC &Voltage (V)
FREQINIT	QUANT	1.00000E+005	Initial Fre&q. (Hz)
FREQFINAL	QUANT	1.00000E+001	Final Fre&q. (Hz)
PTSPERDEC	QUANT	2.00000E+001	Points/&decade
VAC	QUANT	1.00000E+000	AC &Voltage (mV rms)
AREA	QUANT	1.00000E+000	&Area (cm²)
DENSITY	QUANT	7.87000E+000	&Density (gm/cm³)
EQUIV	QUANT	7.00000E+000	Equiv. &Wt
CONDIT	TWOPARAM	F	6.00000E+001	0.00000E+000	Conditionin&g	Time(s)	E(V)
DELAY	TWOPARAM	T	6.00000E+001	0.00000E+000	Init. De&lay	Time(s)	Stab.(mV/s)
SPEED	SELECTOR	1	&Optimize for:
ZGUESS	QUANT	1.00000E+002	E&stimated Z (ohms)
OCVCURVE	TABLE	232
	Pt	T	Vf	Vm	Ach	Over
	#	s	V vs. Ref.	V	V	bits
	0	0.258332	-6.90475E-002	2.97743E-006	-1.63400E-004	......
	1	0.516663	-6.90275E-002	2.97743E-006	2.36600E-004	......
	2	0.774994	-6.90075E-002	2.97743E-006	-6.34000E-005	......
	3	1.03333	-6.89725E-002	2.97743E-006	3.66000E-005	......
	4	1.29166	-6.89475E-002	2.97743E-006	-6.34000E-005	......
	5	1.54999	-6.89125E-002	2.97743E-006	1.36600E-004	......
	6	1.80832	-6.88975E-002	2.97743E-006	-6.34000E-005	......
	7	2.06665	-6.88675E-002	2.97743E-006	2.36600E-004	......
	8	2.32498	-6.88375E-002	2.97743E-006	3.66000E-005	......
	9	2.58332	-6.88125E-002	2.97743E-006	3.66000E-005	......
	10	2.84165	-6.87825E-002	2.97743E-006	-2.63400E-004	......
	11	3.09998	-6.87525E-002	2.97743E-006	2.36600E-004	......
	12	3.35831	-6.87225E-002	2.97743E-006	-6.34000E-005	......
	13	3.61664	-6.87075E-002	2.97743E-006	1.36600E-004	......
	14	3.87497	-6.86725E-002	2.97743E-006	-1.63400E-004	......
	15	4.1333	-6.86375E-002	2.97743E-006	3.66000E-005	......
	16	4.39164	-6.86225E-002	2.97743E-006	-6.34000E-005	......
	17	4.64997	-6.85825E-002	2.97743E-006	-6.34000E-005	......
	18	4.9083	-6.85625E-002	2.97743E-006	-6.34000E-005	......
	19	5.16663	-6.85425E-002	2.97743E-006	-6.34000E-005	......
	20	5.42496	-6.85075E-002	2.97743E-006	-6.34000E-005	......
	21	5.68329	-6.84825E-002	2.97743E-006	-6.34000E-005	......
	22	5.94162	-6.84575E-002	2.97743E-006	-3.63400E-004	......
	23	6.19996	-6.84225E-002	2.97743E-006	2.36600E-004	......
	24	6.45829	-6.84025E-002	2.97743E-006	-6.34000E-005	......
	25	6.71662	-6.83725E-002	2.97743E-006	3.66000E-005	......
	26	6.97495	-6.83475E-002	2.97743E-006	-6.34000E-005	......
	27	7.23328	-6.83175E-002	2.97743E-006	3.66000E-005	......
	28	7.49161	-6.82875E-002	2.97743E-006	-1.63400E-004	......
	29	7.74995	-6.82625E-002	2.97743E-006	3.66000E-005	......
	30	8.00828	-6.82425E-002	2.97743E-006	-6.34000E-005	......
	31	8.26661	-6.82025E-002	2.97743E-006	3.66000E-005	......
	32	8.52494	-6.81775E-002	2.97743E-006	-6.34000E-005	......
	33	8.78327	-6.81525E-002	2.97743E-006	-6.34000E-005	......
	34	9.0416	-6.81175E-002	2.97743E-006	-6.34000E-005	......
	35	9.29993	-6.80975E-002	2.97743E-006	3.66000E-005	......
	36	9.5583	-6.80725E-002	2.97743E-006	-6.34000E-005	......
	37	9.8166	-6.80475E-002	2.97743E-006	2.36600E-004	......
	38	10.0749	-6.80275E-002	2.97743E-006	-1.63400E-004	......
	39	10.3333	-6.79875E-002	2.97743E-006	3.66000E-005	......
	40	10.5916	-6.79675E-002	2.97743E-006	-1.63400E-004	......
	41	10.8499	-6.79275E-002	2.97743E-006	2.36600E-004	......
	42	11.1083	-6.79175E-002	2.97743E-006	-2.63400E-004	......
	43	11.3666	-6.78825E-002	2.97743E-006	2.36600E-004	......
	44	11.6249	-6.78525E-002	2.97743E-006	-1.63400E-004	......
	45	11.8832	-6.78325E-002	2.97743E-006	3.66000E-005	......
	46	12.1416	-6.77975E-002	2.97743E-006	-1.63400E-004	......
	47	12.3999	-6.77775E-002	2.97743E-006	3.66000E-005	......
	48	12.6582	-6.77525E-002	2.97743E-006	-6.34000E-005	......
	49	12.9166	-6.77275E-002	2.97743E-006	3.66000E-005	......
	50	13.1749	-6.77025E-002	2.97743E-006	-2.63400E-004	......
	51	13.4332	-6.76775E-002	2.97743E-006	2.36600E-004	......
	52	13.6916	-6.76525E-002	2.97743E-006	-6.34000E-005	......
	53	13.9499	-6.76275E-002	2.97743E-006	1.36600E-004	......
	54	14.2082	-6.75875E-002	2.97743E-006	-1.63400E-004	......
	55	14.4666	-6.75725E-002	2.97743E-006	-6.34000E-005	......
	56	14.7249	-6.75475E-002	2.97743E-006	-1.63400E-004	......
	57	14.9832	-6.75125E-002	2.97743E-006	1.36600E-004	......
	58	15.2416	-6.74825E-002	2.97743E-006	-1.63400E-004	......
	59	15.4999	-6.74625E-002	2.97743E-006	3.66000E-005	......
	60	15.7582	-6.74425E-002	2.97743E-006	-1.63400E-004	......
	61	16.0166	-6.74175E-002	2.97743E-006	3.66000E-005	......
	62	16.2749	-6.73775E-002	2.97743E-006	-1.63400E-004	......
	63	16.5332	-6.73675E-002	2.97743E-006	2.36600E-004	......
	64	16.7915	-6.73375E-002	2.97743E-006	-1.63400E-004	......
	65	17.0499	-6.73125E-002	2.97743E-006	1.36600E-004	......
	66	17.3082	-6.72775E-002	2.97743E-006	-1.63400E-004	......
	67	17.5665	-6.72575E-002	2.97743E-006	1.36600E-004	......
	68	17.8249	-6.72325E-002	2.97743E-006	-1.63400E-004	......
	69	18.0832	-6.71975E-002	2.97743E-006	2.36600E-004	......
	70	18.3415	-6.71875E-002	2.97743E-006	-6.34000E-005	......
	71	18.5999	-6.71525E-002	2.97743E-006	3.66000E-005	......
	72	18.8582	-6.71275E-002	2.97743E-006	-6.34000E-005	......
	73	19.1165	-6.71025E-002	2.97743E-006	3.66000E-005	......
	74	19.3749	-6.70725E-002	2.97743E-006	-1.63400E-004	......
	75	19.6332	-6.70575E-002	2.97743E-006	1.36600E-004	......
	76	19.8915	-6.70225E-002	2.97743E-006	-1.63400E-004	......
	77	20.1499	-6.70025E-002	2.97743E-006	3.66000E-005	......
	78	20.4082	-6.69625E-002	2.97743E-006	3.66000E-005	......
	79	20.6665	-6.69525E-002	2.97743E-006	3.66000E-005	......
	80	20.9249	-6.69125E-002	2.97743E-006	-1.63400E-004	......
	81	21.1832	-6.68925E-002	2.97743E-006	3.66000E-005	......
	82	21.4415	-6.68675E-002	2.97743E-006	-1.63400E-004	......
	83	21.6998	-6.68475E-002	2.97743E-006	3.66000E-005	......
	84	21.9582	-6.68225E-002	2.97743E-006	-1.63400E-004	......
	85	22.2165	-6.67975E-002	2.97743E-006	3.66000E-005	......
	86	22.4748	-6.67675E-002	2.97743E-006	-1.63400E-004	......
	87	22.7332	-6.67475E-002	2.97743E-006	1.36600E-004	......
	88	22.9915	-6.67175E-002	2.97743E-006	-6.34000E-005	......
	89	23.2498	-6.66925E-002	2.97743E-006	1.36600E-004	......
	90	23.5082	-6.66675E-002	2.97743E-006	-1.63400E-004	......
	91	23.7665	-6.66425E-002	2.97743E-006	1.36600E-004	......
	92	24.0248	-6.66175E-002	2.97743E-006	-1.63400E-004	......
	93	24.2832	-6.65875E-002	2.97743E-006	3.66000E-005	......
	94	24.5415	-6.65525E-002	2.97743E-006	-1.63400E-004	......
	95	24.7998	-6.65375E-002	2.97743E-006	3.66000E-005	......
	96	25.0582	-6.65175E-002	2.97743E-006	-2.63400E-004	......
	97	25.3165	-6.64975E-002	2.97743E-006	3.66000E-005	......
	98	25.5748	-6.64625E-002	2.97743E-006	-6.34000E-005	......
	99	25.8332	-6.64425E-002	2.97743E-006	2.36600E-004	......
	100	26.0915	-6.64125E-002	2.97743E-006	3.66000E-005	......
	101	26.3498	-6.63825E-002	2.97743E-006	1.36600E-004	......
	102	26.6081	-6.63625E-002	2.97743E-006	-1.63400E-004	......
	103	26.8665	-6.63375E-002	2.97743E-006	3.66000E-005	......
	104	27.1248	-6.63125E-002	2.97743E-006	-1.63400E-004	......
	105	27.3831	-6.62925E-002	2.97743E-006	3.66000E-005	......
	106	27.6415	-6.62625E-002	2.97743E-006	-1.63400E-004	......
	107	27.8998	-6.62375E-002	2.97743E-006	1.36600E-004	......
	108	28.1581	-6.62175E-002	2.97743E-006	-2.63400E-004	......
	109	28.4165	-6.61875E-002	2.97743E-006	3.66000E-005	......
	110	28.6748	-6.61675E-002	2.97743E-006	-1.63400E-004	......
	111	28.9331	-6.61425E-002	2.97743E-006	1.36600E-004	......
	112	29.1915	-6.61125E-002	2.97743E-006	-6.34000E-005	......
	113	29.4498	-6.60925E-002	2.97743E-006	3.66000E-005	......
	114	29.7081	-6.60725E-002	2.97743E-006	-6.34000E-005	......
	115	29.9665	-6.60325E-002	2.97743E-006	-6.34000E-005	......
	116	30.2248	-6.60125E-002	2.97743E-006	-1.63400E-004	......
	117	30.4831	-6.59925E-002	2.97743E-006	3.66000E-005	......
	118	30.7414	-6.59625E-002	2.97743E-006	-1.63400E-004	......
	119	30.9998	-6.59325E-002	2.97743E-006	-6.34000E-005	......
	120	31.2581	-6.59175E-002	2.97743E-006	-6.34000E-005	......
	121	31.5164	-6.58975E-002	2.97743E-006	1.36600E-004	......
	122	31.7748	-6.58625E-002	2.97743E-006	3.66000E-005	......
	123	32.0331	-6.58475E-002	2.97743E-006	3.66000E-005	......
	124	32.2914	-6.58125E-002	2.97743E-006	-1.63400E-004	......
	125	32.5498	-6.57875E-002	2.97743E-006	2.36600E-004	......
	126	32.8081	-6.57775E-002	2.97743E-006	-6.34000E-005	......
	127	33.0664	-6.57575E-002	2.97743E-006	3.66000E-005	......
	128	33.3248	-6.57275E-002	2.97743E-006	-6.34000E-005	......
	129	33.5831	-6.57025E-002	2.97743E-006	3.66000E-005	......
	130	33.8414	-6.56825E-002	2.97743E-006	-1.63400E-004	......
	131	34.0998	-6.56625E-002	2.97743E-006	1.36600E-004	......
	132	34.3581	-6.56325E-002	2.97743E-006	-1.63400E-004	......
	133	34.6164	-6.56075E-002	2.97743E-006	-6.34000E-005	......
	134	34.8748	-6.55775E-002	2.97743E-006	-1.63400E-004	......
	135	35.1331	-6.55625E-002	2.97743E-006	3.66000E-005	......
	136	35.3914	-6.55425E-002	2.97743E-006	-6.34000E-005	......
	137	35.6497	-6.55225E-002	2.97743E-006	3.66000E-005	......
	138	35.9081	-6.54925E-002	2.97743E-006	-1.63400E-004	......
	139	36.1664	-6.54775E-002	2.97743E-006	1.36600E-004	......
	140	36.4247	-6.54425E-002	2.97743E-006	-6.34000E-005	......
	141	36.6831	-6.54225E-002	2.97743E-006	2.36600E-004	......
	142	36.9414	-6.53975E-002	2.97743E-006	-1.63400E-004	......
	143	37.1997	-6.53825E-002	2.97743E-006	1.36600E-004	......
	144	37.4581	-6.53575E-002	2.97743E-006	-1.63400E-004	......
	145	37.7164	-6.53325E-002	2.97743E-006	1.36600E-004	......
	146	37.9747	-6.53075E-002	2.97743E-006	-6.34000E-005	......
	147	38.2331	-6.52825E-002	2.97743E-006	2.36600E-004	......
	148	38.4914	-6.52575E-002	2.97743E-006	-6.34000E-005	......
	149	38.7497	-6.52425E-002	2.97743E-006	3.66000E-005	......
	150	39.0081	-6.52125E-002	2.97743E-006	-6.34000E-005	......
	151	39.2664	-6.51975E-002	2.97743E-006	3.66000E-005	......
	152	39.5247	-6.51725E-002	2.97743E-006	-6.34000E-005	......
	153	39.7831	-6.51475E-002	2.97743E-006	-6.34000E-005	......
	154	40.0414	-6.51175E-002	2.97743E-006	-6.34000E-005	......
	155	40.2997	-6.51025E-002	2.97743E-006	2.36600E-004	......
	156	40.558	-6.50775E-002	2.97743E-006	3.66000E-005	......
	157	40.8164	-6.50425E-002	2.97743E-006	3.66000E-005	......
	158	41.0747	-6.50375E-002	2.97743E-006	-1.63400E-004	......
	159	41.333	-6.50125E-002	2.97743E-006	1.36600E-004	......
	160	41.5914	-6.49825E-002	2.97743E-006	-6.34000E-005	......
	161	41.8497	-6.49625E-002	2.97743E-006	3.66000E-005	......
	162	42.108	-6.49375E-002	2.97743E-006	-6.34000E-005	......
	163	42.3664	-6.49225E-002	2.97743E-006	-6.34000E-005	......
	164	42.6247	-6.48975E-002	2.97743E-006	-6.34000E-005	......
	165	42.883	-6.48775E-002	2.97743E-006	3.66000E-005	......
	166	43.1414	-6.48525E-002	2.97743E-006	-1.63400E-004	......
	167	43.3997	-6.48325E-002	2.97743E-006	1.36600E-004	......
	168	43.658	-6.48125E-002	2.97743E-006	-1.63400E-004	......
	169	43.9164	-6.47925E-002	2.97743E-006	3.66000E-005	......
	170	44.1747	-6.47675E-002	2.97743E-006	-6.34000E-005	......
	171	44.433	-6.47375E-002	2.97743E-006	3.66000E-005	......
	172	44.6913	-6.47125E-002	2.97743E-006	-1.63400E-004	......
	173	44.9497	-6.46875E-002	2.97743E-006	3.66000E-005	......
	174	45.208	-6.46775E-002	2.97743E-006	-1.63400E-004	......
	175	45.4663	-6.46525E-002	2.97743E-006	1.36600E-004	......
	176	45.7247	-6.46275E-002	2.97743E-006	-1.63400E-004	......
	177	45.983	-6.46075E-002	2.97743E-006	3.66000E-005	......
	178	46.2413	-6.45825E-002	2.97743E-006	-2.63400E-004	......
	179	46.4997	-6.45625E-002	2.97743E-006	3.66000E-005	......
	180	46.758	-6.45375E-002	2.97743E-006	-1.63400E-004	......
	181	47.0163	-6.45175E-002	2.97743E-006	3.66000E-005	......
	182	47.2747	-6.45025E-002	2.97743E-006	-1.63400E-004	......
	183	47.533	-6.44775E-002	2.97743E-006	1.36600E-004	......
	184	47.7913	-6.44575E-002	2.97743E-006	-1.63400E-004	......
	185	48.0497	-6.44375E-002	2.97743E-006	3.66000E-005	......
	186	48.308	-6.44025E-002	2.97743E-006	-1.63400E-004	......
	187	48.5663	-6.43775E-002	2.97743E-006	3.66000E-005	......
	188	48.8247	-6.43725E-002	2.97743E-006	-6.34000E-005	......
	189	49.083	-6.43425E-002	2.97743E-006	1.36600E-004	......
	190	49.3413	-6.43075E-002	2.97743E-006	3.66000E-005	......
	191	49.5996	-6.42925E-002	2.97743E-006	1.36600E-004	......
	192	49.858	-6.42775E-002	2.97743E-006	-1.63400E-004	......
	193	50.1163	-6.42575E-002	2.97743E-006	3.66000E-005	......
	194	50.3746	-6.42425E-002	2.97743E-006	-1.63400E-004	......
	195	50.633	-6.42025E-002	2.97743E-006	3.66000E-005	......
	196	50.8913	-6.41875E-002	2.97743E-006	-6.34000E-005	......
	197	51.1496	-6.41625E-002	2.97743E-006	-6.34000E-005	......
	198	51.408	-6.41425E-002	2.97743E-006	-1.63400E-004	......
	199	51.6663	-6.41275E-002	2.97743E-006	2.36600E-004	......
	200	51.9246	-6.41025E-002	2.97743E-006	-1.63400E-004	......
	201	52.183	-6.40775E-002	2.97743E-006	3.66000E-005	......
	202	52.4413	-6.40575E-002	2.97743E-006	-1.63400E-004	......
	203	52.6996	-6.40475E-002	2.97743E-006	3.66000E-005	......
	204	52.958	-6.40175E-002	2.97743E-006	-6.34000E-005	......
	205	53.2163	-6.39975E-002	2.97743E-006	3.66000E-005	......
	206	53.4746	-6.39725E-002	2.97743E-006	-1.63400E-004	......
	207	53.733	-6.39575E-002	2.97743E-006	1.36600E-004	......
	208	53.9913	-6.39375E-002	2.97743E-006	-1.63400E-004	......
	209	54.2496	-6.39175E-002	2.97743E-006	1.36600E-004	......
	210	54.5079	-6.38925E-002	2.97743E-006	-6.34000E-005	......
	211	54.7663	-6.38775E-002	2.97743E-006	-6.34000E-005	......
	212	55.0246	-6.38525E-002	2.97743E-006	-6.34000E-005	......
	213	55.2829	-6.38325E-002	2.97743E-006	3.66000E-005	......
	214	55.5413	-6.38125E-002	2.97743E-006	-6.34000E-005	......
	215	55.7996	-6.37875E-002	2.97743E-006	3.66000E-005	......
	216	56.0579	-6.37725E-002	2.97743E-006	-6.34000E-005	......
	217	56.3163	-6.37425E-002	2.97743E-006	3.66000E-005	......
	218	56.5746	-6.37225E-002	2.97743E-006	-6.34000E-005	......
	219	56.8329	-6.37025E-002	2.97743E-006	3.66000E-005	......
	220	57.0913	-6.36825E-002	2.97743E-006	-1.63400E-004	......
	221	57.3496	-6.36625E-002	2.97743E-006	3.66000E-005	......
	222	57.6079	-6.36475E-002	2.97743E-006	-1.63400E-004	......
	223	57.8663	-6.36275E-002	2.97743E-006	2.36600E-004	......
	224	58.1246	-6.36025E-002	2.97743E-006	-1.63400E-004	......
	225	58.3829	-6.35925E-002	2.97743E-006	3.66000E-005	......
	226	58.6413	-6.35625E-002	2.97743E-006	-1.63400E-004	......
	227	58.8996	-6.35375E-002	2.97743E-006	3.66000E-005	......
	228	59.1579	-6.35075E-002	2.97743E-006	-1.63400E-004	......
	229	59.4162	-6.34975E-002	2.97743E-006	3.66000E-005	......
	230	59.6746	-6.34875E-002	2.97743E-006	-6.34000E-005	......
	231	59.9329	-6.34575E-002	2.97743E-006	2.36600E-004	......
EOC	QUANT	-0.063457	Open Circuit (V)
PSTATMODEL	IQUANT	32	Pstat Model
PSTATSECTION	LABEL	PStat0	Pstat Section
CTRLMODE	IQUANT	1	Control Mode
IESTAB	IQUANT	0	I/E Stability
CASPEED	IQUANT	1	Control Amp Speed
CONVENTION	IQUANT	1	Current Convention
ICHRANGE	IQUANT	2	Ich Range
ICHRANGEMODE	TOGGLE	F	Ich Auto Range
ICHOFFSETENABLE	TOGGLE	T	Ich Offset Enable
ICHOFFSET	QUANT	0	Ich Offset (V)
ICHFILTER	IQUANT	3	Ich Filter
VCHRANGE	IQUANT	2	Vch Range
VCHRANGEMODE	TOGGLE	F	Vch Auto Range
VCHOFFSETENABLE	TOGGLE	T	Vch Offset Enable
VCHOFFSET	QUANT	0	Vch Offset (V)
VCHFILTER	IQUANT	3	Vch Filter
ACHRANGE	IQUANT	0	Ach Range
IERANGELOWERLIMIT	IQUANT	3	I/E Range Lower Limit
IERANGEMODE	TOGGLE	F	I/E AutoRange
IERANGE	IQUANT	11	I/E Range
POSFEEDENABLE	TOGGLE	F	Positive Feedback IR Comp
POSFEEDRESISTANCE	QUANT	0	Positive Feedback Resistance (ohm)
FC350IDIVISOR	IQUANT	0	FC350 I Divisor
FC350VRANGE	IQUANT	0	FC350 V Range
FRAMEWORKVERSION	QUANT	4.35	Framework Version
ZCURVE	TABLE
	Pt	Time	Freq	Zreal	Zimag	Zsig	Zmod	Zphz	Idc	Vdc	IERange
	#	s	Hz	ohm	ohm	V	ohm	°	A	V	#
	0	6	100007	18.9577	0.130618	1	18.9581	0.394761	6.48899E-006	-0.062195	10
	1	10	89134.1	18.9127	0.164086	1	18.9134	0.497083	6.36013E-006	-0.062181	10
	2	12	79433.6	19.0406	-0.041363	1	19.0406	-0.124468	6.22059E-006	-0.06219	10
	3	17	70800.8	18.9454	-0.095377	1	18.9457	-0.288443	5.65604E-006	-0.06217	10
	4	19	63105.5	18.8833	-0.07143	1	18.8834	-0.216731	7.20289E-006	-0.062193	10
	5	23	56243.5	18.9981	-0.167525	1	18.9988	-0.505219	7.06788E-006	-0.062169	10
	6	25	50123.7	18.8362	-0.240436	1	18.8378	-0.731315	5.63962E-006	-0.062179	10
	7	29	44681	18.8855	-0.197079	1	18.8865	-0.597887	4.98129E-006	-0.062185	10
	8	33	39811.2	18.7979	-0.190245	1	18.7989	-0.579843	7.05306E-006	-0.062185	10
	9	35	35488.3	18.9648	-0.342433	1	18.9679	-1.03443	6.23633E-006	-0.062191	10
	10	39	31634.1	18.969	-0.507597	1	18.9758	-1.53282	6.68198E-006	-0.062167	10
	11	43	28173.1	18.9089	-0.528099	1	18.9163	-1.59978	5.85255E-006	-0.062176	10
	12	47	25123.7	18.8506	-0.654682	1	18.862	-1.98908	6.69118E-006	-0.062167	10
	13	51	22389.3	19.0564	-0.714375	1	19.0698	-2.14686	5.88373E-006	-0.062174	10
	14	53	19954.4	19.1135	-0.802684	1	19.1303	-2.40476	7.23261E-006	-0.062179	10
	15	58	17778.2	19.042	-1.00267	1	19.0684	-3.01417	5.99648E-006	-0.062171	10
	16	62	15852.9	19.1737	-1.10626	1	19.2056	-3.30211	6.16561E-006	-0.062185	10
	17	66	14122.3	19.0226	-1.08527	1	19.0535	-3.26528	5.98225E-006	-0.062173	10
	18	69	12587.2	18.9489	-1.12007	1	18.982	-3.38282	5.78145E-006	-0.062175	10
	19	73	11221.1	19.1524	-1.2224	1	19.1914	-3.65193	5.72351E-006	-0.062171	10
	20	75	9998.2	19.1939	-1.50184	1	19.2525	-4.47404	5.93748E-006	-0.062177	10
	21	80	8912.76	19.319	-1.55539	1	19.3815	-4.60302	5.57191E-006	-0.062168	10
	22	84	7942.6	19.4772	-1.77318	1	19.5578	-5.20179	5.53501E-006	-0.06217	10
	23	88	7078.05	19.5115	-1.96567	1	19.6102	-5.75281	5.94802E-006	-0.062183	10
	24	92	6311.1	19.5414	-2.20807	1	19.6657	-6.44678	5.94191E-006	-0.062177	10
	25	94	5622.14	19.6241	-2.36408	1	19.766	-6.86921	5.67403E-006	-0.06218	10
	26	98	5011.18	19.6287	-2.50305	1	19.7876	-7.26715	5.89354E-006	-0.06218	10
	27	102	4465.21	19.804	-2.79355	1	20.0001	-8.02917	5.86943E-006	-0.062188	10
	28	106	3980.93	19.8649	-3.07206	1	20.101	-8.79102	6.8137E-006	-0.062188	10
	29	111	3548.18	20.1196	-3.1454	1	20.364	-8.88545	4.56187E-006	-0.062172	10
	30	115	3162.67	20.1063	-3.55213	1	20.4177	-10.0189	4.63915E-006	-0.062174	10
	31	117	2819.01	20.1733	-3.89215	1	20.5454	-10.9202	5.24908E-006	-0.062164	10
	32	121	2511.16	20.3451	-4.42158	1	20.82	-12.2614	5.71803E-006	-0.062178	10
	33	125	2238.63	20.4097	-4.82368	1	20.972	-13.2974	5.75547E-006	-0.062178	10
	34	129	1995.37	20.5699	-5.28985	1	21.2392	-14.4219	5.5766E-006	-0.062171	10
	35	133	1778.51	20.6988	-5.78406	1	21.4917	-15.6125	5.6942E-006	-0.062178	10
	36	137	1584.49	20.8311	-6.17384	1	21.7267	-16.5086	5.68126E-006	-0.062158	10
	37	139	1412.76	21.0227	-6.66944	1	22.0553	-17.6016	6.48704E-006	-0.062163	10
	38	144	1259.04	21.3532	-7.23792	1	22.5465	-18.7247	5.69713E-006	-0.062171	10
	39	147	1121.63	21.6084	-8.2006	1	23.1122	-20.7822	5.54333E-006	-0.062176	10
	40	152	999.95	21.9895	-8.9109	1	23.7264	-22.0595	5.41291E-006	-0.062175	10
	41	156	891.184	22.2442	-9.7955	1	24.3055	-23.7668	5.43488E-006	-0.062169	10
	42	158	794.163	22.6774	-10.4489	1	24.9688	-24.7385	5.20366E-006	-0.062166	10
	43	163	707.867	23.1142	-11.4486	1	25.7941	-26.3495	6.0286E-006	-0.062162	10
	44	167	630.984	23.4361	-12.6456	1	26.6301	-28.3502	5.51075E-006	-0.062176	10
	45	171	562.189	23.8666	-13.8303	1	27.5843	-30.0916	6.09776E-006	-0.062186	10
	46	175	501.303	24.1011	-15.178	1	28.4822	-32.2012	5.73126E-006	-0.062176	10
	47	177	446.614	24.5846	-16.6343	1	29.6834	-34.0827	5.57244E-006	-0.06217	10
	48	179	398.209	25.0983	-18.1979	1	31.0014	-35.9446	5.51307E-006	-0.062182	10
	49	181	354.821	25.6681	-19.9397	1	32.503	-37.841	5.72857E-006	-0.062176	10
	50	183	316.113	26.2752	-21.8684	1	34.185	-39.77	5.55329E-006	-0.062177	10
	51	185	281.926	26.9742	-23.9027	1	36.0409	-41.5452	5.41918E-006	-0.062182	10
	52	187	251.185	27.68	-26.211	1	38.1208	-43.4386	5.53269E-006	-0.062171	10
	53	189	223.946	28.4544	-28.7526	1	40.452	-45.2987	5.54668E-006	-0.062177	10
	54	191	199.495	29.3433	-31.4531	1	43.0154	-46.9875	5.63722E-006	-0.062174	10
