EXPLAIN
TAG	EISPOT
TITLE	LABEL	Tomato_open	Test &Identifier
DATE	LABEL	5/16/2006	Date
TIME	LABEL	20:43:33	Time
NOTES	NOTES	1	&Notes...
	
PSTAT	PSTAT	300	Potentiostat
VDC	POTEN	1.00000E-003	T	DC &Voltage (V)
FREQINIT	QUANT	1.00000E+005	Initial Fre&q. (Hz)
FREQFINAL	QUANT	1.00000E+001	Final Fre&q. (Hz)
PTSPERDEC	QUANT	2.00000E+001	Points/&decade
VAC	QUANT	1.00000E+000	AC &Voltage (mV rms)
AREA	QUANT	1.00000E+000	&Area (cm²)
DENSITY	QUANT	7.87000E+000	&Density (gm/cm³)
EQUIV	QUANT	7.00000E+000	Equiv. &Wt
CONDIT	TWOPARAM	F	6.00000E+001	0.00000E+000	Conditionin&g	Time(s)	E(V)
DELAY	TWOPARAM	T	6.00000E+001	0.00000E+000	Init. De&lay	Time(s)	Stab.(mV/s)
SPEED	SELECTOR	1	&Optimize for:
ZGUESS	QUANT	1.00000E+002	E&stimated Z (ohms)
OCVCURVE	TABLE	232
	Pt	T	Vf	Vm	Ach	Over
	#	s	V vs. Ref.	V	V	bits
	0	0.258332	-4.75975E-002	3.79643E-006	3.66000E-005	......
	1	0.516663	-4.76375E-002	3.79643E-006	2.36600E-004	......
	2	0.774994	-4.76675E-002	3.79643E-006	2.36600E-004	......
	3	1.03333	-4.77175E-002	3.79643E-006	2.36600E-004	......
	4	1.29166	-4.77475E-002	3.79643E-006	2.36600E-004	......
	5	1.54999	-4.77775E-002	3.79643E-006	1.36600E-004	......
	6	1.80832	-4.78125E-002	3.79643E-006	2.36600E-004	......
	7	2.06665	-4.78525E-002	3.79643E-006	2.36600E-004	......
	8	2.32498	-4.78925E-002	3.79643E-006	2.36600E-004	......
	9	2.58332	-4.79175E-002	3.79643E-006	2.36600E-004	......
	10	2.84165	-4.79575E-002	3.79643E-006	3.66000E-005	......
	11	3.09998	-4.79825E-002	3.79643E-006	2.36600E-004	......
	12	3.35831	-4.80225E-002	3.79643E-006	1.36600E-004	......
	13	3.61664	-4.80575E-002	3.79643E-006	2.36600E-004	......
	14	3.87497	-4.80925E-002	3.79643E-006	2.36600E-004	......
	15	4.1333	-4.81175E-002	3.79643E-006	3.36600E-004	......
	16	4.39164	-4.81625E-002	3.79643E-006	3.36600E-004	......
	17	4.64997	-4.81825E-002	3.79643E-006	3.66000E-005	......
	18	4.9083	-4.82275E-002	3.79643E-006	2.36600E-004	......
	19	5.16663	-4.82625E-002	3.79643E-006	4.36600E-004	......
	20	5.42496	-4.83025E-002	3.79643E-006	3.36600E-004	......
	21	5.68329	-4.83275E-002	3.79643E-006	3.36600E-004	......
	22	5.94162	-4.83575E-002	3.79643E-006	4.36600E-004	......
	23	6.19996	-4.83925E-002	3.79643E-006	1.36600E-004	......
	24	6.45829	-4.84225E-002	3.79643E-006	3.36600E-004	......
	25	6.71662	-4.84575E-002	3.79643E-006	2.36600E-004	......
	26	6.97495	-4.84925E-002	3.79643E-006	2.36600E-004	......
	27	7.23328	-4.85275E-002	3.79643E-006	2.36600E-004	......
	28	7.49161	-4.85625E-002	3.79643E-006	3.36600E-004	......
	29	7.74995	-4.85925E-002	3.79643E-006	2.36600E-004	......
	30	8.00828	-4.86275E-002	3.79643E-006	2.36600E-004	......
	31	8.26661	-4.86575E-002	3.79643E-006	1.36600E-004	......
	32	8.52494	-4.86975E-002	3.79643E-006	2.36600E-004	......
	33	8.78327	-4.87125E-002	3.79643E-006	3.36600E-004	......
	34	9.0416	-4.87475E-002	3.79643E-006	3.36600E-004	......
	35	9.29993	-4.87825E-002	3.79643E-006	3.36600E-004	......
	36	9.5583	-4.88125E-002	3.79643E-006	1.36600E-004	......
	37	9.8166	-4.88375E-002	3.79643E-006	1.36600E-004	......
	38	10.0749	-4.88825E-002	3.79643E-006	3.36600E-004	......
	39	10.3333	-4.89125E-002	3.79643E-006	1.36600E-004	......
	40	10.5916	-4.89375E-002	3.79643E-006	2.36600E-004	......
	41	10.8499	-4.89725E-002	3.79643E-006	3.36600E-004	......
	42	11.1083	-4.90025E-002	3.79643E-006	2.36600E-004	......
	43	11.3666	-4.90325E-002	3.79643E-006	2.36600E-004	......
	44	11.6249	-4.90725E-002	3.79643E-006	1.36600E-004	......
	45	11.8832	-4.90925E-002	3.79643E-006	2.36600E-004	......
	46	12.1416	-4.91375E-002	3.79643E-006	3.36600E-004	......
	47	12.3999	-4.91675E-002	3.79643E-006	3.36600E-004	......
	48	12.6582	-4.92025E-002	3.79643E-006	3.36600E-004	......
	49	12.9166	-4.92225E-002	3.79643E-006	3.36600E-004	......
	50	13.1749	-4.92575E-002	3.79643E-006	3.36600E-004	......
	51	13.4332	-4.92875E-002	3.79643E-006	3.36600E-004	......
	52	13.6916	-4.93225E-002	3.79643E-006	3.36600E-004	......
	53	13.9499	-4.93375E-002	3.79643E-006	2.36600E-004	......
	54	14.2082	-4.93825E-002	3.79643E-006	2.36600E-004	......
	55	14.4666	-4.94075E-002	3.79643E-006	2.36600E-004	......
	56	14.7249	-4.94375E-002	3.79643E-006	3.66000E-005	......
	57	14.9832	-4.94625E-002	3.79643E-006	2.36600E-004	......
	58	15.2416	-4.94925E-002	3.79643E-006	2.36600E-004	......
	59	15.4999	-4.95225E-002	3.79643E-006	2.36600E-004	......
	60	15.7582	-4.95525E-002	3.79643E-006	3.36600E-004	......
	61	16.0166	-4.95825E-002	3.79643E-006	2.36600E-004	......
	62	16.2749	-4.96075E-002	3.79643E-006	2.36600E-004	......
	63	16.5332	-4.96425E-002	3.79643E-006	2.36600E-004	......
	64	16.7915	-4.96775E-002	3.79643E-006	2.36600E-004	......
	65	17.0499	-4.97075E-002	3.79643E-006	3.36600E-004	......
	66	17.3082	-4.97375E-002	3.79643E-006	1.36600E-004	......
	67	17.5665	-4.97625E-002	3.79643E-006	2.36600E-004	......
	68	17.8249	-4.97825E-002	3.79643E-006	3.36600E-004	......
	69	18.0832	-4.98125E-002	3.79643E-006	2.36600E-004	......
	70	18.3415	-4.98475E-002	3.79643E-006	2.36600E-004	......
	71	18.5999	-4.98725E-002	3.79643E-006	3.36600E-004	......
	72	18.8582	-4.98975E-002	3.79643E-006	2.36600E-004	......
	73	19.1165	-4.99225E-002	3.79643E-006	2.36600E-004	......
	74	19.3749	-4.99475E-002	3.79643E-006	2.36600E-004	......
	75	19.6332	-4.99775E-002	3.79643E-006	2.36600E-004	......
	76	19.8915	-5.00075E-002	3.79643E-006	3.36600E-004	......
	77	20.1499	-5.00475E-002	3.79643E-006	2.36600E-004	......
	78	20.4082	-5.00625E-002	3.79643E-006	3.36600E-004	......
	79	20.6665	-5.00975E-002	3.79643E-006	1.36600E-004	......
	80	20.9249	-5.01275E-002	3.79643E-006	2.36600E-004	......
	81	21.1832	-5.01475E-002	3.79643E-006	2.36600E-004	......
	82	21.4415	-5.01825E-002	3.79643E-006	2.36600E-004	......
	83	21.6998	-5.02075E-002	3.79643E-006	2.36600E-004	......
	84	21.9582	-5.02325E-002	3.79643E-006	3.36600E-004	......
	85	22.2165	-5.02575E-002	3.79643E-006	3.36600E-004	......
	86	22.4748	-5.02825E-002	3.79643E-006	2.36600E-004	......
	87	22.7332	-5.03175E-002	3.79643E-006	2.36600E-004	......
	88	22.9915	-5.03475E-002	3.79643E-006	3.36600E-004	......
	89	23.2498	-5.03625E-002	3.79643E-006	2.36600E-004	......
	90	23.5082	-5.03975E-002	3.79643E-006	3.36600E-004	......
	91	23.7665	-5.04175E-002	3.79643E-006	2.36600E-004	......
	92	24.0248	-5.04525E-002	3.79643E-006	1.36600E-004	......
	93	24.2832	-5.04825E-002	3.79643E-006	2.36600E-004	......
	94	24.5415	-5.04975E-002	3.79643E-006	3.36600E-004	......
	95	24.7998	-5.05225E-002	3.79643E-006	1.36600E-004	......
	96	25.0582	-5.05525E-002	3.79643E-006	3.36600E-004	......
	97	25.3165	-5.05775E-002	3.79643E-006	2.36600E-004	......
	98	25.5748	-5.06025E-002	3.79643E-006	3.36600E-004	......
	99	25.8332	-5.06325E-002	3.79643E-006	3.36600E-004	......
	100	26.0915	-5.06575E-002	3.79643E-006	2.36600E-004	......
	101	26.3498	-5.06875E-002	3.79643E-006	4.36600E-004	......
	102	26.6081	-5.07125E-002	3.79643E-006	2.36600E-004	......
	103	26.8665	-5.07425E-002	3.79643E-006	2.36600E-004	......
	104	27.1248	-5.07575E-002	3.79643E-006	2.36600E-004	......
	105	27.3831	-5.07975E-002	3.79643E-006	3.36600E-004	......
	106	27.6415	-5.08175E-002	3.79643E-006	2.36600E-004	......
	107	27.8998	-5.08375E-002	3.79643E-006	3.36600E-004	......
	108	28.1581	-5.08675E-002	3.79643E-006	3.36600E-004	......
	109	28.4165	-5.08925E-002	3.79643E-006	2.36600E-004	......
	110	28.6748	-5.09175E-002	3.79643E-006	2.36600E-004	......
	111	28.9331	-5.09375E-002	3.79643E-006	3.36600E-004	......
	112	29.1915	-5.09725E-002	3.79643E-006	3.36600E-004	......
	113	29.4498	-5.09925E-002	3.79643E-006	3.36600E-004	......
	114	29.7081	-5.10225E-002	3.79643E-006	2.36600E-004	......
	115	29.9665	-5.10375E-002	3.79643E-006	2.36600E-004	......
	116	30.2248	-5.10625E-002	3.79643E-006	2.36600E-004	......
	117	30.4831	-5.10975E-002	3.79643E-006	1.36600E-004	......
	118	30.7414	-5.11175E-002	3.79643E-006	2.36600E-004	......
	119	30.9998	-5.11425E-002	3.79643E-006	2.36600E-004	......
	120	31.2581	-5.11625E-002	3.79643E-006	4.36600E-004	......
	121	31.5164	-5.11825E-002	3.79643E-006	2.36600E-004	......
	122	31.7748	-5.12075E-002	3.79643E-006	2.36600E-004	......
	123	32.0331	-5.12375E-002	3.79643E-006	2.36600E-004	......
	124	32.2914	-5.12625E-002	3.79643E-006	2.36600E-004	......
	125	32.5498	-5.12925E-002	3.79643E-006	2.36600E-004	......
	126	32.8081	-5.13175E-002	3.79643E-006	2.36600E-004	......
	127	33.0664	-5.13375E-002	3.79643E-006	2.36600E-004	......
	128	33.3248	-5.13625E-002	3.79643E-006	2.36600E-004	......
	129	33.5831	-5.13925E-002	3.79643E-006	3.36600E-004	......
	130	33.8414	-5.14125E-002	3.79643E-006	2.36600E-004	......
	131	34.0998	-5.14325E-002	3.79643E-006	3.36600E-004	......
	132	34.3581	-5.14475E-002	3.79643E-006	2.36600E-004	......
	133	34.6164	-5.14775E-002	3.79643E-006	3.36600E-004	......
	134	34.8748	-5.14975E-002	3.79643E-006	2.36600E-004	......
	135	35.1331	-5.15275E-002	3.79643E-006	3.36600E-004	......
	136	35.3914	-5.15525E-002	3.79643E-006	3.36600E-004	......
	137	35.6497	-5.15775E-002	3.79643E-006	2.36600E-004	......
	138	35.9081	-5.15925E-002	3.79643E-006	2.36600E-004	......
	139	36.1664	-5.16325E-002	3.79643E-006	2.36600E-004	......
	140	36.4247	-5.16475E-002	3.79643E-006	3.36600E-004	......
	141	36.6831	-5.16625E-002	3.79643E-006	3.36600E-004	......
	142	36.9414	-5.16875E-002	3.79643E-006	3.36600E-004	......
	143	37.1997	-5.17125E-002	3.79643E-006	3.36600E-004	......
	144	37.4581	-5.17275E-002	3.79643E-006	2.36600E-004	......
	145	37.7164	-5.17575E-002	3.79643E-006	2.36600E-004	......
	146	37.9747	-5.17775E-002	3.79643E-006	2.36600E-004	......
	147	38.2331	-5.17975E-002	3.79643E-006	3.36600E-004	......
	148	38.4914	-5.18225E-002	3.79643E-006	2.36600E-004	......
	149	38.7497	-5.18425E-002	3.79643E-006	2.36600E-004	......
	150	39.0081	-5.18725E-002	3.79643E-006	2.36600E-004	......
	151	39.2664	-5.18775E-002	3.79643E-006	2.36600E-004	......
	152	39.5247	-5.19125E-002	3.79643E-006	2.36600E-004	......
	153	39.7831	-5.19375E-002	3.79643E-006	3.66000E-005	......
	154	40.0414	-5.19525E-002	3.79643E-006	2.36600E-004	......
	155	40.2997	-5.19825E-002	3.79643E-006	3.36600E-004	......
	156	40.558	-5.20125E-002	3.79643E-006	1.36600E-004	......
	157	40.8164	-5.20225E-002	3.79643E-006	3.36600E-004	......
	158	41.0747	-5.20375E-002	3.79643E-006	2.36600E-004	......
	159	41.333	-5.20625E-002	3.79643E-006	2.36600E-004	......
	160	41.5914	-5.20875E-002	3.79643E-006	2.36600E-004	......
	161	41.8497	-5.21075E-002	3.79643E-006	3.66000E-005	......
	162	42.108	-5.21275E-002	3.79643E-006	2.36600E-004	......
	163	42.3664	-5.21475E-002	3.79643E-006	2.36600E-004	......
	164	42.6247	-5.21675E-002	3.79643E-006	2.36600E-004	......
	165	42.883	-5.22025E-002	3.79643E-006	2.36600E-004	......
	166	43.1414	-5.22175E-002	3.79643E-006	3.66000E-005	......
	167	43.3997	-5.22525E-002	3.79643E-006	1.36600E-004	......
	168	43.658	-5.22675E-002	3.79643E-006	3.36600E-004	......
	169	43.9164	-5.22825E-002	3.79643E-006	3.36600E-004	......
	170	44.1747	-5.23125E-002	3.79643E-006	3.36600E-004	......
	171	44.433	-5.23275E-002	3.79643E-006	3.36600E-004	......
	172	44.6913	-5.23475E-002	3.79643E-006	3.36600E-004	......
	173	44.9497	-5.23675E-002	3.79643E-006	2.36600E-004	......
	174	45.208	-5.23925E-002	3.79643E-006	2.36600E-004	......
	175	45.4663	-5.24075E-002	3.79643E-006	2.36600E-004	......
	176	45.7247	-5.24375E-002	3.79643E-006	2.36600E-004	......
	177	45.983	-5.24425E-002	3.79643E-006	3.36600E-004	......
	178	46.2413	-5.24775E-002	3.79643E-006	2.36600E-004	......
	179	46.4997	-5.24925E-002	3.79643E-006	2.36600E-004	......
	180	46.758	-5.25125E-002	3.79643E-006	3.36600E-004	......
	181	47.0163	-5.25275E-002	3.79643E-006	3.66000E-005	......
	182	47.2747	-5.25475E-002	3.79643E-006	2.36600E-004	......
	183	47.533	-5.25775E-002	3.79643E-006	3.36600E-004	......
	184	47.7913	-5.25875E-002	3.79643E-006	2.36600E-004	......
	185	48.0497	-5.26175E-002	3.79643E-006	2.36600E-004	......
	186	48.308	-5.26375E-002	3.79643E-006	3.36600E-004	......
	187	48.5663	-5.26625E-002	3.79643E-006	1.36600E-004	......
	188	48.8247	-5.26825E-002	3.79643E-006	2.36600E-004	......
	189	49.083	-5.26975E-002	3.79643E-006	2.36600E-004	......
	190	49.3413	-5.27225E-002	3.79643E-006	2.36600E-004	......
	191	49.5996	-5.27425E-002	3.79643E-006	2.36600E-004	......
	192	49.858	-5.27725E-002	3.79643E-006	3.36600E-004	......
	193	50.1163	-5.27875E-002	3.79643E-006	2.36600E-004	......
	194	50.3746	-5.27975E-002	3.79643E-006	1.36600E-004	......
	195	50.633	-5.28175E-002	3.79643E-006	2.36600E-004	......
	196	50.8913	-5.28425E-002	3.79643E-006	2.36600E-004	......
	197	51.1496	-5.28575E-002	3.79643E-006	3.36600E-004	......
	198	51.408	-5.28825E-002	3.79643E-006	2.36600E-004	......
	199	51.6663	-5.29025E-002	3.79643E-006	1.36600E-004	......
	200	51.9246	-5.29225E-002	3.79643E-006	2.36600E-004	......
	201	52.183	-5.29475E-002	3.79643E-006	3.36600E-004	......
	202	52.4413	-5.29575E-002	3.79643E-006	3.36600E-004	......
	203	52.6996	-5.29775E-002	3.79643E-006	2.36600E-004	......
	204	52.958	-5.29925E-002	3.79643E-006	3.36600E-004	......
	205	53.2163	-5.30175E-002	3.79643E-006	2.36600E-004	......
	206	53.4746	-5.30425E-002	3.79643E-006	1.36600E-004	......
	207	53.733	-5.30575E-002	3.79643E-006	3.36600E-004	......
	208	53.9913	-5.30775E-002	3.79643E-006	3.36600E-004	......
	209	54.2496	-5.30975E-002	3.79643E-006	3.36600E-004	......
	210	54.5079	-5.31225E-002	3.79643E-006	2.36600E-004	......
	211	54.7663	-5.31275E-002	3.79643E-006	2.36600E-004	......
	212	55.0246	-5.31625E-002	3.79643E-006	2.36600E-004	......
	213	55.2829	-5.31725E-002	3.79643E-006	2.36600E-004	......
	214	55.5413	-5.32025E-002	3.79643E-006	3.36600E-004	......
	215	55.7996	-5.32125E-002	3.79643E-006	3.36600E-004	......
	216	56.0579	-5.32375E-002	3.79643E-006	3.36600E-004	......
	217	56.3163	-5.32525E-002	3.79643E-006	2.36600E-004	......
	218	56.5746	-5.32675E-002	3.79643E-006	2.36600E-004	......
	219	56.8329	-5.32925E-002	3.79643E-006	2.36600E-004	......
	220	57.0913	-5.33175E-002	3.79643E-006	2.36600E-004	......
	221	57.3496	-5.33275E-002	3.79643E-006	3.36600E-004	......
	222	57.6079	-5.33375E-002	3.79643E-006	2.36600E-004	......
	223	57.8663	-5.33625E-002	3.79643E-006	2.36600E-004	......
	224	58.1246	-5.33875E-002	3.79643E-006	2.36600E-004	......
	225	58.3829	-5.34025E-002	3.79643E-006	2.36600E-004	......
	226	58.6413	-5.34175E-002	3.79643E-006	3.36600E-004	......
	227	58.8996	-5.34325E-002	3.79643E-006	2.36600E-004	......
	228	59.1579	-5.34575E-002	3.79643E-006	2.36600E-004	......
	229	59.4162	-5.34725E-002	3.79643E-006	2.36600E-004	......
	230	59.6746	-5.35075E-002	3.79643E-006	3.36600E-004	......
	231	59.9329	-5.35025E-002	3.79643E-006	2.36600E-004	......
EOC	QUANT	-0.053503	Open Circuit (V)
PSTATMODEL	IQUANT	32	Pstat Model
PSTATSECTION	LABEL	PStat0	Pstat Section
CTRLMODE	IQUANT	1	Control Mode
IESTAB	IQUANT	0	I/E Stability
CASPEED	IQUANT	1	Control Amp Speed
CONVENTION	IQUANT	1	Current Convention
ICHRANGE	IQUANT	2	Ich Range
ICHRANGEMODE	TOGGLE	F	Ich Auto Range
ICHOFFSETENABLE	TOGGLE	T	Ich Offset Enable
ICHOFFSET	QUANT	0	Ich Offset (V)
ICHFILTER	IQUANT	3	Ich Filter
VCHRANGE	IQUANT	2	Vch Range
VCHRANGEMODE	TOGGLE	F	Vch Auto Range
VCHOFFSETENABLE	TOGGLE	T	Vch Offset Enable
VCHOFFSET	QUANT	0	Vch Offset (V)
VCHFILTER	IQUANT	3	Vch Filter
ACHRANGE	IQUANT	0	Ach Range
IERANGELOWERLIMIT	IQUANT	3	I/E Range Lower Limit
IERANGEMODE	TOGGLE	F	I/E AutoRange
IERANGE	IQUANT	11	I/E Range
POSFEEDENABLE	TOGGLE	F	Positive Feedback IR Comp
POSFEEDRESISTANCE	QUANT	0	Positive Feedback Resistance (ohm)
FC350IDIVISOR	IQUANT	0	FC350 I Divisor
FC350VRANGE	IQUANT	0	FC350 V Range
FRAMEWORKVERSION	QUANT	4.35	Framework Version
ZCURVE	TABLE
	Pt	Time	Freq	Zreal	Zimag	Zsig	Zmod	Zphz	Idc	Vdc	IERange
	#	s	Hz	ohm	ohm	V	ohm	°	A	V	#
	0	7	100007	27.8669	0.284692	1	27.8684	0.58532	6.19725E-006	-0.052279	10
	1	11	89134.1	27.7952	0.059051	1	27.7953	0.121726	6.08636E-006	-0.052238	10
	2	13	79433.6	27.5114	0.162846	1	27.5119	0.339142	7.42459E-006	-0.052269	10
	3	18	70800.8	27.7262	0.065883	1	27.7262	0.136147	6.08285E-006	-0.052256	10
	4	20	63105.5	27.7143	-0.075126	1	27.7144	-0.155313	7.2018E-006	-0.052257	10
	5	24	56243.5	27.41	-0.21483	1	27.4109	-0.449054	6.19413E-006	-0.052234	10
	6	28	50123.7	27.4559	-0.022087	1	27.4559	-0.046091	7.32161E-006	-0.052251	10
	7	32	44681	27.5751	-0.196552	1	27.5758	-0.408392	5.24986E-006	-0.05224	10
	8	34	39811.2	27.3235	-0.563293	1	27.3293	-1.18102	4.99048E-006	-0.052236	10
	9	39	35488.3	27.489	-0.325498	1	27.491	-0.678408	5.00281E-006	-0.052238	10
	10	43	31634.1	27.4794	-0.367484	1	27.4819	-0.766174	6.92177E-006	-0.052237	10
	11	47	28173.1	27.7343	-0.632639	1	27.7415	-1.30673	5.99502E-006	-0.052241	10
	12	51	25123.7	27.616	-0.62162	1	27.623	-1.28948	4.87519E-006	-0.052222	10
	13	53	22389.3	27.4571	-0.784037	1	27.4683	-1.63564	7.00814E-006	-0.05223	10
	14	57	19954.4	27.733	-0.667504	1	27.7411	-1.37878	4.93286E-006	-0.052242	10
	15	61	17778.2	27.6431	-0.917362	1	27.6583	-1.90072	6.00918E-006	-0.052247	10
	16	65	15852.9	27.5852	-1.1201	1	27.6079	-2.32522	4.83771E-006	-0.052244	10
	17	70	14122.3	27.8375	-1.22635	1	27.8645	-2.52247	6.08735E-006	-0.052241	10
	18	72	12587.2	27.8254	-0.9925	1	27.8431	-2.0428	5.90209E-006	-0.052253	10
	19	76	11221.1	27.7714	-1.45832	1	27.8097	-3.00592	5.74721E-006	-0.05225	10
	20	80	9998.2	27.9671	-1.4086	1	28.0026	-2.88334	5.91559E-006	-0.052248	10
	21	84	8912.76	27.9626	-1.41524	1	27.9984	-2.89738	5.89988E-006	-0.052244	10
	22	88	7942.6	27.8845	-1.66159	1	27.934	-3.41013	5.88773E-006	-0.05225	10
	23	92	7078.05	28.1654	-1.86542	1	28.2271	-3.78922	5.41954E-006	-0.052246	10
	24	94	6311.1	27.9578	-1.68096	1	28.0083	-3.44077	5.92381E-006	-0.052253	10
	25	98	5622.14	27.9978	-1.96712	1	28.0668	-4.01898	5.64978E-006	-0.052252	10
	26	102	5011.18	27.941	-2.44573	1	28.0478	-5.00246	5.75547E-006	-0.052246	10
	27	106	4465.21	28.3349	-2.45257	1	28.4408	-4.94699	5.63615E-006	-0.052247	10
	28	111	3980.93	28.4438	-3.03087	1	28.6048	-6.08229	5.72507E-006	-0.052248	10
	29	113	3548.18	28.4047	-3.03239	1	28.5662	-6.09361	7.00874E-006	-0.052257	10
	30	117	3162.67	28.5688	-3.4344	1	28.7745	-6.85493	5.83293E-006	-0.052236	10
	31	121	2819.01	28.6129	-3.65572	1	28.8455	-7.28093	4.64784E-006	-0.052237	10
	32	125	2511.16	28.86	-3.84756	1	29.1154	-7.59377	5.74465E-006	-0.052242	10
	33	129	2238.63	28.872	-4.44215	1	29.2117	-8.74675	5.84257E-006	-0.052241	10
	34	133	1995.37	29.2446	-4.91011	1	29.6539	-9.531	5.97768E-006	-0.052232	10
	35	135	1778.51	29.1369	-5.30772	1	29.6164	-10.3241	5.96739E-006	-0.052246	10
	36	139	1584.49	29.401	-5.88686	1	29.9846	-11.3224	5.61872E-006	-0.052237	10
	37	144	1412.76	29.3362	-6.40303	1	30.0268	-12.3125	5.9539E-006	-0.052229	10
	38	148	1259.04	29.7778	-7.28041	1	30.6548	-13.7388	5.79039E-006	-0.052242	10
	39	152	1121.63	29.9346	-7.77361	1	30.9275	-14.5574	5.55664E-006	-0.052247	10
	40	156	999.95	30.1292	-8.52153	1	31.3111	-15.7927	5.61264E-006	-0.052232	10
	41	158	891.184	30.3172	-9.09828	1	31.653	-16.7047	5.67999E-006	-0.052247	10
	42	162	794.163	30.8024	-10.1446	1	32.43	-18.2291	5.63312E-006	-0.052249	10
	43	166	707.867	30.929	-11.169	1	32.8838	-19.8556	5.69325E-006	-0.052241	10
	44	170	630.984	31.5147	-12.1056	1	33.7598	-21.013	5.57829E-006	-0.052255	10
	45	175	562.189	31.7474	-13.1396	1	34.3591	-22.4837	4.23065E-006	-0.052247	10
	46	177	501.303	32.1403	-14.6894	1	35.338	-24.5624	5.75932E-006	-0.052256	10
	47	179	446.614	32.5806	-16.1191	1	36.3499	-26.3236	5.74187E-006	-0.052253	10
	48	181	398.209	33.0722	-17.6707	1	37.497	-28.1159	5.88601E-006	-0.052249	10
	49	183	354.821	33.5882	-19.4189	1	38.7977	-30.0342	5.91135E-006	-0.052246	10
	50	185	316.113	34.144	-21.3175	1	40.2523	-31.9783	5.90016E-006	-0.052248	10
	51	187	281.926	34.7885	-23.3828	1	41.9165	-33.9067	5.92554E-006	-0.052245	10
	52	189	251.185	35.4953	-25.6816	1	43.8116	-35.8866	5.80579E-006	-0.05226	10
	53	191	223.946	36.238	-28.1639	1	45.8956	-37.8541	5.62065E-006	-0.052263	10
	54	193	199.495	37.0891	-30.9423	1	48.3015	-39.8372	5.7413E-006	-0.052261	10
	55	195	177.836	37.962	-33.9146	1	50.905	-41.7771	5.51541E-006	-0.052258	10
