EXPLAIN
TAG	EISPOT
TITLE	LABEL	Tomato_open	Test &Identifier
DATE	LABEL	5/16/2006	Date
TIME	LABEL	20:08:33	Time
NOTES	NOTES	1	&Notes...
	
PSTAT	PSTAT	300	Potentiostat
VDC	POTEN	1.00000E-003	T	DC &Voltage (V)
FREQINIT	QUANT	1.00000E+005	Initial Fre&q. (Hz)
FREQFINAL	QUANT	1.00000E+001	Final Fre&q. (Hz)
PTSPERDEC	QUANT	2.00000E+001	Points/&decade
VAC	QUANT	1.00000E+000	AC &Voltage (mV rms)
AREA	QUANT	1.00000E+000	&Area (cm²)
DENSITY	QUANT	7.87000E+000	&Density (gm/cm³)
EQUIV	QUANT	7.00000E+000	Equiv. &Wt
CONDIT	TWOPARAM	F	6.00000E+001	0.00000E+000	Conditionin&g	Time(s)	E(V)
DELAY	TWOPARAM	T	6.00000E+001	0.00000E+000	Init. De&lay	Time(s)	Stab.(mV/s)
SPEED	SELECTOR	1	&Optimize for:
ZGUESS	QUANT	1.00000E+002	E&stimated Z (ohms)
OCVCURVE	TABLE	232
	Pt	T	Vf	Vm	Ach	Over
	#	s	V vs. Ref.	V	V	bits
	0	0.258332	-1.02717E-001	3.46943E-006	2.36600E-004	......
	1	0.516663	-1.02683E-001	3.46943E-006	-6.34000E-005	......
	2	0.774994	-1.02652E-001	3.46943E-006	3.66000E-005	......
	3	1.03333	-1.02623E-001	3.46943E-006	-1.63400E-004	......
	4	1.29166	-1.02597E-001	3.46943E-006	3.66000E-005	......
	5	1.54999	-1.02573E-001	3.46943E-006	3.66000E-005	......
	6	1.80832	-1.02542E-001	3.46943E-006	3.66000E-005	......
	7	2.06665	-1.02518E-001	3.46943E-006	-6.34000E-005	......
	8	2.32498	-1.02503E-001	3.46943E-006	3.66000E-005	......
	9	2.58332	-1.02463E-001	3.46943E-006	-6.34000E-005	......
	10	2.84165	-1.02442E-001	3.46943E-006	3.66000E-005	......
	11	3.09998	-1.02417E-001	3.46943E-006	-6.34000E-005	......
	12	3.35831	-1.02393E-001	3.46943E-006	2.36600E-004	......
	13	3.61664	-1.02372E-001	3.46943E-006	-1.63400E-004	......
	14	3.87497	-1.02343E-001	3.46943E-006	-6.34000E-005	......
	15	4.1333	-1.02328E-001	3.46943E-006	-6.34000E-005	......
	16	4.39164	-1.02307E-001	3.46943E-006	3.66000E-005	......
	17	4.64997	-1.02288E-001	3.46943E-006	3.66000E-005	......
	18	4.9083	-1.02277E-001	3.46943E-006	3.66000E-005	......
	19	5.16663	-1.02247E-001	3.46943E-006	-1.63400E-004	......
	20	5.42496	-1.02233E-001	3.46943E-006	2.36600E-004	......
	21	5.68329	-1.02207E-001	3.46943E-006	3.66000E-005	......
	22	5.94162	-1.02192E-001	3.46943E-006	2.36600E-004	......
	23	6.19996	-1.02163E-001	3.46943E-006	-1.63400E-004	......
	24	6.45829	-1.02152E-001	3.46943E-006	1.36600E-004	......
	25	6.71662	-1.02127E-001	3.46943E-006	-1.63400E-004	......
	26	6.97495	-1.02123E-001	3.46943E-006	3.66000E-005	......
	27	7.23328	-1.02103E-001	3.46943E-006	3.66000E-005	......
	28	7.49161	-1.02077E-001	3.46943E-006	3.66000E-005	......
	29	7.74995	-1.02068E-001	3.46943E-006	-6.34000E-005	......
	30	8.00828	-1.02047E-001	3.46943E-006	3.66000E-005	......
	31	8.26661	-1.02032E-001	3.46943E-006	-1.63400E-004	......
	32	8.52494	-1.02013E-001	3.46943E-006	2.36600E-004	......
	33	8.78327	-1.02008E-001	3.46943E-006	-1.63400E-004	......
	34	9.0416	-1.01987E-001	3.46943E-006	-6.34000E-005	......
	35	9.29993	-1.01972E-001	3.46943E-006	-6.34000E-005	......
	36	9.5583	-1.01962E-001	3.46943E-006	3.66000E-005	......
	37	9.8166	-1.01938E-001	3.46943E-006	3.66000E-005	......
	38	10.0749	-1.01932E-001	3.46943E-006	1.36600E-004	......
	39	10.3333	-1.01907E-001	3.46943E-006	-1.63400E-004	......
	40	10.5916	-1.01893E-001	3.46943E-006	-6.34000E-005	......
	41	10.8499	-1.01898E-001	3.46943E-006	-6.34000E-005	......
	42	11.1083	-1.01872E-001	3.46943E-006	3.66000E-005	......
	43	11.3666	-1.01862E-001	3.46943E-006	3.66000E-005	......
	44	11.6249	-1.01847E-001	3.46943E-006	1.36600E-004	......
	45	11.8832	-1.01843E-001	3.46943E-006	-6.34000E-005	......
	46	12.1416	-1.01822E-001	3.46943E-006	1.36600E-004	......
	47	12.3999	-1.01802E-001	3.46943E-006	-1.63400E-004	......
	48	12.6582	-1.01807E-001	3.46943E-006	3.66000E-005	......
	49	12.9166	-1.01788E-001	3.46943E-006	-6.34000E-005	......
	50	13.1749	-1.01778E-001	3.46943E-006	2.36600E-004	......
	51	13.4332	-1.01762E-001	3.46943E-006	-6.34000E-005	......
	52	13.6916	-1.01747E-001	3.46943E-006	3.66000E-005	......
	53	13.9499	-1.01742E-001	3.46943E-006	-6.34000E-005	......
	54	14.2082	-1.01728E-001	3.46943E-006	2.36600E-004	......
	55	14.4666	-1.01723E-001	3.46943E-006	-1.63400E-004	......
	56	14.7249	-1.01713E-001	3.46943E-006	2.36600E-004	......
	57	14.9832	-1.01697E-001	3.46943E-006	-6.34000E-005	......
	58	15.2416	-1.01682E-001	3.46943E-006	2.36600E-004	......
	59	15.4999	-1.01663E-001	3.46943E-006	-6.34000E-005	......
	60	15.7582	-1.01663E-001	3.46943E-006	3.66000E-005	......
	61	16.0166	-1.01647E-001	3.46943E-006	-6.34000E-005	......
	62	16.2749	-1.01647E-001	3.46943E-006	3.66000E-005	......
	63	16.5332	-1.01632E-001	3.46943E-006	-6.34000E-005	......
	64	16.7915	-1.01613E-001	3.46943E-006	3.66000E-005	......
	65	17.0499	-1.01608E-001	3.46943E-006	-6.34000E-005	......
	66	17.3082	-1.01592E-001	3.46943E-006	2.36600E-004	......
	67	17.5665	-1.01587E-001	3.46943E-006	-1.63400E-004	......
	68	17.8249	-1.01582E-001	3.46943E-006	3.66000E-005	......
	69	18.0832	-1.01567E-001	3.46943E-006	-6.34000E-005	......
	70	18.3415	-1.01558E-001	3.46943E-006	3.66000E-005	......
	71	18.5999	-1.01548E-001	3.46943E-006	-6.34000E-005	......
	72	18.8582	-1.01532E-001	3.46943E-006	3.66000E-005	......
	73	19.1165	-1.01527E-001	3.46943E-006	-1.63400E-004	......
	74	19.3749	-1.01512E-001	3.46943E-006	-6.34000E-005	......
	75	19.6332	-1.01507E-001	3.46943E-006	-6.34000E-005	......
	76	19.8915	-1.01493E-001	3.46943E-006	2.36600E-004	......
	77	20.1499	-1.01498E-001	3.46943E-006	-6.34000E-005	......
	78	20.4082	-1.01482E-001	3.46943E-006	3.66000E-005	......
	79	20.6665	-1.01477E-001	3.46943E-006	-6.34000E-005	......
	80	20.9249	-1.01457E-001	3.46943E-006	3.66000E-005	......
	81	21.1832	-1.01448E-001	3.46943E-006	-6.34000E-005	......
	82	21.4415	-1.01448E-001	3.46943E-006	3.66000E-005	......
	83	21.6998	-1.01438E-001	3.46943E-006	-1.63400E-004	......
	84	21.9582	-1.01422E-001	3.46943E-006	3.66000E-005	......
	85	22.2165	-1.01412E-001	3.46943E-006	-6.34000E-005	......
	86	22.4748	-1.01412E-001	3.46943E-006	1.36600E-004	......
	87	22.7332	-1.01393E-001	3.46943E-006	-2.63400E-004	......
	88	22.9915	-1.01383E-001	3.46943E-006	3.66000E-005	......
	89	23.2498	-1.01373E-001	3.46943E-006	-6.34000E-005	......
	90	23.5082	-1.01357E-001	3.46943E-006	3.66000E-005	......
	91	23.7665	-1.01362E-001	3.46943E-006	-1.63400E-004	......
	92	24.0248	-1.01362E-001	3.46943E-006	1.36600E-004	......
	93	24.2832	-1.01337E-001	3.46943E-006	-1.63400E-004	......
	94	24.5415	-1.01342E-001	3.46943E-006	1.36600E-004	......
	95	24.7998	-1.01333E-001	3.46943E-006	-6.34000E-005	......
	96	25.0582	-1.01317E-001	3.46943E-006	3.66000E-005	......
	97	25.3165	-1.01312E-001	3.46943E-006	-6.34000E-005	......
	98	25.5748	-1.01302E-001	3.46943E-006	3.66000E-005	......
	99	25.8332	-1.01282E-001	3.46943E-006	-1.63400E-004	......
	100	26.0915	-1.01297E-001	3.46943E-006	3.66000E-005	......
	101	26.3498	-1.01273E-001	3.46943E-006	-1.63400E-004	......
	102	26.6081	-1.01263E-001	3.46943E-006	3.66000E-005	......
	103	26.8665	-1.01258E-001	3.46943E-006	3.66000E-005	......
	104	27.1248	-1.01247E-001	3.46943E-006	2.36600E-004	......
	105	27.3831	-1.01242E-001	3.46943E-006	3.66000E-005	......
	106	27.6415	-1.01227E-001	3.46943E-006	2.36600E-004	......
	107	27.8998	-1.01227E-001	3.46943E-006	3.66000E-005	......
	108	28.1581	-1.01218E-001	3.46943E-006	3.66000E-005	......
	109	28.4165	-1.01208E-001	3.46943E-006	3.66000E-005	......
	110	28.6748	-1.01197E-001	3.46943E-006	3.66000E-005	......
	111	28.9331	-1.01192E-001	3.46943E-006	-1.63400E-004	......
	112	29.1915	-1.01192E-001	3.46943E-006	2.36600E-004	......
	113	29.4498	-1.01177E-001	3.46943E-006	-6.34000E-005	......
	114	29.7081	-1.01168E-001	3.46943E-006	3.66000E-005	......
	115	29.9665	-1.01168E-001	3.46943E-006	-1.63400E-004	......
	116	30.2248	-1.01147E-001	3.46943E-006	2.36600E-004	......
	117	30.4831	-1.01148E-001	3.46943E-006	-6.34000E-005	......
	118	30.7414	-1.01142E-001	3.46943E-006	3.66000E-005	......
	119	30.9998	-1.01138E-001	3.46943E-006	-1.63400E-004	......
	120	31.2581	-1.01122E-001	3.46943E-006	3.66000E-005	......
	121	31.5164	-1.01112E-001	3.46943E-006	3.66000E-005	......
	122	31.7748	-1.01112E-001	3.46943E-006	3.66000E-005	......
	123	32.0331	-1.01103E-001	3.46943E-006	-6.34000E-005	......
	124	32.2914	-1.01087E-001	3.46943E-006	3.66000E-005	......
	125	32.5498	-1.01077E-001	3.46943E-006	-6.34000E-005	......
	126	32.8081	-1.01077E-001	3.46943E-006	3.66000E-005	......
	127	33.0664	-1.01067E-001	3.46943E-006	-1.63400E-004	......
	128	33.3248	-1.01062E-001	3.46943E-006	3.66000E-005	......
	129	33.5831	-1.01053E-001	3.46943E-006	-6.34000E-005	......
	130	33.8414	-1.01053E-001	3.46943E-006	3.66000E-005	......
	131	34.0998	-1.01037E-001	3.46943E-006	-1.63400E-004	......
	132	34.3581	-1.01022E-001	3.46943E-006	3.66000E-005	......
	133	34.6164	-1.01022E-001	3.46943E-006	-6.34000E-005	......
	134	34.8748	-1.01012E-001	3.46943E-006	1.36600E-004	......
	135	35.1331	-1.01002E-001	3.46943E-006	3.66000E-005	......
	136	35.3914	-1.00993E-001	3.46943E-006	3.66000E-005	......
	137	35.6497	-1.00988E-001	3.46943E-006	-6.34000E-005	......
	138	35.9081	-1.00977E-001	3.46943E-006	2.36600E-004	......
	139	36.1664	-1.00978E-001	3.46943E-006	-6.34000E-005	......
	140	36.4247	-1.00967E-001	3.46943E-006	3.66000E-005	......
	141	36.6831	-1.00952E-001	3.46943E-006	3.66000E-005	......
	142	36.9414	-1.00952E-001	3.46943E-006	2.36600E-004	......
	143	37.1997	-1.00942E-001	3.46943E-006	-6.34000E-005	......
	144	37.4581	-1.00938E-001	3.46943E-006	3.66000E-005	......
	145	37.7164	-1.00928E-001	3.46943E-006	3.66000E-005	......
	146	37.9747	-1.00917E-001	3.46943E-006	3.66000E-005	......
	147	38.2331	-1.00918E-001	3.46943E-006	-6.34000E-005	......
	148	38.4914	-1.00907E-001	3.46943E-006	1.36600E-004	......
	149	38.7497	-1.00892E-001	3.46943E-006	3.66000E-005	......
	150	39.0081	-1.00892E-001	3.46943E-006	1.36600E-004	......
	151	39.2664	-1.00887E-001	3.46943E-006	-6.34000E-005	......
	152	39.5247	-1.00878E-001	3.46943E-006	1.36600E-004	......
	153	39.7831	-1.00862E-001	3.46943E-006	-6.34000E-005	......
	154	40.0414	-1.00857E-001	3.46943E-006	3.66000E-005	......
	155	40.2997	-1.00873E-001	3.46943E-006	-6.34000E-005	......
	156	40.558	-1.00852E-001	3.46943E-006	2.36600E-004	......
	157	40.8164	-1.00832E-001	3.46943E-006	3.66000E-005	......
	158	41.0747	-1.00832E-001	3.46943E-006	3.66000E-005	......
	159	41.333	-1.00823E-001	3.46943E-006	3.66000E-005	......
	160	41.5914	-1.00808E-001	3.46943E-006	3.66000E-005	......
	161	41.8497	-1.00802E-001	3.46943E-006	3.66000E-005	......
	162	42.108	-1.00807E-001	3.46943E-006	1.36600E-004	......
	163	42.3664	-1.00798E-001	3.46943E-006	-6.34000E-005	......
	164	42.6247	-1.00797E-001	3.46943E-006	3.66000E-005	......
	165	42.883	-1.00777E-001	3.46943E-006	-6.34000E-005	......
	166	43.1414	-1.00773E-001	3.46943E-006	1.36600E-004	......
	167	43.3997	-1.00768E-001	3.46943E-006	-6.34000E-005	......
	168	43.658	-1.00768E-001	3.46943E-006	3.66000E-005	......
	169	43.9164	-1.00748E-001	3.46943E-006	-1.63400E-004	......
	170	44.1747	-1.00742E-001	3.46943E-006	3.66000E-005	......
	171	44.433	-1.00737E-001	3.46943E-006	-6.34000E-005	......
	172	44.6913	-1.00727E-001	3.46943E-006	2.36600E-004	......
	173	44.9497	-1.00727E-001	3.46943E-006	3.66000E-005	......
	174	45.208	-1.00717E-001	3.46943E-006	3.66000E-005	......
	175	45.4663	-1.00713E-001	3.46943E-006	-1.63400E-004	......
	176	45.7247	-1.00697E-001	3.46943E-006	3.66000E-005	......
	177	45.983	-1.00703E-001	3.46943E-006	3.66000E-005	......
	178	46.2413	-1.00687E-001	3.46943E-006	3.66000E-005	......
	179	46.4997	-1.00682E-001	3.46943E-006	3.66000E-005	......
	180	46.758	-1.00672E-001	3.46943E-006	3.66000E-005	......
	181	47.0163	-1.00667E-001	3.46943E-006	-6.34000E-005	......
	182	47.2747	-1.00662E-001	3.46943E-006	3.66000E-005	......
	183	47.533	-1.00648E-001	3.46943E-006	-6.34000E-005	......
	184	47.7913	-1.00648E-001	3.46943E-006	3.66000E-005	......
	185	48.0497	-1.00643E-001	3.46943E-006	-1.63400E-004	......
	186	48.308	-1.00638E-001	3.46943E-006	3.66000E-005	......
	187	48.5663	-1.00628E-001	3.46943E-006	-6.34000E-005	......
	188	48.8247	-1.00612E-001	3.46943E-006	2.36600E-004	......
	189	49.083	-1.00612E-001	3.46943E-006	-6.34000E-005	......
	190	49.3413	-1.00598E-001	3.46943E-006	3.66000E-005	......
	191	49.5996	-1.00593E-001	3.46943E-006	-1.63400E-004	......
	192	49.858	-1.00587E-001	3.46943E-006	1.36600E-004	......
	193	50.1163	-1.00583E-001	3.46943E-006	3.66000E-005	......
	194	50.3746	-1.00582E-001	3.46943E-006	3.66000E-005	......
	195	50.633	-1.00567E-001	3.46943E-006	-6.34000E-005	......
	196	50.8913	-1.00557E-001	3.46943E-006	3.66000E-005	......
	197	51.1496	-1.00547E-001	3.46943E-006	-6.34000E-005	......
	198	51.408	-1.00543E-001	3.46943E-006	3.66000E-005	......
	199	51.6663	-1.00528E-001	3.46943E-006	-1.63400E-004	......
	200	51.9246	-1.00527E-001	3.46943E-006	-6.34000E-005	......
	201	52.183	-1.00522E-001	3.46943E-006	-6.34000E-005	......
	202	52.4413	-1.00512E-001	3.46943E-006	3.66000E-005	......
	203	52.6996	-1.00507E-001	3.46943E-006	3.66000E-005	......
	204	52.958	-1.00502E-001	3.46943E-006	3.66000E-005	......
	205	53.2163	-1.00497E-001	3.46943E-006	-6.34000E-005	......
	206	53.4746	-1.00483E-001	3.46943E-006	1.36600E-004	......
	207	53.733	-1.00478E-001	3.46943E-006	-1.63400E-004	......
	208	53.9913	-1.00472E-001	3.46943E-006	-6.34000E-005	......
	209	54.2496	-1.00463E-001	3.46943E-006	-1.63400E-004	......
	210	54.5079	-1.00457E-001	3.46943E-006	3.66000E-005	......
	211	54.7663	-1.00442E-001	3.46943E-006	3.66000E-005	......
	212	55.0246	-1.00442E-001	3.46943E-006	3.66000E-005	......
	213	55.2829	-1.00437E-001	3.46943E-006	-6.34000E-005	......
	214	55.5413	-1.00433E-001	3.46943E-006	3.66000E-005	......
	215	55.7996	-1.00418E-001	3.46943E-006	-1.63400E-004	......
	216	56.0579	-1.00423E-001	3.46943E-006	3.66000E-005	......
	217	56.3163	-1.00418E-001	3.46943E-006	-6.34000E-005	......
	218	56.5746	-1.00402E-001	3.46943E-006	3.66000E-005	......
	219	56.8329	-1.00397E-001	3.46943E-006	-6.34000E-005	......
	220	57.0913	-1.00387E-001	3.46943E-006	3.66000E-005	......
	221	57.3496	-1.00387E-001	3.46943E-006	-6.34000E-005	......
	222	57.6079	-1.00382E-001	3.46943E-006	2.36600E-004	......
	223	57.8663	-1.00373E-001	3.46943E-006	-6.34000E-005	......
	224	58.1246	-1.00357E-001	3.46943E-006	2.36600E-004	......
	225	58.3829	-1.00358E-001	3.46943E-006	-1.63400E-004	......
	226	58.6413	-1.00352E-001	3.46943E-006	3.66000E-005	......
	227	58.8996	-1.00347E-001	3.46943E-006	-1.63400E-004	......
	228	59.1579	-1.00342E-001	3.46943E-006	3.66000E-005	......
	229	59.4162	-1.00332E-001	3.46943E-006	-1.63400E-004	......
	230	59.6746	-1.00332E-001	3.46943E-006	3.66000E-005	......
	231	59.9329	-1.00322E-001	3.46943E-006	-6.34000E-005	......
EOC	QUANT	-0.100322	Open Circuit (V)
PSTATMODEL	IQUANT	32	Pstat Model
PSTATSECTION	LABEL	PStat0	Pstat Section
CTRLMODE	IQUANT	1	Control Mode
IESTAB	IQUANT	0	I/E Stability
CASPEED	IQUANT	1	Control Amp Speed
CONVENTION	IQUANT	1	Current Convention
ICHRANGE	IQUANT	2	Ich Range
ICHRANGEMODE	TOGGLE	F	Ich Auto Range
ICHOFFSETENABLE	TOGGLE	T	Ich Offset Enable
ICHOFFSET	QUANT	0	Ich Offset (V)
ICHFILTER	IQUANT	3	Ich Filter
VCHRANGE	IQUANT	2	Vch Range
VCHRANGEMODE	TOGGLE	F	Vch Auto Range
VCHOFFSETENABLE	TOGGLE	T	Vch Offset Enable
VCHOFFSET	QUANT	0	Vch Offset (V)
VCHFILTER	IQUANT	3	Vch Filter
ACHRANGE	IQUANT	0	Ach Range
IERANGELOWERLIMIT	IQUANT	3	I/E Range Lower Limit
IERANGEMODE	TOGGLE	F	I/E AutoRange
IERANGE	IQUANT	11	I/E Range
POSFEEDENABLE	TOGGLE	F	Positive Feedback IR Comp
POSFEEDRESISTANCE	QUANT	0	Positive Feedback Resistance (ohm)
FC350IDIVISOR	IQUANT	0	FC350 I Divisor
FC350VRANGE	IQUANT	0	FC350 V Range
FRAMEWORKVERSION	QUANT	4.35	Framework Version
ZCURVE	TABLE
	Pt	Time	Freq	Zreal	Zimag	Zsig	Zmod	Zphz	Idc	Vdc	IERange
	#	s	Hz	ohm	ohm	V	ohm	°	A	V	#
	0	6	100007	61.7676	-0.112766	1	61.7677	-0.104602	6.6159E-006	-0.099046	10
	1	10	89134.1	61.4	0.069916	1	61.4	0.065242	7.41547E-006	-0.099049	10
	2	15	79433.6	61.214	-0.215438	1	61.2144	-0.201647	6.06016E-006	-0.099076	10
	3	18	70800.8	61.0878	-0.937314	1	61.095	-0.879062	7.36418E-006	-0.099045	10
	4	22	63105.5	60.4299	-0.028517	1	60.4299	-0.027038	7.02032E-006	-0.099082	10
	5	26	56243.5	61.0341	-0.382527	1	61.0353	-0.359093	6.69898E-006	-0.099038	10
	6	30	50123.7	60.8267	-0.645053	1	60.8302	-0.607585	6.56616E-006	-0.099043	10
	7	34	44681	60.9227	-0.192508	1	60.923	-0.181046	4.99712E-006	-0.09906	10
	8	38	39811.2	58.8998	-0.47624	1	58.9017	-0.46326	6.94479E-006	-0.099083	10
	9	42	35488.3	60.6503	-0.902009	1	60.657	-0.852056	7.33395E-006	-0.099055	10
	10	46	31634.1	60.8688	-0.735289	1	60.8733	-0.692093	5.29925E-006	-0.099037	10
	11	50	28173.1	60.4621	-0.9891	1	60.4702	-0.937221	6.02805E-006	-0.099057	10
	12	54	25123.7	60.9899	-0.937203	1	60.9971	-0.880368	5.17302E-006	-0.099034	10
	13	58	22389.3	61.057	-1.09548	1	61.0668	-1.02788	6.62886E-006	-0.099038	10
	14	62	19954.4	61.1193	-0.568828	1	61.122	-0.533227	6.98307E-006	-0.099074	10
	15	66	17778.2	60.9661	-1.51277	1	60.9848	-1.42141	6.29124E-006	-0.099059	10
	16	68	15852.9	61.451	-1.70326	1	61.4746	-1.58769	7.0777E-006	-0.099038	10
	17	73	14122.3	60.9144	-1.28718	1	60.928	-1.21054	6.06008E-006	-0.099046	10
	18	77	12587.2	60.9822	-1.38693	1	60.998	-1.30286	6.06599E-006	-0.099051	10
	19	81	11221.1	61.7467	-1.31161	1	61.7607	-1.21689	6.02771E-006	-0.09905	10
	20	85	9998.2	61.2153	-1.82249	1	61.2424	-1.70529	6.00747E-006	-0.099045	10
	21	87	8912.76	61.4088	-1.84732	1	61.4366	-1.72307	6.89275E-006	-0.099035	10
	22	91	7942.6	61.2713	-2.33521	1	61.3158	-2.18263	5.95325E-006	-0.099047	10
	23	95	7078.05	61.9033	-2.31853	1	61.9467	-2.14496	5.82245E-006	-0.099049	10
	24	100	6311.1	61.7738	-1.84937	1	61.8015	-1.71479	6.00989E-006	-0.099047	10
	25	104	5622.14	61.6191	-2.32793	1	61.663	-2.16357	5.80129E-006	-0.099045	10
	26	108	5011.18	61.9386	-2.70365	1	61.9976	-2.4994	5.76245E-006	-0.099037	10
	27	110	4465.21	61.942	-3.25477	1	62.0275	-3.00787	5.82691E-006	-0.099045	10
	28	114	3980.93	62.6481	-3.49333	1	62.7454	-3.19158	4.95832E-006	-0.099025	10
	29	118	3548.18	62.606	-3.16419	1	62.6859	-2.89334	6.75786E-006	-0.099028	10
	30	122	3162.67	62.47	-4.09484	1	62.6041	-3.75031	4.6119E-006	-0.09904	10
	31	126	2819.01	62.5727	-3.86289	1	62.6918	-3.53264	4.58497E-006	-0.099044	10
	32	131	2511.16	62.6941	-4.29352	1	62.841	-3.91771	5.8513E-006	-0.099038	10
	33	133	2238.63	62.4301	-5.34445	1	62.6584	-4.89299	5.76584E-006	-0.099045	10
	34	137	1995.37	63.0699	-5.38939	1	63.2997	-4.88412	5.69256E-006	-0.099042	10
	35	141	1778.51	63.0466	-6.14701	1	63.3455	-5.56871	5.67859E-006	-0.099048	10
	36	146	1584.49	63.0487	-7.61934	1	63.5074	-6.8907	5.78254E-006	-0.09905	10
	37	150	1412.76	63.3751	-7.31116	1	63.7954	-6.58073	6.18967E-006	-0.099024	10
	38	153	1259.04	64.059	-7.89598	1	64.5438	-7.0269	5.63421E-006	-0.099049	10
	39	157	1121.63	64.365	-8.88931	1	64.976	-7.86325	5.61912E-006	-0.099042	10
	40	161	999.95	64.4889	-10.0623	1	65.2692	-8.86844	5.69025E-006	-0.099041	10
	41	165	891.184	64.6732	-10.8799	1	65.582	-9.5494	5.5472E-006	-0.099041	10
	42	169	794.163	64.2076	-11.7505	1	65.274	-10.3708	5.67638E-006	-0.099049	10
	43	174	707.867	65.3035	-13.2648	1	66.6371	-11.482	6.0976E-006	-0.099035	10
	44	176	630.984	65.7548	-13.8722	1	67.2022	-11.9129	5.72761E-006	-0.099047	10
	45	180	562.189	65.8395	-15.7332	1	67.6932	-13.4395	6.40174E-006	-0.099061	10
	46	184	501.303	66.5617	-17.1325	1	68.7312	-14.4342	5.59752E-006	-0.099034	10
	47	186	446.614	67.0831	-18.8092	1	69.6702	-15.6628	5.59655E-006	-0.099037	10
	48	188	398.209	67.6681	-20.587	1	70.7305	-16.9216	5.64819E-006	-0.099038	10
	49	190	354.821	68.3159	-22.6517	1	71.9734	-18.3441	5.86283E-006	-0.099033	10
	50	192	316.113	68.9388	-24.7645	1	73.2519	-19.7596	5.78651E-006	-0.099041	10
	51	194	281.926	69.6996	-27.1564	1	74.8031	-21.2869	5.7021E-006	-0.099046	10
	52	196	251.185	70.5868	-29.9447	1	76.6758	-22.9879	5.76632E-006	-0.099048	10
	53	198	223.946	71.4391	-32.7987	1	78.6085	-24.6605	5.66976E-006	-0.099047	10
	54	200	199.495	72.4473	-35.9583	1	80.8802	-26.3969	5.66174E-006	-0.099042	10
