EXPLAIN
TAG	EISPOT
TITLE	LABEL	Tomato_open	Test &Identifier
DATE	LABEL	5/16/2006	Date
TIME	LABEL	20:35:58	Time
NOTES	NOTES	1	&Notes...
	
PSTAT	PSTAT	300	Potentiostat
VDC	POTEN	1.00000E-003	T	DC &Voltage (V)
FREQINIT	QUANT	1.00000E+005	Initial Fre&q. (Hz)
FREQFINAL	QUANT	1.00000E+001	Final Fre&q. (Hz)
PTSPERDEC	QUANT	2.00000E+001	Points/&decade
VAC	QUANT	1.00000E+000	AC &Voltage (mV rms)
AREA	QUANT	1.00000E+000	&Area (cm²)
DENSITY	QUANT	7.87000E+000	&Density (gm/cm³)
EQUIV	QUANT	7.00000E+000	Equiv. &Wt
CONDIT	TWOPARAM	F	6.00000E+001	0.00000E+000	Conditionin&g	Time(s)	E(V)
DELAY	TWOPARAM	T	6.00000E+001	0.00000E+000	Init. De&lay	Time(s)	Stab.(mV/s)
SPEED	SELECTOR	1	&Optimize for:
ZGUESS	QUANT	1.00000E+002	E&stimated Z (ohms)
OCVCURVE	TABLE	232
	Pt	T	Vf	Vm	Ach	Over
	#	s	V vs. Ref.	V	V	bits
	0	0.258332	-5.19075E-002	3.66643E-006	3.36600E-004	......
	1	0.516663	-5.19625E-002	3.66643E-006	3.66000E-005	......
	2	0.774994	-5.20225E-002	3.66643E-006	1.36600E-004	......
	3	1.03333	-5.20775E-002	3.66643E-006	2.36600E-004	......
	4	1.29166	-5.21275E-002	3.66643E-006	2.36600E-004	......
	5	1.54999	-5.21725E-002	3.66643E-006	2.36600E-004	......
	6	1.80832	-5.22225E-002	3.66643E-006	2.36600E-004	......
	7	2.06665	-5.22775E-002	3.66643E-006	2.36600E-004	......
	8	2.32498	-5.23225E-002	3.66643E-006	3.66000E-005	......
	9	2.58332	-5.23725E-002	3.66643E-006	2.36600E-004	......
	10	2.84165	-5.24275E-002	3.66643E-006	2.36600E-004	......
	11	3.09998	-5.24725E-002	3.66643E-006	1.36600E-004	......
	12	3.35831	-5.25125E-002	3.66643E-006	1.36600E-004	......
	13	3.61664	-5.25625E-002	3.66643E-006	2.36600E-004	......
	14	3.87497	-5.26125E-002	3.66643E-006	2.36600E-004	......
	15	4.1333	-5.26575E-002	3.66643E-006	2.36600E-004	......
	16	4.39164	-5.27075E-002	3.66643E-006	2.36600E-004	......
	17	4.64997	-5.27375E-002	3.66643E-006	2.36600E-004	......
	18	4.9083	-5.27875E-002	3.66643E-006	2.36600E-004	......
	19	5.16663	-5.28475E-002	3.66643E-006	2.36600E-004	......
	20	5.42496	-5.28875E-002	3.66643E-006	2.36600E-004	......
	21	5.68329	-5.29325E-002	3.66643E-006	1.36600E-004	......
	22	5.94162	-5.29875E-002	3.66643E-006	1.36600E-004	......
	23	6.19996	-5.30175E-002	3.66643E-006	3.36600E-004	......
	24	6.45829	-5.30575E-002	3.66643E-006	2.36600E-004	......
	25	6.71662	-5.31075E-002	3.66643E-006	1.36600E-004	......
	26	6.97495	-5.31425E-002	3.66643E-006	2.36600E-004	......
	27	7.23328	-5.31825E-002	3.66643E-006	2.36600E-004	......
	28	7.49161	-5.32375E-002	3.66643E-006	2.36600E-004	......
	29	7.74995	-5.32775E-002	3.66643E-006	3.66000E-005	......
	30	8.00828	-5.33125E-002	3.66643E-006	2.36600E-004	......
	31	8.26661	-5.33575E-002	3.66643E-006	2.36600E-004	......
	32	8.52494	-5.33875E-002	3.66643E-006	2.36600E-004	......
	33	8.78327	-5.34225E-002	3.66643E-006	2.36600E-004	......
	34	9.0416	-5.34725E-002	3.66643E-006	2.36600E-004	......
	35	9.29993	-5.35125E-002	3.66643E-006	3.36600E-004	......
	36	9.5583	-5.35575E-002	3.66643E-006	2.36600E-004	......
	37	9.8166	-5.35925E-002	3.66643E-006	1.36600E-004	......
	38	10.0749	-5.36375E-002	3.66643E-006	2.36600E-004	......
	39	10.3333	-5.36725E-002	3.66643E-006	3.36600E-004	......
	40	10.5916	-5.37125E-002	3.66643E-006	1.36600E-004	......
	41	10.8499	-5.37425E-002	3.66643E-006	1.36600E-004	......
	42	11.1083	-5.37775E-002	3.66643E-006	2.36600E-004	......
	43	11.3666	-5.38225E-002	3.66643E-006	2.36600E-004	......
	44	11.6249	-5.38575E-002	3.66643E-006	3.36600E-004	......
	45	11.8832	-5.38925E-002	3.66643E-006	3.36600E-004	......
	46	12.1416	-5.39275E-002	3.66643E-006	3.36600E-004	......
	47	12.3999	-5.39625E-002	3.66643E-006	2.36600E-004	......
	48	12.6582	-5.39975E-002	3.66643E-006	2.36600E-004	......
	49	12.9166	-5.40375E-002	3.66643E-006	2.36600E-004	......
	50	13.1749	-5.40725E-002	3.66643E-006	2.36600E-004	......
	51	13.4332	-5.41025E-002	3.66643E-006	3.36600E-004	......
	52	13.6916	-5.41375E-002	3.66643E-006	2.36600E-004	......
	53	13.9499	-5.41775E-002	3.66643E-006	2.36600E-004	......
	54	14.2082	-5.42075E-002	3.66643E-006	3.36600E-004	......
	55	14.4666	-5.42375E-002	3.66643E-006	3.36600E-004	......
	56	14.7249	-5.42675E-002	3.66643E-006	2.36600E-004	......
	57	14.9832	-5.43025E-002	3.66643E-006	2.36600E-004	......
	58	15.2416	-5.43325E-002	3.66643E-006	3.36600E-004	......
	59	15.4999	-5.43675E-002	3.66643E-006	2.36600E-004	......
	60	15.7582	-5.44025E-002	3.66643E-006	1.36600E-004	......
	61	16.0166	-5.44225E-002	3.66643E-006	3.36600E-004	......
	62	16.2749	-5.44575E-002	3.66643E-006	3.36600E-004	......
	63	16.5332	-5.45025E-002	3.66643E-006	3.36600E-004	......
	64	16.7915	-5.45275E-002	3.66643E-006	2.36600E-004	......
	65	17.0499	-5.45525E-002	3.66643E-006	2.36600E-004	......
	66	17.3082	-5.45825E-002	3.66643E-006	3.66000E-005	......
	67	17.5665	-5.46125E-002	3.66643E-006	2.36600E-004	......
	68	17.8249	-5.46425E-002	3.66643E-006	2.36600E-004	......
	69	18.0832	-5.46725E-002	3.66643E-006	2.36600E-004	......
	70	18.3415	-5.47125E-002	3.66643E-006	4.36600E-004	......
	71	18.5999	-5.47375E-002	3.66643E-006	2.36600E-004	......
	72	18.8582	-5.47625E-002	3.66643E-006	2.36600E-004	......
	73	19.1165	-5.47925E-002	3.66643E-006	3.36600E-004	......
	74	19.3749	-5.48225E-002	3.66643E-006	4.36600E-004	......
	75	19.6332	-5.48625E-002	3.66643E-006	3.36600E-004	......
	76	19.8915	-5.48875E-002	3.66643E-006	2.36600E-004	......
	77	20.1499	-5.49125E-002	3.66643E-006	3.36600E-004	......
	78	20.4082	-5.49425E-002	3.66643E-006	2.36600E-004	......
	79	20.6665	-5.49725E-002	3.66643E-006	2.36600E-004	......
	80	20.9249	-5.49925E-002	3.66643E-006	2.36600E-004	......
	81	21.1832	-5.50175E-002	3.66643E-006	3.36600E-004	......
	82	21.4415	-5.50425E-002	3.66643E-006	2.36600E-004	......
	83	21.6998	-5.50725E-002	3.66643E-006	3.36600E-004	......
	84	21.9582	-5.51025E-002	3.66643E-006	2.36600E-004	......
	85	22.2165	-5.51325E-002	3.66643E-006	2.36600E-004	......
	86	22.4748	-5.51575E-002	3.66643E-006	3.36600E-004	......
	87	22.7332	-5.51775E-002	3.66643E-006	3.36600E-004	......
	88	22.9915	-5.52075E-002	3.66643E-006	2.36600E-004	......
	89	23.2498	-5.52325E-002	3.66643E-006	2.36600E-004	......
	90	23.5082	-5.52575E-002	3.66643E-006	2.36600E-004	......
	91	23.7665	-5.52825E-002	3.66643E-006	3.36600E-004	......
	92	24.0248	-5.53075E-002	3.66643E-006	3.36600E-004	......
	93	24.2832	-5.53325E-002	3.66643E-006	2.36600E-004	......
	94	24.5415	-5.53575E-002	3.66643E-006	1.36600E-004	......
	95	24.7998	-5.53875E-002	3.66643E-006	3.36600E-004	......
	96	25.0582	-5.54025E-002	3.66643E-006	2.36600E-004	......
	97	25.3165	-5.54275E-002	3.66643E-006	3.36600E-004	......
	98	25.5748	-5.54575E-002	3.66643E-006	2.36600E-004	......
	99	25.8332	-5.54875E-002	3.66643E-006	3.36600E-004	......
	100	26.0915	-5.54975E-002	3.66643E-006	2.36600E-004	......
	101	26.3498	-5.55375E-002	3.66643E-006	2.36600E-004	......
	102	26.6081	-5.55625E-002	3.66643E-006	3.36600E-004	......
	103	26.8665	-5.55825E-002	3.66643E-006	3.36600E-004	......
	104	27.1248	-5.55975E-002	3.66643E-006	2.36600E-004	......
	105	27.3831	-5.56225E-002	3.66643E-006	2.36600E-004	......
	106	27.6415	-5.56525E-002	3.66643E-006	3.36600E-004	......
	107	27.8998	-5.56725E-002	3.66643E-006	3.36600E-004	......
	108	28.1581	-5.56975E-002	3.66643E-006	3.36600E-004	......
	109	28.4165	-5.57125E-002	3.66643E-006	2.36600E-004	......
	110	28.6748	-5.57375E-002	3.66643E-006	1.36600E-004	......
	111	28.9331	-5.57625E-002	3.66643E-006	3.36600E-004	......
	112	29.1915	-5.57875E-002	3.66643E-006	2.36600E-004	......
	113	29.4498	-5.58075E-002	3.66643E-006	2.36600E-004	......
	114	29.7081	-5.58325E-002	3.66643E-006	2.36600E-004	......
	115	29.9665	-5.58525E-002	3.66643E-006	3.66000E-005	......
	116	30.2248	-5.58775E-002	3.66643E-006	2.36600E-004	......
	117	30.4831	-5.58925E-002	3.66643E-006	2.36600E-004	......
	118	30.7414	-5.59075E-002	3.66643E-006	2.36600E-004	......
	119	30.9998	-5.59325E-002	3.66643E-006	2.36600E-004	......
	120	31.2581	-5.59525E-002	3.66643E-006	2.36600E-004	......
	121	31.5164	-5.59625E-002	3.66643E-006	2.36600E-004	......
	122	31.7748	-5.59875E-002	3.66643E-006	2.36600E-004	......
	123	32.0331	-5.60225E-002	3.66643E-006	2.36600E-004	......
	124	32.2914	-5.60375E-002	3.66643E-006	2.36600E-004	......
	125	32.5498	-5.60475E-002	3.66643E-006	2.36600E-004	......
	126	32.8081	-5.60875E-002	3.66643E-006	2.36600E-004	......
	127	33.0664	-5.61025E-002	3.66643E-006	2.36600E-004	......
	128	33.3248	-5.61225E-002	3.66643E-006	2.36600E-004	......
	129	33.5831	-5.61525E-002	3.66643E-006	2.36600E-004	......
	130	33.8414	-5.61475E-002	3.66643E-006	4.36600E-004	......
	131	34.0998	-5.61775E-002	3.66643E-006	2.36600E-004	......
	132	34.3581	-5.61925E-002	3.66643E-006	2.36600E-004	......
	133	34.6164	-5.62225E-002	3.66643E-006	3.36600E-004	......
	134	34.8748	-5.62325E-002	3.66643E-006	3.36600E-004	......
	135	35.1331	-5.62575E-002	3.66643E-006	2.36600E-004	......
	136	35.3914	-5.62675E-002	3.66643E-006	3.36600E-004	......
	137	35.6497	-5.62925E-002	3.66643E-006	2.36600E-004	......
	138	35.9081	-5.63125E-002	3.66643E-006	2.36600E-004	......
	139	36.1664	-5.63325E-002	3.66643E-006	2.36600E-004	......
	140	36.4247	-5.63425E-002	3.66643E-006	3.36600E-004	......
	141	36.6831	-5.63675E-002	3.66643E-006	2.36600E-004	......
	142	36.9414	-5.63825E-002	3.66643E-006	2.36600E-004	......
	143	37.1997	-5.63975E-002	3.66643E-006	2.36600E-004	......
	144	37.4581	-5.64275E-002	3.66643E-006	2.36600E-004	......
	145	37.7164	-5.64425E-002	3.66643E-006	2.36600E-004	......
	146	37.9747	-5.64625E-002	3.66643E-006	3.36600E-004	......
	147	38.2331	-5.64725E-002	3.66643E-006	3.36600E-004	......
	148	38.4914	-5.64875E-002	3.66643E-006	2.36600E-004	......
	149	38.7497	-5.65025E-002	3.66643E-006	2.36600E-004	......
	150	39.0081	-5.65225E-002	3.66643E-006	2.36600E-004	......
	151	39.2664	-5.65375E-002	3.66643E-006	2.36600E-004	......
	152	39.5247	-5.65575E-002	3.66643E-006	1.36600E-004	......
	153	39.7831	-5.65725E-002	3.66643E-006	3.36600E-004	......
	154	40.0414	-5.65925E-002	3.66643E-006	3.36600E-004	......
	155	40.2997	-5.66125E-002	3.66643E-006	2.36600E-004	......
	156	40.558	-5.66225E-002	3.66643E-006	2.36600E-004	......
	157	40.8164	-5.66425E-002	3.66643E-006	2.36600E-004	......
	158	41.0747	-5.66575E-002	3.66643E-006	3.36600E-004	......
	159	41.333	-5.66675E-002	3.66643E-006	2.36600E-004	......
	160	41.5914	-5.66825E-002	3.66643E-006	2.36600E-004	......
	161	41.8497	-5.67075E-002	3.66643E-006	3.36600E-004	......
	162	42.108	-5.67175E-002	3.66643E-006	3.36600E-004	......
	163	42.3664	-5.67425E-002	3.66643E-006	2.36600E-004	......
	164	42.6247	-5.67575E-002	3.66643E-006	3.36600E-004	......
	165	42.883	-5.67675E-002	3.66643E-006	3.36600E-004	......
	166	43.1414	-5.67825E-002	3.66643E-006	3.36600E-004	......
	167	43.3997	-5.67825E-002	3.66643E-006	2.36600E-004	......
	168	43.658	-5.68075E-002	3.66643E-006	1.36600E-004	......
	169	43.9164	-5.68225E-002	3.66643E-006	2.36600E-004	......
	170	44.1747	-5.68475E-002	3.66643E-006	2.36600E-004	......
	171	44.433	-5.68575E-002	3.66643E-006	2.36600E-004	......
	172	44.6913	-5.68775E-002	3.66643E-006	1.36600E-004	......
	173	44.9497	-5.68825E-002	3.66643E-006	2.36600E-004	......
	174	45.208	-5.69075E-002	3.66643E-006	3.36600E-004	......
	175	45.4663	-5.69225E-002	3.66643E-006	1.36600E-004	......
	176	45.7247	-5.69375E-002	3.66643E-006	2.36600E-004	......
	177	45.983	-5.69425E-002	3.66643E-006	2.36600E-004	......
	178	46.2413	-5.69675E-002	3.66643E-006	2.36600E-004	......
	179	46.4997	-5.69825E-002	3.66643E-006	2.36600E-004	......
	180	46.758	-5.69825E-002	3.66643E-006	2.36600E-004	......
	181	47.0163	-5.70025E-002	3.66643E-006	2.36600E-004	......
	182	47.2747	-5.70225E-002	3.66643E-006	2.36600E-004	......
	183	47.533	-5.70425E-002	3.66643E-006	3.36600E-004	......
	184	47.7913	-5.70525E-002	3.66643E-006	2.36600E-004	......
	185	48.0497	-5.70525E-002	3.66643E-006	2.36600E-004	......
	186	48.308	-5.70725E-002	3.66643E-006	2.36600E-004	......
	187	48.5663	-5.70825E-002	3.66643E-006	3.36600E-004	......
	188	48.8247	-5.70925E-002	3.66643E-006	2.36600E-004	......
	189	49.083	-5.71225E-002	3.66643E-006	2.36600E-004	......
	190	49.3413	-5.71375E-002	3.66643E-006	2.36600E-004	......
	191	49.5996	-5.71475E-002	3.66643E-006	2.36600E-004	......
	192	49.858	-5.71475E-002	3.66643E-006	3.36600E-004	......
	193	50.1163	-5.71625E-002	3.66643E-006	2.36600E-004	......
	194	50.3746	-5.71775E-002	3.66643E-006	2.36600E-004	......
	195	50.633	-5.71875E-002	3.66643E-006	3.36600E-004	......
	196	50.8913	-5.72075E-002	3.66643E-006	2.36600E-004	......
	197	51.1496	-5.72075E-002	3.66643E-006	3.36600E-004	......
	198	51.408	-5.72275E-002	3.66643E-006	3.36600E-004	......
	199	51.6663	-5.72425E-002	3.66643E-006	2.36600E-004	......
	200	51.9246	-5.72525E-002	3.66643E-006	2.36600E-004	......
	201	52.183	-5.72625E-002	3.66643E-006	3.66000E-005	......
	202	52.4413	-5.72725E-002	3.66643E-006	2.36600E-004	......
	203	52.6996	-5.72975E-002	3.66643E-006	3.36600E-004	......
	204	52.958	-5.73075E-002	3.66643E-006	2.36600E-004	......
	205	53.2163	-5.73225E-002	3.66643E-006	3.36600E-004	......
	206	53.4746	-5.73425E-002	3.66643E-006	3.36600E-004	......
	207	53.733	-5.73525E-002	3.66643E-006	1.36600E-004	......
	208	53.9913	-5.73625E-002	3.66643E-006	1.36600E-004	......
	209	54.2496	-5.73625E-002	3.66643E-006	2.36600E-004	......
	210	54.5079	-5.73775E-002	3.66643E-006	3.36600E-004	......
	211	54.7663	-5.73925E-002	3.66643E-006	2.36600E-004	......
	212	55.0246	-5.73975E-002	3.66643E-006	2.36600E-004	......
	213	55.2829	-5.74075E-002	3.66643E-006	3.36600E-004	......
	214	55.5413	-5.74375E-002	3.66643E-006	3.36600E-004	......
	215	55.7996	-5.74375E-002	3.66643E-006	2.36600E-004	......
	216	56.0579	-5.74425E-002	3.66643E-006	2.36600E-004	......
	217	56.3163	-5.74675E-002	3.66643E-006	3.36600E-004	......
	218	56.5746	-5.74725E-002	3.66643E-006	1.36600E-004	......
	219	56.8329	-5.74825E-002	3.66643E-006	2.36600E-004	......
	220	57.0913	-5.74925E-002	3.66643E-006	2.36600E-004	......
	221	57.3496	-5.75075E-002	3.66643E-006	2.36600E-004	......
	222	57.6079	-5.75225E-002	3.66643E-006	1.36600E-004	......
	223	57.8663	-5.75275E-002	3.66643E-006	2.36600E-004	......
	224	58.1246	-5.75425E-002	3.66643E-006	3.36600E-004	......
	225	58.3829	-5.75625E-002	3.66643E-006	2.36600E-004	......
	226	58.6413	-5.75525E-002	3.66643E-006	3.36600E-004	......
	227	58.8996	-5.75625E-002	3.66643E-006	2.36600E-004	......
	228	59.1579	-5.75775E-002	3.66643E-006	3.36600E-004	......
	229	59.4162	-5.76025E-002	3.66643E-006	1.36600E-004	......
	230	59.6746	-5.76075E-002	3.66643E-006	2.36600E-004	......
	231	59.9329	-5.76175E-002	3.66643E-006	3.36600E-004	......
EOC	QUANT	-0.057618	Open Circuit (V)
PSTATMODEL	IQUANT	32	Pstat Model
PSTATSECTION	LABEL	PStat0	Pstat Section
CTRLMODE	IQUANT	1	Control Mode
IESTAB	IQUANT	0	I/E Stability
CASPEED	IQUANT	1	Control Amp Speed
CONVENTION	IQUANT	1	Current Convention
ICHRANGE	IQUANT	2	Ich Range
ICHRANGEMODE	TOGGLE	F	Ich Auto Range
ICHOFFSETENABLE	TOGGLE	T	Ich Offset Enable
ICHOFFSET	QUANT	0	Ich Offset (V)
ICHFILTER	IQUANT	3	Ich Filter
VCHRANGE	IQUANT	2	Vch Range
VCHRANGEMODE	TOGGLE	F	Vch Auto Range
VCHOFFSETENABLE	TOGGLE	T	Vch Offset Enable
VCHOFFSET	QUANT	0	Vch Offset (V)
VCHFILTER	IQUANT	3	Vch Filter
ACHRANGE	IQUANT	0	Ach Range
IERANGELOWERLIMIT	IQUANT	3	I/E Range Lower Limit
IERANGEMODE	TOGGLE	F	I/E AutoRange
IERANGE	IQUANT	11	I/E Range
POSFEEDENABLE	TOGGLE	F	Positive Feedback IR Comp
POSFEEDRESISTANCE	QUANT	0	Positive Feedback Resistance (ohm)
FC350IDIVISOR	IQUANT	0	FC350 I Divisor
FC350VRANGE	IQUANT	0	FC350 V Range
FRAMEWORKVERSION	QUANT	4.35	Framework Version
ZCURVE	TABLE
	Pt	Time	Freq	Zreal	Zimag	Zsig	Zmod	Zphz	Idc	Vdc	IERange
	#	s	Hz	ohm	ohm	V	ohm	°	A	V	#
	0	6	100007	56.628	0.048609	1	56.628	0.049182	6.89719E-006	-0.056225	10
	1	10	89134.1	56.0909	-0.155424	1	56.0912	-0.158762	4.98307E-006	-0.056204	10
	2	14	79433.6	56.0904	-0.149844	1	56.0906	-0.153064	6.74008E-006	-0.056216	10
	3	18	70800.8	55.5814	0.02209	1	55.5814	0.022771	6.41447E-006	-0.05618	10
	4	22	63105.5	55.389	-0.216861	1	55.3894	-0.224325	5.83153E-006	-0.056219	10
	5	26	56243.5	55.4778	-0.306297	1	55.4786	-0.316331	6.89341E-006	-0.056214	10
	6	29	50123.7	55.3253	-0.508132	1	55.3276	-0.526216	4.9803E-006	-0.056195	10
	7	33	44681	55.7128	-0.448163	1	55.7146	-0.460887	5.13687E-006	-0.056177	10
	8	38	39811.2	56.9562	-0.763277	1	56.9613	-0.767781	5.65361E-006	-0.056217	10
	9	42	35488.3	55.7548	-0.465842	1	55.7568	-0.478706	7.12707E-006	-0.056181	10
	10	45	31634.1	55.6197	-0.377597	1	55.621	-0.38897	4.7529E-006	-0.056197	10
	11	49	28173.1	55.2554	-0.248005	1	55.256	-0.257161	5.98893E-006	-0.056203	10
	12	53	25123.7	55.8544	-0.602618	1	55.8576	-0.618145	6.34712E-006	-0.056183	10
	13	57	22389.3	55.5014	-0.653036	1	55.5053	-0.674118	6.84005E-006	-0.056183	10
	14	61	19954.4	55.5141	-1.13682	1	55.5257	-1.17315	4.76497E-006	-0.056197	10
	15	65	17778.2	55.3571	-1.27556	1	55.3718	-1.32	5.95966E-006	-0.056193	10
	16	67	15852.9	55.7604	-1.05626	1	55.7704	-1.08522	5.5368E-006	-0.056219	10
	17	72	14122.3	55.6959	-0.192087	1	55.6962	-0.197604	5.89977E-006	-0.056195	10
	18	76	12587.2	55.568	-1.24271	1	55.5819	-1.28114	5.77716E-006	-0.0562	10
	19	80	11221.1	55.794	-1.22177	1	55.8074	-1.25446	5.80518E-006	-0.056202	10
	20	84	9998.2	55.7768	-1.70185	1	55.8028	-1.74765	5.75466E-006	-0.056197	10
	21	88	8912.76	56.0857	-1.46709	1	56.1049	-1.4984	4.91086E-006	-0.056182	10
	22	92	7942.6	55.8751	-1.94989	1	55.9091	-1.99866	5.80958E-006	-0.056204	10
	23	96	7078.05	56.1884	-2.0454	1	56.2256	-2.0848	5.81886E-006	-0.056208	10
	24	100	6311.1	56.0089	-2.05672	1	56.0467	-2.10303	5.75875E-006	-0.056205	10
	25	104	5622.14	56.6799	-2.28367	1	56.7259	-2.30724	5.88558E-006	-0.056201	10
	26	108	5011.18	56.2723	-2.52329	1	56.3289	-2.56746	6.08029E-006	-0.056189	10
	27	110	4465.21	56.2275	-3.04673	1	56.31	-3.10158	5.74068E-006	-0.056202	10
	28	115	3980.93	56.7911	-2.75869	1	56.8581	-2.78102	5.48703E-006	-0.056223	10
	29	119	3548.18	56.2721	-3.45243	1	56.3779	-3.51083	6.73171E-006	-0.056195	10
	30	123	3162.67	56.6779	-4.04491	1	56.8221	-4.08208	6.13922E-006	-0.056188	10
	31	127	2819.01	56.7291	-3.69248	1	56.8492	-3.72411	4.89564E-006	-0.056184	10
	32	131	2511.16	56.9145	-4.32703	1	57.0788	-4.34765	5.60948E-006	-0.056188	10
	33	133	2238.63	56.9232	-4.52994	1	57.1032	-4.55	5.68884E-006	-0.056202	10
	34	138	1995.37	57.3499	-4.6091	1	57.5348	-4.59487	5.69148E-006	-0.056202	10
	35	142	1778.51	57.1373	-5.91435	1	57.4426	-5.90971	5.61676E-006	-0.056198	10
	36	146	1584.49	58.0818	-5.67973	1	58.3589	-5.5851	5.70909E-006	-0.056196	10
	37	150	1412.76	58.1916	-6.8476	1	58.5931	-6.71132	4.91521E-006	-0.056174	10
	38	154	1259.04	58.1338	-7.22031	1	58.5805	-7.07997	5.65833E-006	-0.056182	10
	39	157	1121.63	58.323	-8.36291	1	58.9195	-8.16	5.72216E-006	-0.056194	10
	40	161	999.95	57.787	-9.21624	1	58.5173	-9.06158	5.65465E-006	-0.056186	10
	41	165	891.184	58.0892	-9.30551	1	58.8298	-9.10109	5.66067E-006	-0.056184	10
	42	169	794.163	58.741	-10.6197	1	59.6932	-10.2478	5.71105E-006	-0.056178	10
	43	173	707.867	59.356	-11.274	1	60.4172	-10.7546	6.10745E-006	-0.056163	10
	44	176	630.984	59.2594	-12.7132	1	60.6077	-12.1084	5.66446E-006	-0.056186	10
	45	180	562.189	59.7729	-14.7921	1	61.576	-13.8998	6.56293E-006	-0.056181	10
	46	184	501.303	60.3142	-15.4295	1	62.2565	-14.3496	5.71822E-006	-0.056191	10
	47	186	446.614	60.867	-16.9585	1	63.1853	-15.5687	5.70836E-006	-0.056197	10
	48	188	398.209	61.3255	-18.6352	1	64.0943	-16.9026	5.56297E-006	-0.056196	10
	49	190	354.821	61.8743	-20.4361	1	65.1618	-18.2775	5.59032E-006	-0.056189	10
	50	192	316.113	62.4688	-22.43	1	66.3736	-19.7511	5.65963E-006	-0.056185	10
	51	194	281.926	63.158	-24.6686	1	67.8047	-21.3349	5.6333E-006	-0.05619	10
	52	196	251.185	63.8598	-27.0444	1	69.3504	-22.9525	5.54526E-006	-0.056195	10
	53	198	223.946	64.6428	-29.6936	1	71.1365	-24.6717	5.60477E-006	-0.056192	10
	54	200	199.495	65.4781	-32.682	1	73.1812	-26.5251	5.63919E-006	-0.056178	10
	55	202	177.836	66.4421	-35.9074	1	75.5241	-28.3882	5.44362E-006	-0.056186	10
