EXPLAIN
TAG	EISPOT
TITLE	LABEL	Tomato_open	Test &Identifier
DATE	LABEL	5/16/2006	Date
TIME	LABEL	20:01:35	Time
NOTES	NOTES	1	&Notes...
	
PSTAT	PSTAT	300	Potentiostat
VDC	POTEN	1.00000E-003	T	DC &Voltage (V)
FREQINIT	QUANT	1.00000E+005	Initial Fre&q. (Hz)
FREQFINAL	QUANT	1.00000E+001	Final Fre&q. (Hz)
PTSPERDEC	QUANT	2.00000E+001	Points/&decade
VAC	QUANT	1.00000E+000	AC &Voltage (mV rms)
AREA	QUANT	1.00000E+000	&Area (cm²)
DENSITY	QUANT	7.87000E+000	&Density (gm/cm³)
EQUIV	QUANT	7.00000E+000	Equiv. &Wt
CONDIT	TWOPARAM	F	6.00000E+001	0.00000E+000	Conditionin&g	Time(s)	E(V)
DELAY	TWOPARAM	T	6.00000E+001	0.00000E+000	Init. De&lay	Time(s)	Stab.(mV/s)
SPEED	SELECTOR	1	&Optimize for:
ZGUESS	QUANT	1.00000E+002	E&stimated Z (ohms)
OCVCURVE	TABLE	232
	Pt	T	Vf	Vm	Ach	Over
	#	s	V vs. Ref.	V	V	bits
	0	0.258332	-7.88475E-002	4.28143E-006	-6.34000E-005	......
	1	0.516663	-7.88425E-002	4.28143E-006	3.66000E-005	......
	2	0.774994	-7.88525E-002	4.28143E-006	-1.63400E-004	......
	3	1.03333	-7.88325E-002	4.28143E-006	2.36600E-004	......
	4	1.29166	-7.88375E-002	4.28143E-006	-2.63400E-004	......
	5	1.54999	-7.88275E-002	4.28143E-006	2.36600E-004	......
	6	1.80832	-7.88275E-002	4.28143E-006	-6.34000E-005	......
	7	2.06665	-7.88125E-002	4.28143E-006	3.66000E-005	......
	8	2.32498	-7.88225E-002	4.28143E-006	-6.34000E-005	......
	9	2.58332	-7.88125E-002	4.28143E-006	2.36600E-004	......
	10	2.84165	-7.88225E-002	4.28143E-006	-6.34000E-005	......
	11	3.09998	-7.88175E-002	4.28143E-006	1.36600E-004	......
	12	3.35831	-7.88175E-002	4.28143E-006	-1.63400E-004	......
	13	3.61664	-7.88125E-002	4.28143E-006	3.66000E-005	......
	14	3.87497	-7.88175E-002	4.28143E-006	-1.63400E-004	......
	15	4.1333	-7.88125E-002	4.28143E-006	3.66000E-005	......
	16	4.39164	-7.88175E-002	4.28143E-006	-6.34000E-005	......
	17	4.64997	-7.88125E-002	4.28143E-006	1.36600E-004	......
	18	4.9083	-7.88225E-002	4.28143E-006	-6.34000E-005	......
	19	5.16663	-7.88175E-002	4.28143E-006	3.66000E-005	......
	20	5.42496	-7.88175E-002	4.28143E-006	-6.34000E-005	......
	21	5.68329	-7.88225E-002	4.28143E-006	3.66000E-005	......
	22	5.94162	-7.88225E-002	4.28143E-006	-6.34000E-005	......
	23	6.19996	-7.88175E-002	4.28143E-006	3.66000E-005	......
	24	6.45829	-7.88275E-002	4.28143E-006	-1.63400E-004	......
	25	6.71662	-7.88225E-002	4.28143E-006	1.36600E-004	......
	26	6.97495	-7.88325E-002	4.28143E-006	-6.34000E-005	......
	27	7.23328	-7.88325E-002	4.28143E-006	1.36600E-004	......
	28	7.49161	-7.88325E-002	4.28143E-006	3.66000E-005	......
	29	7.74995	-7.88375E-002	4.28143E-006	2.36600E-004	......
	30	8.00828	-7.88275E-002	4.28143E-006	-1.63400E-004	......
	31	8.26661	-7.88425E-002	4.28143E-006	3.66000E-005	......
	32	8.52494	-7.88375E-002	4.28143E-006	3.66000E-005	......
	33	8.78327	-7.88425E-002	4.28143E-006	3.66000E-005	......
	34	9.0416	-7.88375E-002	4.28143E-006	-6.34000E-005	......
	35	9.29993	-7.88375E-002	4.28143E-006	3.66000E-005	......
	36	9.5583	-7.88575E-002	4.28143E-006	-1.63400E-004	......
	37	9.8166	-7.88425E-002	4.28143E-006	1.36600E-004	......
	38	10.0749	-7.88475E-002	4.28143E-006	-6.34000E-005	......
	39	10.3333	-7.88625E-002	4.28143E-006	1.36600E-004	......
	40	10.5916	-7.88525E-002	4.28143E-006	-6.34000E-005	......
	41	10.8499	-7.88625E-002	4.28143E-006	1.36600E-004	......
	42	11.1083	-7.88675E-002	4.28143E-006	-6.34000E-005	......
	43	11.3666	-7.88725E-002	4.28143E-006	3.66000E-005	......
	44	11.6249	-7.88725E-002	4.28143E-006	-6.34000E-005	......
	45	11.8832	-7.88725E-002	4.28143E-006	2.36600E-004	......
	46	12.1416	-7.88775E-002	4.28143E-006	-6.34000E-005	......
	47	12.3999	-7.88725E-002	4.28143E-006	3.66000E-005	......
	48	12.6582	-7.88875E-002	4.28143E-006	-6.34000E-005	......
	49	12.9166	-7.88875E-002	4.28143E-006	2.36600E-004	......
	50	13.1749	-7.88875E-002	4.28143E-006	3.66000E-005	......
	51	13.4332	-7.88975E-002	4.28143E-006	3.66000E-005	......
	52	13.6916	-7.88925E-002	4.28143E-006	-1.63400E-004	......
	53	13.9499	-7.89075E-002	4.28143E-006	3.66000E-005	......
	54	14.2082	-7.89025E-002	4.28143E-006	3.66000E-005	......
	55	14.4666	-7.88975E-002	4.28143E-006	2.36600E-004	......
	56	14.7249	-7.89075E-002	4.28143E-006	-6.34000E-005	......
	57	14.9832	-7.89175E-002	4.28143E-006	1.36600E-004	......
	58	15.2416	-7.89025E-002	4.28143E-006	3.66000E-005	......
	59	15.4999	-7.89175E-002	4.28143E-006	2.36600E-004	......
	60	15.7582	-7.89225E-002	4.28143E-006	-6.34000E-005	......
	61	16.0166	-7.89225E-002	4.28143E-006	1.36600E-004	......
	62	16.2749	-7.89225E-002	4.28143E-006	-1.63400E-004	......
	63	16.5332	-7.89225E-002	4.28143E-006	3.66000E-005	......
	64	16.7915	-7.89275E-002	4.28143E-006	-1.63400E-004	......
	65	17.0499	-7.89375E-002	4.28143E-006	1.36600E-004	......
	66	17.3082	-7.89325E-002	4.28143E-006	3.66000E-005	......
	67	17.5665	-7.89325E-002	4.28143E-006	3.66000E-005	......
	68	17.8249	-7.89325E-002	4.28143E-006	-6.34000E-005	......
	69	18.0832	-7.89475E-002	4.28143E-006	3.66000E-005	......
	70	18.3415	-7.89425E-002	4.28143E-006	-2.63400E-004	......
	71	18.5999	-7.89625E-002	4.28143E-006	1.36600E-004	......
	72	18.8582	-7.89525E-002	4.28143E-006	-6.34000E-005	......
	73	19.1165	-7.89675E-002	4.28143E-006	3.66000E-005	......
	74	19.3749	-7.89575E-002	4.28143E-006	3.66000E-005	......
	75	19.6332	-7.89725E-002	4.28143E-006	1.36600E-004	......
	76	19.8915	-7.89675E-002	4.28143E-006	-6.34000E-005	......
	77	20.1499	-7.89675E-002	4.28143E-006	3.66000E-005	......
	78	20.4082	-7.89775E-002	4.28143E-006	-6.34000E-005	......
	79	20.6665	-7.89675E-002	4.28143E-006	3.66000E-005	......
	80	20.9249	-7.89825E-002	4.28143E-006	3.66000E-005	......
	81	21.1832	-7.89875E-002	4.28143E-006	3.66000E-005	......
	82	21.4415	-7.89925E-002	4.28143E-006	3.66000E-005	......
	83	21.6998	-7.89975E-002	4.28143E-006	2.36600E-004	......
	84	21.9582	-7.89925E-002	4.28143E-006	3.66000E-005	......
	85	22.2165	-7.89975E-002	4.28143E-006	3.66000E-005	......
	86	22.4748	-7.90125E-002	4.28143E-006	-6.34000E-005	......
	87	22.7332	-7.90125E-002	4.28143E-006	2.36600E-004	......
	88	22.9915	-7.90075E-002	4.28143E-006	-1.63400E-004	......
	89	23.2498	-7.90125E-002	4.28143E-006	2.36600E-004	......
	90	23.5082	-7.90225E-002	4.28143E-006	3.66000E-005	......
	91	23.7665	-7.90175E-002	4.28143E-006	1.36600E-004	......
	92	24.0248	-7.90225E-002	4.28143E-006	-6.34000E-005	......
	93	24.2832	-7.90325E-002	4.28143E-006	2.36600E-004	......
	94	24.5415	-7.90275E-002	4.28143E-006	-6.34000E-005	......
	95	24.7998	-7.90325E-002	4.28143E-006	2.36600E-004	......
	96	25.0582	-7.90375E-002	4.28143E-006	-6.34000E-005	......
	97	25.3165	-7.90375E-002	4.28143E-006	1.36600E-004	......
	98	25.5748	-7.90425E-002	4.28143E-006	-6.34000E-005	......
	99	25.8332	-7.90375E-002	4.28143E-006	3.66000E-005	......
	100	26.0915	-7.90425E-002	4.28143E-006	-1.63400E-004	......
	101	26.3498	-7.90625E-002	4.28143E-006	1.36600E-004	......
	102	26.6081	-7.90575E-002	4.28143E-006	-6.34000E-005	......
	103	26.8665	-7.90575E-002	4.28143E-006	2.36600E-004	......
	104	27.1248	-7.90675E-002	4.28143E-006	-6.34000E-005	......
	105	27.3831	-7.90625E-002	4.28143E-006	1.36600E-004	......
	106	27.6415	-7.90725E-002	4.28143E-006	-6.34000E-005	......
	107	27.8998	-7.90675E-002	4.28143E-006	3.66000E-005	......
	108	28.1581	-7.90725E-002	4.28143E-006	-6.34000E-005	......
	109	28.4165	-7.90775E-002	4.28143E-006	3.66000E-005	......
	110	28.6748	-7.90875E-002	4.28143E-006	3.66000E-005	......
	111	28.9331	-7.90925E-002	4.28143E-006	1.36600E-004	......
	112	29.1915	-7.90825E-002	4.28143E-006	-1.63400E-004	......
	113	29.4498	-7.90975E-002	4.28143E-006	2.36600E-004	......
	114	29.7081	-7.90925E-002	4.28143E-006	-1.63400E-004	......
	115	29.9665	-7.91025E-002	4.28143E-006	1.36600E-004	......
	116	30.2248	-7.90975E-002	4.28143E-006	-1.63400E-004	......
	117	30.4831	-7.91025E-002	4.28143E-006	3.66000E-005	......
	118	30.7414	-7.91075E-002	4.28143E-006	-6.34000E-005	......
	119	30.9998	-7.90975E-002	4.28143E-006	3.66000E-005	......
	120	31.2581	-7.91075E-002	4.28143E-006	-6.34000E-005	......
	121	31.5164	-7.91075E-002	4.28143E-006	2.36600E-004	......
	122	31.7748	-7.91075E-002	4.28143E-006	-6.34000E-005	......
	123	32.0331	-7.91175E-002	4.28143E-006	2.36600E-004	......
	124	32.2914	-7.91075E-002	4.28143E-006	-6.34000E-005	......
	125	32.5498	-7.91225E-002	4.28143E-006	3.66000E-005	......
	126	32.8081	-7.91125E-002	4.28143E-006	3.66000E-005	......
	127	33.0664	-7.91275E-002	4.28143E-006	3.66000E-005	......
	128	33.3248	-7.91275E-002	4.28143E-006	3.66000E-005	......
	129	33.5831	-7.91375E-002	4.28143E-006	3.66000E-005	......
	130	33.8414	-7.91375E-002	4.28143E-006	-1.63400E-004	......
	131	34.0998	-7.91425E-002	4.28143E-006	3.66000E-005	......
	132	34.3581	-7.91425E-002	4.28143E-006	-6.34000E-005	......
	133	34.6164	-7.91425E-002	4.28143E-006	3.66000E-005	......
	134	34.8748	-7.91425E-002	4.28143E-006	-6.34000E-005	......
	135	35.1331	-7.91425E-002	4.28143E-006	3.66000E-005	......
	136	35.3914	-7.91375E-002	4.28143E-006	-6.34000E-005	......
	137	35.6497	-7.91475E-002	4.28143E-006	3.66000E-005	......
	138	35.9081	-7.91475E-002	4.28143E-006	-6.34000E-005	......
	139	36.1664	-7.91475E-002	4.28143E-006	1.36600E-004	......
	140	36.4247	-7.91625E-002	4.28143E-006	3.66000E-005	......
	141	36.6831	-7.91575E-002	4.28143E-006	3.66000E-005	......
	142	36.9414	-7.91625E-002	4.28143E-006	-6.34000E-005	......
	143	37.1997	-7.91625E-002	4.28143E-006	1.36600E-004	......
	144	37.4581	-7.91625E-002	4.28143E-006	1.36600E-004	......
	145	37.7164	-7.91625E-002	4.28143E-006	3.66000E-005	......
	146	37.9747	-7.91625E-002	4.28143E-006	-6.34000E-005	......
	147	38.2331	-7.91575E-002	4.28143E-006	-6.34000E-005	......
	148	38.4914	-7.91625E-002	4.28143E-006	-1.63400E-004	......
	149	38.7497	-7.91625E-002	4.28143E-006	3.66000E-005	......
	150	39.0081	-7.91625E-002	4.28143E-006	-6.34000E-005	......
	151	39.2664	-7.91775E-002	4.28143E-006	1.36600E-004	......
	152	39.5247	-7.91725E-002	4.28143E-006	-6.34000E-005	......
	153	39.7831	-7.91725E-002	4.28143E-006	2.36600E-004	......
	154	40.0414	-7.91675E-002	4.28143E-006	-6.34000E-005	......
	155	40.2997	-7.91775E-002	4.28143E-006	1.36600E-004	......
	156	40.558	-7.91675E-002	4.28143E-006	3.66000E-005	......
	157	40.8164	-7.91775E-002	4.28143E-006	3.66000E-005	......
	158	41.0747	-7.91825E-002	4.28143E-006	-6.34000E-005	......
	159	41.333	-7.91725E-002	4.28143E-006	1.36600E-004	......
	160	41.5914	-7.91875E-002	4.28143E-006	-6.34000E-005	......
	161	41.8497	-7.91775E-002	4.28143E-006	3.66000E-005	......
	162	42.108	-7.91775E-002	4.28143E-006	-1.63400E-004	......
	163	42.3664	-7.91825E-002	4.28143E-006	2.36600E-004	......
	164	42.6247	-7.91775E-002	4.28143E-006	-6.34000E-005	......
	165	42.883	-7.91825E-002	4.28143E-006	3.66000E-005	......
	166	43.1414	-7.91875E-002	4.28143E-006	-6.34000E-005	......
	167	43.3997	-7.91925E-002	4.28143E-006	2.36600E-004	......
	168	43.658	-7.91825E-002	4.28143E-006	-6.34000E-005	......
	169	43.9164	-7.91875E-002	4.28143E-006	2.36600E-004	......
	170	44.1747	-7.91975E-002	4.28143E-006	-1.63400E-004	......
	171	44.433	-7.91975E-002	4.28143E-006	1.36600E-004	......
	172	44.6913	-7.92025E-002	4.28143E-006	-6.34000E-005	......
	173	44.9497	-7.91875E-002	4.28143E-006	3.66000E-005	......
	174	45.208	-7.92025E-002	4.28143E-006	-6.34000E-005	......
	175	45.4663	-7.91925E-002	4.28143E-006	1.36600E-004	......
	176	45.7247	-7.91925E-002	4.28143E-006	-6.34000E-005	......
	177	45.983	-7.92075E-002	4.28143E-006	1.36600E-004	......
	178	46.2413	-7.91925E-002	4.28143E-006	-6.34000E-005	......
	179	46.4997	-7.91925E-002	4.28143E-006	2.36600E-004	......
	180	46.758	-7.91975E-002	4.28143E-006	-6.34000E-005	......
	181	47.0163	-7.92075E-002	4.28143E-006	2.36600E-004	......
	182	47.2747	-7.91975E-002	4.28143E-006	-6.34000E-005	......
	183	47.533	-7.92025E-002	4.28143E-006	2.36600E-004	......
	184	47.7913	-7.92025E-002	4.28143E-006	-6.34000E-005	......
	185	48.0497	-7.92075E-002	4.28143E-006	1.36600E-004	......
	186	48.308	-7.92075E-002	4.28143E-006	-1.63400E-004	......
	187	48.5663	-7.92075E-002	4.28143E-006	2.36600E-004	......
	188	48.8247	-7.92075E-002	4.28143E-006	-6.34000E-005	......
	189	49.083	-7.92175E-002	4.28143E-006	3.66000E-005	......
	190	49.3413	-7.91925E-002	4.28143E-006	-1.63400E-004	......
	191	49.5996	-7.92075E-002	4.28143E-006	3.66000E-005	......
	192	49.858	-7.92075E-002	4.28143E-006	-6.34000E-005	......
	193	50.1163	-7.92225E-002	4.28143E-006	3.66000E-005	......
	194	50.3746	-7.92175E-002	4.28143E-006	-6.34000E-005	......
	195	50.633	-7.92175E-002	4.28143E-006	3.66000E-005	......
	196	50.8913	-7.92175E-002	4.28143E-006	-1.63400E-004	......
	197	51.1496	-7.92075E-002	4.28143E-006	2.36600E-004	......
	198	51.408	-7.92225E-002	4.28143E-006	-6.34000E-005	......
	199	51.6663	-7.92125E-002	4.28143E-006	3.66000E-005	......
	200	51.9246	-7.92275E-002	4.28143E-006	-6.34000E-005	......
	201	52.183	-7.92225E-002	4.28143E-006	2.36600E-004	......
	202	52.4413	-7.92125E-002	4.28143E-006	-6.34000E-005	......
	203	52.6996	-7.92225E-002	4.28143E-006	3.36600E-004	......
	204	52.958	-7.92125E-002	4.28143E-006	3.66000E-005	......
	205	53.2163	-7.92225E-002	4.28143E-006	3.66000E-005	......
	206	53.4746	-7.92175E-002	4.28143E-006	-6.34000E-005	......
	207	53.733	-7.92075E-002	4.28143E-006	3.66000E-005	......
	208	53.9913	-7.92175E-002	4.28143E-006	3.66000E-005	......
	209	54.2496	-7.92125E-002	4.28143E-006	3.66000E-005	......
	210	54.5079	-7.92325E-002	4.28143E-006	-6.34000E-005	......
	211	54.7663	-7.92175E-002	4.28143E-006	1.36600E-004	......
	212	55.0246	-7.92175E-002	4.28143E-006	-6.34000E-005	......
	213	55.2829	-7.92175E-002	4.28143E-006	1.36600E-004	......
	214	55.5413	-7.92175E-002	4.28143E-006	-1.63400E-004	......
	215	55.7996	-7.92175E-002	4.28143E-006	2.36600E-004	......
	216	56.0579	-7.92175E-002	4.28143E-006	-6.34000E-005	......
	217	56.3163	-7.92275E-002	4.28143E-006	3.66000E-005	......
	218	56.5746	-7.92275E-002	4.28143E-006	3.66000E-005	......
	219	56.8329	-7.92125E-002	4.28143E-006	3.66000E-005	......
	220	57.0913	-7.92175E-002	4.28143E-006	3.66000E-005	......
	221	57.3496	-7.92175E-002	4.28143E-006	3.66000E-005	......
	222	57.6079	-7.92025E-002	4.28143E-006	-1.63400E-004	......
	223	57.8663	-7.92225E-002	4.28143E-006	1.36600E-004	......
	224	58.1246	-7.92225E-002	4.28143E-006	-6.34000E-005	......
	225	58.3829	-7.92175E-002	4.28143E-006	2.36600E-004	......
	226	58.6413	-7.92275E-002	4.28143E-006	3.66000E-005	......
	227	58.8996	-7.92275E-002	4.28143E-006	2.36600E-004	......
	228	59.1579	-7.92175E-002	4.28143E-006	-6.34000E-005	......
	229	59.4162	-7.92225E-002	4.28143E-006	2.36600E-004	......
	230	59.6746	-7.92125E-002	4.28143E-006	-1.63400E-004	......
	231	59.9329	-7.92175E-002	4.28143E-006	3.66000E-005	......
EOC	QUANT	-0.079218	Open Circuit (V)
PSTATMODEL	IQUANT	32	Pstat Model
PSTATSECTION	LABEL	PStat0	Pstat Section
CTRLMODE	IQUANT	1	Control Mode
IESTAB	IQUANT	0	I/E Stability
CASPEED	IQUANT	1	Control Amp Speed
CONVENTION	IQUANT	1	Current Convention
ICHRANGE	IQUANT	2	Ich Range
ICHRANGEMODE	TOGGLE	F	Ich Auto Range
ICHOFFSETENABLE	TOGGLE	T	Ich Offset Enable
ICHOFFSET	QUANT	0	Ich Offset (V)
ICHFILTER	IQUANT	3	Ich Filter
VCHRANGE	IQUANT	2	Vch Range
VCHRANGEMODE	TOGGLE	F	Vch Auto Range
VCHOFFSETENABLE	TOGGLE	T	Vch Offset Enable
VCHOFFSET	QUANT	0	Vch Offset (V)
VCHFILTER	IQUANT	3	Vch Filter
ACHRANGE	IQUANT	0	Ach Range
IERANGELOWERLIMIT	IQUANT	3	I/E Range Lower Limit
IERANGEMODE	TOGGLE	F	I/E AutoRange
IERANGE	IQUANT	11	I/E Range
POSFEEDENABLE	TOGGLE	F	Positive Feedback IR Comp
POSFEEDRESISTANCE	QUANT	0	Positive Feedback Resistance (ohm)
FC350IDIVISOR	IQUANT	0	FC350 I Divisor
FC350VRANGE	IQUANT	0	FC350 V Range
FRAMEWORKVERSION	QUANT	4.35	Framework Version
ZCURVE	TABLE
	Pt	Time	Freq	Zreal	Zimag	Zsig	Zmod	Zphz	Idc	Vdc	IERange
	#	s	Hz	ohm	ohm	V	ohm	°	A	V	#
	0	7	100007	57.0892	0.97716	1	57.0975	0.9806	7.30452E-006	-0.077912	10
	1	11	89134.1	57.5156	0.314338	1	57.5165	0.313134	5.84581E-006	-0.077944	10
	2	15	79433.6	57.3977	-0.379867	1	57.3989	-0.379187	5.5431E-006	-0.077898	10
	3	18	70800.8	57.1753	-0.355056	1	57.1764	-0.355799	7.268E-006	-0.077911	10
	4	22	63105.5	56.955	0.006763	1	56.955	0.006803	5.58028E-006	-0.077916	10
	5	26	56243.5	57.0154	-0.317672	1	57.0163	-0.319231	5.87345E-006	-0.077952	10
	6	29	50123.7	56.5184	-0.431049	1	56.52	-0.436969	6.5735E-006	-0.077915	10
	7	33	44681	56.5272	-0.248567	1	56.5277	-0.251946	6.98057E-006	-0.077945	10
	8	37	39811.2	56.2938	-2.70451	1	56.3588	-2.75053	6.45541E-006	-0.077901	10
	9	41	35488.3	57.06	-0.78565	1	57.0654	-0.788847	5.28978E-006	-0.077896	10
	10	44	31634.1	57.0412	-0.309115	1	57.042	-0.310492	6.81296E-006	-0.077941	10
	11	48	28173.1	57.2334	-0.677029	1	57.2374	-0.677736	6.08805E-006	-0.077915	10
	12	52	25123.7	57.111	-0.688864	1	57.1151	-0.691059	6.88086E-006	-0.077932	10
	13	57	22389.3	57.0157	-0.97862	1	57.0241	-0.98333	6.99093E-006	-0.077932	10
	14	61	19954.4	56.7896	-1.16199	1	56.8015	-1.17218	5.78315E-006	-0.077937	10
	15	65	17778.2	57.3563	-1.32098	1	57.3716	-1.31935	6.41363E-006	-0.077906	10
	16	67	15852.9	57.607	-1.2419	1	57.6204	-1.235	5.7231E-006	-0.077938	10
	17	71	14122.3	57.1602	-1.32012	1	57.1754	-1.32301	6.01036E-006	-0.077916	10
	18	75	12587.2	57.4516	-1.68239	1	57.4762	-1.67735	6.1082E-006	-0.077918	10
	19	79	11221.1	57.0347	-1.37736	1	57.0513	-1.3834	6.28997E-006	-0.077924	10
	20	83	9998.2	57.5294	-1.91322	1	57.5612	-1.90475	5.96152E-006	-0.077928	10
	21	86	8912.76	57.4833	-1.86386	1	57.5135	-1.85713	7.09205E-006	-0.077909	10
	22	90	7942.6	57.8859	-2.11171	1	57.9244	-2.08926	6.05699E-006	-0.07792	10
	23	94	7078.05	57.4341	-2.04624	1	57.4705	-2.04045	6.11515E-006	-0.077927	10
	24	98	6311.1	58.1142	-2.22134	1	58.1566	-2.189	5.89348E-006	-0.077921	10
	25	102	5622.14	57.3299	-2.5563	1	57.3869	-2.55309	6.07949E-006	-0.077925	10
	26	106	5011.18	57.7931	-2.81963	1	57.8619	-2.79315	6.00558E-006	-0.077916	10
	27	109	4465.21	57.9572	-2.83727	1	58.0266	-2.80266	6.14786E-006	-0.077921	10
	28	113	3980.93	57.7404	-3.54158	1	57.8489	-3.50992	4.9681E-006	-0.077926	10
	29	117	3548.18	58.0193	-3.7236	1	58.1386	-3.67213	6.96581E-006	-0.077936	10
	30	121	3162.67	58.1322	-4.1109	1	58.2774	-4.04501	5.25828E-006	-0.077907	10
	31	125	2819.01	58.4489	-4.39336	1	58.6138	-4.2986	6.88036E-006	-0.077938	10
	32	129	2511.16	58.4663	-4.56981	1	58.6446	-4.46923	6.11225E-006	-0.077909	10
	33	132	2238.63	58.7895	-4.94336	1	58.9969	-4.80645	6.07676E-006	-0.077918	10
	34	136	1995.37	58.9731	-5.58756	1	59.2373	-5.41248	5.98761E-006	-0.077929	10
	35	140	1778.51	58.6824	-5.52253	1	58.9417	-5.3762	5.99262E-006	-0.077919	10
	36	144	1584.49	58.9882	-6.81195	1	59.3802	-6.58734	5.79212E-006	-0.077921	10
	37	149	1412.76	59.4572	-7.34927	1	59.9097	-7.04637	6.87257E-006	-0.077903	10
	38	152	1259.04	59.8371	-8.31144	1	60.4116	-7.90785	5.83006E-006	-0.077914	10
	39	156	1121.63	59.8192	-9.05989	1	60.5014	-8.61225	6.05831E-006	-0.077911	10
	40	160	999.95	59.8983	-9.45128	1	60.6393	-8.9667	5.788E-006	-0.077913	10
	41	164	891.184	60.9071	-10.5225	1	61.8093	-9.8019	5.91497E-006	-0.077919	10
	42	168	794.163	60.6398	-11.9883	1	61.8135	-11.183	5.72848E-006	-0.077915	10
	43	173	707.867	61.2653	-12.84	1	62.5963	-11.8368	5.04911E-006	-0.077895	10
	44	175	630.984	60.7495	-14.1611	1	62.3782	-13.1217	5.77638E-006	-0.077918	10
	45	179	562.189	62.5863	-14.9024	1	64.3361	-13.3933	5.59208E-006	-0.077938	10
	46	184	501.303	62.4127	-16.8762	1	64.6541	-15.1308	6.07394E-006	-0.077919	10
	47	185	446.614	62.8721	-18.5379	1	65.5481	-16.4282	5.99166E-006	-0.077916	10
	48	187	398.209	63.4246	-20.3273	1	66.6024	-17.7704	5.81457E-006	-0.077916	10
	49	189	354.821	64.005	-22.352	1	67.7956	-19.2504	6.01233E-006	-0.077915	10
	50	191	316.113	64.5902	-24.4907	1	69.0774	-20.7652	5.95763E-006	-0.077914	10
	51	193	281.926	65.3501	-26.9406	1	70.6854	-22.4039	5.97632E-006	-0.077914	10
	52	195	251.185	66.0832	-29.5761	1	72.3998	-24.1113	6.03122E-006	-0.077918	10
	53	197	223.946	66.9517	-32.5323	1	74.4371	-25.9154	6.03988E-006	-0.077919	10
	54	199	199.495	67.8679	-35.6917	1	76.6809	-27.7399	5.90657E-006	-0.077908	10
