EXPLAIN
TAG	EISPOT
TITLE	LABEL	Tomato_open	Test &Identifier
DATE	LABEL	5/16/2006	Date
TIME	LABEL	20:28:59	Time
NOTES	NOTES	1	&Notes...
	
PSTAT	PSTAT	300	Potentiostat
VDC	POTEN	1.00000E-003	T	DC &Voltage (V)
FREQINIT	QUANT	1.00000E+005	Initial Fre&q. (Hz)
FREQFINAL	QUANT	1.00000E+001	Final Fre&q. (Hz)
PTSPERDEC	QUANT	2.00000E+001	Points/&decade
VAC	QUANT	1.00000E+000	AC &Voltage (mV rms)
AREA	QUANT	1.00000E+000	&Area (cm²)
DENSITY	QUANT	7.87000E+000	&Density (gm/cm³)
EQUIV	QUANT	7.00000E+000	Equiv. &Wt
CONDIT	TWOPARAM	F	6.00000E+001	0.00000E+000	Conditionin&g	Time(s)	E(V)
DELAY	TWOPARAM	T	6.00000E+001	0.00000E+000	Init. De&lay	Time(s)	Stab.(mV/s)
SPEED	SELECTOR	1	&Optimize for:
ZGUESS	QUANT	1.00000E+002	E&stimated Z (ohms)
OCVCURVE	TABLE	232
	Pt	T	Vf	Vm	Ach	Over
	#	s	V vs. Ref.	V	V	bits
	0	0.258332	-5.01275E-002	3.61843E-006	2.36600E-004	......
	1	0.516663	-5.01475E-002	3.61843E-006	2.36600E-004	......
	2	0.774994	-5.01575E-002	3.61843E-006	1.36600E-004	......
	3	1.03333	-5.01625E-002	3.61843E-006	2.36600E-004	......
	4	1.29166	-5.01825E-002	3.61843E-006	3.36600E-004	......
	5	1.54999	-5.02025E-002	3.61843E-006	3.36600E-004	......
	6	1.80832	-5.02125E-002	3.61843E-006	3.36600E-004	......
	7	2.06665	-5.02375E-002	3.61843E-006	2.36600E-004	......
	8	2.32498	-5.02425E-002	3.61843E-006	2.36600E-004	......
	9	2.58332	-5.02625E-002	3.61843E-006	2.36600E-004	......
	10	2.84165	-5.02775E-002	3.61843E-006	3.36600E-004	......
	11	3.09998	-5.02975E-002	3.61843E-006	2.36600E-004	......
	12	3.35831	-5.03275E-002	3.61843E-006	3.36600E-004	......
	13	3.61664	-5.03225E-002	3.61843E-006	3.36600E-004	......
	14	3.87497	-5.03425E-002	3.61843E-006	3.36600E-004	......
	15	4.1333	-5.03575E-002	3.61843E-006	2.36600E-004	......
	16	4.39164	-5.03825E-002	3.61843E-006	2.36600E-004	......
	17	4.64997	-5.04025E-002	3.61843E-006	3.36600E-004	......
	18	4.9083	-5.04175E-002	3.61843E-006	2.36600E-004	......
	19	5.16663	-5.04325E-002	3.61843E-006	2.36600E-004	......
	20	5.42496	-5.04575E-002	3.61843E-006	2.36600E-004	......
	21	5.68329	-5.04625E-002	3.61843E-006	3.36600E-004	......
	22	5.94162	-5.04875E-002	3.61843E-006	3.36600E-004	......
	23	6.19996	-5.05175E-002	3.61843E-006	1.36600E-004	......
	24	6.45829	-5.05225E-002	3.61843E-006	2.36600E-004	......
	25	6.71662	-5.05425E-002	3.61843E-006	2.36600E-004	......
	26	6.97495	-5.05575E-002	3.61843E-006	2.36600E-004	......
	27	7.23328	-5.05875E-002	3.61843E-006	1.36600E-004	......
	28	7.49161	-5.06075E-002	3.61843E-006	2.36600E-004	......
	29	7.74995	-5.06175E-002	3.61843E-006	3.36600E-004	......
	30	8.00828	-5.06475E-002	3.61843E-006	2.36600E-004	......
	31	8.26661	-5.06625E-002	3.61843E-006	3.36600E-004	......
	32	8.52494	-5.06725E-002	3.61843E-006	3.36600E-004	......
	33	8.78327	-5.06975E-002	3.61843E-006	2.36600E-004	......
	34	9.0416	-5.07225E-002	3.61843E-006	3.36600E-004	......
	35	9.29993	-5.07375E-002	3.61843E-006	3.36600E-004	......
	36	9.5583	-5.07475E-002	3.61843E-006	2.36600E-004	......
	37	9.8166	-5.07675E-002	3.61843E-006	2.36600E-004	......
	38	10.0749	-5.07875E-002	3.61843E-006	2.36600E-004	......
	39	10.3333	-5.08025E-002	3.61843E-006	3.36600E-004	......
	40	10.5916	-5.08275E-002	3.61843E-006	2.36600E-004	......
	41	10.8499	-5.08475E-002	3.61843E-006	2.36600E-004	......
	42	11.1083	-5.08575E-002	3.61843E-006	2.36600E-004	......
	43	11.3666	-5.08825E-002	3.61843E-006	3.66000E-005	......
	44	11.6249	-5.09125E-002	3.61843E-006	2.36600E-004	......
	45	11.8832	-5.09175E-002	3.61843E-006	2.36600E-004	......
	46	12.1416	-5.09375E-002	3.61843E-006	3.66000E-005	......
	47	12.3999	-5.09525E-002	3.61843E-006	2.36600E-004	......
	48	12.6582	-5.09775E-002	3.61843E-006	2.36600E-004	......
	49	12.9166	-5.09925E-002	3.61843E-006	3.36600E-004	......
	50	13.1749	-5.10075E-002	3.61843E-006	1.36600E-004	......
	51	13.4332	-5.10325E-002	3.61843E-006	2.36600E-004	......
	52	13.6916	-5.10425E-002	3.61843E-006	2.36600E-004	......
	53	13.9499	-5.10725E-002	3.61843E-006	3.36600E-004	......
	54	14.2082	-5.10725E-002	3.61843E-006	2.36600E-004	......
	55	14.4666	-5.10975E-002	3.61843E-006	2.36600E-004	......
	56	14.7249	-5.11225E-002	3.61843E-006	2.36600E-004	......
	57	14.9832	-5.11375E-002	3.61843E-006	2.36600E-004	......
	58	15.2416	-5.11575E-002	3.61843E-006	3.36600E-004	......
	59	15.4999	-5.11675E-002	3.61843E-006	3.36600E-004	......
	60	15.7582	-5.11975E-002	3.61843E-006	1.36600E-004	......
	61	16.0166	-5.12025E-002	3.61843E-006	3.36600E-004	......
	62	16.2749	-5.12275E-002	3.61843E-006	2.36600E-004	......
	63	16.5332	-5.12425E-002	3.61843E-006	1.36600E-004	......
	64	16.7915	-5.12575E-002	3.61843E-006	3.66000E-005	......
	65	17.0499	-5.12725E-002	3.61843E-006	3.66000E-005	......
	66	17.3082	-5.12925E-002	3.61843E-006	2.36600E-004	......
	67	17.5665	-5.13125E-002	3.61843E-006	2.36600E-004	......
	68	17.8249	-5.13275E-002	3.61843E-006	2.36600E-004	......
	69	18.0832	-5.13475E-002	3.61843E-006	3.36600E-004	......
	70	18.3415	-5.13675E-002	3.61843E-006	1.36600E-004	......
	71	18.5999	-5.13825E-002	3.61843E-006	3.36600E-004	......
	72	18.8582	-5.13975E-002	3.61843E-006	3.36600E-004	......
	73	19.1165	-5.14175E-002	3.61843E-006	3.36600E-004	......
	74	19.3749	-5.14225E-002	3.61843E-006	2.36600E-004	......
	75	19.6332	-5.14475E-002	3.61843E-006	3.36600E-004	......
	76	19.8915	-5.14525E-002	3.61843E-006	2.36600E-004	......
	77	20.1499	-5.14675E-002	3.61843E-006	3.36600E-004	......
	78	20.4082	-5.14875E-002	3.61843E-006	1.36600E-004	......
	79	20.6665	-5.15125E-002	3.61843E-006	2.36600E-004	......
	80	20.9249	-5.15175E-002	3.61843E-006	2.36600E-004	......
	81	21.1832	-5.15375E-002	3.61843E-006	3.66000E-005	......
	82	21.4415	-5.15575E-002	3.61843E-006	3.36600E-004	......
	83	21.6998	-5.15625E-002	3.61843E-006	3.66000E-005	......
	84	21.9582	-5.15875E-002	3.61843E-006	3.36600E-004	......
	85	22.2165	-5.15925E-002	3.61843E-006	2.36600E-004	......
	86	22.4748	-5.16125E-002	3.61843E-006	2.36600E-004	......
	87	22.7332	-5.16275E-002	3.61843E-006	2.36600E-004	......
	88	22.9915	-5.16475E-002	3.61843E-006	2.36600E-004	......
	89	23.2498	-5.16625E-002	3.61843E-006	1.36600E-004	......
	90	23.5082	-5.16775E-002	3.61843E-006	2.36600E-004	......
	91	23.7665	-5.16925E-002	3.61843E-006	3.36600E-004	......
	92	24.0248	-5.17025E-002	3.61843E-006	2.36600E-004	......
	93	24.2832	-5.17125E-002	3.61843E-006	2.36600E-004	......
	94	24.5415	-5.17375E-002	3.61843E-006	3.36600E-004	......
	95	24.7998	-5.17525E-002	3.61843E-006	1.36600E-004	......
	96	25.0582	-5.17675E-002	3.61843E-006	2.36600E-004	......
	97	25.3165	-5.17725E-002	3.61843E-006	2.36600E-004	......
	98	25.5748	-5.18025E-002	3.61843E-006	3.36600E-004	......
	99	25.8332	-5.18075E-002	3.61843E-006	2.36600E-004	......
	100	26.0915	-5.18175E-002	3.61843E-006	2.36600E-004	......
	101	26.3498	-5.18425E-002	3.61843E-006	3.36600E-004	......
	102	26.6081	-5.18525E-002	3.61843E-006	2.36600E-004	......
	103	26.8665	-5.18675E-002	3.61843E-006	2.36600E-004	......
	104	27.1248	-5.18825E-002	3.61843E-006	2.36600E-004	......
	105	27.3831	-5.19025E-002	3.61843E-006	2.36600E-004	......
	106	27.6415	-5.19075E-002	3.61843E-006	2.36600E-004	......
	107	27.8998	-5.19225E-002	3.61843E-006	2.36600E-004	......
	108	28.1581	-5.19325E-002	3.61843E-006	3.36600E-004	......
	109	28.4165	-5.19575E-002	3.61843E-006	3.36600E-004	......
	110	28.6748	-5.19625E-002	3.61843E-006	2.36600E-004	......
	111	28.9331	-5.19725E-002	3.61843E-006	2.36600E-004	......
	112	29.1915	-5.20025E-002	3.61843E-006	3.36600E-004	......
	113	29.4498	-5.20075E-002	3.61843E-006	3.36600E-004	......
	114	29.7081	-5.20175E-002	3.61843E-006	2.36600E-004	......
	115	29.9665	-5.20425E-002	3.61843E-006	3.36600E-004	......
	116	30.2248	-5.20425E-002	3.61843E-006	3.36600E-004	......
	117	30.4831	-5.20675E-002	3.61843E-006	1.36600E-004	......
	118	30.7414	-5.20825E-002	3.61843E-006	3.36600E-004	......
	119	30.9998	-5.20825E-002	3.61843E-006	1.36600E-004	......
	120	31.2581	-5.20925E-002	3.61843E-006	1.36600E-004	......
	121	31.5164	-5.21175E-002	3.61843E-006	2.36600E-004	......
	122	31.7748	-5.21375E-002	3.61843E-006	3.36600E-004	......
	123	32.0331	-5.21375E-002	3.61843E-006	3.36600E-004	......
	124	32.2914	-5.21475E-002	3.61843E-006	3.36600E-004	......
	125	32.5498	-5.21725E-002	3.61843E-006	3.36600E-004	......
	126	32.8081	-5.21775E-002	3.61843E-006	1.36600E-004	......
	127	33.0664	-5.21875E-002	3.61843E-006	3.66000E-005	......
	128	33.3248	-5.21975E-002	3.61843E-006	2.36600E-004	......
	129	33.5831	-5.22125E-002	3.61843E-006	3.66000E-005	......
	130	33.8414	-5.22275E-002	3.61843E-006	3.36600E-004	......
	131	34.0998	-5.22375E-002	3.61843E-006	2.36600E-004	......
	132	34.3581	-5.22625E-002	3.61843E-006	3.36600E-004	......
	133	34.6164	-5.22675E-002	3.61843E-006	2.36600E-004	......
	134	34.8748	-5.22825E-002	3.61843E-006	3.36600E-004	......
	135	35.1331	-5.22975E-002	3.61843E-006	2.36600E-004	......
	136	35.3914	-5.23025E-002	3.61843E-006	3.36600E-004	......
	137	35.6497	-5.23225E-002	3.61843E-006	2.36600E-004	......
	138	35.9081	-5.23275E-002	3.61843E-006	3.36600E-004	......
	139	36.1664	-5.23375E-002	3.61843E-006	2.36600E-004	......
	140	36.4247	-5.23425E-002	3.61843E-006	2.36600E-004	......
	141	36.6831	-5.23575E-002	3.61843E-006	3.36600E-004	......
	142	36.9414	-5.23725E-002	3.61843E-006	3.66000E-005	......
	143	37.1997	-5.23825E-002	3.61843E-006	3.36600E-004	......
	144	37.4581	-5.23975E-002	3.61843E-006	2.36600E-004	......
	145	37.7164	-5.24125E-002	3.61843E-006	2.36600E-004	......
	146	37.9747	-5.24125E-002	3.61843E-006	2.36600E-004	......
	147	38.2331	-5.24325E-002	3.61843E-006	2.36600E-004	......
	148	38.4914	-5.24425E-002	3.61843E-006	3.36600E-004	......
	149	38.7497	-5.24675E-002	3.61843E-006	2.36600E-004	......
	150	39.0081	-5.24775E-002	3.61843E-006	4.36600E-004	......
	151	39.2664	-5.24675E-002	3.61843E-006	2.36600E-004	......
	152	39.5247	-5.24975E-002	3.61843E-006	2.36600E-004	......
	153	39.7831	-5.24925E-002	3.61843E-006	2.36600E-004	......
	154	40.0414	-5.25175E-002	3.61843E-006	3.36600E-004	......
	155	40.2997	-5.25325E-002	3.61843E-006	2.36600E-004	......
	156	40.558	-5.25325E-002	3.61843E-006	2.36600E-004	......
	157	40.8164	-5.25525E-002	3.61843E-006	2.36600E-004	......
	158	41.0747	-5.25525E-002	3.61843E-006	3.36600E-004	......
	159	41.333	-5.25775E-002	3.61843E-006	2.36600E-004	......
	160	41.5914	-5.25875E-002	3.61843E-006	3.36600E-004	......
	161	41.8497	-5.25825E-002	3.61843E-006	2.36600E-004	......
	162	42.108	-5.26025E-002	3.61843E-006	2.36600E-004	......
	163	42.3664	-5.26175E-002	3.61843E-006	3.36600E-004	......
	164	42.6247	-5.26225E-002	3.61843E-006	2.36600E-004	......
	165	42.883	-5.26425E-002	3.61843E-006	3.36600E-004	......
	166	43.1414	-5.26525E-002	3.61843E-006	2.36600E-004	......
	167	43.3997	-5.26575E-002	3.61843E-006	2.36600E-004	......
	168	43.658	-5.26725E-002	3.61843E-006	2.36600E-004	......
	169	43.9164	-5.26875E-002	3.61843E-006	2.36600E-004	......
	170	44.1747	-5.26975E-002	3.61843E-006	2.36600E-004	......
	171	44.433	-5.26975E-002	3.61843E-006	2.36600E-004	......
	172	44.6913	-5.27025E-002	3.61843E-006	2.36600E-004	......
	173	44.9497	-5.27225E-002	3.61843E-006	3.36600E-004	......
	174	45.208	-5.27225E-002	3.61843E-006	2.36600E-004	......
	175	45.4663	-5.27325E-002	3.61843E-006	3.36600E-004	......
	176	45.7247	-5.27525E-002	3.61843E-006	2.36600E-004	......
	177	45.983	-5.27675E-002	3.61843E-006	2.36600E-004	......
	178	46.2413	-5.27725E-002	3.61843E-006	3.36600E-004	......
	179	46.4997	-5.27825E-002	3.61843E-006	3.66000E-005	......
	180	46.758	-5.27925E-002	3.61843E-006	3.66000E-005	......
	181	47.0163	-5.28025E-002	3.61843E-006	2.36600E-004	......
	182	47.2747	-5.28025E-002	3.61843E-006	3.36600E-004	......
	183	47.533	-5.28275E-002	3.61843E-006	2.36600E-004	......
	184	47.7913	-5.28275E-002	3.61843E-006	2.36600E-004	......
	185	48.0497	-5.28375E-002	3.61843E-006	3.36600E-004	......
	186	48.308	-5.28575E-002	3.61843E-006	1.36600E-004	......
	187	48.5663	-5.28625E-002	3.61843E-006	3.36600E-004	......
	188	48.8247	-5.28775E-002	3.61843E-006	3.36600E-004	......
	189	49.083	-5.28775E-002	3.61843E-006	2.36600E-004	......
	190	49.3413	-5.28925E-002	3.61843E-006	2.36600E-004	......
	191	49.5996	-5.29075E-002	3.61843E-006	3.36600E-004	......
	192	49.858	-5.29025E-002	3.61843E-006	1.36600E-004	......
	193	50.1163	-5.29225E-002	3.61843E-006	3.36600E-004	......
	194	50.3746	-5.29325E-002	3.61843E-006	2.36600E-004	......
	195	50.633	-5.29375E-002	3.61843E-006	2.36600E-004	......
	196	50.8913	-5.29375E-002	3.61843E-006	2.36600E-004	......
	197	51.1496	-5.29625E-002	3.61843E-006	2.36600E-004	......
	198	51.408	-5.29625E-002	3.61843E-006	2.36600E-004	......
	199	51.6663	-5.29775E-002	3.61843E-006	2.36600E-004	......
	200	51.9246	-5.29875E-002	3.61843E-006	3.36600E-004	......
	201	52.183	-5.29875E-002	3.61843E-006	2.36600E-004	......
	202	52.4413	-5.30025E-002	3.61843E-006	2.36600E-004	......
	203	52.6996	-5.30175E-002	3.61843E-006	2.36600E-004	......
	204	52.958	-5.30275E-002	3.61843E-006	3.36600E-004	......
	205	53.2163	-5.30375E-002	3.61843E-006	3.36600E-004	......
	206	53.4746	-5.30425E-002	3.61843E-006	2.36600E-004	......
	207	53.733	-5.30475E-002	3.61843E-006	4.36600E-004	......
	208	53.9913	-5.30575E-002	3.61843E-006	2.36600E-004	......
	209	54.2496	-5.30625E-002	3.61843E-006	2.36600E-004	......
	210	54.5079	-5.30775E-002	3.61843E-006	3.36600E-004	......
	211	54.7663	-5.30775E-002	3.61843E-006	2.36600E-004	......
	212	55.0246	-5.30875E-002	3.61843E-006	3.36600E-004	......
	213	55.2829	-5.30975E-002	3.61843E-006	2.36600E-004	......
	214	55.5413	-5.31225E-002	3.61843E-006	3.36600E-004	......
	215	55.7996	-5.31225E-002	3.61843E-006	2.36600E-004	......
	216	56.0579	-5.31275E-002	3.61843E-006	2.36600E-004	......
	217	56.3163	-5.31275E-002	3.61843E-006	3.36600E-004	......
	218	56.5746	-5.31475E-002	3.61843E-006	2.36600E-004	......
	219	56.8329	-5.31475E-002	3.61843E-006	2.36600E-004	......
	220	57.0913	-5.31625E-002	3.61843E-006	2.36600E-004	......
	221	57.3496	-5.31625E-002	3.61843E-006	2.36600E-004	......
	222	57.6079	-5.31775E-002	3.61843E-006	3.36600E-004	......
	223	57.8663	-5.31775E-002	3.61843E-006	3.36600E-004	......
	224	58.1246	-5.31975E-002	3.61843E-006	2.36600E-004	......
	225	58.3829	-5.32125E-002	3.61843E-006	2.36600E-004	......
	226	58.6413	-5.31975E-002	3.61843E-006	2.36600E-004	......
	227	58.8996	-5.32175E-002	3.61843E-006	3.66000E-005	......
	228	59.1579	-5.32225E-002	3.61843E-006	1.36600E-004	......
	229	59.4162	-5.32375E-002	3.61843E-006	3.36600E-004	......
	230	59.6746	-5.32475E-002	3.61843E-006	2.36600E-004	......
	231	59.9329	-5.32425E-002	3.61843E-006	3.36600E-004	......
EOC	QUANT	-0.053243	Open Circuit (V)
PSTATMODEL	IQUANT	32	Pstat Model
PSTATSECTION	LABEL	PStat0	Pstat Section
CTRLMODE	IQUANT	1	Control Mode
IESTAB	IQUANT	0	I/E Stability
CASPEED	IQUANT	1	Control Amp Speed
CONVENTION	IQUANT	1	Current Convention
ICHRANGE	IQUANT	2	Ich Range
ICHRANGEMODE	TOGGLE	F	Ich Auto Range
ICHOFFSETENABLE	TOGGLE	T	Ich Offset Enable
ICHOFFSET	QUANT	0	Ich Offset (V)
ICHFILTER	IQUANT	3	Ich Filter
VCHRANGE	IQUANT	2	Vch Range
VCHRANGEMODE	TOGGLE	F	Vch Auto Range
VCHOFFSETENABLE	TOGGLE	T	Vch Offset Enable
VCHOFFSET	QUANT	0	Vch Offset (V)
VCHFILTER	IQUANT	3	Vch Filter
ACHRANGE	IQUANT	0	Ach Range
IERANGELOWERLIMIT	IQUANT	3	I/E Range Lower Limit
IERANGEMODE	TOGGLE	F	I/E AutoRange
IERANGE	IQUANT	11	I/E Range
POSFEEDENABLE	TOGGLE	F	Positive Feedback IR Comp
POSFEEDRESISTANCE	QUANT	0	Positive Feedback Resistance (ohm)
FC350IDIVISOR	IQUANT	0	FC350 I Divisor
FC350VRANGE	IQUANT	0	FC350 V Range
FRAMEWORKVERSION	QUANT	4.35	Framework Version
ZCURVE	TABLE
	Pt	Time	Freq	Zreal	Zimag	Zsig	Zmod	Zphz	Idc	Vdc	IERange
	#	s	Hz	ohm	ohm	V	ohm	°	A	V	#
	0	6	100007	56.1327	-0.163152	1	56.1329	-0.166532	4.82361E-006	-0.052004	10
	1	10	89134.1	55.5048	-0.220815	1	55.5052	-0.227939	6.84876E-006	-0.052013	10
	2	14	79433.6	55.4788	-0.101752	1	55.4789	-0.105085	6.78753E-006	-0.052016	10
	3	17	70800.8	55.1549	-0.587602	1	55.1581	-0.610386	5.24378E-006	-0.051986	10
	4	21	63105.5	54.875	-0.277235	1	54.8757	-0.289462	7.10538E-006	-0.051993	10
	5	25	56243.5	55.3502	-0.636504	1	55.3539	-0.658847	5.41876E-006	-0.05198	10
	6	28	50123.7	54.903	-0.340005	1	54.904	-0.354819	6.39625E-006	-0.05198	10
	7	32	44681	54.8559	-0.572708	1	54.8589	-0.598159	6.97822E-006	-0.05199	10
	8	36	39811.2	53.7107	-0.857544	1	53.7175	-0.914706	5.12815E-006	-0.051982	10
	9	40	35488.3	54.7646	-0.739245	1	54.7696	-0.773365	6.79161E-006	-0.052008	10
	10	43	31634.1	55.0909	-0.21775	1	55.0914	-0.226463	6.92932E-006	-0.051982	10
	11	47	28173.1	55.02	-1.0108	1	55.0293	-1.05249	5.80902E-006	-0.051993	10
	12	52	25123.7	54.7473	-0.8558	1	54.754	-0.895564	5.60341E-006	-0.052023	10
	13	56	22389.3	54.827	-1.00894	1	54.8363	-1.05426	5.46343E-006	-0.052021	10
	14	60	19954.4	54.9582	-0.910024	1	54.9657	-0.948644	6.24642E-006	-0.051988	10
	15	64	17778.2	54.9903	-0.98928	1	54.9992	-1.03064	5.74056E-006	-0.052	10
	16	66	15852.9	54.8359	-1.43115	1	54.8545	-1.49501	4.95689E-006	-0.051988	10
	17	70	14122.3	55.5969	-1.17967	1	55.6094	-1.21553	5.66383E-006	-0.051994	10
	18	75	12587.2	55.0078	-1.41424	1	55.026	-1.47274	5.5975E-006	-0.051994	10
	19	79	11221.1	55.3284	-1.9144	1	55.3615	-1.98169	5.67847E-006	-0.052	10
	20	83	9998.2	55.2605	-1.87412	1	55.2923	-1.9424	5.66873E-006	-0.051992	10
	21	86	8912.76	55.6374	-1.9557	1	55.6718	-2.01316	6.76924E-006	-0.051991	10
	22	90	7942.6	55.2072	-1.87942	1	55.2392	-1.94977	5.74311E-006	-0.052007	10
	23	94	7078.05	55.3253	-2.56008	1	55.3845	-2.64938	5.64849E-006	-0.051997	10
	24	98	6311.1	55.2343	-2.28661	1	55.2816	-2.3706	5.75209E-006	-0.051998	10
	25	102	5622.14	56.138	-2.27524	1	56.1841	-2.32089	5.61104E-006	-0.051995	10
	26	106	5011.18	56.2014	-2.4625	1	56.2553	-2.50885	5.66549E-006	-0.05199	10
	27	109	4465.21	55.7299	-3.1289	1	55.8176	-3.21345	5.70849E-006	-0.052001	10
	28	113	3980.93	56.499	-3.21494	1	56.5904	-3.25677	5.94916E-006	-0.051985	10
	29	117	3548.18	55.9369	-3.44604	1	56.0429	-3.52529	6.79467E-006	-0.051993	10
	30	121	3162.67	55.946	-3.6452	1	56.0646	-3.72787	6.10146E-006	-0.051986	10
	31	125	2819.01	56.7976	-3.99295	1	56.9377	-4.02136	4.84423E-006	-0.051993	10
	32	129	2511.16	56.4906	-4.48024	1	56.668	-4.53461	5.59319E-006	-0.05199	10
	33	132	2238.63	56.3626	-5.10344	1	56.5931	-5.17383	5.64536E-006	-0.051993	10
	34	136	1995.37	56.588	-5.20858	1	56.8272	-5.25891	5.63133E-006	-0.051995	10
	35	140	1778.51	57.2375	-5.63898	1	57.5146	-5.62657	5.65732E-006	-0.052	10
	36	144	1584.49	57.0149	-6.32023	1	57.3641	-6.32554	5.53189E-006	-0.051999	10
	37	148	1412.76	57.1693	-6.85174	1	57.5784	-6.8343	5.80557E-006	-0.051971	10
	38	151	1259.04	57.3357	-7.76797	1	57.8595	-7.71558	5.51348E-006	-0.05199	10
	39	156	1121.63	57.7039	-8.79189	1	58.3699	-8.66307	5.41998E-006	-0.05199	10
	40	160	999.95	58.1488	-9.24925	1	58.8799	-9.03785	5.45705E-006	-0.051995	10
	41	164	891.184	58.2193	-10.0961	1	59.0882	-9.8381	5.35807E-006	-0.051996	10
	42	168	794.163	58.7363	-10.6863	1	59.7005	-10.3114	5.35483E-006	-0.051989	10
	43	172	707.867	59.3395	-12.3133	1	60.6036	-11.7229	6.5037E-006	-0.051969	10
	44	175	630.984	59.0363	-13.0903	1	60.4701	-12.5021	5.43111E-006	-0.05199	10
	45	179	562.189	59.4811	-15.0596	1	61.3579	-14.2077	5.73455E-006	-0.051976	10
	46	183	501.303	59.9762	-15.8484	1	62.0348	-14.8018	5.44333E-006	-0.051993	10
	47	185	446.614	60.4226	-17.4207	1	62.8838	-16.083	5.43955E-006	-0.051995	10
	48	187	398.209	60.9888	-19.1835	1	63.9346	-17.4605	5.58711E-006	-0.051994	10
	49	189	354.821	61.5144	-21.0616	1	65.0201	-18.9004	5.60597E-006	-0.051985	10
	50	191	316.113	62.1311	-23.0927	1	66.2838	-20.389	5.63026E-006	-0.051995	10
	51	193	281.926	62.718	-25.4079	1	67.6691	-22.0535	5.52944E-006	-0.051996	10
	52	195	251.185	63.4327	-27.9506	1	69.3177	-23.7799	5.59065E-006	-0.051995	10
	53	197	223.946	64.3629	-30.5969	1	71.2654	-25.4255	5.74252E-006	-0.051992	10
	54	199	199.495	65.1836	-33.6439	1	73.354	-27.3001	5.61591E-006	-0.051981	10
	55	201	177.836	66.0803	-37.0273	1	75.7471	-29.2635	5.49794E-006	-0.05199	10
