EXPLAIN
TAG	EISPOT
TITLE	LABEL	Tomato_open	Test &Identifier
DATE	LABEL	5/16/2006	Date
TIME	LABEL	20:15:22	Time
NOTES	NOTES	1	&Notes...
	
PSTAT	PSTAT	300	Potentiostat
VDC	POTEN	1.00000E-003	T	DC &Voltage (V)
FREQINIT	QUANT	1.00000E+005	Initial Fre&q. (Hz)
FREQFINAL	QUANT	1.00000E+001	Final Fre&q. (Hz)
PTSPERDEC	QUANT	2.00000E+001	Points/&decade
VAC	QUANT	1.00000E+000	AC &Voltage (mV rms)
AREA	QUANT	1.00000E+000	&Area (cm²)
DENSITY	QUANT	7.87000E+000	&Density (gm/cm³)
EQUIV	QUANT	7.00000E+000	Equiv. &Wt
CONDIT	TWOPARAM	F	6.00000E+001	0.00000E+000	Conditionin&g	Time(s)	E(V)
DELAY	TWOPARAM	T	6.00000E+001	0.00000E+000	Init. De&lay	Time(s)	Stab.(mV/s)
SPEED	SELECTOR	1	&Optimize for:
ZGUESS	QUANT	1.00000E+002	E&stimated Z (ohms)
OCVCURVE	TABLE	232
	Pt	T	Vf	Vm	Ach	Over
	#	s	V vs. Ref.	V	V	bits
	0	0.258332	-8.02475E-002	3.57343E-006	-1.63400E-004	......
	1	0.516663	-8.02525E-002	3.57343E-006	3.66000E-005	......
	2	0.774994	-8.02625E-002	3.57343E-006	-1.63400E-004	......
	3	1.03333	-8.02575E-002	3.57343E-006	3.66000E-005	......
	4	1.29166	-8.02625E-002	3.57343E-006	-6.34000E-005	......
	5	1.54999	-8.02625E-002	3.57343E-006	3.66000E-005	......
	6	1.80832	-8.02775E-002	3.57343E-006	-6.34000E-005	......
	7	2.06665	-8.02725E-002	3.57343E-006	3.66000E-005	......
	8	2.32498	-8.02925E-002	3.57343E-006	-6.34000E-005	......
	9	2.58332	-8.02875E-002	3.57343E-006	3.66000E-005	......
	10	2.84165	-8.02975E-002	3.57343E-006	-1.63400E-004	......
	11	3.09998	-8.03025E-002	3.57343E-006	3.66000E-005	......
	12	3.35831	-8.03025E-002	3.57343E-006	-2.63400E-004	......
	13	3.61664	-8.03125E-002	3.57343E-006	1.36600E-004	......
	14	3.87497	-8.03225E-002	3.57343E-006	-1.63400E-004	......
	15	4.1333	-8.03325E-002	3.57343E-006	1.36600E-004	......
	16	4.39164	-8.03375E-002	3.57343E-006	-6.34000E-005	......
	17	4.64997	-8.03375E-002	3.57343E-006	3.66000E-005	......
	18	4.9083	-8.03475E-002	3.57343E-006	3.66000E-005	......
	19	5.16663	-8.03625E-002	3.57343E-006	3.66000E-005	......
	20	5.42496	-8.03725E-002	3.57343E-006	-6.34000E-005	......
	21	5.68329	-8.03775E-002	3.57343E-006	1.36600E-004	......
	22	5.94162	-8.03925E-002	3.57343E-006	-1.63400E-004	......
	23	6.19996	-8.03825E-002	3.57343E-006	2.36600E-004	......
	24	6.45829	-8.03975E-002	3.57343E-006	-6.34000E-005	......
	25	6.71662	-8.04025E-002	3.57343E-006	3.66000E-005	......
	26	6.97495	-8.04075E-002	3.57343E-006	-1.63400E-004	......
	27	7.23328	-8.04225E-002	3.57343E-006	3.66000E-005	......
	28	7.49161	-8.04225E-002	3.57343E-006	-1.63400E-004	......
	29	7.74995	-8.04375E-002	3.57343E-006	3.66000E-005	......
	30	8.00828	-8.04475E-002	3.57343E-006	3.66000E-005	......
	31	8.26661	-8.04575E-002	3.57343E-006	3.66000E-005	......
	32	8.52494	-8.04625E-002	3.57343E-006	-1.63400E-004	......
	33	8.78327	-8.04775E-002	3.57343E-006	3.66000E-005	......
	34	9.0416	-8.04775E-002	3.57343E-006	-1.63400E-004	......
	35	9.29993	-8.04925E-002	3.57343E-006	3.66000E-005	......
	36	9.5583	-8.04925E-002	3.57343E-006	-1.63400E-004	......
	37	9.8166	-8.05025E-002	3.57343E-006	1.36600E-004	......
	38	10.0749	-8.05175E-002	3.57343E-006	-1.63400E-004	......
	39	10.3333	-8.05175E-002	3.57343E-006	2.36600E-004	......
	40	10.5916	-8.05325E-002	3.57343E-006	-1.63400E-004	......
	41	10.8499	-8.05475E-002	3.57343E-006	3.66000E-005	......
	42	11.1083	-8.05425E-002	3.57343E-006	-1.63400E-004	......
	43	11.3666	-8.05525E-002	3.57343E-006	3.66000E-005	......
	44	11.6249	-8.05725E-002	3.57343E-006	-1.63400E-004	......
	45	11.8832	-8.05625E-002	3.57343E-006	3.66000E-005	......
	46	12.1416	-8.05775E-002	3.57343E-006	-1.63400E-004	......
	47	12.3999	-8.05825E-002	3.57343E-006	3.66000E-005	......
	48	12.6582	-8.05975E-002	3.57343E-006	-1.63400E-004	......
	49	12.9166	-8.05975E-002	3.57343E-006	-6.34000E-005	......
	50	13.1749	-8.06075E-002	3.57343E-006	-1.63400E-004	......
	51	13.4332	-8.06125E-002	3.57343E-006	3.66000E-005	......
	52	13.6916	-8.06275E-002	3.57343E-006	-1.63400E-004	......
	53	13.9499	-8.06275E-002	3.57343E-006	3.66000E-005	......
	54	14.2082	-8.06375E-002	3.57343E-006	-6.34000E-005	......
	55	14.4666	-8.06475E-002	3.57343E-006	3.66000E-005	......
	56	14.7249	-8.06625E-002	3.57343E-006	-1.63400E-004	......
	57	14.9832	-8.06625E-002	3.57343E-006	2.36600E-004	......
	58	15.2416	-8.06675E-002	3.57343E-006	-6.34000E-005	......
	59	15.4999	-8.06925E-002	3.57343E-006	3.66000E-005	......
	60	15.7582	-8.06975E-002	3.57343E-006	-6.34000E-005	......
	61	16.0166	-8.07025E-002	3.57343E-006	3.66000E-005	......
	62	16.2749	-8.07025E-002	3.57343E-006	-1.63400E-004	......
	63	16.5332	-8.07175E-002	3.57343E-006	3.66000E-005	......
	64	16.7915	-8.07225E-002	3.57343E-006	-2.63400E-004	......
	65	17.0499	-8.07225E-002	3.57343E-006	3.66000E-005	......
	66	17.3082	-8.07425E-002	3.57343E-006	-6.34000E-005	......
	67	17.5665	-8.07375E-002	3.57343E-006	3.66000E-005	......
	68	17.8249	-8.07425E-002	3.57343E-006	-1.63400E-004	......
	69	18.0832	-8.07575E-002	3.57343E-006	3.66000E-005	......
	70	18.3415	-8.07675E-002	3.57343E-006	-1.63400E-004	......
	71	18.5999	-8.07825E-002	3.57343E-006	1.36600E-004	......
	72	18.8582	-8.07825E-002	3.57343E-006	-6.34000E-005	......
	73	19.1165	-8.07825E-002	3.57343E-006	3.66000E-005	......
	74	19.3749	-8.07975E-002	3.57343E-006	-1.63400E-004	......
	75	19.6332	-8.07975E-002	3.57343E-006	2.36600E-004	......
	76	19.8915	-8.08025E-002	3.57343E-006	-1.63400E-004	......
	77	20.1499	-8.08225E-002	3.57343E-006	2.36600E-004	......
	78	20.4082	-8.08175E-002	3.57343E-006	-1.63400E-004	......
	79	20.6665	-8.08325E-002	3.57343E-006	2.36600E-004	......
	80	20.9249	-8.08325E-002	3.57343E-006	-1.63400E-004	......
	81	21.1832	-8.08425E-002	3.57343E-006	2.36600E-004	......
	82	21.4415	-8.08525E-002	3.57343E-006	-6.34000E-005	......
	83	21.6998	-8.08525E-002	3.57343E-006	3.66000E-005	......
	84	21.9582	-8.08625E-002	3.57343E-006	-1.63400E-004	......
	85	22.2165	-8.08625E-002	3.57343E-006	3.66000E-005	......
	86	22.4748	-8.08675E-002	3.57343E-006	-1.63400E-004	......
	87	22.7332	-8.08825E-002	3.57343E-006	3.66000E-005	......
	88	22.9915	-8.08875E-002	3.57343E-006	-6.34000E-005	......
	89	23.2498	-8.08875E-002	3.57343E-006	3.66000E-005	......
	90	23.5082	-8.08975E-002	3.57343E-006	-1.63400E-004	......
	91	23.7665	-8.09025E-002	3.57343E-006	3.66000E-005	......
	92	24.0248	-8.09025E-002	3.57343E-006	-6.34000E-005	......
	93	24.2832	-8.09075E-002	3.57343E-006	2.36600E-004	......
	94	24.5415	-8.09225E-002	3.57343E-006	-1.63400E-004	......
	95	24.7998	-8.09225E-002	3.57343E-006	3.66000E-005	......
	96	25.0582	-8.09275E-002	3.57343E-006	-1.63400E-004	......
	97	25.3165	-8.09375E-002	3.57343E-006	1.36600E-004	......
	98	25.5748	-8.09375E-002	3.57343E-006	-6.34000E-005	......
	99	25.8332	-8.09475E-002	3.57343E-006	3.66000E-005	......
	100	26.0915	-8.09525E-002	3.57343E-006	-6.34000E-005	......
	101	26.3498	-8.09625E-002	3.57343E-006	2.36600E-004	......
	102	26.6081	-8.09675E-002	3.57343E-006	-1.63400E-004	......
	103	26.8665	-8.09675E-002	3.57343E-006	-6.34000E-005	......
	104	27.1248	-8.09825E-002	3.57343E-006	-1.63400E-004	......
	105	27.3831	-8.09775E-002	3.57343E-006	3.66000E-005	......
	106	27.6415	-8.09875E-002	3.57343E-006	-6.34000E-005	......
	107	27.8998	-8.09925E-002	3.57343E-006	2.36600E-004	......
	108	28.1581	-8.10125E-002	3.57343E-006	-1.63400E-004	......
	109	28.4165	-8.10025E-002	3.57343E-006	3.66000E-005	......
	110	28.6748	-8.10075E-002	3.57343E-006	-1.63400E-004	......
	111	28.9331	-8.10075E-002	3.57343E-006	2.36600E-004	......
	112	29.1915	-8.10225E-002	3.57343E-006	-1.63400E-004	......
	113	29.4498	-8.10225E-002	3.57343E-006	1.36600E-004	......
	114	29.7081	-8.10225E-002	3.57343E-006	-1.63400E-004	......
	115	29.9665	-8.10325E-002	3.57343E-006	3.66000E-005	......
	116	30.2248	-8.10325E-002	3.57343E-006	-1.63400E-004	......
	117	30.4831	-8.10525E-002	3.57343E-006	2.36600E-004	......
	118	30.7414	-8.10575E-002	3.57343E-006	-1.63400E-004	......
	119	30.9998	-8.10575E-002	3.57343E-006	1.36600E-004	......
	120	31.2581	-8.10575E-002	3.57343E-006	-1.63400E-004	......
	121	31.5164	-8.10625E-002	3.57343E-006	1.36600E-004	......
	122	31.7748	-8.10675E-002	3.57343E-006	-6.34000E-005	......
	123	32.0331	-8.10775E-002	3.57343E-006	2.36600E-004	......
	124	32.2914	-8.10725E-002	3.57343E-006	-6.34000E-005	......
	125	32.5498	-8.10825E-002	3.57343E-006	2.36600E-004	......
	126	32.8081	-8.10775E-002	3.57343E-006	-2.63400E-004	......
	127	33.0664	-8.10925E-002	3.57343E-006	1.36600E-004	......
	128	33.3248	-8.10975E-002	3.57343E-006	-1.63400E-004	......
	129	33.5831	-8.10975E-002	3.57343E-006	3.66000E-005	......
	130	33.8414	-8.11025E-002	3.57343E-006	-1.63400E-004	......
	131	34.0998	-8.10975E-002	3.57343E-006	3.66000E-005	......
	132	34.3581	-8.11175E-002	3.57343E-006	-6.34000E-005	......
	133	34.6164	-8.11175E-002	3.57343E-006	3.66000E-005	......
	134	34.8748	-8.11225E-002	3.57343E-006	-6.34000E-005	......
	135	35.1331	-8.11225E-002	3.57343E-006	1.36600E-004	......
	136	35.3914	-8.11275E-002	3.57343E-006	-1.63400E-004	......
	137	35.6497	-8.11325E-002	3.57343E-006	2.36600E-004	......
	138	35.9081	-8.11425E-002	3.57343E-006	-1.63400E-004	......
	139	36.1664	-8.11325E-002	3.57343E-006	3.66000E-005	......
	140	36.4247	-8.11425E-002	3.57343E-006	-1.63400E-004	......
	141	36.6831	-8.11425E-002	3.57343E-006	1.36600E-004	......
	142	36.9414	-8.11425E-002	3.57343E-006	-1.63400E-004	......
	143	37.1997	-8.11625E-002	3.57343E-006	1.36600E-004	......
	144	37.4581	-8.11625E-002	3.57343E-006	3.66000E-005	......
	145	37.7164	-8.11725E-002	3.57343E-006	3.66000E-005	......
	146	37.9747	-8.11725E-002	3.57343E-006	-2.63400E-004	......
	147	38.2331	-8.11725E-002	3.57343E-006	3.66000E-005	......
	148	38.4914	-8.11775E-002	3.57343E-006	-1.63400E-004	......
	149	38.7497	-8.11775E-002	3.57343E-006	3.66000E-005	......
	150	39.0081	-8.11925E-002	3.57343E-006	-6.34000E-005	......
	151	39.2664	-8.11825E-002	3.57343E-006	3.66000E-005	......
	152	39.5247	-8.11975E-002	3.57343E-006	-1.63400E-004	......
	153	39.7831	-8.11975E-002	3.57343E-006	3.66000E-005	......
	154	40.0414	-8.12025E-002	3.57343E-006	-1.63400E-004	......
	155	40.2997	-8.11975E-002	3.57343E-006	3.66000E-005	......
	156	40.558	-8.12025E-002	3.57343E-006	-1.63400E-004	......
	157	40.8164	-8.12025E-002	3.57343E-006	3.66000E-005	......
	158	41.0747	-8.12075E-002	3.57343E-006	-1.63400E-004	......
	159	41.333	-8.12075E-002	3.57343E-006	3.66000E-005	......
	160	41.5914	-8.12175E-002	3.57343E-006	-6.34000E-005	......
	161	41.8497	-8.12175E-002	3.57343E-006	2.36600E-004	......
	162	42.108	-8.12325E-002	3.57343E-006	-1.63400E-004	......
	163	42.3664	-8.12225E-002	3.57343E-006	2.36600E-004	......
	164	42.6247	-8.12325E-002	3.57343E-006	-1.63400E-004	......
	165	42.883	-8.12375E-002	3.57343E-006	2.36600E-004	......
	166	43.1414	-8.12375E-002	3.57343E-006	-1.63400E-004	......
	167	43.3997	-8.12375E-002	3.57343E-006	3.66000E-005	......
	168	43.658	-8.12425E-002	3.57343E-006	-1.63400E-004	......
	169	43.9164	-8.12475E-002	3.57343E-006	2.36600E-004	......
	170	44.1747	-8.12475E-002	3.57343E-006	-6.34000E-005	......
	171	44.433	-8.12475E-002	3.57343E-006	2.36600E-004	......
	172	44.6913	-8.12425E-002	3.57343E-006	-1.63400E-004	......
	173	44.9497	-8.12625E-002	3.57343E-006	3.66000E-005	......
	174	45.208	-8.12525E-002	3.57343E-006	3.66000E-005	......
	175	45.4663	-8.12525E-002	3.57343E-006	2.36600E-004	......
	176	45.7247	-8.12625E-002	3.57343E-006	-1.63400E-004	......
	177	45.983	-8.12625E-002	3.57343E-006	2.36600E-004	......
	178	46.2413	-8.12725E-002	3.57343E-006	-1.63400E-004	......
	179	46.4997	-8.12625E-002	3.57343E-006	2.36600E-004	......
	180	46.758	-8.12675E-002	3.57343E-006	-1.63400E-004	......
	181	47.0163	-8.12825E-002	3.57343E-006	2.36600E-004	......
	182	47.2747	-8.12725E-002	3.57343E-006	-1.63400E-004	......
	183	47.533	-8.12775E-002	3.57343E-006	3.66000E-005	......
	184	47.7913	-8.12925E-002	3.57343E-006	-1.63400E-004	......
	185	48.0497	-8.12975E-002	3.57343E-006	3.66000E-005	......
	186	48.308	-8.12975E-002	3.57343E-006	-6.34000E-005	......
	187	48.5663	-8.12925E-002	3.57343E-006	2.36600E-004	......
	188	48.8247	-8.12975E-002	3.57343E-006	-6.34000E-005	......
	189	49.083	-8.12875E-002	3.57343E-006	3.66000E-005	......
	190	49.3413	-8.12925E-002	3.57343E-006	-1.63400E-004	......
	191	49.5996	-8.13075E-002	3.57343E-006	3.66000E-005	......
	192	49.858	-8.13075E-002	3.57343E-006	-1.63400E-004	......
	193	50.1163	-8.13125E-002	3.57343E-006	1.36600E-004	......
	194	50.3746	-8.13175E-002	3.57343E-006	-6.34000E-005	......
	195	50.633	-8.13175E-002	3.57343E-006	3.66000E-005	......
	196	50.8913	-8.13175E-002	3.57343E-006	-1.63400E-004	......
	197	51.1496	-8.13075E-002	3.57343E-006	3.66000E-005	......
	198	51.408	-8.13125E-002	3.57343E-006	-2.63400E-004	......
	199	51.6663	-8.13175E-002	3.57343E-006	1.36600E-004	......
	200	51.9246	-8.13225E-002	3.57343E-006	-2.63400E-004	......
	201	52.183	-8.13275E-002	3.57343E-006	3.66000E-005	......
	202	52.4413	-8.13325E-002	3.57343E-006	-2.63400E-004	......
	203	52.6996	-8.13325E-002	3.57343E-006	3.66000E-005	......
	204	52.958	-8.13325E-002	3.57343E-006	-6.34000E-005	......
	205	53.2163	-8.13325E-002	3.57343E-006	3.66000E-005	......
	206	53.4746	-8.13325E-002	3.57343E-006	-1.63400E-004	......
	207	53.733	-8.13375E-002	3.57343E-006	3.66000E-005	......
	208	53.9913	-8.13425E-002	3.57343E-006	-1.63400E-004	......
	209	54.2496	-8.13375E-002	3.57343E-006	3.66000E-005	......
	210	54.5079	-8.13525E-002	3.57343E-006	-1.63400E-004	......
	211	54.7663	-8.13425E-002	3.57343E-006	1.36600E-004	......
	212	55.0246	-8.13475E-002	3.57343E-006	-6.34000E-005	......
	213	55.2829	-8.13575E-002	3.57343E-006	3.66000E-005	......
	214	55.5413	-8.13475E-002	3.57343E-006	-3.63400E-004	......
	215	55.7996	-8.13675E-002	3.57343E-006	1.36600E-004	......
	216	56.0579	-8.13675E-002	3.57343E-006	-1.63400E-004	......
	217	56.3163	-8.13625E-002	3.57343E-006	1.36600E-004	......
	218	56.5746	-8.13625E-002	3.57343E-006	-1.63400E-004	......
	219	56.8329	-8.13625E-002	3.57343E-006	3.66000E-005	......
	220	57.0913	-8.13675E-002	3.57343E-006	-6.34000E-005	......
	221	57.3496	-8.13725E-002	3.57343E-006	2.36600E-004	......
	222	57.6079	-8.13725E-002	3.57343E-006	-6.34000E-005	......
	223	57.8663	-8.13775E-002	3.57343E-006	3.66000E-005	......
	224	58.1246	-8.13575E-002	3.57343E-006	-1.63400E-004	......
	225	58.3829	-8.13775E-002	3.57343E-006	1.36600E-004	......
	226	58.6413	-8.13625E-002	3.57343E-006	-6.34000E-005	......
	227	58.8996	-8.13775E-002	3.57343E-006	1.36600E-004	......
	228	59.1579	-8.13775E-002	3.57343E-006	-6.34000E-005	......
	229	59.4162	-8.13775E-002	3.57343E-006	3.66000E-005	......
	230	59.6746	-8.13825E-002	3.57343E-006	3.66000E-005	......
	231	59.9329	-8.13825E-002	3.57343E-006	3.66000E-005	......
EOC	QUANT	-0.081382	Open Circuit (V)
PSTATMODEL	IQUANT	32	Pstat Model
PSTATSECTION	LABEL	PStat0	Pstat Section
CTRLMODE	IQUANT	1	Control Mode
IESTAB	IQUANT	0	I/E Stability
CASPEED	IQUANT	1	Control Amp Speed
CONVENTION	IQUANT	1	Current Convention
ICHRANGE	IQUANT	2	Ich Range
ICHRANGEMODE	TOGGLE	F	Ich Auto Range
ICHOFFSETENABLE	TOGGLE	T	Ich Offset Enable
ICHOFFSET	QUANT	0	Ich Offset (V)
ICHFILTER	IQUANT	3	Ich Filter
VCHRANGE	IQUANT	2	Vch Range
VCHRANGEMODE	TOGGLE	F	Vch Auto Range
VCHOFFSETENABLE	TOGGLE	T	Vch Offset Enable
VCHOFFSET	QUANT	0	Vch Offset (V)
VCHFILTER	IQUANT	3	Vch Filter
ACHRANGE	IQUANT	0	Ach Range
IERANGELOWERLIMIT	IQUANT	3	I/E Range Lower Limit
IERANGEMODE	TOGGLE	F	I/E AutoRange
IERANGE	IQUANT	11	I/E Range
POSFEEDENABLE	TOGGLE	F	Positive Feedback IR Comp
POSFEEDRESISTANCE	QUANT	0	Positive Feedback Resistance (ohm)
FC350IDIVISOR	IQUANT	0	FC350 I Divisor
FC350VRANGE	IQUANT	0	FC350 V Range
FRAMEWORKVERSION	QUANT	4.35	Framework Version
ZCURVE	TABLE
	Pt	Time	Freq	Zreal	Zimag	Zsig	Zmod	Zphz	Idc	Vdc	IERange
	#	s	Hz	ohm	ohm	V	ohm	°	A	V	#
	0	7	100007	55.9586	-0.134628	1	55.9587	-0.137845	7.15272E-006	-0.080156	10
	1	11	89134.1	55.426	-0.19191	1	55.4263	-0.198383	7.07001E-006	-0.080185	10
	2	15	79433.6	55.1289	-0.157256	1	55.1292	-0.163436	5.27761E-006	-0.080139	10
	3	18	70800.8	55.3568	-0.061169	1	55.3569	-0.063312	7.04354E-006	-0.080155	10
	4	22	63105.5	55.0093	-0.726203	1	55.014	-0.756344	4.94802E-006	-0.080163	10
	5	26	56243.5	55.6697	-0.313846	1	55.6706	-0.32301	5.71536E-006	-0.080183	10
	6	29	50123.7	55.4169	-0.2925	1	55.4177	-0.302414	5.75453E-006	-0.080195	10
	7	33	44681	55.3786	-0.534384	1	55.3811	-0.552868	6.41021E-006	-0.080149	10
	8	37	39811.2	56.8344	-0.048226	1	56.8344	-0.048618	6.91599E-006	-0.080185	10
	9	41	35488.3	55.3783	-0.559638	1	55.3811	-0.578996	6.87021E-006	-0.080141	10
	10	44	31634.1	55.6145	-0.859433	1	55.6212	-0.885343	4.80297E-006	-0.080164	10
	11	48	28173.1	55.4351	-0.885464	1	55.4422	-0.915106	5.99197E-006	-0.080165	10
	12	52	25123.7	55.4848	-0.939887	1	55.4928	-0.97047	6.84985E-006	-0.08015	10
	13	56	22389.3	55.3652	-1.06703	1	55.3754	-1.1041	6.85895E-006	-0.08015	10
	14	60	19954.4	55.5177	-0.99705	1	55.5267	-1.02888	6.43994E-006	-0.080147	10
	15	64	17778.2	55.4179	-1.29088	1	55.433	-1.33438	6.0364E-006	-0.080164	10
	16	67	15852.9	55.2526	-0.86854	1	55.2594	-0.900584	5.13241E-006	-0.080157	10
	17	71	14122.3	55.497	-1.14054	1	55.5087	-1.17735	5.91462E-006	-0.080173	10
	18	75	12587.2	55.8011	-1.37429	1	55.8181	-1.41082	5.93798E-006	-0.08018	10
	19	79	11221.1	55.705	-0.941817	1	55.713	-0.96862	5.95706E-006	-0.080176	10
	20	83	9998.2	55.7159	-1.29332	1	55.7309	-1.32975	5.95605E-006	-0.080165	10
	21	85	8912.76	55.8966	-1.8802	1	55.9282	-1.92654	5.52051E-006	-0.0802	10
	22	89	7942.6	55.5472	-1.99449	1	55.583	-2.05639	5.72888E-006	-0.080177	10
	23	94	7078.05	55.9473	-1.97954	1	55.9823	-2.02641	5.80647E-006	-0.080174	10
	24	98	6311.1	55.8834	-2.34475	1	55.9325	-2.40261	5.82003E-006	-0.080166	10
	25	102	5622.14	55.9526	-2.40293	1	56.0042	-2.45911	5.78594E-006	-0.080179	10
	26	106	5011.18	56.4398	-2.53759	1	56.4968	-2.57435	5.90747E-006	-0.080173	10
	27	108	4465.21	56.0797	-2.49925	1	56.1354	-2.55176	5.8598E-006	-0.080185	10
	28	113	3980.93	56.5832	-3.11053	1	56.6687	-3.14653	5.07029E-006	-0.080162	10
	29	117	3548.18	56.2544	-3.23866	1	56.3476	-3.29497	6.70078E-006	-0.080202	10
	30	121	3162.67	56.679	-3.97934	1	56.8185	-4.01605	4.80158E-006	-0.080161	10
	31	125	2819.01	56.6269	-3.69137	1	56.747	-3.7297	4.54747E-006	-0.080175	10
	32	129	2511.16	56.9221	-4.31001	1	57.0851	-4.33004	5.85711E-006	-0.080171	10
	33	132	2238.63	56.9177	-4.94299	1	57.132	-4.96337	5.83328E-006	-0.080179	10
	34	136	1995.37	57.5163	-5.41026	1	57.7702	-5.3737	5.78403E-006	-0.080169	10
	35	140	1778.51	57.3137	-5.79754	1	57.6062	-5.77608	5.54544E-006	-0.08016	10
	36	144	1584.49	57.245	-6.17251	1	57.5768	-6.15421	5.59435E-006	-0.080162	10
	37	148	1412.76	57.6311	-6.80425	1	58.0314	-6.73349	5.26644E-006	-0.080187	10
	38	151	1259.04	58.005	-7.38095	1	58.4727	-7.25173	5.61169E-006	-0.080165	10
	39	155	1121.63	58.1491	-8.15676	1	58.7184	-7.98496	5.60972E-006	-0.080176	10
	40	159	999.95	58.9791	-9.14251	1	59.6835	-8.81144	5.51127E-006	-0.080181	10
	41	163	891.184	58.2574	-9.9073	1	59.0938	-9.6514	5.60203E-006	-0.080177	10
	42	167	794.163	58.6501	-11.0712	1	59.6859	-10.6898	5.59359E-006	-0.080173	10
	43	172	707.867	59.2271	-11.8428	1	60.3995	-11.3075	6.07118E-006	-0.080164	10
	44	174	630.984	59.5182	-12.4799	1	60.8125	-11.8424	5.71608E-006	-0.080176	10
	45	178	562.189	60.3065	-13.6303	1	61.8277	-12.7359	6.03447E-006	-0.080163	10
	46	182	501.303	60.4053	-15.6899	1	62.4097	-14.5604	5.88782E-006	-0.080184	10
	47	184	446.614	60.8594	-17.2767	1	63.2641	-15.8481	5.89393E-006	-0.080177	10
	48	186	398.209	61.3367	-18.9106	1	64.1857	-17.1349	5.85541E-006	-0.080176	10
	49	188	354.821	61.9181	-20.7491	1	65.3022	-18.5263	5.88726E-006	-0.08018	10
	50	190	316.113	62.495	-22.8086	1	66.5271	-20.0504	5.90402E-006	-0.080183	10
	51	192	281.926	63.2035	-25.0303	1	67.9794	-21.6049	5.83685E-006	-0.080179	10
	52	194	251.185	63.8575	-27.4681	1	69.5146	-23.2748	5.75183E-006	-0.080184	10
	53	196	223.946	64.6615	-30.2129	1	71.3718	-25.0442	5.60168E-006	-0.080188	10
	54	198	199.495	65.545	-33.1352	1	73.4445	-26.8182	5.82769E-006	-0.080173	10
