EXPLAIN
TAG	EISPOT
TITLE	LABEL	Tomato_open	Test &Identifier
DATE	LABEL	5/16/2006	Date
TIME	LABEL	20:22:19	Time
NOTES	NOTES	1	&Notes...
	
PSTAT	PSTAT	300	Potentiostat
VDC	POTEN	1.00000E-003	T	DC &Voltage (V)
FREQINIT	QUANT	1.00000E+005	Initial Fre&q. (Hz)
FREQFINAL	QUANT	1.00000E+001	Final Fre&q. (Hz)
PTSPERDEC	QUANT	2.00000E+001	Points/&decade
VAC	QUANT	1.00000E+000	AC &Voltage (mV rms)
AREA	QUANT	1.00000E+000	&Area (cm²)
DENSITY	QUANT	7.87000E+000	&Density (gm/cm³)
EQUIV	QUANT	7.00000E+000	Equiv. &Wt
CONDIT	TWOPARAM	F	6.00000E+001	0.00000E+000	Conditionin&g	Time(s)	E(V)
DELAY	TWOPARAM	T	6.00000E+001	0.00000E+000	Init. De&lay	Time(s)	Stab.(mV/s)
SPEED	SELECTOR	1	&Optimize for:
ZGUESS	QUANT	1.00000E+002	E&stimated Z (ohms)
OCVCURVE	TABLE	232
	Pt	T	Vf	Vm	Ach	Over
	#	s	V vs. Ref.	V	V	bits
	0	0.258332	-7.66425E-002	3.69043E-006	3.66000E-005	......
	1	0.516663	-7.66425E-002	3.69043E-006	-6.34000E-005	......
	2	0.774994	-7.66325E-002	3.69043E-006	2.36600E-004	......
	3	1.03333	-7.66375E-002	3.69043E-006	-6.34000E-005	......
	4	1.29166	-7.66425E-002	3.69043E-006	2.36600E-004	......
	5	1.54999	-7.66475E-002	3.69043E-006	-1.63400E-004	......
	6	1.80832	-7.66425E-002	3.69043E-006	1.36600E-004	......
	7	2.06665	-7.66475E-002	3.69043E-006	-6.34000E-005	......
	8	2.32498	-7.66575E-002	3.69043E-006	3.66000E-005	......
	9	2.58332	-7.66575E-002	3.69043E-006	-1.63400E-004	......
	10	2.84165	-7.66625E-002	3.69043E-006	3.66000E-005	......
	11	3.09998	-7.66675E-002	3.69043E-006	-6.34000E-005	......
	12	3.35831	-7.66675E-002	3.69043E-006	2.36600E-004	......
	13	3.61664	-7.66775E-002	3.69043E-006	-6.34000E-005	......
	14	3.87497	-7.66775E-002	3.69043E-006	1.36600E-004	......
	15	4.1333	-7.66875E-002	3.69043E-006	-1.63400E-004	......
	16	4.39164	-7.66825E-002	3.69043E-006	2.36600E-004	......
	17	4.64997	-7.66925E-002	3.69043E-006	-6.34000E-005	......
	18	4.9083	-7.66975E-002	3.69043E-006	1.36600E-004	......
	19	5.16663	-7.66925E-002	3.69043E-006	3.66000E-005	......
	20	5.42496	-7.67075E-002	3.69043E-006	1.36600E-004	......
	21	5.68329	-7.67125E-002	3.69043E-006	-6.34000E-005	......
	22	5.94162	-7.67225E-002	3.69043E-006	3.66000E-005	......
	23	6.19996	-7.67225E-002	3.69043E-006	3.66000E-005	......
	24	6.45829	-7.67325E-002	3.69043E-006	3.66000E-005	......
	25	6.71662	-7.67475E-002	3.69043E-006	3.66000E-005	......
	26	6.97495	-7.67475E-002	3.69043E-006	1.36600E-004	......
	27	7.23328	-7.67475E-002	3.69043E-006	3.66000E-005	......
	28	7.49161	-7.67575E-002	3.69043E-006	3.66000E-005	......
	29	7.74995	-7.67625E-002	3.69043E-006	-6.34000E-005	......
	30	8.00828	-7.67625E-002	3.69043E-006	1.36600E-004	......
	31	8.26661	-7.67675E-002	3.69043E-006	-6.34000E-005	......
	32	8.52494	-7.67725E-002	3.69043E-006	2.36600E-004	......
	33	8.78327	-7.67775E-002	3.69043E-006	-6.34000E-005	......
	34	9.0416	-7.67925E-002	3.69043E-006	3.66000E-005	......
	35	9.29993	-7.67975E-002	3.69043E-006	-1.63400E-004	......
	36	9.5583	-7.67925E-002	3.69043E-006	1.36600E-004	......
	37	9.8166	-7.68175E-002	3.69043E-006	-6.34000E-005	......
	38	10.0749	-7.68075E-002	3.69043E-006	3.66000E-005	......
	39	10.3333	-7.68125E-002	3.69043E-006	-6.34000E-005	......
	40	10.5916	-7.68275E-002	3.69043E-006	3.66000E-005	......
	41	10.8499	-7.68275E-002	3.69043E-006	-6.34000E-005	......
	42	11.1083	-7.68325E-002	3.69043E-006	3.66000E-005	......
	43	11.3666	-7.68375E-002	3.69043E-006	3.66000E-005	......
	44	11.6249	-7.68475E-002	3.69043E-006	3.66000E-005	......
	45	11.8832	-7.68525E-002	3.69043E-006	-6.34000E-005	......
	46	12.1416	-7.68575E-002	3.69043E-006	1.36600E-004	......
	47	12.3999	-7.68625E-002	3.69043E-006	-1.63400E-004	......
	48	12.6582	-7.68725E-002	3.69043E-006	3.66000E-005	......
	49	12.9166	-7.68675E-002	3.69043E-006	-6.34000E-005	......
	50	13.1749	-7.68825E-002	3.69043E-006	3.66000E-005	......
	51	13.4332	-7.68875E-002	3.69043E-006	-6.34000E-005	......
	52	13.6916	-7.68925E-002	3.69043E-006	3.66000E-005	......
	53	13.9499	-7.69075E-002	3.69043E-006	-6.34000E-005	......
	54	14.2082	-7.69075E-002	3.69043E-006	1.36600E-004	......
	55	14.4666	-7.69125E-002	3.69043E-006	-6.34000E-005	......
	56	14.7249	-7.69175E-002	3.69043E-006	3.66000E-005	......
	57	14.9832	-7.69175E-002	3.69043E-006	-6.34000E-005	......
	58	15.2416	-7.69225E-002	3.69043E-006	1.36600E-004	......
	59	15.4999	-7.69325E-002	3.69043E-006	-6.34000E-005	......
	60	15.7582	-7.69275E-002	3.69043E-006	1.36600E-004	......
	61	16.0166	-7.69375E-002	3.69043E-006	-6.34000E-005	......
	62	16.2749	-7.69325E-002	3.69043E-006	3.66000E-005	......
	63	16.5332	-7.69475E-002	3.69043E-006	3.66000E-005	......
	64	16.7915	-7.69575E-002	3.69043E-006	2.36600E-004	......
	65	17.0499	-7.69625E-002	3.69043E-006	-6.34000E-005	......
	66	17.3082	-7.69675E-002	3.69043E-006	3.66000E-005	......
	67	17.5665	-7.69625E-002	3.69043E-006	-6.34000E-005	......
	68	17.8249	-7.69725E-002	3.69043E-006	3.66000E-005	......
	69	18.0832	-7.69875E-002	3.69043E-006	-6.34000E-005	......
	70	18.3415	-7.69825E-002	3.69043E-006	1.36600E-004	......
	71	18.5999	-7.69975E-002	3.69043E-006	-6.34000E-005	......
	72	18.8582	-7.69925E-002	3.69043E-006	1.36600E-004	......
	73	19.1165	-7.70025E-002	3.69043E-006	-6.34000E-005	......
	74	19.3749	-7.69975E-002	3.69043E-006	1.36600E-004	......
	75	19.6332	-7.70075E-002	3.69043E-006	-1.63400E-004	......
	76	19.8915	-7.70125E-002	3.69043E-006	3.66000E-005	......
	77	20.1499	-7.70075E-002	3.69043E-006	-6.34000E-005	......
	78	20.4082	-7.70125E-002	3.69043E-006	2.36600E-004	......
	79	20.6665	-7.70125E-002	3.69043E-006	-1.63400E-004	......
	80	20.9249	-7.70225E-002	3.69043E-006	1.36600E-004	......
	81	21.1832	-7.70425E-002	3.69043E-006	-1.63400E-004	......
	82	21.4415	-7.70325E-002	3.69043E-006	1.36600E-004	......
	83	21.6998	-7.70375E-002	3.69043E-006	-6.34000E-005	......
	84	21.9582	-7.70375E-002	3.69043E-006	1.36600E-004	......
	85	22.2165	-7.70475E-002	3.69043E-006	-1.63400E-004	......
	86	22.4748	-7.70475E-002	3.69043E-006	1.36600E-004	......
	87	22.7332	-7.70525E-002	3.69043E-006	-6.34000E-005	......
	88	22.9915	-7.70525E-002	3.69043E-006	2.36600E-004	......
	89	23.2498	-7.70625E-002	3.69043E-006	-1.63400E-004	......
	90	23.5082	-7.70725E-002	3.69043E-006	3.66000E-005	......
	91	23.7665	-7.70625E-002	3.69043E-006	-1.63400E-004	......
	92	24.0248	-7.70625E-002	3.69043E-006	3.66000E-005	......
	93	24.2832	-7.70725E-002	3.69043E-006	-6.34000E-005	......
	94	24.5415	-7.70775E-002	3.69043E-006	3.66000E-005	......
	95	24.7998	-7.70775E-002	3.69043E-006	-6.34000E-005	......
	96	25.0582	-7.70825E-002	3.69043E-006	3.66000E-005	......
	97	25.3165	-7.70875E-002	3.69043E-006	-6.34000E-005	......
	98	25.5748	-7.70875E-002	3.69043E-006	3.66000E-005	......
	99	25.8332	-7.70875E-002	3.69043E-006	-6.34000E-005	......
	100	26.0915	-7.70875E-002	3.69043E-006	3.66000E-005	......
	101	26.3498	-7.70975E-002	3.69043E-006	3.66000E-005	......
	102	26.6081	-7.71025E-002	3.69043E-006	3.66000E-005	......
	103	26.8665	-7.70975E-002	3.69043E-006	-6.34000E-005	......
	104	27.1248	-7.71075E-002	3.69043E-006	3.66000E-005	......
	105	27.3831	-7.71075E-002	3.69043E-006	-6.34000E-005	......
	106	27.6415	-7.71125E-002	3.69043E-006	3.66000E-005	......
	107	27.8998	-7.71175E-002	3.69043E-006	-6.34000E-005	......
	108	28.1581	-7.71075E-002	3.69043E-006	2.36600E-004	......
	109	28.4165	-7.71225E-002	3.69043E-006	-1.63400E-004	......
	110	28.6748	-7.71175E-002	3.69043E-006	3.66000E-005	......
	111	28.9331	-7.71275E-002	3.69043E-006	3.66000E-005	......
	112	29.1915	-7.71275E-002	3.69043E-006	3.66000E-005	......
	113	29.4498	-7.71325E-002	3.69043E-006	-6.34000E-005	......
	114	29.7081	-7.71325E-002	3.69043E-006	3.66000E-005	......
	115	29.9665	-7.71375E-002	3.69043E-006	-6.34000E-005	......
	116	30.2248	-7.71375E-002	3.69043E-006	3.66000E-005	......
	117	30.4831	-7.71375E-002	3.69043E-006	-1.63400E-004	......
	118	30.7414	-7.71425E-002	3.69043E-006	3.66000E-005	......
	119	30.9998	-7.71425E-002	3.69043E-006	-6.34000E-005	......
	120	31.2581	-7.71375E-002	3.69043E-006	3.66000E-005	......
	121	31.5164	-7.71475E-002	3.69043E-006	-6.34000E-005	......
	122	31.7748	-7.71525E-002	3.69043E-006	3.66000E-005	......
	123	32.0331	-7.71525E-002	3.69043E-006	-2.63400E-004	......
	124	32.2914	-7.71525E-002	3.69043E-006	3.66000E-005	......
	125	32.5498	-7.71575E-002	3.69043E-006	-1.63400E-004	......
	126	32.8081	-7.71525E-002	3.69043E-006	2.36600E-004	......
	127	33.0664	-7.71625E-002	3.69043E-006	-1.63400E-004	......
	128	33.3248	-7.71575E-002	3.69043E-006	3.66000E-005	......
	129	33.5831	-7.71675E-002	3.69043E-006	-6.34000E-005	......
	130	33.8414	-7.71725E-002	3.69043E-006	1.36600E-004	......
	131	34.0998	-7.71625E-002	3.69043E-006	-1.63400E-004	......
	132	34.3581	-7.71725E-002	3.69043E-006	3.66000E-005	......
	133	34.6164	-7.71575E-002	3.69043E-006	3.66000E-005	......
	134	34.8748	-7.71675E-002	3.69043E-006	1.36600E-004	......
	135	35.1331	-7.71725E-002	3.69043E-006	1.36600E-004	......
	136	35.3914	-7.71675E-002	3.69043E-006	3.66000E-005	......
	137	35.6497	-7.71675E-002	3.69043E-006	-6.34000E-005	......
	138	35.9081	-7.71725E-002	3.69043E-006	3.66000E-005	......
	139	36.1664	-7.71725E-002	3.69043E-006	-6.34000E-005	......
	140	36.4247	-7.71675E-002	3.69043E-006	2.36600E-004	......
	141	36.6831	-7.71775E-002	3.69043E-006	-1.63400E-004	......
	142	36.9414	-7.71875E-002	3.69043E-006	1.36600E-004	......
	143	37.1997	-7.71825E-002	3.69043E-006	-1.63400E-004	......
	144	37.4581	-7.71775E-002	3.69043E-006	2.36600E-004	......
	145	37.7164	-7.71825E-002	3.69043E-006	-6.34000E-005	......
	146	37.9747	-7.71925E-002	3.69043E-006	1.36600E-004	......
	147	38.2331	-7.71925E-002	3.69043E-006	3.66000E-005	......
	148	38.4914	-7.71975E-002	3.69043E-006	3.66000E-005	......
	149	38.7497	-7.71975E-002	3.69043E-006	-1.63400E-004	......
	150	39.0081	-7.71925E-002	3.69043E-006	1.36600E-004	......
	151	39.2664	-7.71925E-002	3.69043E-006	-6.34000E-005	......
	152	39.5247	-7.72025E-002	3.69043E-006	1.36600E-004	......
	153	39.7831	-7.71975E-002	3.69043E-006	-6.34000E-005	......
	154	40.0414	-7.71975E-002	3.69043E-006	3.66000E-005	......
	155	40.2997	-7.72025E-002	3.69043E-006	-1.63400E-004	......
	156	40.558	-7.71975E-002	3.69043E-006	1.36600E-004	......
	157	40.8164	-7.71975E-002	3.69043E-006	-6.34000E-005	......
	158	41.0747	-7.72025E-002	3.69043E-006	1.36600E-004	......
	159	41.333	-7.72075E-002	3.69043E-006	-1.63400E-004	......
	160	41.5914	-7.72075E-002	3.69043E-006	2.36600E-004	......
	161	41.8497	-7.72025E-002	3.69043E-006	-6.34000E-005	......
	162	42.108	-7.72075E-002	3.69043E-006	3.66000E-005	......
	163	42.3664	-7.72025E-002	3.69043E-006	-6.34000E-005	......
	164	42.6247	-7.72075E-002	3.69043E-006	3.66000E-005	......
	165	42.883	-7.72025E-002	3.69043E-006	-1.63400E-004	......
	166	43.1414	-7.72175E-002	3.69043E-006	2.36600E-004	......
	167	43.3997	-7.72125E-002	3.69043E-006	3.66000E-005	......
	168	43.658	-7.72025E-002	3.69043E-006	3.66000E-005	......
	169	43.9164	-7.72175E-002	3.69043E-006	-6.34000E-005	......
	170	44.1747	-7.72125E-002	3.69043E-006	3.66000E-005	......
	171	44.433	-7.72125E-002	3.69043E-006	-1.63400E-004	......
	172	44.6913	-7.71975E-002	3.69043E-006	3.66000E-005	......
	173	44.9497	-7.72075E-002	3.69043E-006	-6.34000E-005	......
	174	45.208	-7.72125E-002	3.69043E-006	3.66000E-005	......
	175	45.4663	-7.72125E-002	3.69043E-006	-6.34000E-005	......
	176	45.7247	-7.72125E-002	3.69043E-006	2.36600E-004	......
	177	45.983	-7.72025E-002	3.69043E-006	-1.63400E-004	......
	178	46.2413	-7.72125E-002	3.69043E-006	3.66000E-005	......
	179	46.4997	-7.72175E-002	3.69043E-006	-6.34000E-005	......
	180	46.758	-7.72125E-002	3.69043E-006	3.66000E-005	......
	181	47.0163	-7.72175E-002	3.69043E-006	-1.63400E-004	......
	182	47.2747	-7.71975E-002	3.69043E-006	3.66000E-005	......
	183	47.533	-7.72175E-002	3.69043E-006	-1.63400E-004	......
	184	47.7913	-7.72075E-002	3.69043E-006	2.36600E-004	......
	185	48.0497	-7.72175E-002	3.69043E-006	-6.34000E-005	......
	186	48.308	-7.72125E-002	3.69043E-006	3.66000E-005	......
	187	48.5663	-7.72025E-002	3.69043E-006	3.66000E-005	......
	188	48.8247	-7.72125E-002	3.69043E-006	-6.34000E-005	......
	189	49.083	-7.72175E-002	3.69043E-006	-6.34000E-005	......
	190	49.3413	-7.72075E-002	3.69043E-006	1.36600E-004	......
	191	49.5996	-7.72025E-002	3.69043E-006	3.66000E-005	......
	192	49.858	-7.72125E-002	3.69043E-006	3.66000E-005	......
	193	50.1163	-7.72175E-002	3.69043E-006	-1.63400E-004	......
	194	50.3746	-7.72225E-002	3.69043E-006	3.66000E-005	......
	195	50.633	-7.72075E-002	3.69043E-006	-6.34000E-005	......
	196	50.8913	-7.72175E-002	3.69043E-006	3.66000E-005	......
	197	51.1496	-7.72125E-002	3.69043E-006	3.66000E-005	......
	198	51.408	-7.72075E-002	3.69043E-006	1.36600E-004	......
	199	51.6663	-7.72125E-002	3.69043E-006	3.66000E-005	......
	200	51.9246	-7.72125E-002	3.69043E-006	3.66000E-005	......
	201	52.183	-7.72175E-002	3.69043E-006	-6.34000E-005	......
	202	52.4413	-7.72125E-002	3.69043E-006	3.66000E-005	......
	203	52.6996	-7.72075E-002	3.69043E-006	-6.34000E-005	......
	204	52.958	-7.72125E-002	3.69043E-006	3.66000E-005	......
	205	53.2163	-7.72025E-002	3.69043E-006	-6.34000E-005	......
	206	53.4746	-7.72025E-002	3.69043E-006	3.66000E-005	......
	207	53.733	-7.72075E-002	3.69043E-006	-1.63400E-004	......
	208	53.9913	-7.72025E-002	3.69043E-006	2.36600E-004	......
	209	54.2496	-7.72125E-002	3.69043E-006	-6.34000E-005	......
	210	54.5079	-7.72075E-002	3.69043E-006	3.66000E-005	......
	211	54.7663	-7.72175E-002	3.69043E-006	-1.63400E-004	......
	212	55.0246	-7.72025E-002	3.69043E-006	3.66000E-005	......
	213	55.2829	-7.72025E-002	3.69043E-006	3.66000E-005	......
	214	55.5413	-7.72025E-002	3.69043E-006	3.66000E-005	......
	215	55.7996	-7.72075E-002	3.69043E-006	-1.63400E-004	......
	216	56.0579	-7.71975E-002	3.69043E-006	3.66000E-005	......
	217	56.3163	-7.71975E-002	3.69043E-006	-1.63400E-004	......
	218	56.5746	-7.72075E-002	3.69043E-006	3.66000E-005	......
	219	56.8329	-7.72075E-002	3.69043E-006	-6.34000E-005	......
	220	57.0913	-7.72025E-002	3.69043E-006	1.36600E-004	......
	221	57.3496	-7.72075E-002	3.69043E-006	-1.63400E-004	......
	222	57.6079	-7.72025E-002	3.69043E-006	-6.34000E-005	......
	223	57.8663	-7.72075E-002	3.69043E-006	-1.63400E-004	......
	224	58.1246	-7.71925E-002	3.69043E-006	3.66000E-005	......
	225	58.3829	-7.72025E-002	3.69043E-006	-6.34000E-005	......
	226	58.6413	-7.72025E-002	3.69043E-006	3.66000E-005	......
	227	58.8996	-7.71975E-002	3.69043E-006	-1.63400E-004	......
	228	59.1579	-7.71925E-002	3.69043E-006	2.36600E-004	......
	229	59.4162	-7.71875E-002	3.69043E-006	-1.63400E-004	......
	230	59.6746	-7.71975E-002	3.69043E-006	3.66000E-005	......
	231	59.9329	-7.71875E-002	3.69043E-006	-1.63400E-004	......
EOC	QUANT	-0.077188	Open Circuit (V)
PSTATMODEL	IQUANT	32	Pstat Model
PSTATSECTION	LABEL	PStat0	Pstat Section
CTRLMODE	IQUANT	1	Control Mode
IESTAB	IQUANT	0	I/E Stability
CASPEED	IQUANT	1	Control Amp Speed
CONVENTION	IQUANT	1	Current Convention
ICHRANGE	IQUANT	2	Ich Range
ICHRANGEMODE	TOGGLE	F	Ich Auto Range
ICHOFFSETENABLE	TOGGLE	T	Ich Offset Enable
ICHOFFSET	QUANT	0	Ich Offset (V)
ICHFILTER	IQUANT	3	Ich Filter
VCHRANGE	IQUANT	2	Vch Range
VCHRANGEMODE	TOGGLE	F	Vch Auto Range
VCHOFFSETENABLE	TOGGLE	T	Vch Offset Enable
VCHOFFSET	QUANT	0	Vch Offset (V)
VCHFILTER	IQUANT	3	Vch Filter
ACHRANGE	IQUANT	0	Ach Range
IERANGELOWERLIMIT	IQUANT	3	I/E Range Lower Limit
IERANGEMODE	TOGGLE	F	I/E AutoRange
IERANGE	IQUANT	11	I/E Range
POSFEEDENABLE	TOGGLE	F	Positive Feedback IR Comp
POSFEEDRESISTANCE	QUANT	0	Positive Feedback Resistance (ohm)
FC350IDIVISOR	IQUANT	0	FC350 I Divisor
FC350VRANGE	IQUANT	0	FC350 V Range
FRAMEWORKVERSION	QUANT	4.35	Framework Version
ZCURVE	TABLE
	Pt	Time	Freq	Zreal	Zimag	Zsig	Zmod	Zphz	Idc	Vdc	IERange
	#	s	Hz	ohm	ohm	V	ohm	°	A	V	#
	0	6	100007	54.7642	-0.047235	1	54.7642	-0.049419	5.23287E-006	-0.075984	10
	1	10	89134.1	54.9019	0.109228	1	54.902	0.11399	5.44183E-006	-0.075984	10
	2	14	79433.6	54.8811	-0.315884	1	54.882	-0.329779	7.25459E-006	-0.075991	10
	3	17	70800.8	54.9309	-0.37979	1	54.9322	-0.396134	5.6592E-006	-0.076017	10
	4	21	63105.5	54.7381	-0.020713	1	54.7381	-0.021681	7.10811E-006	-0.075985	10
	5	25	56243.5	54.8748	-0.125337	1	54.875	-0.130867	6.42088E-006	-0.07598	10
	6	29	50123.7	54.5291	-0.20428	1	54.5295	-0.214643	4.96879E-006	-0.075997	10
	7	33	44681	54.7019	-0.205748	1	54.7023	-0.215503	5.61914E-006	-0.076016	10
	8	37	39811.2	56.0439	-0.6603	1	56.0478	-0.675019	6.78363E-006	-0.07602	10
	9	41	35488.3	54.8232	-0.803179	1	54.829	-0.839344	6.92179E-006	-0.076006	10
	10	44	31634.1	54.8442	-0.605986	1	54.8476	-0.633048	7.03997E-006	-0.075999	10
	11	48	28173.1	54.955	-0.420352	1	54.9566	-0.438248	6.04759E-006	-0.07601	10
	12	52	25123.7	54.6679	-0.837538	1	54.6743	-0.87773	6.28372E-006	-0.075993	10
	13	56	22389.3	54.8347	-1.10833	1	54.8459	-1.15791	6.8854E-006	-0.076029	10
	14	60	19954.4	55.0715	-0.933313	1	55.0794	-0.97092	5.53431E-006	-0.076032	10
	15	64	17778.2	54.8706	-1.12467	1	54.8821	-1.17422	5.86916E-006	-0.076013	10
	16	66	15852.9	55.3578	-1.23818	1	55.3717	-1.28131	6.1112E-006	-0.075995	10
	17	70	14122.3	54.7555	-0.740439	1	54.7605	-0.774744	5.90402E-006	-0.076009	10
	18	74	12587.2	54.7421	-1.44055	1	54.7611	-1.50741	5.86093E-006	-0.076008	10
	19	79	11221.1	55.1176	-1.26666	1	55.1322	-1.31648	5.84191E-006	-0.076007	10
	20	83	9998.2	55.2198	-1.73679	1	55.2471	-1.80149	6.10553E-006	-0.076007	10
	21	85	8912.76	55.2143	-1.4303	1	55.2329	-1.48389	4.71007E-006	-0.076001	10
	22	89	7942.6	55.4848	-1.97952	1	55.5201	-2.04327	5.87726E-006	-0.076007	10
	23	93	7078.05	55.4996	-2.02422	1	55.5365	-2.08881	5.87851E-006	-0.075998	10
	24	97	6311.1	55.557	-2.52454	1	55.6143	-2.60176	5.86436E-006	-0.075993	10
	25	101	5622.14	55.2405	-2.57855	1	55.3006	-2.67255	5.73514E-006	-0.075989	10
	26	105	5011.18	55.9636	-2.81978	1	56.0346	-2.88447	5.85128E-006	-0.075989	10
	27	108	4465.21	55.4893	-2.82321	1	55.561	-2.91261	5.75016E-006	-0.075993	10
	28	112	3980.93	55.9877	-2.74663	1	56.055	-2.80855	6.71324E-006	-0.076016	10
	29	116	3548.18	55.5863	-2.99179	1	55.6667	-3.08082	6.72717E-006	-0.075984	10
	30	120	3162.67	55.9684	-3.84544	1	56.1004	-3.93046	6.68078E-006	-0.075982	10
	31	125	2819.01	55.8716	-3.91889	1	56.0089	-4.01221	6.59803E-006	-0.07602	10
	32	129	2511.16	56.0332	-4.46533	1	56.2108	-4.55632	5.68279E-006	-0.075988	10
	33	131	2238.63	55.7561	-5.1643	1	55.9947	-5.29181	5.6474E-006	-0.075998	10
	34	135	1995.37	56.4923	-5.07744	1	56.7201	-5.13585	5.74472E-006	-0.076003	10
	35	139	1778.51	56.4919	-6.04975	1	56.815	-6.11254	5.75206E-006	-0.075995	10
	36	144	1584.49	56.9211	-6.33952	1	57.273	-6.35506	5.69559E-006	-0.076003	10
	37	148	1412.76	56.8237	-6.95174	1	57.2474	-6.97483	6.79651E-006	-0.075973	10
	38	150	1259.04	57.47	-7.13831	1	57.9117	-7.0804	5.61065E-006	-0.07599	10
	39	155	1121.63	57.7631	-8.2927	1	58.3553	-8.16979	5.66278E-006	-0.075989	10
	40	159	999.95	57.4801	-8.94671	1	58.1722	-8.84704	5.58769E-006	-0.075988	10
	41	163	891.184	57.7313	-9.8644	1	58.568	-9.6963	5.63187E-006	-0.075991	10
	42	167	794.163	58.1375	-10.8963	1	59.1498	-10.6154	5.63452E-006	-0.075987	10
	43	171	707.867	58.6089	-11.8932	1	59.8034	-11.471	5.36703E-006	-0.076008	10
	44	175	630.984	59.1253	-12.6879	1	60.4714	-12.1116	5.76936E-006	-0.075991	10
	45	179	562.189	59.071	-14.0668	1	60.7228	-13.3946	6.76045E-006	-0.075973	10
	46	183	501.303	59.7795	-15.7999	1	61.8322	-14.8049	5.56205E-006	-0.075992	10
	47	185	446.614	60.2412	-17.3679	1	62.6949	-16.0826	5.58594E-006	-0.075991	10
	48	187	398.209	60.7484	-19.0552	1	63.6668	-17.4153	5.57972E-006	-0.075981	10
	49	189	354.821	61.2644	-20.9011	1	64.7316	-18.8377	5.45219E-006	-0.075991	10
	50	191	316.113	61.8625	-22.981	1	65.9931	-20.3793	5.57265E-006	-0.075988	10
	51	193	281.926	62.5361	-25.2113	1	67.4268	-21.9567	5.50372E-006	-0.075997	10
	52	195	251.185	63.2679	-27.6662	1	69.0525	-23.6191	5.61349E-006	-0.075994	10
	53	197	223.946	64.0466	-30.4245	1	70.9057	-25.4095	5.59422E-006	-0.075986	10
	54	199	199.495	64.9413	-33.4107	1	73.0318	-27.2247	5.51438E-006	-0.075988	10
