EXPLAIN
TAG	EISPOT
TITLE	LABEL	Tomato_open	Test &Identifier
DATE	LABEL	5/16/2006	Date
TIME	LABEL	15:23:05	Time
NOTES	NOTES	1	&Notes...
	
PSTAT	PSTAT	300	Potentiostat
VDC	POTEN	1.00000E-003	T	DC &Voltage (V)
FREQINIT	QUANT	1.00000E+005	Initial Fre&q. (Hz)
FREQFINAL	QUANT	1.00000E+001	Final Fre&q. (Hz)
PTSPERDEC	QUANT	2.00000E+001	Points/&decade
VAC	QUANT	1.00000E+000	AC &Voltage (mV rms)
AREA	QUANT	1.00000E+000	&Area (cm²)
DENSITY	QUANT	7.87000E+000	&Density (gm/cm³)
EQUIV	QUANT	7.00000E+000	Equiv. &Wt
CONDIT	TWOPARAM	F	6.00000E+001	0.00000E+000	Conditionin&g	Time(s)	E(V)
DELAY	TWOPARAM	T	6.00000E+001	0.00000E+000	Init. De&lay	Time(s)	Stab.(mV/s)
SPEED	SELECTOR	1	&Optimize for:
ZGUESS	QUANT	1.00000E+002	E&stimated Z (ohms)
OCVCURVE	TABLE	232
	Pt	T	Vf	Vm	Ach	Over
	#	s	V vs. Ref.	V	V	bits
	0	0.258332	3.98975E-002	2.86743E-006	-1.63400E-004	......
	1	0.516663	3.98625E-002	2.86743E-006	-6.34000E-005	......
	2	0.774994	3.98425E-002	2.86743E-006	-6.34000E-005	......
	3	1.03333	3.98175E-002	2.86743E-006	3.66000E-005	......
	4	1.29166	3.97825E-002	2.86743E-006	-6.34000E-005	......
	5	1.54999	3.97525E-002	2.86743E-006	3.66000E-005	......
	6	1.80832	3.97375E-002	2.86743E-006	-1.63400E-004	......
	7	2.06665	3.96925E-002	2.86743E-006	3.66000E-005	......
	8	2.32498	3.96675E-002	2.86743E-006	-1.63400E-004	......
	9	2.58332	3.96475E-002	2.86743E-006	3.66000E-005	......
	10	2.84165	3.96125E-002	2.86743E-006	-1.63400E-004	......
	11	3.09998	3.95925E-002	2.86743E-006	1.36600E-004	......
	12	3.35831	3.95625E-002	2.86743E-006	-6.34000E-005	......
	13	3.61664	3.95375E-002	2.86743E-006	3.66000E-005	......
	14	3.87497	3.95025E-002	2.86743E-006	-6.34000E-005	......
	15	4.1333	3.94675E-002	2.86743E-006	3.66000E-005	......
	16	4.39164	3.94575E-002	2.86743E-006	-1.63400E-004	......
	17	4.64997	3.94175E-002	2.86743E-006	-6.34000E-005	......
	18	4.9083	3.93775E-002	2.86743E-006	-6.34000E-005	......
	19	5.16663	3.93525E-002	2.86743E-006	3.66000E-005	......
	20	5.42496	3.93225E-002	2.86743E-006	3.66000E-005	......
	21	5.68329	3.92975E-002	2.86743E-006	3.66000E-005	......
	22	5.94162	3.92775E-002	2.86743E-006	-1.63400E-004	......
	23	6.19996	3.92425E-002	2.86743E-006	3.66000E-005	......
	24	6.45829	3.92075E-002	2.86743E-006	-1.63400E-004	......
	25	6.71662	3.91675E-002	2.86743E-006	1.36600E-004	......
	26	6.97495	3.91425E-002	2.86743E-006	-3.63400E-004	......
	27	7.23328	3.91125E-002	2.86743E-006	3.66000E-005	......
	28	7.49161	3.90825E-002	2.86743E-006	-1.63400E-004	......
	29	7.74995	3.90525E-002	2.86743E-006	-6.34000E-005	......
	30	8.00828	3.90225E-002	2.86743E-006	-1.63400E-004	......
	31	8.26661	3.89975E-002	2.86743E-006	3.66000E-005	......
	32	8.52494	3.89625E-002	2.86743E-006	-6.34000E-005	......
	33	8.78327	3.89225E-002	2.86743E-006	3.66000E-005	......
	34	9.0416	3.89075E-002	2.86743E-006	-6.34000E-005	......
	35	9.29993	3.88725E-002	2.86743E-006	2.36600E-004	......
	36	9.5583	3.88425E-002	2.86743E-006	-1.63400E-004	......
	37	9.8166	3.88175E-002	2.86743E-006	3.66000E-005	......
	38	10.0749	3.87775E-002	2.86743E-006	3.66000E-005	......
	39	10.3333	3.87475E-002	2.86743E-006	3.66000E-005	......
	40	10.5916	3.87275E-002	2.86743E-006	-1.63400E-004	......
	41	10.8499	3.86925E-002	2.86743E-006	-6.34000E-005	......
	42	11.1083	3.86575E-002	2.86743E-006	-6.34000E-005	......
	43	11.3666	3.86175E-002	2.86743E-006	3.66000E-005	......
	44	11.6249	3.85975E-002	2.86743E-006	-1.63400E-004	......
	45	11.8832	3.85625E-002	2.86743E-006	3.66000E-005	......
	46	12.1416	3.85225E-002	2.86743E-006	-1.63400E-004	......
	47	12.3999	3.84975E-002	2.86743E-006	3.66000E-005	......
	48	12.6582	3.84675E-002	2.86743E-006	-1.63400E-004	......
	49	12.9166	3.84325E-002	2.86743E-006	2.36600E-004	......
	50	13.1749	3.84075E-002	2.86743E-006	-1.63400E-004	......
	51	13.4332	3.83825E-002	2.86743E-006	1.36600E-004	......
	52	13.6916	3.83425E-002	2.86743E-006	-1.63400E-004	......
	53	13.9499	3.83175E-002	2.86743E-006	3.66000E-005	......
	54	14.2082	3.82775E-002	2.86743E-006	-6.34000E-005	......
	55	14.4666	3.82625E-002	2.86743E-006	3.66000E-005	......
	56	14.7249	3.82275E-002	2.86743E-006	-1.63400E-004	......
	57	14.9832	3.81875E-002	2.86743E-006	3.66000E-005	......
	58	15.2416	3.81625E-002	2.86743E-006	-1.63400E-004	......
	59	15.4999	3.81225E-002	2.86743E-006	1.36600E-004	......
	60	15.7582	3.80975E-002	2.86743E-006	-6.34000E-005	......
	61	16.0166	3.80725E-002	2.86743E-006	-6.34000E-005	......
	62	16.2749	3.80325E-002	2.86743E-006	-6.34000E-005	......
	63	16.5332	3.80075E-002	2.86743E-006	3.66000E-005	......
	64	16.7915	3.79775E-002	2.86743E-006	-6.34000E-005	......
	65	17.0499	3.79475E-002	2.86743E-006	1.36600E-004	......
	66	17.3082	3.79175E-002	2.86743E-006	-6.34000E-005	......
	67	17.5665	3.78875E-002	2.86743E-006	3.66000E-005	......
	68	17.8249	3.78625E-002	2.86743E-006	-1.63400E-004	......
	69	18.0832	3.78225E-002	2.86743E-006	1.36600E-004	......
	70	18.3415	3.77975E-002	2.86743E-006	-6.34000E-005	......
	71	18.5999	3.77625E-002	2.86743E-006	1.36600E-004	......
	72	18.8582	3.77325E-002	2.86743E-006	-1.63400E-004	......
	73	19.1165	3.76975E-002	2.86743E-006	1.36600E-004	......
	74	19.3749	3.76625E-002	2.86743E-006	-1.63400E-004	......
	75	19.6332	3.76375E-002	2.86743E-006	3.66000E-005	......
	76	19.8915	3.76075E-002	2.86743E-006	-1.63400E-004	......
	77	20.1499	3.75775E-002	2.86743E-006	1.36600E-004	......
	78	20.4082	3.75425E-002	2.86743E-006	-1.63400E-004	......
	79	20.6665	3.75175E-002	2.86743E-006	2.36600E-004	......
	80	20.9249	3.74825E-002	2.86743E-006	-1.63400E-004	......
	81	21.1832	3.74575E-002	2.86743E-006	3.66000E-005	......
	82	21.4415	3.74225E-002	2.86743E-006	-1.63400E-004	......
	83	21.6998	3.73975E-002	2.86743E-006	3.66000E-005	......
	84	21.9582	3.73675E-002	2.86743E-006	-1.63400E-004	......
	85	22.2165	3.73325E-002	2.86743E-006	1.36600E-004	......
	86	22.4748	3.73025E-002	2.86743E-006	3.66000E-005	......
	87	22.7332	3.72725E-002	2.86743E-006	3.66000E-005	......
	88	22.9915	3.72375E-002	2.86743E-006	-6.34000E-005	......
	89	23.2498	3.72175E-002	2.86743E-006	3.66000E-005	......
	90	23.5082	3.71775E-002	2.86743E-006	-6.34000E-005	......
	91	23.7665	3.71625E-002	2.86743E-006	2.36600E-004	......
	92	24.0248	3.71175E-002	2.86743E-006	-6.34000E-005	......
	93	24.2832	3.70975E-002	2.86743E-006	3.66000E-005	......
	94	24.5415	3.70625E-002	2.86743E-006	-1.63400E-004	......
	95	24.7998	3.70275E-002	2.86743E-006	3.66000E-005	......
	96	25.0582	3.69975E-002	2.86743E-006	-1.63400E-004	......
	97	25.3165	3.69625E-002	2.86743E-006	2.36600E-004	......
	98	25.5748	3.69425E-002	2.86743E-006	-1.63400E-004	......
	99	25.8332	3.69175E-002	2.86743E-006	2.36600E-004	......
	100	26.0915	3.68775E-002	2.86743E-006	-6.34000E-005	......
	101	26.3498	3.68625E-002	2.86743E-006	2.36600E-004	......
	102	26.6081	3.68275E-002	2.86743E-006	-6.34000E-005	......
	103	26.8665	3.67875E-002	2.86743E-006	1.36600E-004	......
	104	27.1248	3.67675E-002	2.86743E-006	-1.63400E-004	......
	105	27.3831	3.67325E-002	2.86743E-006	1.36600E-004	......
	106	27.6415	3.66975E-002	2.86743E-006	-6.34000E-005	......
	107	27.8998	3.66775E-002	2.86743E-006	3.66000E-005	......
	108	28.1581	3.66375E-002	2.86743E-006	-1.63400E-004	......
	109	28.4165	3.66175E-002	2.86743E-006	3.66000E-005	......
	110	28.6748	3.65775E-002	2.86743E-006	-6.34000E-005	......
	111	28.9331	3.65525E-002	2.86743E-006	1.36600E-004	......
	112	29.1915	3.65225E-002	2.86743E-006	-1.63400E-004	......
	113	29.4498	3.65025E-002	2.86743E-006	3.66000E-005	......
	114	29.7081	3.64625E-002	2.86743E-006	-2.63400E-004	......
	115	29.9665	3.64275E-002	2.86743E-006	3.66000E-005	......
	116	30.2248	3.64025E-002	2.86743E-006	-2.63400E-004	......
	117	30.4831	3.63675E-002	2.86743E-006	-6.34000E-005	......
	118	30.7414	3.63375E-002	2.86743E-006	3.66000E-005	......
	119	30.9998	3.63275E-002	2.86743E-006	3.66000E-005	......
	120	31.2581	3.62875E-002	2.86743E-006	-1.63400E-004	......
	121	31.5164	3.62575E-002	2.86743E-006	3.66000E-005	......
	122	31.7748	3.62325E-002	2.86743E-006	-6.34000E-005	......
	123	32.0331	3.62025E-002	2.86743E-006	3.66000E-005	......
	124	32.2914	3.61875E-002	2.86743E-006	-1.63400E-004	......
	125	32.5498	3.61375E-002	2.86743E-006	3.66000E-005	......
	126	32.8081	3.61175E-002	2.86743E-006	-6.34000E-005	......
	127	33.0664	3.60725E-002	2.86743E-006	3.66000E-005	......
	128	33.3248	3.60575E-002	2.86743E-006	-6.34000E-005	......
	129	33.5831	3.60175E-002	2.86743E-006	3.66000E-005	......
	130	33.8414	3.59875E-002	2.86743E-006	-6.34000E-005	......
	131	34.0998	3.59625E-002	2.86743E-006	3.66000E-005	......
	132	34.3581	3.59425E-002	2.86743E-006	-1.63400E-004	......
	133	34.6164	3.59175E-002	2.86743E-006	3.66000E-005	......
	134	34.8748	3.58825E-002	2.86743E-006	-1.63400E-004	......
	135	35.1331	3.58525E-002	2.86743E-006	1.36600E-004	......
	136	35.3914	3.58225E-002	2.86743E-006	-6.34000E-005	......
	137	35.6497	3.57975E-002	2.86743E-006	3.66000E-005	......
	138	35.9081	3.57625E-002	2.86743E-006	-6.34000E-005	......
	139	36.1664	3.57375E-002	2.86743E-006	3.66000E-005	......
	140	36.4247	3.57125E-002	2.86743E-006	-1.63400E-004	......
	141	36.6831	3.56775E-002	2.86743E-006	1.36600E-004	......
	142	36.9414	3.56475E-002	2.86743E-006	-1.63400E-004	......
	143	37.1997	3.56225E-002	2.86743E-006	2.36600E-004	......
	144	37.4581	3.55925E-002	2.86743E-006	-1.63400E-004	......
	145	37.7164	3.55675E-002	2.86743E-006	3.66000E-005	......
	146	37.9747	3.55375E-002	2.86743E-006	-6.34000E-005	......
	147	38.2331	3.55025E-002	2.86743E-006	3.66000E-005	......
	148	38.4914	3.54825E-002	2.86743E-006	-1.63400E-004	......
	149	38.7497	3.54475E-002	2.86743E-006	1.36600E-004	......
	150	39.0081	3.54275E-002	2.86743E-006	-1.63400E-004	......
	151	39.2664	3.54025E-002	2.86743E-006	3.66000E-005	......
	152	39.5247	3.53725E-002	2.86743E-006	-1.63400E-004	......
	153	39.7831	3.53425E-002	2.86743E-006	2.36600E-004	......
	154	40.0414	3.53175E-002	2.86743E-006	-6.34000E-005	......
	155	40.2997	3.52925E-002	2.86743E-006	3.66000E-005	......
	156	40.558	3.52575E-002	2.86743E-006	-1.63400E-004	......
	157	40.8164	3.52275E-002	2.86743E-006	3.66000E-005	......
	158	41.0747	3.52025E-002	2.86743E-006	-1.63400E-004	......
	159	41.333	3.51725E-002	2.86743E-006	1.36600E-004	......
	160	41.5914	3.51525E-002	2.86743E-006	-1.63400E-004	......
	161	41.8497	3.51275E-002	2.86743E-006	3.66000E-005	......
	162	42.108	3.50925E-002	2.86743E-006	-6.34000E-005	......
	163	42.3664	3.50625E-002	2.86743E-006	1.36600E-004	......
	164	42.6247	3.50375E-002	2.86743E-006	-6.34000E-005	......
	165	42.883	3.50125E-002	2.86743E-006	3.66000E-005	......
	166	43.1414	3.49825E-002	2.86743E-006	-6.34000E-005	......
	167	43.3997	3.49575E-002	2.86743E-006	3.66000E-005	......
	168	43.658	3.49325E-002	2.86743E-006	-1.63400E-004	......
	169	43.9164	3.49025E-002	2.86743E-006	3.66000E-005	......
	170	44.1747	3.48825E-002	2.86743E-006	-1.63400E-004	......
	171	44.433	3.48525E-002	2.86743E-006	3.66000E-005	......
	172	44.6913	3.48125E-002	2.86743E-006	-6.34000E-005	......
	173	44.9497	3.47925E-002	2.86743E-006	1.36600E-004	......
	174	45.208	3.47675E-002	2.86743E-006	-1.63400E-004	......
	175	45.4663	3.47375E-002	2.86743E-006	2.36600E-004	......
	176	45.7247	3.47025E-002	2.86743E-006	-1.63400E-004	......
	177	45.983	3.46875E-002	2.86743E-006	3.66000E-005	......
	178	46.2413	3.46525E-002	2.86743E-006	-6.34000E-005	......
	179	46.4997	3.46225E-002	2.86743E-006	1.36600E-004	......
	180	46.758	3.46025E-002	2.86743E-006	-1.63400E-004	......
	181	47.0163	3.45775E-002	2.86743E-006	-6.34000E-005	......
	182	47.2747	3.45475E-002	2.86743E-006	-6.34000E-005	......
	183	47.533	3.45175E-002	2.86743E-006	3.66000E-005	......
	184	47.7913	3.44975E-002	2.86743E-006	-1.63400E-004	......
	185	48.0497	3.44625E-002	2.86743E-006	3.66000E-005	......
	186	48.308	3.44325E-002	2.86743E-006	-1.63400E-004	......
	187	48.5663	3.44225E-002	2.86743E-006	2.36600E-004	......
	188	48.8247	3.43975E-002	2.86743E-006	-6.34000E-005	......
	189	49.083	3.43675E-002	2.86743E-006	1.36600E-004	......
	190	49.3413	3.43375E-002	2.86743E-006	-6.34000E-005	......
	191	49.5996	3.43025E-002	2.86743E-006	1.36600E-004	......
	192	49.858	3.42875E-002	2.86743E-006	-1.63400E-004	......
	193	50.1163	3.42575E-002	2.86743E-006	3.66000E-005	......
	194	50.3746	3.42275E-002	2.86743E-006	-6.34000E-005	......
	195	50.633	3.42025E-002	2.86743E-006	3.66000E-005	......
	196	50.8913	3.41725E-002	2.86743E-006	-1.63400E-004	......
	197	51.1496	3.41525E-002	2.86743E-006	1.36600E-004	......
	198	51.408	3.41275E-002	2.86743E-006	-1.63400E-004	......
	199	51.6663	3.41075E-002	2.86743E-006	3.66000E-005	......
	200	51.9246	3.40675E-002	2.86743E-006	-1.63400E-004	......
	201	52.183	3.40475E-002	2.86743E-006	-6.34000E-005	......
	202	52.4413	3.40325E-002	2.86743E-006	-1.63400E-004	......
	203	52.6996	3.39975E-002	2.86743E-006	3.66000E-005	......
	204	52.958	3.39725E-002	2.86743E-006	-6.34000E-005	......
	205	53.2163	3.39375E-002	2.86743E-006	1.36600E-004	......
	206	53.4746	3.39075E-002	2.86743E-006	-6.34000E-005	......
	207	53.733	3.38875E-002	2.86743E-006	3.66000E-005	......
	208	53.9913	3.38625E-002	2.86743E-006	-2.63400E-004	......
	209	54.2496	3.38375E-002	2.86743E-006	2.36600E-004	......
	210	54.5079	3.38125E-002	2.86743E-006	-1.63400E-004	......
	211	54.7663	3.37825E-002	2.86743E-006	3.66000E-005	......
	212	55.0246	3.37625E-002	2.86743E-006	-1.63400E-004	......
	213	55.2829	3.37325E-002	2.86743E-006	2.36600E-004	......
	214	55.5413	3.37125E-002	2.86743E-006	-6.34000E-005	......
	215	55.7996	3.36775E-002	2.86743E-006	3.66000E-005	......
	216	56.0579	3.36625E-002	2.86743E-006	-2.63400E-004	......
	217	56.3163	3.36325E-002	2.86743E-006	2.36600E-004	......
	218	56.5746	3.36075E-002	2.86743E-006	-1.63400E-004	......
	219	56.8329	3.35725E-002	2.86743E-006	3.66000E-005	......
	220	57.0913	3.35525E-002	2.86743E-006	-1.63400E-004	......
	221	57.3496	3.35275E-002	2.86743E-006	3.66000E-005	......
	222	57.6079	3.34925E-002	2.86743E-006	-6.34000E-005	......
	223	57.8663	3.34825E-002	2.86743E-006	3.66000E-005	......
	224	58.1246	3.34525E-002	2.86743E-006	-1.63400E-004	......
	225	58.3829	3.34325E-002	2.86743E-006	3.66000E-005	......
	226	58.6413	3.34025E-002	2.86743E-006	-1.63400E-004	......
	227	58.8996	3.33725E-002	2.86743E-006	3.66000E-005	......
	228	59.1579	3.33525E-002	2.86743E-006	-6.34000E-005	......
	229	59.4162	3.33275E-002	2.86743E-006	3.66000E-005	......
	230	59.6746	3.33025E-002	2.86743E-006	-6.34000E-005	......
	231	59.9329	3.32675E-002	2.86743E-006	2.36600E-004	......
EOC	QUANT	0.033267	Open Circuit (V)
PSTATMODEL	IQUANT	32	Pstat Model
PSTATSECTION	LABEL	PStat0	Pstat Section
CTRLMODE	IQUANT	1	Control Mode
IESTAB	IQUANT	0	I/E Stability
CASPEED	IQUANT	1	Control Amp Speed
CONVENTION	IQUANT	1	Current Convention
ICHRANGE	IQUANT	2	Ich Range
ICHRANGEMODE	TOGGLE	F	Ich Auto Range
ICHOFFSETENABLE	TOGGLE	T	Ich Offset Enable
ICHOFFSET	QUANT	0	Ich Offset (V)
ICHFILTER	IQUANT	3	Ich Filter
VCHRANGE	IQUANT	2	Vch Range
VCHRANGEMODE	TOGGLE	F	Vch Auto Range
VCHOFFSETENABLE	TOGGLE	T	Vch Offset Enable
VCHOFFSET	QUANT	0	Vch Offset (V)
VCHFILTER	IQUANT	3	Vch Filter
ACHRANGE	IQUANT	0	Ach Range
IERANGELOWERLIMIT	IQUANT	3	I/E Range Lower Limit
IERANGEMODE	TOGGLE	F	I/E AutoRange
IERANGE	IQUANT	11	I/E Range
POSFEEDENABLE	TOGGLE	F	Positive Feedback IR Comp
POSFEEDRESISTANCE	QUANT	0	Positive Feedback Resistance (ohm)
FC350IDIVISOR	IQUANT	0	FC350 I Divisor
FC350VRANGE	IQUANT	0	FC350 V Range
FRAMEWORKVERSION	QUANT	4.35	Framework Version
ZCURVE	TABLE
	Pt	Time	Freq	Zreal	Zimag	Zsig	Zmod	Zphz	Idc	Vdc	IERange
	#	s	Hz	ohm	ohm	V	ohm	°	A	V	#
	0	6	100007	21.6098	0.216813	1	21.6109	0.574835	5.65812E-006	0.034378	10
	1	10	89134.1	21.5316	0.196998	1	21.5325	0.524198	5.86857E-006	0.034389	10
	2	13	79433.6	21.5648	0.135789	1	21.5652	0.360775	7.31057E-006	0.034364	10
	3	17	70800.8	21.4679	0.005234	1	21.4679	0.01397	4.80962E-006	0.034393	10
	4	19	63105.5	21.5986	-0.041391	1	21.5987	-0.1098	4.75803E-006	0.034382	10
	5	23	56243.5	21.4082	-0.010276	1	21.4082	-0.027501	6.69392E-006	0.03439	10
	6	26	50123.7	21.5282	-0.051505	1	21.5283	-0.137077	4.7961E-006	0.034388	10
	7	30	44681	21.5647	-0.345206	1	21.5675	-0.917108	4.64154E-006	0.034381	10
	8	34	39811.2	21.5271	-0.326978	1	21.5295	-0.870207	6.22254E-006	0.034367	10
	9	38	35488.3	21.4705	-0.464758	1	21.4755	-1.24005	6.72771E-006	0.034397	10
	10	40	31634.1	21.367	-0.417558	1	21.3711	-1.11954	5.22215E-006	0.034378	10
	11	44	28173.1	21.652	-0.568297	1	21.6594	-1.50349	5.93604E-006	0.034375	10
	12	48	25123.7	21.5286	-0.504018	1	21.5345	-1.34114	6.7986E-006	0.034383	10
	13	52	22389.3	21.4597	-0.766124	1	21.4734	-2.04462	5.00245E-006	0.034381	10
	14	56	19954.4	21.5587	-0.886785	1	21.5769	-2.35545	6.32362E-006	0.034374	10
	15	58	17778.2	21.8007	-0.920105	1	21.8202	-2.41675	5.91743E-006	0.034376	10
	16	63	15852.9	21.6827	-1.10205	1	21.7107	-2.90962	5.09114E-006	0.034377	10
	17	67	14122.3	21.5803	-1.11259	1	21.6089	-2.95131	6.01557E-006	0.03437	10
	18	71	12587.2	21.8141	-1.18537	1	21.8463	-3.11038	6.02087E-006	0.034376	10
	19	74	11221.1	21.6329	-1.34583	1	21.6747	-3.55991	6.10243E-006	0.034376	10
	20	79	9998.2	21.8801	-1.33376	1	21.9207	-3.4883	6.03227E-006	0.034387	10
	21	81	8912.76	21.8276	-1.43194	1	21.8745	-3.75334	7.20775E-006	0.034364	10
	22	85	7942.6	21.9438	-1.7449	1	22.0131	-4.54641	6.0389E-006	0.034372	10
	23	89	7078.05	21.9544	-1.81242	1	22.0291	-4.71927	5.85559E-006	0.034374	10
	24	93	6311.1	22.0243	-2.02518	1	22.1172	-5.25369	5.80113E-006	0.034375	10
	25	97	5622.14	22.103	-2.34008	1	22.2266	-6.04347	5.6346E-006	0.034378	10
	26	101	5011.18	22.1457	-2.42846	1	22.2784	-6.25797	5.91221E-006	0.034391	10
	27	103	4465.21	22.2136	-2.68915	1	22.3758	-6.90255	5.82319E-006	0.034379	10
	28	107	3980.93	22.5527	-2.75332	1	22.7201	-6.96046	5.7934E-006	0.034379	10
	29	111	3548.18	22.4672	-3.26919	1	22.7038	-8.27896	6.0022E-006	0.034359	10
	30	115	3162.67	22.6983	-3.52209	1	22.97	-8.82021	6.89123E-006	0.034364	10
	31	120	2819.01	22.7928	-3.85079	1	23.1158	-9.5894	4.49763E-006	0.034382	10
	32	122	2511.16	22.9126	-4.0746	1	23.2721	-10.0836	5.81547E-006	0.034368	10
	33	126	2238.63	23.0882	-4.40705	1	23.505	-10.8066	5.34448E-006	0.034377	10
	34	130	1995.37	23.3153	-4.96712	1	23.8385	-12.0266	5.67516E-006	0.03438	10
	35	134	1778.51	23.0981	-5.42937	1	23.7276	-13.2277	5.47214E-006	0.034384	10
	36	138	1584.49	23.3105	-6.01272	1	24.0735	-14.4636	5.65764E-006	0.034374	10
	37	142	1412.76	23.7535	-6.55456	1	24.6412	-15.4263	6.51246E-006	0.034394	10
	38	144	1259.04	23.8423	-7.10962	1	24.8797	-16.6043	5.4539E-006	0.034376	10
	39	148	1121.63	24.162	-7.91762	1	25.4261	-18.1434	5.43664E-006	0.034378	10
	40	152	999.95	24.2615	-8.63704	1	25.7531	-19.5956	5.44432E-006	0.034378	10
	41	156	891.184	24.4501	-9.187	1	26.1191	-20.5935	5.6154E-006	0.034381	10
	42	161	794.163	24.8645	-10.4976	1	26.9897	-22.889	5.4052E-006	0.034384	10
	43	165	707.867	25.1825	-11.4188	1	27.6505	-24.3915	4.53552E-006	0.034389	10
	44	167	630.984	25.4191	-12.6167	1	28.378	-26.3973	5.49997E-006	0.034384	10
	45	171	562.189	26.0313	-13.7536	1	29.4413	-27.8498	6.45197E-006	0.034399	10
	46	176	501.303	26.282	-14.9312	1	30.2273	-29.6016	5.8593E-006	0.034387	10
	47	178	446.614	26.7177	-16.3973	1	31.3482	-31.5385	5.79397E-006	0.03439	10
	48	180	398.209	27.2202	-17.9766	1	32.6205	-33.4413	5.70154E-006	0.034393	10
	49	182	354.821	27.7213	-19.7251	1	34.0228	-35.4337	5.71016E-006	0.034388	10
	50	184	316.113	28.3352	-21.6657	1	35.6691	-37.4022	5.7206E-006	0.034389	10
	51	185	281.926	28.9183	-23.7416	1	37.4157	-39.3857	5.68224E-006	0.034385	10
	52	187	251.185	29.6341	-26.0524	1	39.4577	-41.3198	5.68632E-006	0.034384	10
	53	189	223.946	30.3886	-28.6015	1	41.7314	-43.2648	5.7089E-006	0.034384	10
	54	191	199.495	31.188	-31.4082	1	44.2625	-45.2016	5.6294E-006	0.034387	10
	55	193	177.836	32.0419	-34.4483	1	47.0465	-47.0728	5.7181E-006	0.034385	10
	56	195	158.533	32.9983	-37.8356	1	50.2038	-48.9067	5.56697E-006	0.034386	10
	57	197	141.263	34.0502	-41.5542	1	53.7231	-50.6682	5.5398E-006	0.03439	10
