EXPLAIN
TAG	EISPOT
TITLE	LABEL	Tomato_open	Test &Identifier
DATE	LABEL	5/16/2006	Date
TIME	LABEL	16:35:09	Time
NOTES	NOTES	1	&Notes...
	
PSTAT	PSTAT	300	Potentiostat
VDC	POTEN	1.00000E-003	T	DC &Voltage (V)
FREQINIT	QUANT	1.00000E+005	Initial Fre&q. (Hz)
FREQFINAL	QUANT	1.00000E+001	Final Fre&q. (Hz)
PTSPERDEC	QUANT	2.00000E+001	Points/&decade
VAC	QUANT	1.00000E+000	AC &Voltage (mV rms)
AREA	QUANT	1.00000E+000	&Area (cm²)
DENSITY	QUANT	7.87000E+000	&Density (gm/cm³)
EQUIV	QUANT	7.00000E+000	Equiv. &Wt
CONDIT	TWOPARAM	F	6.00000E+001	0.00000E+000	Conditionin&g	Time(s)	E(V)
DELAY	TWOPARAM	T	6.00000E+001	0.00000E+000	Init. De&lay	Time(s)	Stab.(mV/s)
SPEED	SELECTOR	1	&Optimize for:
ZGUESS	QUANT	1.00000E+002	E&stimated Z (ohms)
OCVCURVE	TABLE	232
	Pt	T	Vf	Vm	Ach	Over
	#	s	V vs. Ref.	V	V	bits
	0	0.258332	6.90925E-002	2.81743E-006	-6.34000E-005	......
	1	0.516663	6.90825E-002	2.81743E-006	3.66000E-005	......
	2	0.774994	6.90825E-002	2.81743E-006	-1.63400E-004	......
	3	1.03333	6.90675E-002	2.81743E-006	1.36600E-004	......
	4	1.29166	6.90625E-002	2.81743E-006	-1.63400E-004	......
	5	1.54999	6.90375E-002	2.81743E-006	3.66000E-005	......
	6	1.80832	6.90175E-002	2.81743E-006	-6.34000E-005	......
	7	2.06665	6.90075E-002	2.81743E-006	3.66000E-005	......
	8	2.32498	6.89825E-002	2.81743E-006	-6.34000E-005	......
	9	2.58332	6.89625E-002	2.81743E-006	3.66000E-005	......
	10	2.84165	6.89375E-002	2.81743E-006	-1.63400E-004	......
	11	3.09998	6.89175E-002	2.81743E-006	3.66000E-005	......
	12	3.35831	6.88825E-002	2.81743E-006	-6.34000E-005	......
	13	3.61664	6.88525E-002	2.81743E-006	3.66000E-005	......
	14	3.87497	6.88225E-002	2.81743E-006	-1.63400E-004	......
	15	4.1333	6.87825E-002	2.81743E-006	2.36600E-004	......
	16	4.39164	6.87525E-002	2.81743E-006	-6.34000E-005	......
	17	4.64997	6.87125E-002	2.81743E-006	-6.34000E-005	......
	18	4.9083	6.86825E-002	2.81743E-006	-1.63400E-004	......
	19	5.16663	6.86375E-002	2.81743E-006	3.66000E-005	......
	20	5.42496	6.85925E-002	2.81743E-006	-1.63400E-004	......
	21	5.68329	6.85575E-002	2.81743E-006	-6.34000E-005	......
	22	5.94162	6.85075E-002	2.81743E-006	-6.34000E-005	......
	23	6.19996	6.84725E-002	2.81743E-006	3.66000E-005	......
	24	6.45829	6.84275E-002	2.81743E-006	-1.63400E-004	......
	25	6.71662	6.83675E-002	2.81743E-006	1.36600E-004	......
	26	6.97495	6.83225E-002	2.81743E-006	-6.34000E-005	......
	27	7.23328	6.82725E-002	2.81743E-006	2.36600E-004	......
	28	7.49161	6.82275E-002	2.81743E-006	-6.34000E-005	......
	29	7.74995	6.81725E-002	2.81743E-006	3.66000E-005	......
	30	8.00828	6.81275E-002	2.81743E-006	-1.63400E-004	......
	31	8.26661	6.80625E-002	2.81743E-006	3.66000E-005	......
	32	8.52494	6.79975E-002	2.81743E-006	-1.63400E-004	......
	33	8.78327	6.79525E-002	2.81743E-006	1.36600E-004	......
	34	9.0416	6.78875E-002	2.81743E-006	-2.63400E-004	......
	35	9.29993	6.78225E-002	2.81743E-006	3.66000E-005	......
	36	9.5583	6.77625E-002	2.81743E-006	-6.34000E-005	......
	37	9.8166	6.76975E-002	2.81743E-006	1.36600E-004	......
	38	10.0749	6.76225E-002	2.81743E-006	-6.34000E-005	......
	39	10.3333	6.75675E-002	2.81743E-006	3.66000E-005	......
	40	10.5916	6.75025E-002	2.81743E-006	-1.63400E-004	......
	41	10.8499	6.74275E-002	2.81743E-006	-6.34000E-005	......
	42	11.1083	6.73725E-002	2.81743E-006	-1.63400E-004	......
	43	11.3666	6.72875E-002	2.81743E-006	3.66000E-005	......
	44	11.6249	6.72225E-002	2.81743E-006	-1.63400E-004	......
	45	11.8832	6.71525E-002	2.81743E-006	3.66000E-005	......
	46	12.1416	6.70875E-002	2.81743E-006	-6.34000E-005	......
	47	12.3999	6.70225E-002	2.81743E-006	3.66000E-005	......
	48	12.6582	6.69575E-002	2.81743E-006	-1.63400E-004	......
	49	12.9166	6.68825E-002	2.81743E-006	2.36600E-004	......
	50	13.1749	6.68125E-002	2.81743E-006	-1.63400E-004	......
	51	13.4332	6.67425E-002	2.81743E-006	3.66000E-005	......
	52	13.6916	6.66675E-002	2.81743E-006	-1.63400E-004	......
	53	13.9499	6.66025E-002	2.81743E-006	3.66000E-005	......
	54	14.2082	6.65275E-002	2.81743E-006	-6.34000E-005	......
	55	14.4666	6.64525E-002	2.81743E-006	2.36600E-004	......
	56	14.7249	6.63775E-002	2.81743E-006	-1.63400E-004	......
	57	14.9832	6.63175E-002	2.81743E-006	1.36600E-004	......
	58	15.2416	6.62325E-002	2.81743E-006	-1.63400E-004	......
	59	15.4999	6.61675E-002	2.81743E-006	3.66000E-005	......
	60	15.7582	6.60925E-002	2.81743E-006	-1.63400E-004	......
	61	16.0166	6.60275E-002	2.81743E-006	2.36600E-004	......
	62	16.2749	6.59475E-002	2.81743E-006	-6.34000E-005	......
	63	16.5332	6.58725E-002	2.81743E-006	3.66000E-005	......
	64	16.7915	6.58025E-002	2.81743E-006	-6.34000E-005	......
	65	17.0499	6.57225E-002	2.81743E-006	2.36600E-004	......
	66	17.3082	6.56525E-002	2.81743E-006	-1.63400E-004	......
	67	17.5665	6.55775E-002	2.81743E-006	3.66000E-005	......
	68	17.8249	6.54975E-002	2.81743E-006	-1.63400E-004	......
	69	18.0832	6.54175E-002	2.81743E-006	2.36600E-004	......
	70	18.3415	6.53475E-002	2.81743E-006	-1.63400E-004	......
	71	18.5999	6.52675E-002	2.81743E-006	1.36600E-004	......
	72	18.8582	6.51825E-002	2.81743E-006	-6.34000E-005	......
	73	19.1165	6.51125E-002	2.81743E-006	1.36600E-004	......
	74	19.3749	6.50425E-002	2.81743E-006	-1.63400E-004	......
	75	19.6332	6.49675E-002	2.81743E-006	3.66000E-005	......
	76	19.8915	6.48975E-002	2.81743E-006	-6.34000E-005	......
	77	20.1499	6.48075E-002	2.81743E-006	3.66000E-005	......
	78	20.4082	6.47325E-002	2.81743E-006	-1.63400E-004	......
	79	20.6665	6.46625E-002	2.81743E-006	3.66000E-005	......
	80	20.9249	6.45875E-002	2.81743E-006	-1.63400E-004	......
	81	21.1832	6.45025E-002	2.81743E-006	1.36600E-004	......
	82	21.4415	6.44225E-002	2.81743E-006	-2.63400E-004	......
	83	21.6998	6.43475E-002	2.81743E-006	3.66000E-005	......
	84	21.9582	6.42725E-002	2.81743E-006	-6.34000E-005	......
	85	22.2165	6.41975E-002	2.81743E-006	2.36600E-004	......
	86	22.4748	6.41225E-002	2.81743E-006	-1.63400E-004	......
	87	22.7332	6.40375E-002	2.81743E-006	2.36600E-004	......
	88	22.9915	6.39625E-002	2.81743E-006	-1.63400E-004	......
	89	23.2498	6.38975E-002	2.81743E-006	2.36600E-004	......
	90	23.5082	6.38025E-002	2.81743E-006	-1.63400E-004	......
	91	23.7665	6.37425E-002	2.81743E-006	1.36600E-004	......
	92	24.0248	6.36425E-002	2.81743E-006	-1.63400E-004	......
	93	24.2832	6.35725E-002	2.81743E-006	3.66000E-005	......
	94	24.5415	6.34975E-002	2.81743E-006	-1.63400E-004	......
	95	24.7998	6.34175E-002	2.81743E-006	2.36600E-004	......
	96	25.0582	6.33425E-002	2.81743E-006	-2.63400E-004	......
	97	25.3165	6.32625E-002	2.81743E-006	3.66000E-005	......
	98	25.5748	6.31875E-002	2.81743E-006	-1.63400E-004	......
	99	25.8332	6.31025E-002	2.81743E-006	3.66000E-005	......
	100	26.0915	6.30225E-002	2.81743E-006	-1.63400E-004	......
	101	26.3498	6.29375E-002	2.81743E-006	3.66000E-005	......
	102	26.6081	6.28725E-002	2.81743E-006	3.66000E-005	......
	103	26.8665	6.27875E-002	2.81743E-006	3.66000E-005	......
	104	27.1248	6.27125E-002	2.81743E-006	-1.63400E-004	......
	105	27.3831	6.26425E-002	2.81743E-006	-6.34000E-005	......
	106	27.6415	6.25575E-002	2.81743E-006	-1.63400E-004	......
	107	27.8998	6.24775E-002	2.81743E-006	1.36600E-004	......
	108	28.1581	6.24025E-002	2.81743E-006	3.66000E-005	......
	109	28.4165	6.23325E-002	2.81743E-006	3.66000E-005	......
	110	28.6748	6.22375E-002	2.81743E-006	-6.34000E-005	......
	111	28.9331	6.21675E-002	2.81743E-006	3.66000E-005	......
	112	29.1915	6.20875E-002	2.81743E-006	-6.34000E-005	......
	113	29.4498	6.20175E-002	2.81743E-006	3.66000E-005	......
	114	29.7081	6.19375E-002	2.81743E-006	-6.34000E-005	......
	115	29.9665	6.18525E-002	2.81743E-006	1.36600E-004	......
	116	30.2248	6.17825E-002	2.81743E-006	-6.34000E-005	......
	117	30.4831	6.16925E-002	2.81743E-006	2.36600E-004	......
	118	30.7414	6.16125E-002	2.81743E-006	-1.63400E-004	......
	119	30.9998	6.15425E-002	2.81743E-006	1.36600E-004	......
	120	31.2581	6.14675E-002	2.81743E-006	-6.34000E-005	......
	121	31.5164	6.13875E-002	2.81743E-006	3.66000E-005	......
	122	31.7748	6.13175E-002	2.81743E-006	-1.63400E-004	......
	123	32.0331	6.12325E-002	2.81743E-006	2.36600E-004	......
	124	32.2914	6.11625E-002	2.81743E-006	-1.63400E-004	......
	125	32.5498	6.10825E-002	2.81743E-006	1.36600E-004	......
	126	32.8081	6.10075E-002	2.81743E-006	-6.34000E-005	......
	127	33.0664	6.09275E-002	2.81743E-006	3.66000E-005	......
	128	33.3248	6.08425E-002	2.81743E-006	-1.63400E-004	......
	129	33.5831	6.07725E-002	2.81743E-006	3.66000E-005	......
	130	33.8414	6.06925E-002	2.81743E-006	-1.63400E-004	......
	131	34.0998	6.06175E-002	2.81743E-006	2.36600E-004	......
	132	34.3581	6.05425E-002	2.81743E-006	-6.34000E-005	......
	133	34.6164	6.04675E-002	2.81743E-006	3.66000E-005	......
	134	34.8748	6.03975E-002	2.81743E-006	-1.63400E-004	......
	135	35.1331	6.03075E-002	2.81743E-006	3.66000E-005	......
	136	35.3914	6.02425E-002	2.81743E-006	3.66000E-005	......
	137	35.6497	6.01525E-002	2.81743E-006	2.36600E-004	......
	138	35.9081	6.00925E-002	2.81743E-006	-1.63400E-004	......
	139	36.1664	6.00025E-002	2.81743E-006	3.66000E-005	......
	140	36.4247	5.99375E-002	2.81743E-006	-1.63400E-004	......
	141	36.6831	5.98475E-002	2.81743E-006	3.66000E-005	......
	142	36.9414	5.97725E-002	2.81743E-006	-6.34000E-005	......
	143	37.1997	5.96975E-002	2.81743E-006	3.66000E-005	......
	144	37.4581	5.96175E-002	2.81743E-006	-1.63400E-004	......
	145	37.7164	5.95525E-002	2.81743E-006	3.66000E-005	......
	146	37.9747	5.94775E-002	2.81743E-006	3.66000E-005	......
	147	38.2331	5.93925E-002	2.81743E-006	3.66000E-005	......
	148	38.4914	5.93175E-002	2.81743E-006	-6.34000E-005	......
	149	38.7497	5.92425E-002	2.81743E-006	2.36600E-004	......
	150	39.0081	5.91775E-002	2.81743E-006	-1.63400E-004	......
	151	39.2664	5.90875E-002	2.81743E-006	1.36600E-004	......
	152	39.5247	5.90125E-002	2.81743E-006	-1.63400E-004	......
	153	39.7831	5.89475E-002	2.81743E-006	-6.34000E-005	......
	154	40.0414	5.88675E-002	2.81743E-006	-1.63400E-004	......
	155	40.2997	5.87975E-002	2.81743E-006	3.66000E-005	......
	156	40.558	5.87125E-002	2.81743E-006	-6.34000E-005	......
	157	40.8164	5.86375E-002	2.81743E-006	2.36600E-004	......
	158	41.0747	5.85675E-002	2.81743E-006	-6.34000E-005	......
	159	41.333	5.84975E-002	2.81743E-006	3.66000E-005	......
	160	41.5914	5.84175E-002	2.81743E-006	-6.34000E-005	......
	161	41.8497	5.83475E-002	2.81743E-006	3.66000E-005	......
	162	42.108	5.82675E-002	2.81743E-006	-1.63400E-004	......
	163	42.3664	5.81975E-002	2.81743E-006	3.66000E-005	......
	164	42.6247	5.81225E-002	2.81743E-006	-6.34000E-005	......
	165	42.883	5.80425E-002	2.81743E-006	3.66000E-005	......
	166	43.1414	5.79675E-002	2.81743E-006	-6.34000E-005	......
	167	43.3997	5.79075E-002	2.81743E-006	3.66000E-005	......
	168	43.658	5.78225E-002	2.81743E-006	-6.34000E-005	......
	169	43.9164	5.77525E-002	2.81743E-006	2.36600E-004	......
	170	44.1747	5.76725E-002	2.81743E-006	-6.34000E-005	......
	171	44.433	5.76025E-002	2.81743E-006	1.36600E-004	......
	172	44.6913	5.75325E-002	2.81743E-006	-1.63400E-004	......
	173	44.9497	5.74575E-002	2.81743E-006	1.36600E-004	......
	174	45.208	5.73825E-002	2.81743E-006	-1.63400E-004	......
	175	45.4663	5.73075E-002	2.81743E-006	3.66000E-005	......
	176	45.7247	5.72375E-002	2.81743E-006	-6.34000E-005	......
	177	45.983	5.71675E-002	2.81743E-006	3.66000E-005	......
	178	46.2413	5.71025E-002	2.81743E-006	-6.34000E-005	......
	179	46.4997	5.70275E-002	2.81743E-006	3.66000E-005	......
	180	46.758	5.69525E-002	2.81743E-006	-1.63400E-004	......
	181	47.0163	5.68825E-002	2.81743E-006	3.66000E-005	......
	182	47.2747	5.68075E-002	2.81743E-006	-1.63400E-004	......
	183	47.533	5.67375E-002	2.81743E-006	3.66000E-005	......
	184	47.7913	5.66675E-002	2.81743E-006	-1.63400E-004	......
	185	48.0497	5.65925E-002	2.81743E-006	1.36600E-004	......
	186	48.308	5.65175E-002	2.81743E-006	-6.34000E-005	......
	187	48.5663	5.64475E-002	2.81743E-006	3.66000E-005	......
	188	48.8247	5.63775E-002	2.81743E-006	-6.34000E-005	......
	189	49.083	5.63125E-002	2.81743E-006	2.36600E-004	......
	190	49.3413	5.62325E-002	2.81743E-006	-1.63400E-004	......
	191	49.5996	5.61575E-002	2.81743E-006	1.36600E-004	......
	192	49.858	5.60975E-002	2.81743E-006	3.66000E-005	......
	193	50.1163	5.60225E-002	2.81743E-006	3.66000E-005	......
	194	50.3746	5.59575E-002	2.81743E-006	-1.63400E-004	......
	195	50.633	5.58825E-002	2.81743E-006	3.66000E-005	......
	196	50.8913	5.58175E-002	2.81743E-006	-1.63400E-004	......
	197	51.1496	5.57425E-002	2.81743E-006	-6.34000E-005	......
	198	51.408	5.56725E-002	2.81743E-006	-6.34000E-005	......
	199	51.6663	5.55975E-002	2.81743E-006	3.66000E-005	......
	200	51.9246	5.55275E-002	2.81743E-006	-6.34000E-005	......
	201	52.183	5.54675E-002	2.81743E-006	2.36600E-004	......
	202	52.4413	5.53875E-002	2.81743E-006	-6.34000E-005	......
	203	52.6996	5.53275E-002	2.81743E-006	2.36600E-004	......
	204	52.958	5.52575E-002	2.81743E-006	-1.63400E-004	......
	205	53.2163	5.51825E-002	2.81743E-006	-6.34000E-005	......
	206	53.4746	5.51125E-002	2.81743E-006	-6.34000E-005	......
	207	53.733	5.50475E-002	2.81743E-006	1.36600E-004	......
	208	53.9913	5.49775E-002	2.81743E-006	-6.34000E-005	......
	209	54.2496	5.49025E-002	2.81743E-006	3.66000E-005	......
	210	54.5079	5.48325E-002	2.81743E-006	-1.63400E-004	......
	211	54.7663	5.47775E-002	2.81743E-006	3.66000E-005	......
	212	55.0246	5.47025E-002	2.81743E-006	-1.63400E-004	......
	213	55.2829	5.46375E-002	2.81743E-006	2.36600E-004	......
	214	55.5413	5.45625E-002	2.81743E-006	-6.34000E-005	......
	215	55.7996	5.44925E-002	2.81743E-006	-6.34000E-005	......
	216	56.0579	5.44275E-002	2.81743E-006	-1.63400E-004	......
	217	56.3163	5.43675E-002	2.81743E-006	3.66000E-005	......
	218	56.5746	5.42925E-002	2.81743E-006	-1.63400E-004	......
	219	56.8329	5.42225E-002	2.81743E-006	3.66000E-005	......
	220	57.0913	5.41625E-002	2.81743E-006	-1.63400E-004	......
	221	57.3496	5.40975E-002	2.81743E-006	-1.63400E-004	......
	222	57.6079	5.40325E-002	2.81743E-006	-1.63400E-004	......
	223	57.8663	5.39575E-002	2.81743E-006	1.36600E-004	......
	224	58.1246	5.38925E-002	2.81743E-006	-6.34000E-005	......
	225	58.3829	5.38225E-002	2.81743E-006	3.66000E-005	......
	226	58.6413	5.37475E-002	2.81743E-006	-6.34000E-005	......
	227	58.8996	5.36875E-002	2.81743E-006	3.66000E-005	......
	228	59.1579	5.36175E-002	2.81743E-006	-6.34000E-005	......
	229	59.4162	5.35675E-002	2.81743E-006	3.66000E-005	......
	230	59.6746	5.34925E-002	2.81743E-006	-6.34000E-005	......
	231	59.9329	5.34225E-002	2.81743E-006	1.36600E-004	......
EOC	QUANT	0.053422	Open Circuit (V)
PSTATMODEL	IQUANT	32	Pstat Model
PSTATSECTION	LABEL	PStat0	Pstat Section
CTRLMODE	IQUANT	1	Control Mode
IESTAB	IQUANT	0	I/E Stability
CASPEED	IQUANT	1	Control Amp Speed
CONVENTION	IQUANT	1	Current Convention
ICHRANGE	IQUANT	2	Ich Range
ICHRANGEMODE	TOGGLE	F	Ich Auto Range
ICHOFFSETENABLE	TOGGLE	T	Ich Offset Enable
ICHOFFSET	QUANT	0	Ich Offset (V)
ICHFILTER	IQUANT	3	Ich Filter
VCHRANGE	IQUANT	2	Vch Range
VCHRANGEMODE	TOGGLE	F	Vch Auto Range
VCHOFFSETENABLE	TOGGLE	T	Vch Offset Enable
VCHOFFSET	QUANT	0	Vch Offset (V)
VCHFILTER	IQUANT	3	Vch Filter
ACHRANGE	IQUANT	0	Ach Range
IERANGELOWERLIMIT	IQUANT	3	I/E Range Lower Limit
IERANGEMODE	TOGGLE	F	I/E AutoRange
IERANGE	IQUANT	11	I/E Range
POSFEEDENABLE	TOGGLE	F	Positive Feedback IR Comp
POSFEEDRESISTANCE	QUANT	0	Positive Feedback Resistance (ohm)
FC350IDIVISOR	IQUANT	0	FC350 I Divisor
FC350VRANGE	IQUANT	0	FC350 V Range
FRAMEWORKVERSION	QUANT	4.35	Framework Version
ZCURVE	TABLE
	Pt	Time	Freq	Zreal	Zimag	Zsig	Zmod	Zphz	Idc	Vdc	IERange
	#	s	Hz	ohm	ohm	V	ohm	°	A	V	#
	0	6	100007	83.2636	-0.842786	1	83.2678	-0.579923	3.44824E-006	0.054497	10
	1	10	89134.1	83.203	-0.319924	1	83.2036	-0.220307	3.58486E-006	0.054501	10
	2	14	79433.6	82.6039	-0.423616	1	82.605	-0.293826	5.25056E-006	0.054543	10
	3	19	70800.8	82.4504	-0.703838	1	82.4534	-0.489094	5.0165E-006	0.054506	10
	4	23	63105.5	82.4288	-0.174011	1	82.429	-0.120954	4.02085E-006	0.054509	10
	5	27	56243.5	82.6103	-0.578617	1	82.6123	-0.401303	5.37027E-006	0.054514	10
	6	31	50123.7	81.9213	-0.377261	1	81.9221	-0.263855	5.12856E-006	0.054555	10
	7	35	44681	83.0215	-1.21017	1	83.0303	-0.835117	5.84667E-006	0.054546	10
	8	39	39811.2	82.1354	3.11098	1	82.1943	2.16911	4.51008E-006	0.05451	10
	9	43	35488.3	82.2755	-0.945724	1	82.2809	-0.658563	3.73236E-006	0.054541	10
	10	47	31634.1	82.3499	-1.11612	1	82.3574	-0.776507	3.80871E-006	0.054552	10
	11	51	28173.1	82.6228	-0.809511	1	82.6267	-0.561348	5.08106E-006	0.054532	10
	12	56	25123.7	83.6749	-1.49627	1	83.6883	-1.02445	5.61703E-006	0.054553	10
	13	60	22389.3	82.7386	-1.50666	1	82.7523	-1.04324	5.86599E-006	0.054511	10
	14	64	19954.4	82.6167	-0.916885	1	82.6218	-0.635846	4.42117E-006	0.054557	10
	15	68	17778.2	82.5916	-1.47036	1	82.6047	-1.01992	5.19654E-006	0.054529	10
	16	72	15852.9	82.608	-1.90662	1	82.63	-1.32217	5.66346E-006	0.054545	10
	17	76	14122.3	83.1994	-2.04905	1	83.2247	-1.41081	5.14319E-006	0.054523	10
	18	80	12587.2	82.8315	-1.59572	1	82.8469	-1.10364	5.11065E-006	0.054527	10
	19	84	11221.1	82.8445	-1.75374	1	82.863	-1.21272	5.21157E-006	0.054526	10
	20	88	9998.2	83.254	-2.66612	1	83.2967	-1.83421	5.13553E-006	0.054522	10
	21	92	8912.76	83.3433	-2.26425	1	83.374	-1.55622	4.81353E-006	0.054504	10
	22	96	7942.6	83.4428	-2.16724	1	83.471	-1.4878	5.18671E-006	0.054526	10
	23	100	7078.05	82.437	-2.21426	1	82.4668	-1.53859	5.28901E-006	0.054535	10
	24	104	6311.1	83.3521	-2.65952	1	83.3945	-1.82752	5.28875E-006	0.05453	10
	25	108	5622.14	84.1018	-3.97348	1	84.1956	-2.70499	5.38442E-006	0.054534	10
	26	113	5011.18	83.3769	-2.37982	1	83.4108	-1.63494	5.38468E-006	0.054527	10
	27	117	4465.21	84.3025	-3.45632	1	84.3733	-2.34776	5.31182E-006	0.054545	10
	28	119	3980.93	84.202	-4.37444	1	84.3155	-2.97394	4.80179E-006	0.054555	10
	29	123	3548.18	83.8277	-3.91868	1	83.9192	-2.67645	4.09472E-006	0.054537	10
	30	127	3162.67	84.4164	-3.92473	1	84.5076	-2.66191	6.05532E-006	0.054514	10
	31	132	2819.01	83.9503	-4.39736	1	84.0654	-2.99844	4.85296E-006	0.054505	10
	32	136	2511.16	84.5035	-5.78447	1	84.7013	-3.91593	5.09435E-006	0.054533	10
	33	140	2238.63	84.5698	-4.90383	1	84.7119	-3.31861	5.27712E-006	0.054539	10
	34	142	1995.37	85.2677	-6.36681	1	85.5051	-4.27026	5.21372E-006	0.054536	10
	35	147	1778.51	84.6374	-6.82861	1	84.9125	-4.61268	5.20111E-006	0.054531	10
	36	151	1584.49	84.2207	-7.71201	1	84.573	-5.23193	5.23783E-006	0.054531	10
	37	155	1412.76	85.035	-8.52425	1	85.4612	-5.72443	4.77119E-006	0.054517	10
	38	159	1259.04	85.9715	-8.67293	1	86.4078	-5.7606	5.18899E-006	0.054544	10
	39	162	1121.63	85.8199	-9.2905	1	86.3213	-6.17854	5.25779E-006	0.054543	10
	40	167	999.95	86.1509	-10.6927	1	86.8119	-7.07511	5.23814E-006	0.054539	10
	41	171	891.184	87.0881	-10.6502	1	87.7369	-6.9722	5.16958E-006	0.054533	10
	42	175	794.163	87.2563	-11.9781	1	88.0746	-7.81641	5.27151E-006	0.054532	10
	43	179	707.867	87.0061	-14.1965	1	88.1567	-9.2671	4.0987E-006	0.054533	10
	44	183	630.984	87.3938	-14.6695	1	88.6164	-9.5286	5.4145E-006	0.054538	10
	45	186	562.189	88.2971	-16.4612	1	89.8185	-10.5604	5.86756E-006	0.054509	10
	46	190	501.303	88.6171	-17.6272	1	90.3532	-11.2501	5.17682E-006	0.054527	10
	47	192	446.614	89.1595	-19.3356	1	91.232	-12.236	5.12451E-006	0.054538	10
	48	194	398.209	89.717	-21.2703	1	92.2039	-13.3376	4.9781E-006	0.054532	10
	49	196	354.821	90.3503	-23.3753	1	93.3252	-14.5054	4.98119E-006	0.054541	10
	50	198	316.113	91.1505	-25.7007	1	94.7044	-15.7463	4.97383E-006	0.054536	10
	51	200	281.926	91.828	-28.1618	1	96.049	-17.0497	5.08666E-006	0.054533	10
	52	202	251.185	92.5029	-30.927	1	97.536	-18.4866	5.1593E-006	0.054532	10
	53	204	223.946	93.552	-33.8664	1	99.493	-19.9005	5.12563E-006	0.054532	10
	54	206	199.495	94.4066	-37.1079	1	101.438	-21.458	5.06871E-006	0.054532	10
	55	208	177.836	95.614	-40.7974	1	103.954	-23.1074	1.38099E-006	0.054538	9
	56	210	158.533	96.789	-44.7097	1	106.617	-24.7936	1.2813E-006	0.054526	9
	57	212	141.263	98.11	-49.205	1	109.757	-26.6351	1.22832E-006	0.054525	9
