EXPLAIN
TAG	EISPOT
TITLE	LABEL	Tomato_open	Test &Identifier
DATE	LABEL	5/10/2006	Date
TIME	LABEL	15:13:33	Time
NOTES	NOTES	1	&Notes...
	
PSTAT	PSTAT	300	Potentiostat
VDC	POTEN	1.00000E-001	T	DC &Voltage (V)
FREQINIT	QUANT	1.00000E+005	Initial Fre&q. (Hz)
FREQFINAL	QUANT	1.00000E+001	Final Fre&q. (Hz)
PTSPERDEC	QUANT	2.00000E+001	Points/&decade
VAC	QUANT	1.00000E+001	AC &Voltage (mV rms)
AREA	QUANT	1.00000E+000	&Area (cm²)
DENSITY	QUANT	7.87000E+000	&Density (gm/cm³)
EQUIV	QUANT	7.00000E+000	Equiv. &Wt
CONDIT	TWOPARAM	F	1.50000E+001	0.00000E+000	Conditionin&g	Time(s)	E(V)
DELAY	TWOPARAM	F	6.00000E+002	0.00000E+000	Init. De&lay	Time(s)	Stab.(mV/s)
SPEED	SELECTOR	1	&Optimize for:
ZGUESS	QUANT	1.00000E+002	E&stimated Z (ohms)
OCVCURVE	TABLE	39
	Pt	T	Vf	Vm	Ach	Over
	#	s	V vs. Ref.	V	V	bits
	0	0.258332	-5.75593E-001	6.50007E-006	2.15400E-004	......
	1	0.516663	-5.75043E-001	6.50007E-006	3.15400E-004	......
	2	0.774994	-5.73793E-001	6.50007E-006	3.15400E-004	......
	3	1.03333	-5.74093E-001	6.50007E-006	3.15400E-004	......
	4	1.29166	-5.74344E-001	6.50007E-006	2.15400E-004	......
	5	1.54999	-5.74744E-001	6.50007E-006	2.15400E-004	......
	6	1.80832	-5.74744E-001	6.50007E-006	3.15400E-004	......
	7	2.06665	-5.75243E-001	6.50007E-006	3.15400E-004	......
	8	2.32498	-5.75193E-001	6.50007E-006	3.15400E-004	......
	9	2.58332	-5.75493E-001	6.50007E-006	3.15400E-004	......
	10	2.84165	-5.75943E-001	6.50007E-006	2.15400E-004	......
	11	3.09998	-5.75844E-001	6.50007E-006	1.15400E-004	......
	12	3.35831	-5.74293E-001	6.50007E-006	3.15400E-004	......
	13	3.61664	-5.74694E-001	6.50007E-006	2.15400E-004	......
	14	3.87497	-5.74694E-001	6.50007E-006	1.15400E-004	......
	15	4.1333	-5.74993E-001	6.50007E-006	3.15400E-004	......
	16	4.39164	-5.74393E-001	6.50007E-006	2.15400E-004	......
	17	4.64997	-5.74744E-001	6.50007E-006	2.15400E-004	......
	18	4.9083	-5.74793E-001	6.50007E-006	2.15400E-004	......
	19	5.16663	-5.74443E-001	6.50007E-006	3.15400E-004	......
	20	5.42496	-5.73843E-001	6.50007E-006	3.15400E-004	......
	21	5.68329	-5.72894E-001	6.50007E-006	3.15400E-004	......
	22	5.94162	-5.73243E-001	6.50007E-006	1.15400E-004	......
	23	6.19996	-5.70643E-001	6.50007E-006	3.15400E-004	......
	24	6.45829	-5.70044E-001	6.50007E-006	3.15400E-004	......
	25	6.71662	-5.70643E-001	6.50007E-006	3.15400E-004	......
	26	6.97495	-5.68893E-001	6.50007E-006	2.15400E-004	......
	27	7.23328	-5.68893E-001	6.50007E-006	2.15400E-004	......
	28	7.49161	-5.69243E-001	6.50007E-006	2.15400E-004	......
	29	7.74995	-5.70193E-001	6.50007E-006	4.15400E-004	......
	30	8.00828	-5.70744E-001	6.50007E-006	3.15400E-004	......
	31	8.26661	-5.71093E-001	6.50007E-006	4.15400E-004	......
	32	8.52494	-5.71393E-001	6.50007E-006	2.15400E-004	......
	33	8.78327	-5.71193E-001	6.50007E-006	2.15400E-004	......
	34	9.0416	-5.69293E-001	6.50007E-006	3.15400E-004	......
	35	9.29993	-5.69344E-001	6.50007E-006	3.15400E-004	......
	36	9.5583	-5.69744E-001	6.50007E-006	2.15400E-004	......
	37	9.8166	-5.70143E-001	6.50007E-006	2.15400E-004	......
	38	10.0749	-5.71443E-001	6.50007E-006	2.15400E-004	......
EOC	QUANT	-0.571443	Open Circuit (V)
PSTATMODEL	IQUANT	32	Pstat Model
PSTATSECTION	LABEL	PStat0	Pstat Section
CTRLMODE	IQUANT	1	Control Mode
IESTAB	IQUANT	0	I/E Stability
CASPEED	IQUANT	1	Control Amp Speed
CONVENTION	IQUANT	1	Current Convention
ICHRANGE	IQUANT	2	Ich Range
ICHRANGEMODE	TOGGLE	F	Ich Auto Range
ICHOFFSETENABLE	TOGGLE	T	Ich Offset Enable
ICHOFFSET	QUANT	0	Ich Offset (V)
ICHFILTER	IQUANT	3	Ich Filter
VCHRANGE	IQUANT	2	Vch Range
VCHRANGEMODE	TOGGLE	F	Vch Auto Range
VCHOFFSETENABLE	TOGGLE	T	Vch Offset Enable
VCHOFFSET	QUANT	0	Vch Offset (V)
VCHFILTER	IQUANT	3	Vch Filter
ACHRANGE	IQUANT	0	Ach Range
IERANGELOWERLIMIT	IQUANT	3	I/E Range Lower Limit
IERANGEMODE	TOGGLE	F	I/E AutoRange
IERANGE	IQUANT	11	I/E Range
POSFEEDENABLE	TOGGLE	F	Positive Feedback IR Comp
POSFEEDRESISTANCE	QUANT	0	Positive Feedback Resistance (ohm)
FC350IDIVISOR	IQUANT	0	FC350 I Divisor
FC350VRANGE	IQUANT	0	FC350 V Range
FRAMEWORKVERSION	QUANT	4.35	Framework Version
ZCURVE	TABLE
	Pt	Time	Freq	Zreal	Zimag	Zsig	Zmod	Zphz	Idc	Vdc	IERange
	#	s	Hz	ohm	ohm	V	ohm	°	A	V	#
	0	4	100007	242.978	0.226883	1	242.978	0.053501	5.06242E-006	-0.471245	9
	1	6	89134.1	241.575	0.097136	1	241.575	0.023038	5.17605E-006	-0.471269	9
	2	8	79433.6	240.923	-0.105782	1	240.923	-0.025157	5.0858E-006	-0.471272	9
	3	10	70800.8	240.538	-0.700745	1	240.539	-0.166916	4.98087E-006	-0.471247	9
	4	12	63105.5	239.959	-1.15533	1	239.962	-0.275859	4.90567E-006	-0.471243	9
	5	14	56243.5	240.243	-1.08474	1	240.246	-0.258699	5.27969E-006	-0.471272	9
	6	16	50123.7	239.977	-1.81088	1	239.984	-0.432349	5.13702E-006	-0.471267	9
	7	18	44681	239.392	-2.21661	1	239.402	-0.530505	4.98767E-006	-0.471241	9
	8	20	39811.2	239.522	-2.5676	1	239.535	-0.614171	4.88597E-006	-0.47124	9
	9	22	35488.3	239.591	-3.16371	1	239.612	-0.756526	4.83297E-006	-0.471251	9
	10	24	31634.1	239.597	-3.14551	1	239.617	-0.752155	4.52217E-006	-0.471232	9
	11	26	28173.1	239.35	-3.75469	1	239.38	-0.898726	4.72061E-006	-0.47125	9
	12	28	25123.7	239.431	-4.15994	1	239.467	-0.99537	4.64922E-006	-0.471233	9
	13	30	22389.3	239.664	-4.77725	1	239.711	-1.14193	4.49302E-006	-0.471257	9
	14	32	19954.4	239.858	-5.15634	1	239.913	-1.23153	4.4733E-006	-0.471218	9
	15	34	17778.2	239.877	-5.49903	1	239.94	-1.31324	4.35178E-006	-0.471242	9
	16	36	15852.9	239.919	-6.4848	1	240.006	-1.54828	4.53605E-006	-0.471264	9
	17	38	14122.3	240.235	-7.37618	1	240.348	-1.75866	4.38483E-006	-0.47124	9
	18	40	12587.2	240.197	-8.0414	1	240.332	-1.91745	4.30555E-006	-0.471243	9
	19	41	11221.1	240.925	-8.89468	1	241.089	-2.11434	4.17284E-006	-0.471248	9
	20	43	9998.2	240.657	-9.5858	1	240.848	-2.28098	4.20609E-006	-0.471245	9
	21	45	8912.76	241.188	-10.2007	1	241.404	-2.4218	4.09239E-006	-0.471231	9
	22	47	7942.6	240.976	-11.4416	1	241.248	-2.71837	4.11892E-006	-0.471249	9
	23	49	7078.05	241.478	-12.5207	1	241.803	-2.96814	4.09898E-006	-0.471259	9
	24	51	6311.1	241.974	-13.6383	1	242.358	-3.22592	4.20117E-006	-0.471257	9
	25	53	5622.14	241.871	-15.2708	1	242.352	-3.61263	4.31005E-006	-0.471247	9
	26	55	5011.18	242.193	-17.0502	1	242.793	-4.02694	4.25628E-006	-0.471252	9
	27	57	4465.21	242.492	-19.3875	1	243.266	-4.57115	4.18456E-006	-0.471258	9
	28	59	3980.93	243.053	-21.0032	1	243.959	-4.93891	3.77627E-006	-0.471239	9
	29	61	3548.18	243.27	-23.2925	1	244.382	-5.46925	4.14939E-006	-0.471244	9
	30	63	3162.67	243.661	-25.7842	1	245.021	-6.04056	4.22417E-006	-0.471274	9
	31	65	2819.01	243.797	-28.6782	1	245.478	-6.70895	3.99278E-006	-0.471255	9
	32	67	2511.16	244.579	-31.3911	1	246.585	-7.31379	4.0778E-006	-0.471246	9
	33	69	2238.63	245.266	-35.1378	1	247.77	-8.15295	4.11148E-006	-0.471247	9
	34	71	1995.37	245.9	-38.847	1	248.95	-8.97732	3.92267E-006	-0.471244	9
	35	73	1778.51	246.364	-42.8265	1	250.059	-9.8614	3.95E-006	-0.471254	9
	36	75	1584.49	247.16	-47.7954	1	251.738	-10.9447	4.00092E-006	-0.471244	9
	37	77	1412.76	247.933	-52.7285	1	253.478	-12.0063	4.01706E-006	-0.471255	9
	38	79	1259.04	249.085	-58.5454	1	255.873	-13.2268	3.84366E-006	-0.471237	9
	39	81	1121.63	250.194	-65.1585	1	258.539	-14.5974	3.9165E-006	-0.471252	9
	40	83	999.95	251.219	-72.0539	1	261.348	-16.0038	3.84972E-006	-0.471241	9
	41	85	891.184	252.015	-79.4677	1	264.247	-17.5016	3.875E-006	-0.471236	9
	42	87	794.163	253.978	-88.3671	1	268.912	-19.1844	3.84514E-006	-0.471238	9
	43	89	707.867	255.52	-97.773	1	273.587	-20.939	3.83887E-006	-0.471242	9
	44	91	630.984	257.217	-108.155	1	279.03	-22.8058	3.83295E-006	-0.471244	9
	45	93	562.189	258.822	-120.531	1	285.511	-24.971	4.05633E-006	-0.47126	9
	46	95	501.303	260.404	-133.189	1	292.489	-27.0885	3.81395E-006	-0.471253	9
	47	97	446.614	262.398	-147.821	1	301.171	-29.3946	3.95191E-006	-0.471256	9
	48	99	398.209	264.56	-163.949	1	311.241	-31.7867	3.82547E-006	-0.471261	9
	49	101	354.821	266.916	-181.95	1	323.032	-34.2813	3.94253E-006	-0.471263	9
	50	103	316.113	269.552	-202.007	1	336.845	-36.8486	3.97072E-006	-0.47126	9
	51	105	281.926	272.365	-224.19	1	352.766	-39.4585	3.91317E-006	-0.471258	9
	52	107	251.185	275.491	-249.062	1	371.385	-42.1157	3.92286E-006	-0.471253	9
	53	109	223.946	278.884	-276.593	1	392.785	-44.7637	3.64883E-006	-0.471254	9
	54	111	199.495	282.701	-307.544	1	417.736	-47.4101	3.60811E-006	-0.471258	9
	55	113	177.836	286.961	-341.814	1	446.299	-49.9858	3.75386E-006	-0.47126	9
	56	115	158.533	291.687	-379.917	1	478.976	-52.4842	3.98706E-006	-0.471264	9
	57	117	141.263	297.131	-422.672	1	516.661	-54.8934	3.99812E-006	-0.471263	9
	58	119	125.911	303.179	-470.153	1	559.429	-57.184	3.93129E-006	-0.471257	9
	59	121	112.198	309.996	-523.173	1	608.118	-59.352	3.9443E-006	-0.471261	9
	60	123	100.009	317.759	-582.141	1	663.219	-61.3723	4.01128E-006	-0.471262	9
	61	125	89.1164	326.8	-647.99	1	725.734	-63.2368	4.01858E-006	-0.471264	9
	62	127	79.4083	337.092	-721.51	1	796.372	-64.9578	4.1323E-006	-0.471258	9
	63	129	70.788	348.769	-802.905	1	875.384	-66.5207	3.86611E-006	-0.471255	9
	64	131	63.0971	362.568	-893.849	1	964.58	-67.9213	3.91369E-006	-0.471264	9
	65	133	54.5476	382.976	-1023.68	1	1092.98	-69.4884	3.96078E-006	-0.47126	9
	66	135	50.0083	397.242	-1109.46	1	1178.44	-70.3002	3.321E-006	-0.471274	8
	67	137	46.1675	411.559	-1194.75	1	1263.65	-70.9926	3.25154E-006	-0.471274	8
	68	139	40.0059	440.987	-1365.67	1	1435.11	-72.1043	3.2651E-006	-0.471271	8
	69	142	35.3046	475.188	-1533.51	1	1605.44	-72.7833	3.28155E-006	-0.471269	8
	70	144	31.5793	508.227	-1701.53	1	1775.81	-73.3698	3.37564E-006	-0.471275	8
	71	146	28.5748	544.559	-1865.87	1	1943.71	-73.73	3.29699E-006	-0.471274	8
	72	148	24.9911	603.387	-2112.67	1	2197.15	-74.0605	3.19555E-006	-0.47128	8
	73	150	22.2195	663.97	-2352.72	1	2444.62	-74.2402	3.24456E-006	-0.471271	8
	74	153	20.0011	729.159	-2591.29	1	2691.92	-74.284	3.18182E-006	-0.47128	8
	75	155	17.6486	815.821	-2906.55	1	3018.87	-74.3214	3.10747E-006	-0.471272	8
	76	157	15.7934	913.314	-3215.25	1	3342.45	-74.1424	3.0073E-006	-0.471284	8
	77	159	14.2828	1014.38	-3522.28	1	3665.43	-73.9342	3.08494E-006	-0.471283	8
	78	162	12.5002	1182.55	-3969.67	1	4142.07	-73.4114	2.89435E-006	-0.471286	8
	79	164	11.323	1323.03	-4340.69	1	4537.84	-73.0489	2.93965E-006	-0.471274	8
	80	167	9.9987	1539.12	-4842.41	1	5081.13	-72.3675	2.95781E-006	-0.471279	8
