EXPLAIN
TAG	EISPOT
TITLE	LABEL	Tomato_open	Test &Identifier
DATE	LABEL	5/10/2006	Date
TIME	LABEL	15:03:30	Time
NOTES	NOTES	1	&Notes...
	
PSTAT	PSTAT	300	Potentiostat
VDC	POTEN	1.00000E-001	T	DC &Voltage (V)
FREQINIT	QUANT	1.00000E+005	Initial Fre&q. (Hz)
FREQFINAL	QUANT	1.00000E+001	Final Fre&q. (Hz)
PTSPERDEC	QUANT	2.00000E+001	Points/&decade
VAC	QUANT	1.00000E+001	AC &Voltage (mV rms)
AREA	QUANT	1.00000E+000	&Area (cm²)
DENSITY	QUANT	7.87000E+000	&Density (gm/cm³)
EQUIV	QUANT	7.00000E+000	Equiv. &Wt
CONDIT	TWOPARAM	F	1.50000E+001	0.00000E+000	Conditionin&g	Time(s)	E(V)
DELAY	TWOPARAM	F	6.00000E+002	0.00000E+000	Init. De&lay	Time(s)	Stab.(mV/s)
SPEED	SELECTOR	1	&Optimize for:
ZGUESS	QUANT	1.00000E+002	E&stimated Z (ohms)
OCVCURVE	TABLE	39
	Pt	T	Vf	Vm	Ach	Over
	#	s	V vs. Ref.	V	V	bits
	0	0.258332	-5.38643E-001	6.95407E-006	-8.46000E-005	......
	1	0.516663	-5.39043E-001	6.95407E-006	1.54000E-005	......
	2	0.774994	-5.39443E-001	6.95407E-006	-1.84600E-004	......
	3	1.03333	-5.39893E-001	6.95407E-006	-2.84600E-004	......
	4	1.29166	-5.39043E-001	6.95407E-006	-1.84600E-004	......
	5	1.54999	-5.39193E-001	6.95407E-006	-1.84600E-004	......
	6	1.80832	-5.39443E-001	6.95407E-006	-8.46000E-005	......
	7	2.06665	-5.39643E-001	6.95407E-006	-1.84600E-004	......
	8	2.32498	-5.40594E-001	6.95407E-006	-1.84600E-004	......
	9	2.58332	-5.40693E-001	6.95407E-006	-1.84600E-004	......
	10	2.84165	-5.41443E-001	6.95407E-006	-1.84600E-004	......
	11	3.09998	-5.41593E-001	6.95407E-006	-8.46000E-005	......
	12	3.35831	-5.42093E-001	6.95407E-006	-8.46000E-005	......
	13	3.61664	-5.40993E-001	6.95407E-006	-8.46000E-005	......
	14	3.87497	-5.42243E-001	6.95407E-006	-2.84600E-004	......
	15	4.1333	-5.42843E-001	6.95407E-006	-1.84600E-004	......
	16	4.39164	-5.42843E-001	6.95407E-006	-8.46000E-005	......
	17	4.64997	-5.43144E-001	6.95407E-006	-1.84600E-004	......
	18	4.9083	-5.43444E-001	6.95407E-006	-1.84600E-004	......
	19	5.16663	-5.44393E-001	6.95407E-006	-8.46000E-005	......
	20	5.42496	-5.44843E-001	6.95407E-006	-1.84600E-004	......
	21	5.68329	-5.44843E-001	6.95407E-006	-1.84600E-004	......
	22	5.94162	-5.44743E-001	6.95407E-006	-1.84600E-004	......
	23	6.19996	-5.45443E-001	6.95407E-006	-8.46000E-005	......
	24	6.45829	-5.45543E-001	6.95407E-006	-1.84600E-004	......
	25	6.71662	-5.45343E-001	6.95407E-006	-1.84600E-004	......
	26	6.97495	-5.45693E-001	6.95407E-006	-1.84600E-004	......
	27	7.23328	-5.45543E-001	6.95407E-006	-1.84600E-004	......
	28	7.49161	-5.45244E-001	6.95407E-006	-1.84600E-004	......
	29	7.74995	-5.45693E-001	6.95407E-006	-1.84600E-004	......
	30	8.00828	-5.45843E-001	6.95407E-006	-1.84600E-004	......
	31	8.26661	-5.46193E-001	6.95407E-006	-8.46000E-005	......
	32	8.52494	-5.46744E-001	6.95407E-006	-1.84600E-004	......
	33	8.78327	-5.46943E-001	6.95407E-006	-8.46000E-005	......
	34	9.0416	-5.47743E-001	6.95407E-006	-2.84600E-004	......
	35	9.29993	-5.48343E-001	6.95407E-006	-1.84600E-004	......
	36	9.5583	-5.48593E-001	6.95407E-006	-1.84600E-004	......
	37	9.8166	-5.48943E-001	6.95407E-006	-1.84600E-004	......
	38	10.0749	-5.49693E-001	6.95407E-006	-1.84600E-004	......
EOC	QUANT	-0.549693	Open Circuit (V)
PSTATMODEL	IQUANT	32	Pstat Model
PSTATSECTION	LABEL	PStat0	Pstat Section
CTRLMODE	IQUANT	1	Control Mode
IESTAB	IQUANT	0	I/E Stability
CASPEED	IQUANT	1	Control Amp Speed
CONVENTION	IQUANT	1	Current Convention
ICHRANGE	IQUANT	2	Ich Range
ICHRANGEMODE	TOGGLE	F	Ich Auto Range
ICHOFFSETENABLE	TOGGLE	T	Ich Offset Enable
ICHOFFSET	QUANT	0	Ich Offset (V)
ICHFILTER	IQUANT	3	Ich Filter
VCHRANGE	IQUANT	2	Vch Range
VCHRANGEMODE	TOGGLE	F	Vch Auto Range
VCHOFFSETENABLE	TOGGLE	T	Vch Offset Enable
VCHOFFSET	QUANT	0	Vch Offset (V)
VCHFILTER	IQUANT	3	Vch Filter
ACHRANGE	IQUANT	0	Ach Range
IERANGELOWERLIMIT	IQUANT	3	I/E Range Lower Limit
IERANGEMODE	TOGGLE	F	I/E AutoRange
IERANGE	IQUANT	11	I/E Range
POSFEEDENABLE	TOGGLE	F	Positive Feedback IR Comp
POSFEEDRESISTANCE	QUANT	0	Positive Feedback Resistance (ohm)
FC350IDIVISOR	IQUANT	0	FC350 I Divisor
FC350VRANGE	IQUANT	0	FC350 V Range
FRAMEWORKVERSION	QUANT	4.35	Framework Version
ZCURVE	TABLE
	Pt	Time	Freq	Zreal	Zimag	Zsig	Zmod	Zphz	Idc	Vdc	IERange
	#	s	Hz	ohm	ohm	V	ohm	°	A	V	#
	0	4	100007	242.41	-0.009702	1	242.41	-0.002293	2.68256E-006	-0.449471	9
	1	6	89134.1	241.378	-0.177008	1	241.378	-0.042016	2.95248E-006	-0.449468	9
	2	9	79433.6	240.927	-0.556619	1	240.928	-0.132371	2.625E-006	-0.449445	9
	3	11	70800.8	240.83	-0.736257	1	240.831	-0.175163	2.8133E-006	-0.449435	9
	4	12	63105.5	240.164	-1.35659	1	240.168	-0.323638	3.08928E-006	-0.44945	9
	5	14	56243.5	240.286	-1.43208	1	240.29	-0.341472	3.29908E-006	-0.449477	9
	6	16	50123.7	239.863	-2.01007	1	239.872	-0.480132	3.16852E-006	-0.449432	9
	7	18	44681	240.002	-2.31757	1	240.013	-0.553259	3.55027E-006	-0.449462	9
	8	20	39811.2	240.138	-2.24317	1	240.148	-0.535194	3.69352E-006	-0.449474	9
	9	22	35488.3	239.823	-3.19473	1	239.844	-0.763203	3.34628E-006	-0.449427	9
	10	24	31634.1	239.78	-3.51106	1	239.806	-0.838913	3.60967E-006	-0.449432	9
	11	26	28173.1	240.201	-3.77137	1	240.23	-0.899522	3.96491E-006	-0.449456	9
	12	28	25123.7	240.112	-4.43297	1	240.153	-1.05768	3.99817E-006	-0.449444	9
	13	30	22389.3	240.312	-5.03843	1	240.365	-1.2011	4.10092E-006	-0.449476	9
	14	32	19954.4	240.148	-5.19289	1	240.204	-1.23875	4.31942E-006	-0.449458	9
	15	34	17778.2	240.856	-6.10775	1	240.933	-1.45263	4.59066E-006	-0.449442	9
	16	36	15852.9	240.609	-6.72635	1	240.703	-1.60132	4.84517E-006	-0.449474	9
	17	38	14122.3	240.982	-7.15986	1	241.088	-1.70183	4.74878E-006	-0.449447	9
	18	40	12587.2	241.197	-7.9234	1	241.327	-1.88151	4.73005E-006	-0.449446	9
	19	42	11221.1	241.228	-8.83799	1	241.39	-2.09823	4.85095E-006	-0.449451	9
	20	44	9998.2	241.149	-9.6913	1	241.344	-2.30137	5.0472E-006	-0.449447	9
	21	46	8912.76	241.734	-10.7221	1	241.972	-2.53969	5.46106E-006	-0.449435	9
	22	48	7942.6	241.851	-11.8833	1	242.143	-2.81295	5.5607E-006	-0.449443	9
	23	50	7078.05	242.155	-12.6863	1	242.487	-2.99894	5.57242E-006	-0.449437	9
	24	52	6311.1	242.403	-14.0685	1	242.811	-3.3216	5.61363E-006	-0.44944	9
	25	54	5622.14	242.55	-16.1291	1	243.085	-3.80447	5.65894E-006	-0.449431	9
	26	56	5011.18	243.087	-17.4824	1	243.715	-4.11354	5.71752E-006	-0.449444	9
	27	58	4465.21	243.183	-19.3569	1	243.952	-4.55104	5.67508E-006	-0.449442	9
	28	60	3980.93	243.717	-21.1976	1	244.637	-4.97088	5.80547E-006	-0.449454	9
	29	62	3548.18	244.098	-23.3958	1	245.217	-5.47483	5.69111E-006	-0.449458	9
	30	64	3162.67	244.254	-26.0742	1	245.642	-6.09328	5.58064E-006	-0.449448	9
	31	66	2819.01	244.829	-28.8268	1	246.52	-6.71526	5.33378E-006	-0.449429	9
	32	68	2511.16	245.891	-31.9915	1	247.963	-7.41281	5.25839E-006	-0.449437	9
	33	70	2238.63	246.131	-35.3927	1	248.663	-8.18282	5.18245E-006	-0.449435	9
	34	72	1995.37	246.583	-39.4467	1	249.718	-9.08879	5.136E-006	-0.449441	9
	35	74	1778.51	247.49	-43.4796	1	251.28	-9.9642	5.08539E-006	-0.449447	9
	36	76	1584.49	248.396	-47.9991	1	252.991	-10.9368	5.03044E-006	-0.449444	9
	37	78	1412.76	249.169	-52.9583	1	254.735	-11.9991	5.03344E-006	-0.449446	9
	38	80	1259.04	250.235	-58.5592	1	256.995	-13.1712	4.94547E-006	-0.449436	9
	39	81	1121.63	251.142	-65.399	1	259.517	-14.5961	4.96498E-006	-0.449438	9
	40	83	999.95	252.469	-72.2618	1	262.607	-15.9722	4.99417E-006	-0.449425	9
	41	85	891.184	253.948	-79.8598	1	266.209	-17.457	4.883E-006	-0.449439	9
	42	87	794.163	254.976	-88.5962	1	269.93	-19.1607	4.9722E-006	-0.449442	9
	43	89	707.867	256.599	-98.154	1	274.731	-20.9329	4.8772E-006	-0.449415	9
	44	91	630.984	258.35	-108.44	1	280.186	-22.7697	4.99297E-006	-0.449436	9
	45	93	562.189	260.167	-120.685	1	286.796	-24.8855	4.65428E-006	-0.449421	9
	46	95	501.303	262.119	-133.23	1	294.035	-26.9433	4.79875E-006	-0.449455	9
	47	97	446.614	264.177	-147.752	1	302.689	-29.2179	4.94753E-006	-0.449453	9
	48	99	398.209	266.327	-163.807	1	312.671	-31.594	5.01417E-006	-0.449451	9
	49	101	354.821	268.757	-181.679	1	324.404	-34.0586	4.99858E-006	-0.449455	9
	50	103	316.113	271.334	-201.645	1	338.058	-36.6182	5.0188E-006	-0.449449	9
	51	105	281.926	274.164	-223.665	1	353.825	-39.2079	4.69087E-006	-0.449447	9
	52	107	251.185	277.21	-248.355	1	372.191	-41.8575	4.66798E-006	-0.449454	9
	53	109	223.946	280.559	-275.786	1	393.41	-44.5085	4.75645E-006	-0.449454	9
	54	111	199.495	284.278	-306.501	1	418.039	-47.1542	4.72194E-006	-0.449448	9
	55	113	177.836	288.336	-340.608	1	446.264	-49.7509	4.70814E-006	-0.449454	9
	56	115	158.533	292.867	-378.585	1	478.642	-52.275	4.71323E-006	-0.449451	9
	57	117	141.263	297.977	-421.164	1	515.916	-54.7203	4.67255E-006	-0.449448	9
	58	119	125.911	303.565	-468.384	1	558.154	-57.0523	4.62859E-006	-0.449451	9
	59	121	112.198	309.794	-521.216	1	606.332	-59.2741	4.58384E-006	-0.449453	9
	60	123	100.009	316.816	-579.898	1	660.798	-61.3509	4.52228E-006	-0.449449	9
	61	125	89.1164	324.798	-645.649	1	722.742	-63.295	4.53218E-006	-0.449456	9
	62	128	79.4083	333.785	-718.718	1	792.444	-65.089	4.59409E-006	-0.449455	9
	63	130	70.788	344.17	-800.173	1	871.051	-66.7265	4.67886E-006	-0.449455	9
	64	132	63.0971	355.937	-890.651	1	959.14	-68.2165	4.62654E-006	-0.449456	9
	65	134	54.5476	373.179	-1020.75	1	1086.83	-69.918	4.57132E-006	-0.449454	9
	66	136	50.0083	384.976	-1106.08	1	1171.16	-70.8093	3.76101E-006	-0.449457	8
	67	138	46.1675	397.631	-1192.11	1	1256.68	-71.5538	3.81233E-006	-0.449454	8
	68	140	40.0059	421.959	-1362.84	1	1426.67	-72.7965	3.7585E-006	-0.449457	8
	69	142	35.3046	449.592	-1532.21	1	1596.81	-73.6469	3.79126E-006	-0.449456	8
	70	144	31.5793	476.956	-1700.45	1	1766.07	-74.3318	3.7887E-006	-0.449455	8
	71	146	28.5748	506.185	-1867.5	1	1934.89	-74.8344	3.81486E-006	-0.44946	8
	72	148	24.9911	551.403	-2114.41	1	2185.12	-75.3837	3.74379E-006	-0.449464	8
	73	151	22.2195	600.494	-2360.25	1	2435.44	-75.7257	3.73337E-006	-0.449467	8
	74	153	20.0011	653.574	-2601.6	1	2682.44	-75.898	3.72554E-006	-0.449464	8
	75	156	17.6486	726.769	-2922.37	1	3011.38	-76.0343	3.72436E-006	-0.449455	8
	76	158	15.7934	803.486	-3241.18	1	3339.29	-76.0771	3.75704E-006	-0.449465	8
	77	160	14.2828	894.717	-3554.88	1	3665.75	-75.8728	3.86875E-006	-0.449457	8
	78	162	12.5002	1028.01	-4017.54	1	4146.98	-75.6471	3.80415E-006	-0.449463	8
	79	165	11.323	1151.27	-4392.08	1	4540.46	-75.3118	3.80813E-006	-0.449459	8
	80	167	9.9987	1327.77	-4911.88	1	5088.18	-74.8734	3.76396E-006	-0.449471	8
