EXPLAIN
TAG	EISPOT
TITLE	LABEL	Tomato_open	Test &Identifier
DATE	LABEL	5/10/2006	Date
TIME	LABEL	15:18:32	Time
NOTES	NOTES	1	&Notes...
	
PSTAT	PSTAT	300	Potentiostat
VDC	POTEN	1.00000E-001	T	DC &Voltage (V)
FREQINIT	QUANT	1.00000E+005	Initial Fre&q. (Hz)
FREQFINAL	QUANT	1.00000E+001	Final Fre&q. (Hz)
PTSPERDEC	QUANT	2.00000E+001	Points/&decade
VAC	QUANT	1.00000E+001	AC &Voltage (mV rms)
AREA	QUANT	1.00000E+000	&Area (cm²)
DENSITY	QUANT	7.87000E+000	&Density (gm/cm³)
EQUIV	QUANT	7.00000E+000	Equiv. &Wt
CONDIT	TWOPARAM	F	1.50000E+001	0.00000E+000	Conditionin&g	Time(s)	E(V)
DELAY	TWOPARAM	F	6.00000E+002	0.00000E+000	Init. De&lay	Time(s)	Stab.(mV/s)
SPEED	SELECTOR	1	&Optimize for:
ZGUESS	QUANT	1.00000E+002	E&stimated Z (ohms)
OCVCURVE	TABLE	39
	Pt	T	Vf	Vm	Ach	Over
	#	s	V vs. Ref.	V	V	bits
	0	0.258332	-5.73143E-001	5.80408E-006	3.15400E-004	......
	1	0.516663	-5.73344E-001	5.80408E-006	2.15400E-004	......
	2	0.774994	-5.73443E-001	5.80408E-006	3.15400E-004	......
	3	1.03333	-5.73043E-001	5.80408E-006	3.15400E-004	......
	4	1.29166	-5.72944E-001	5.80408E-006	4.15400E-004	......
	5	1.54999	-5.72443E-001	5.80408E-006	3.15400E-004	......
	6	1.80832	-5.73193E-001	5.80408E-006	2.15400E-004	......
	7	2.06665	-5.73593E-001	5.80408E-006	2.15400E-004	......
	8	2.32498	-5.73644E-001	5.80408E-006	2.15400E-004	......
	9	2.58332	-5.72143E-001	5.80408E-006	3.15400E-004	......
	10	2.84165	-5.70744E-001	5.80408E-006	1.15400E-004	......
	11	3.09998	-5.70044E-001	5.80408E-006	2.15400E-004	......
	12	3.35831	-5.70593E-001	5.80408E-006	3.15400E-004	......
	13	3.61664	-5.71043E-001	5.80408E-006	2.15400E-004	......
	14	3.87497	-5.71643E-001	5.80408E-006	4.15400E-004	......
	15	4.1333	-5.71793E-001	5.80408E-006	3.15400E-004	......
	16	4.39164	-5.68893E-001	5.80408E-006	3.15400E-004	......
	17	4.64997	-5.68543E-001	5.80408E-006	3.15400E-004	......
	18	4.9083	-5.69943E-001	5.80408E-006	1.15400E-004	......
	19	5.16663	-5.70643E-001	5.80408E-006	1.15400E-004	......
	20	5.42496	-5.71443E-001	5.80408E-006	2.15400E-004	......
	21	5.68329	-5.72244E-001	5.80408E-006	2.15400E-004	......
	22	5.94162	-5.71743E-001	5.80408E-006	2.15400E-004	......
	23	6.19996	-5.72043E-001	5.80408E-006	3.15400E-004	......
	24	6.45829	-5.72493E-001	5.80408E-006	3.15400E-004	......
	25	6.71662	-5.72544E-001	5.80408E-006	2.15400E-004	......
	26	6.97495	-5.72093E-001	5.80408E-006	3.15400E-004	......
	27	7.23328	-5.72743E-001	5.80408E-006	2.15400E-004	......
	28	7.49161	-5.73093E-001	5.80408E-006	3.15400E-004	......
	29	7.74995	-5.73294E-001	5.80408E-006	2.15400E-004	......
	30	8.00828	-5.73543E-001	5.80408E-006	2.15400E-004	......
	31	8.26661	-5.73543E-001	5.80408E-006	2.15400E-004	......
	32	8.52494	-5.72843E-001	5.80408E-006	1.15400E-004	......
	33	8.78327	-5.72093E-001	5.80408E-006	2.15400E-004	......
	34	9.0416	-5.73043E-001	5.80408E-006	2.15400E-004	......
	35	9.29993	-5.73344E-001	5.80408E-006	3.15400E-004	......
	36	9.5583	-5.73693E-001	5.80408E-006	2.15400E-004	......
	37	9.8166	-5.73443E-001	5.80408E-006	1.54000E-005	......
	38	10.0749	-5.73693E-001	5.80408E-006	2.15400E-004	......
EOC	QUANT	-0.573693	Open Circuit (V)
PSTATMODEL	IQUANT	32	Pstat Model
PSTATSECTION	LABEL	PStat0	Pstat Section
CTRLMODE	IQUANT	1	Control Mode
IESTAB	IQUANT	0	I/E Stability
CASPEED	IQUANT	1	Control Amp Speed
CONVENTION	IQUANT	1	Current Convention
ICHRANGE	IQUANT	2	Ich Range
ICHRANGEMODE	TOGGLE	F	Ich Auto Range
ICHOFFSETENABLE	TOGGLE	T	Ich Offset Enable
ICHOFFSET	QUANT	0	Ich Offset (V)
ICHFILTER	IQUANT	3	Ich Filter
VCHRANGE	IQUANT	2	Vch Range
VCHRANGEMODE	TOGGLE	F	Vch Auto Range
VCHOFFSETENABLE	TOGGLE	T	Vch Offset Enable
VCHOFFSET	QUANT	0	Vch Offset (V)
VCHFILTER	IQUANT	3	Vch Filter
ACHRANGE	IQUANT	0	Ach Range
IERANGELOWERLIMIT	IQUANT	3	I/E Range Lower Limit
IERANGEMODE	TOGGLE	F	I/E AutoRange
IERANGE	IQUANT	11	I/E Range
POSFEEDENABLE	TOGGLE	F	Positive Feedback IR Comp
POSFEEDRESISTANCE	QUANT	0	Positive Feedback Resistance (ohm)
FC350IDIVISOR	IQUANT	0	FC350 I Divisor
FC350VRANGE	IQUANT	0	FC350 V Range
FRAMEWORKVERSION	QUANT	4.35	Framework Version
ZCURVE	TABLE
	Pt	Time	Freq	Zreal	Zimag	Zsig	Zmod	Zphz	Idc	Vdc	IERange
	#	s	Hz	ohm	ohm	V	ohm	°	A	V	#
	0	4	100007	242.947	0.585922	1	242.948	0.138181	4.28491E-006	-0.473581	9
	1	6	89134.1	241.557	-0.233977	1	241.557	-0.055498	4.42391E-006	-0.473589	9
	2	8	79433.6	241.168	-0.318096	1	241.168	-0.075572	4.2468E-006	-0.473603	9
	3	10	70800.8	240.684	-0.450787	1	240.685	-0.107311	4.67492E-006	-0.473621	9
	4	12	63105.5	240.186	-1.26537	1	240.189	-0.301848	4.24989E-006	-0.473587	9
	5	14	56243.5	239.892	-1.08429	1	239.895	-0.258969	4.44003E-006	-0.473613	9
	6	16	50123.7	239.758	-1.72192	1	239.764	-0.411487	4.35739E-006	-0.473595	9
	7	18	44681	239.736	-2.22954	1	239.746	-0.532834	4.40884E-006	-0.473589	9
	8	20	39811.2	239.728	-2.31628	1	239.739	-0.55358	4.20691E-006	-0.473598	9
	9	22	35488.3	239.651	-2.74472	1	239.667	-0.656179	4.19461E-006	-0.473595	9
	10	24	31634.1	239.541	-3.09674	1	239.561	-0.740667	4.27848E-006	-0.473597	9
	11	26	28173.1	239.575	-3.66713	1	239.604	-0.876945	4.38058E-006	-0.473605	9
	12	28	25123.7	240.079	-4.23992	1	240.116	-1.01177	4.1957E-006	-0.473584	9
	13	30	22389.3	240.026	-4.92082	1	240.076	-1.17447	4.10614E-006	-0.473587	9
	14	31	19954.4	240.055	-4.9461	1	240.106	-1.18036	4.12712E-006	-0.473585	9
	15	33	17778.2	240.163	-5.84748	1	240.234	-1.39476	4.33627E-006	-0.473599	9
	16	35	15852.9	240.245	-6.15956	1	240.324	-1.46867	4.31903E-006	-0.473617	9
	17	37	14122.3	240.21	-6.63937	1	240.301	-1.58325	4.32472E-006	-0.473609	9
	18	39	12587.2	240.41	-7.52083	1	240.527	-1.79182	4.25514E-006	-0.473602	9
	19	41	11221.1	240.573	-8.27999	1	240.716	-1.97121	4.25772E-006	-0.473604	9
	20	43	9998.2	241.21	-9.0366	1	241.379	-2.14551	4.11291E-006	-0.473594	9
	21	45	8912.76	241.061	-10.1618	1	241.275	-2.41385	4.11102E-006	-0.473616	9
	22	47	7942.6	240.843	-11.1686	1	241.102	-2.65506	4.11914E-006	-0.473607	9
	23	49	7078.05	241.441	-12.7084	1	241.775	-3.01302	4.0448E-006	-0.473598	9
	24	51	6311.1	241.919	-13.7323	1	242.309	-3.24884	3.98228E-006	-0.473603	9
	25	53	5622.14	242.148	-15.4089	1	242.637	-3.64107	4.00794E-006	-0.473589	9
	26	55	5011.18	242.254	-17.2303	1	242.866	-4.0683	3.98722E-006	-0.473598	9
	27	57	4465.21	242.497	-18.8388	1	243.228	-4.44219	3.96439E-006	-0.473601	9
	28	59	3980.93	242.684	-20.5894	1	243.556	-4.84937	3.96892E-006	-0.473585	9
	29	61	3548.18	243.306	-22.8269	1	244.375	-5.35978	4.02811E-006	-0.473611	9
	30	63	3162.67	243.511	-25.7052	1	244.864	-6.02587	4.08403E-006	-0.473619	9
	31	65	2819.01	243.975	-28.3195	1	245.613	-6.62101	4.1293E-006	-0.473621	9
	32	67	2511.16	244.692	-31.0525	1	246.655	-7.23241	3.72852E-006	-0.473601	9
	33	69	2238.63	245.343	-34.8378	1	247.804	-8.08177	3.78553E-006	-0.473605	9
	34	71	1995.37	245.731	-38.9827	1	248.803	-9.01429	3.8147E-006	-0.473609	9
	35	73	1778.51	246.41	-42.8988	1	250.117	-9.8759	3.82295E-006	-0.473606	9
	36	75	1584.49	247.35	-47.0969	1	251.794	-10.7804	3.72256E-006	-0.473609	9
	37	77	1412.76	247.582	-52.5098	1	253.09	-11.9744	3.66822E-006	-0.473626	9
	38	79	1259.04	248.749	-58.078	1	255.439	-13.142	3.73278E-006	-0.473615	9
	39	81	1121.63	249.92	-64.5531	1	258.122	-14.4827	3.73494E-006	-0.473617	9
	40	83	999.95	250.896	-71.3549	1	260.845	-15.8758	3.66841E-006	-0.473599	9
	41	85	891.184	252.073	-78.9603	1	264.15	-17.3929	3.70736E-006	-0.473599	9
	42	87	794.163	253.842	-87.8362	1	268.609	-19.087	3.72192E-006	-0.473594	9
	43	89	707.867	254.973	-97.274	1	272.898	-20.8822	3.62258E-006	-0.47358	9
	44	91	630.984	256.424	-108.527	1	278.445	-22.9397	3.73855E-006	-0.4736	9
	45	93	562.189	258.509	-119.842	1	284.937	-24.872	3.69511E-006	-0.473581	9
	46	95	501.303	260.106	-132.771	1	292.033	-27.0419	3.64008E-006	-0.473621	9
	47	97	446.614	262.048	-147.373	1	300.646	-29.353	3.57892E-006	-0.473619	9
	48	99	398.209	264.196	-163.504	1	310.697	-31.7522	3.71448E-006	-0.473616	9
	49	101	354.821	266.526	-181.486	1	322.449	-34.2522	3.758E-006	-0.47362	9
	50	103	316.113	269.1	-201.545	1	336.207	-36.8318	3.72141E-006	-0.473619	9
	51	105	281.926	271.882	-223.706	1	352.086	-39.4477	3.758E-006	-0.47362	9
	52	107	251.185	274.993	-248.573	1	370.688	-42.1113	3.73483E-006	-0.473622	9
	53	109	223.946	278.39	-276.125	1	392.105	-44.766	3.58127E-006	-0.473612	9
	54	111	199.495	282.161	-307.06	1	417.014	-47.4198	3.49011E-006	-0.473617	9
	55	113	177.836	286.398	-341.336	1	445.571	-50.0017	3.64181E-006	-0.47362	9
	56	115	158.533	291.17	-379.561	1	478.379	-52.5074	3.71517E-006	-0.47362	9
	57	117	141.263	296.441	-422.289	1	515.95	-54.9317	3.65159E-006	-0.473617	9
	58	119	125.911	302.621	-469.866	1	558.886	-57.2161	3.77674E-006	-0.473621	9
	59	121	112.198	309.393	-522.898	1	607.574	-59.3877	3.63052E-006	-0.47362	9
	60	123	100.009	317.169	-581.918	1	662.74	-61.4078	3.76408E-006	-0.473616	9
	61	125	89.1164	326.256	-647.86	1	725.373	-63.2706	3.78091E-006	-0.47362	9
	62	127	79.4083	336.605	-721.297	1	795.972	-64.9831	3.79968E-006	-0.473616	9
	63	129	70.788	348.417	-802.92	1	875.257	-66.5422	3.77292E-006	-0.473615	9
	64	131	63.0971	362.116	-893.472	1	964.06	-67.9377	3.78255E-006	-0.47362	9
	65	133	54.5476	382.954	-1023.53	1	1092.82	-69.4866	3.7982E-006	-0.473621	9
	66	135	50.0083	396.74	-1109.19	1	1178.01	-70.3186	3.06216E-006	-0.473624	8
	67	137	46.1675	412.848	-1194.92	1	1264.23	-70.9399	3.22148E-006	-0.473618	8
	68	139	40.0059	443.757	-1364.79	1	1435.12	-71.9882	3.18893E-006	-0.473627	8
	69	142	35.3046	475.709	-1533.71	1	1605.79	-72.7677	3.01606E-006	-0.473622	8
	70	144	31.5793	510.223	-1700.51	1	1775.41	-73.2986	3.191E-006	-0.473623	8
	71	146	28.5748	548.013	-1865.59	1	1944.42	-73.63	3.3231E-006	-0.47362	8
	72	148	24.9911	611.807	-2109.03	1	2195.97	-73.8231	3.40877E-006	-0.473621	8
	73	150	22.2195	677.711	-2350.27	1	2446.03	-73.9148	3.26061E-006	-0.47362	8
	74	153	20.0011	740.903	-2590	1	2693.89	-74.0361	3.2786E-006	-0.473629	8
	75	155	17.6486	834.811	-2900.43	1	3018.18	-73.9429	3.09287E-006	-0.473619	8
	76	157	15.7934	940.265	-3210.23	1	3345.1	-73.6749	3.0716E-006	-0.473623	8
	77	159	14.2828	1039.06	-3515.63	1	3665.97	-73.5347	3.05976E-006	-0.473625	8
	78	162	12.5002	1215.43	-3956.65	1	4139.12	-72.9238	3.04293E-006	-0.473623	8
	79	164	11.323	1388.52	-4308.03	1	4526.27	-72.1353	3.12163E-006	-0.473617	8
	80	167	9.9987	1637.34	-4789.92	1	5062.03	-71.128	3.15499E-006	-0.473624	8
