EXPLAIN
TAG	EISPOT
TITLE	LABEL	Tomato_open	Test &Identifier
DATE	LABEL	5/10/2006	Date
TIME	LABEL	15:23:35	Time
NOTES	NOTES	1	&Notes...
	
PSTAT	PSTAT	300	Potentiostat
VDC	POTEN	1.00000E-001	T	DC &Voltage (V)
FREQINIT	QUANT	1.00000E+005	Initial Fre&q. (Hz)
FREQFINAL	QUANT	1.00000E+001	Final Fre&q. (Hz)
PTSPERDEC	QUANT	2.00000E+001	Points/&decade
VAC	QUANT	1.00000E+001	AC &Voltage (mV rms)
AREA	QUANT	1.00000E+000	&Area (cm²)
DENSITY	QUANT	7.87000E+000	&Density (gm/cm³)
EQUIV	QUANT	7.00000E+000	Equiv. &Wt
CONDIT	TWOPARAM	F	1.50000E+001	0.00000E+000	Conditionin&g	Time(s)	E(V)
DELAY	TWOPARAM	F	6.00000E+002	0.00000E+000	Init. De&lay	Time(s)	Stab.(mV/s)
SPEED	SELECTOR	1	&Optimize for:
ZGUESS	QUANT	1.00000E+002	E&stimated Z (ohms)
OCVCURVE	TABLE	39
	Pt	T	Vf	Vm	Ach	Over
	#	s	V vs. Ref.	V	V	bits
	0	0.258332	-5.68843E-001	5.92107E-006	-1.84600E-004	......
	1	0.516663	-5.67393E-001	5.92107E-006	-1.84600E-004	......
	2	0.774994	-5.67743E-001	5.92107E-006	-1.84600E-004	......
	3	1.03333	-5.67743E-001	5.92107E-006	-1.84600E-004	......
	4	1.29166	-5.67793E-001	5.92107E-006	-8.46000E-005	......
	5	1.54999	-5.68393E-001	5.92107E-006	-1.84600E-004	......
	6	1.80832	-5.69243E-001	5.92107E-006	-1.84600E-004	......
	7	2.06665	-5.69493E-001	5.92107E-006	-8.46000E-005	......
	8	2.32498	-5.69543E-001	5.92107E-006	-8.46000E-005	......
	9	2.58332	-5.70343E-001	5.92107E-006	-1.84600E-004	......
	10	2.84165	-5.69694E-001	5.92107E-006	-1.84600E-004	......
	11	3.09998	-5.69593E-001	5.92107E-006	-8.46000E-005	......
	12	3.35831	-5.70243E-001	5.92107E-006	-1.84600E-004	......
	13	3.61664	-5.70193E-001	5.92107E-006	-1.84600E-004	......
	14	3.87497	-5.70444E-001	5.92107E-006	-8.46000E-005	......
	15	4.1333	-5.70593E-001	5.92107E-006	-1.84600E-004	......
	16	4.39164	-5.70843E-001	5.92107E-006	-1.84600E-004	......
	17	4.64997	-5.71443E-001	5.92107E-006	-1.84600E-004	......
	18	4.9083	-5.71594E-001	5.92107E-006	-1.84600E-004	......
	19	5.16663	-5.71693E-001	5.92107E-006	-1.84600E-004	......
	20	5.42496	-5.70843E-001	5.92107E-006	-1.84600E-004	......
	21	5.68329	-5.70943E-001	5.92107E-006	-2.84600E-004	......
	22	5.94162	-5.70444E-001	5.92107E-006	-1.84600E-004	......
	23	6.19996	-5.67343E-001	5.92107E-006	-1.84600E-004	......
	24	6.45829	-5.68343E-001	5.92107E-006	-1.84600E-004	......
	25	6.71662	-5.68843E-001	5.92107E-006	-1.84600E-004	......
	26	6.97495	-5.69593E-001	5.92107E-006	-1.84600E-004	......
	27	7.23328	-5.69843E-001	5.92107E-006	-8.46000E-005	......
	28	7.49161	-5.68793E-001	5.92107E-006	-1.84600E-004	......
	29	7.74995	-5.69393E-001	5.92107E-006	-1.84600E-004	......
	30	8.00828	-5.69643E-001	5.92107E-006	-8.46000E-005	......
	31	8.26661	-5.68393E-001	5.92107E-006	-1.84600E-004	......
	32	8.52494	-5.68644E-001	5.92107E-006	-8.46000E-005	......
	33	8.78327	-5.69443E-001	5.92107E-006	-1.84600E-004	......
	34	9.0416	-5.69744E-001	5.92107E-006	-1.84600E-004	......
	35	9.29993	-5.70193E-001	5.92107E-006	-1.84600E-004	......
	36	9.5583	-5.70593E-001	5.92107E-006	-1.84600E-004	......
	37	9.8166	-5.71293E-001	5.92107E-006	-1.84600E-004	......
	38	10.0749	-5.71693E-001	5.92107E-006	-1.84600E-004	......
EOC	QUANT	-0.571693	Open Circuit (V)
PSTATMODEL	IQUANT	32	Pstat Model
PSTATSECTION	LABEL	PStat0	Pstat Section
CTRLMODE	IQUANT	1	Control Mode
IESTAB	IQUANT	0	I/E Stability
CASPEED	IQUANT	1	Control Amp Speed
CONVENTION	IQUANT	1	Current Convention
ICHRANGE	IQUANT	2	Ich Range
ICHRANGEMODE	TOGGLE	F	Ich Auto Range
ICHOFFSETENABLE	TOGGLE	T	Ich Offset Enable
ICHOFFSET	QUANT	0	Ich Offset (V)
ICHFILTER	IQUANT	3	Ich Filter
VCHRANGE	IQUANT	2	Vch Range
VCHRANGEMODE	TOGGLE	F	Vch Auto Range
VCHOFFSETENABLE	TOGGLE	T	Vch Offset Enable
VCHOFFSET	QUANT	0	Vch Offset (V)
VCHFILTER	IQUANT	3	Vch Filter
ACHRANGE	IQUANT	0	Ach Range
IERANGELOWERLIMIT	IQUANT	3	I/E Range Lower Limit
IERANGEMODE	TOGGLE	F	I/E AutoRange
IERANGE	IQUANT	11	I/E Range
POSFEEDENABLE	TOGGLE	F	Positive Feedback IR Comp
POSFEEDRESISTANCE	QUANT	0	Positive Feedback Resistance (ohm)
FC350IDIVISOR	IQUANT	0	FC350 I Divisor
FC350VRANGE	IQUANT	0	FC350 V Range
FRAMEWORKVERSION	QUANT	4.35	Framework Version
ZCURVE	TABLE
	Pt	Time	Freq	Zreal	Zimag	Zsig	Zmod	Zphz	Idc	Vdc	IERange
	#	s	Hz	ohm	ohm	V	ohm	°	A	V	#
	0	5	100007	243.483	0.016555	1	243.483	0.003896	5.17623E-006	-0.471484	9
	1	7	89134.1	241.993	0.359152	1	241.993	0.085035	4.89803E-006	-0.471492	9
	2	8	79433.6	241.099	-0.204819	1	241.099	-0.048674	5.22148E-006	-0.471524	9
	3	10	70800.8	240.956	-0.751208	1	240.958	-0.178625	5.1852E-006	-0.471516	9
	4	12	63105.5	240.876	-1.08807	1	240.878	-0.258812	4.77525E-006	-0.471498	9
	5	14	56243.5	240.606	-1.11956	1	240.609	-0.266601	5.07311E-006	-0.471528	9
	6	16	50123.7	240.203	-1.84221	1	240.21	-0.439416	4.92636E-006	-0.471515	9
	7	18	44681	240.187	-2.14847	1	240.196	-0.512497	4.61967E-006	-0.471496	9
	8	20	39811.2	240.166	-2.75109	1	240.181	-0.656292	4.54003E-006	-0.4715	9
	9	22	35488.3	240.035	-2.85718	1	240.052	-0.681971	4.77991E-006	-0.471531	9
	10	24	31634.1	239.887	-3.13562	1	239.907	-0.748884	4.6105E-006	-0.471488	9
	11	26	28173.1	240.029	-3.42905	1	240.054	-0.818469	4.75673E-006	-0.471505	9
	12	28	25123.7	240.123	-4.2009	1	240.16	-1.00228	4.98327E-006	-0.471494	9
	13	30	22389.3	240.319	-4.52168	1	240.361	-1.07791	4.66903E-006	-0.471485	9
	14	32	19954.4	240.259	-5.24307	1	240.316	-1.25014	4.87387E-006	-0.471503	9
	15	34	17778.2	240.402	-5.59907	1	240.467	-1.3342	4.76137E-006	-0.471506	9
	16	36	15852.9	240.573	-6.36905	1	240.657	-1.51652	4.59964E-006	-0.471525	9
	17	38	14122.3	240.246	-6.94924	1	240.346	-1.65685	4.73084E-006	-0.471518	9
	18	40	12587.2	240.942	-7.45996	1	241.058	-1.7734	4.65748E-006	-0.47152	9
	19	42	11221.1	240.883	-8.24707	1	241.024	-1.96086	4.42288E-006	-0.471517	9
	20	44	9998.2	241.111	-9.27324	1	241.289	-2.20254	4.63931E-006	-0.471526	9
	21	46	8912.76	241.539	-10.0636	1	241.748	-2.38583	4.38978E-006	-0.471495	9
	22	48	7942.6	241.561	-11.1526	1	241.818	-2.64339	4.2645E-006	-0.471516	9
	23	50	7078.05	241.943	-12.6022	1	242.271	-2.98169	4.2487E-006	-0.47152	9
	24	52	6311.1	241.861	-13.352	1	242.229	-3.15981	4.29978E-006	-0.47152	9
	25	54	5622.14	242.606	-15.3553	1	243.091	-3.62161	4.0853E-006	-0.471519	9
	26	56	5011.18	242.544	-16.7836	1	243.124	-3.95845	4.04317E-006	-0.471526	9
	27	58	4465.21	242.619	-19.0469	1	243.366	-4.48881	4.08262E-006	-0.471512	9
	28	60	3980.93	243.109	-20.952	1	244.01	-4.92577	3.93611E-006	-0.471514	9
	29	62	3548.18	243.529	-22.6368	1	244.579	-5.31057	4.10378E-006	-0.471533	9
	30	64	3162.67	243.982	-25.0877	1	245.268	-5.87088	3.83525E-006	-0.471485	9
	31	66	2819.01	244.472	-28.3071	1	246.105	-6.6048	3.72311E-006	-0.4715	9
	32	68	2511.16	244.883	-31.2215	1	246.866	-7.26574	3.92669E-006	-0.471507	9
	33	70	2238.63	245.236	-34.6593	1	247.673	-8.04434	3.85336E-006	-0.471514	9
	34	71	1995.37	246.091	-38.1233	1	249.027	-8.80598	3.87056E-006	-0.471508	9
	35	73	1778.51	246.728	-42.5725	1	250.374	-9.7899	3.77827E-006	-0.471511	9
	36	75	1584.49	247.273	-46.9676	1	251.694	-10.7548	3.77114E-006	-0.471518	9
	37	77	1412.76	247.765	-52.3084	1	253.226	-11.9213	3.68872E-006	-0.471531	9
	38	79	1259.04	248.666	-58.1286	1	255.37	-13.1573	3.89752E-006	-0.471517	9
	39	81	1121.63	249.676	-64.4319	1	257.856	-14.4702	3.81117E-006	-0.471513	9
	40	83	999.95	250.94	-71.0548	1	260.806	-15.8097	3.65145E-006	-0.471522	9
	41	85	891.184	252.274	-79.6405	1	264.546	-17.5204	3.82553E-006	-0.471518	9
	42	87	794.163	253.688	-87.6615	1	268.407	-19.0625	3.83664E-006	-0.471521	9
	43	89	707.867	254.754	-97.014	1	272.6	-20.8476	3.92067E-006	-0.471534	9
	44	91	630.984	256.354	-107.52	1	277.989	-22.7542	3.70625E-006	-0.471512	9
	45	93	562.189	258.178	-119.566	1	284.52	-24.8496	3.58723E-006	-0.47149	9
	46	95	501.303	259.975	-132.324	1	291.714	-26.9754	3.60678E-006	-0.47152	9
	47	97	446.614	261.9	-146.923	1	300.297	-29.292	3.74192E-006	-0.47152	9
	48	99	398.209	263.987	-163.02	1	310.266	-31.6966	3.77487E-006	-0.471521	9
	49	101	354.821	266.29	-180.992	1	321.976	-34.2033	3.54956E-006	-0.471523	9
	50	103	316.113	268.803	-201.062	1	335.68	-36.7961	3.64742E-006	-0.471527	9
	51	105	281.926	271.536	-223.176	1	351.482	-39.4169	3.65944E-006	-0.471524	9
	52	107	251.185	274.572	-248.019	1	370.004	-42.0912	3.465E-006	-0.471531	9
	53	109	223.946	277.874	-275.57	1	391.348	-44.7615	3.43081E-006	-0.471534	9
	54	111	199.495	281.59	-306.514	1	416.226	-47.4268	3.52155E-006	-0.471527	9
	55	113	177.836	285.726	-340.782	1	444.715	-50.022	3.4907E-006	-0.47153	9
	56	115	158.533	290.284	-378.985	1	477.383	-52.5497	3.45575E-006	-0.471533	9
	57	117	141.263	295.445	-421.648	1	514.854	-54.9814	3.40725E-006	-0.471537	9
	58	119	125.911	301.353	-469.276	1	557.704	-57.2928	3.34627E-006	-0.471528	9
	59	121	112.198	307.839	-522.292	1	606.262	-59.4849	3.20893E-006	-0.471531	9
	60	123	100.009	315.191	-581.41	1	661.349	-61.5372	3.28631E-006	-0.471527	9
	61	125	89.1164	323.781	-647.317	1	723.777	-63.4263	3.35757E-006	-0.471525	9
	62	127	79.4083	333.38	-720.884	1	794.239	-65.1813	3.34447E-006	-0.471521	9
	63	129	70.788	344.83	-802.678	1	873.613	-66.7517	3.45975E-006	-0.471523	9
	64	131	63.0971	357.867	-893.749	1	962.73	-68.1783	3.48354E-006	-0.471521	9
	65	134	54.5476	377.395	-1023.91	1	1091.24	-69.767	3.43965E-006	-0.471524	9
	66	136	50.0083	390.699	-1109.58	1	1176.36	-70.6021	2.74348E-006	-0.471528	8
	67	138	46.1675	404.241	-1195.67	1	1262.15	-71.3202	2.60106E-006	-0.471527	8
	68	140	40.0059	432.853	-1366.57	1	1433.48	-72.4247	2.62458E-006	-0.471527	8
	69	142	35.3046	462.168	-1535.91	1	1603.94	-73.253	2.51982E-006	-0.471534	8
	70	144	31.5793	493.303	-1703.96	1	1773.93	-73.8541	2.57354E-006	-0.47153	8
	71	146	28.5748	525.925	-1870.01	1	1942.56	-74.2918	2.53956E-006	-0.471535	8
	72	148	24.9911	579.533	-2118.65	1	2196.48	-74.7016	2.56965E-006	-0.471531	8
	73	151	22.2195	635.226	-2361.72	1	2445.66	-74.9456	2.49562E-006	-0.471529	8
	74	153	20.0011	695.488	-2600.59	1	2691.98	-75.0275	2.51555E-006	-0.471539	8
	75	156	17.6486	782.727	-2920.92	1	3023.98	-74.9988	2.5714E-006	-0.471532	8
	76	158	15.7934	866.819	-3235.92	1	3350.01	-75.004	2.53921E-006	-0.471537	8
	77	160	14.2828	962.74	-3544.92	1	3673.32	-74.8059	2.56679E-006	-0.471542	8
	78	162	12.5002	1126.51	-3992.3	1	4148.19	-74.2425	2.55155E-006	-0.471531	8
	79	165	11.323	1252.75	-4367.28	1	4543.41	-73.9945	2.30417E-006	-0.471542	8
	80	167	9.9987	1464.82	-4881.02	1	5096.08	-73.2953	2.45702E-006	-0.471537	8
