EXPLAIN
TAG	EISPOT
TITLE	LABEL	Tomato_open	Test &Identifier
DATE	LABEL	5/10/2006	Date
TIME	LABEL	15:08:30	Time
NOTES	NOTES	1	&Notes...
	
PSTAT	PSTAT	300	Potentiostat
VDC	POTEN	1.00000E-001	T	DC &Voltage (V)
FREQINIT	QUANT	1.00000E+005	Initial Fre&q. (Hz)
FREQFINAL	QUANT	1.00000E+001	Final Fre&q. (Hz)
PTSPERDEC	QUANT	2.00000E+001	Points/&decade
VAC	QUANT	1.00000E+001	AC &Voltage (mV rms)
AREA	QUANT	1.00000E+000	&Area (cm²)
DENSITY	QUANT	7.87000E+000	&Density (gm/cm³)
EQUIV	QUANT	7.00000E+000	Equiv. &Wt
CONDIT	TWOPARAM	F	1.50000E+001	0.00000E+000	Conditionin&g	Time(s)	E(V)
DELAY	TWOPARAM	F	6.00000E+002	0.00000E+000	Init. De&lay	Time(s)	Stab.(mV/s)
SPEED	SELECTOR	1	&Optimize for:
ZGUESS	QUANT	1.00000E+002	E&stimated Z (ohms)
OCVCURVE	TABLE	39
	Pt	T	Vf	Vm	Ach	Over
	#	s	V vs. Ref.	V	V	bits
	0	0.258332	-5.64543E-001	6.34007E-006	-1.84600E-004	......
	1	0.516663	-5.64143E-001	6.34007E-006	-2.84600E-004	......
	2	0.774994	-5.63944E-001	6.34007E-006	-8.46000E-005	......
	3	1.03333	-5.63643E-001	6.34007E-006	-1.84600E-004	......
	4	1.29166	-5.63993E-001	6.34007E-006	-1.84600E-004	......
	5	1.54999	-5.65343E-001	6.34007E-006	1.54000E-005	......
	6	1.80832	-5.65143E-001	6.34007E-006	-1.84600E-004	......
	7	2.06665	-5.63843E-001	6.34007E-006	-8.46000E-005	......
	8	2.32498	-5.65044E-001	6.34007E-006	-1.84600E-004	......
	9	2.58332	-5.64344E-001	6.34007E-006	-2.84600E-004	......
	10	2.84165	-5.63244E-001	6.34007E-006	-1.84600E-004	......
	11	3.09998	-5.62343E-001	6.34007E-006	-1.84600E-004	......
	12	3.35831	-5.63093E-001	6.34007E-006	-1.84600E-004	......
	13	3.61664	-5.63493E-001	6.34007E-006	-1.84600E-004	......
	14	3.87497	-5.62443E-001	6.34007E-006	-8.46000E-005	......
	15	4.1333	-5.61693E-001	6.34007E-006	-8.46000E-005	......
	16	4.39164	-5.62793E-001	6.34007E-006	-1.84600E-004	......
	17	4.64997	-5.61393E-001	6.34007E-006	-1.84600E-004	......
	18	4.9083	-5.59493E-001	6.34007E-006	-8.46000E-005	......
	19	5.16663	-5.59244E-001	6.34007E-006	-1.84600E-004	......
	20	5.42496	-5.60593E-001	6.34007E-006	-8.46000E-005	......
	21	5.68329	-5.59693E-001	6.34007E-006	-1.84600E-004	......
	22	5.94162	-5.58493E-001	6.34007E-006	-1.84600E-004	......
	23	6.19996	-5.58944E-001	6.34007E-006	-8.46000E-005	......
	24	6.45829	-5.60143E-001	6.34007E-006	-1.84600E-004	......
	25	6.71662	-5.61193E-001	6.34007E-006	-1.84600E-004	......
	26	6.97495	-5.61643E-001	6.34007E-006	-8.46000E-005	......
	27	7.23328	-5.61193E-001	6.34007E-006	-2.84600E-004	......
	28	7.49161	-5.61293E-001	6.34007E-006	-8.46000E-005	......
	29	7.74995	-5.62293E-001	6.34007E-006	-1.84600E-004	......
	30	8.00828	-5.61943E-001	6.34007E-006	-2.84600E-004	......
	31	8.26661	-5.61593E-001	6.34007E-006	-1.84600E-004	......
	32	8.52494	-5.61543E-001	6.34007E-006	-1.84600E-004	......
	33	8.78327	-5.61844E-001	6.34007E-006	-1.84600E-004	......
	34	9.0416	-5.62343E-001	6.34007E-006	-1.84600E-004	......
	35	9.29993	-5.62844E-001	6.34007E-006	-8.46000E-005	......
	36	9.5583	-5.61844E-001	6.34007E-006	-1.84600E-004	......
	37	9.8166	-5.60744E-001	6.34007E-006	-1.84600E-004	......
	38	10.0749	-5.61193E-001	6.34007E-006	-1.84600E-004	......
EOC	QUANT	-0.561193	Open Circuit (V)
PSTATMODEL	IQUANT	32	Pstat Model
PSTATSECTION	LABEL	PStat0	Pstat Section
CTRLMODE	IQUANT	1	Control Mode
IESTAB	IQUANT	0	I/E Stability
CASPEED	IQUANT	1	Control Amp Speed
CONVENTION	IQUANT	1	Current Convention
ICHRANGE	IQUANT	2	Ich Range
ICHRANGEMODE	TOGGLE	F	Ich Auto Range
ICHOFFSETENABLE	TOGGLE	T	Ich Offset Enable
ICHOFFSET	QUANT	0	Ich Offset (V)
ICHFILTER	IQUANT	3	Ich Filter
VCHRANGE	IQUANT	2	Vch Range
VCHRANGEMODE	TOGGLE	F	Vch Auto Range
VCHOFFSETENABLE	TOGGLE	T	Vch Offset Enable
VCHOFFSET	QUANT	0	Vch Offset (V)
VCHFILTER	IQUANT	3	Vch Filter
ACHRANGE	IQUANT	0	Ach Range
IERANGELOWERLIMIT	IQUANT	3	I/E Range Lower Limit
IERANGEMODE	TOGGLE	F	I/E AutoRange
IERANGE	IQUANT	11	I/E Range
POSFEEDENABLE	TOGGLE	F	Positive Feedback IR Comp
POSFEEDRESISTANCE	QUANT	0	Positive Feedback Resistance (ohm)
FC350IDIVISOR	IQUANT	0	FC350 I Divisor
FC350VRANGE	IQUANT	0	FC350 V Range
FRAMEWORKVERSION	QUANT	4.35	Framework Version
ZCURVE	TABLE
	Pt	Time	Freq	Zreal	Zimag	Zsig	Zmod	Zphz	Idc	Vdc	IERange
	#	s	Hz	ohm	ohm	V	ohm	°	A	V	#
	0	4	100007	243.204	0.158485	1	243.204	0.037337	3.87069E-006	-0.461011	9
	1	6	89134.1	242.123	-0.081613	1	242.123	-0.019313	3.97359E-006	-0.461017	9
	2	8	79433.6	241.476	-0.533448	1	241.476	-0.126573	4.37756E-006	-0.461071	9
	3	10	70800.8	240.909	-0.395648	1	240.909	-0.094098	4.15214E-006	-0.461053	9
	4	12	63105.5	240.293	-1.36655	1	240.297	-0.32584	4.36933E-006	-0.461062	9
	5	14	56243.5	240.683	-1.40796	1	240.687	-0.335167	4.20716E-006	-0.461071	9
	6	16	50123.7	240.213	-1.70505	1	240.219	-0.406682	4.02528E-006	-0.461041	9
	7	18	44681	239.832	-2.43971	1	239.844	-0.582827	4.43139E-006	-0.461065	9
	8	20	39811.2	239.706	-2.45524	1	239.719	-0.586843	4.56109E-006	-0.461052	9
	9	22	35488.3	239.749	-3.15202	1	239.77	-0.753234	4.70744E-006	-0.461076	9
	10	24	31634.1	239.835	-3.44831	1	239.86	-0.823734	4.38602E-006	-0.461066	9
	11	26	28173.1	240.094	-4.09242	1	240.129	-0.97652	4.3715E-006	-0.461049	9
	12	28	25123.7	239.884	-4.14086	1	239.92	-0.98894	4.18858E-006	-0.46103	9
	13	30	22389.3	240.18	-4.67419	1	240.226	-1.1149	4.55033E-006	-0.461073	9
	14	32	19954.4	240.129	-5.04621	1	240.182	-1.20387	4.39098E-006	-0.461035	9
	15	34	17778.2	240.022	-5.85966	1	240.093	-1.39849	4.32253E-006	-0.461059	9
	16	36	15852.9	240.321	-6.5512	1	240.411	-1.5615	4.40203E-006	-0.461059	9
	17	38	14122.3	240.918	-7.23441	1	241.027	-1.71999	4.40512E-006	-0.461045	9
	18	40	12587.2	240.638	-7.75556	1	240.762	-1.84596	4.41847E-006	-0.461045	9
	19	42	11221.1	241.01	-8.67341	1	241.166	-2.06106	4.40506E-006	-0.461048	9
	20	44	9998.2	241.404	-9.6333	1	241.596	-2.28519	4.43247E-006	-0.461031	9
	21	46	8912.76	241.687	-10.4548	1	241.913	-2.47692	4.76078E-006	-0.461057	9
	22	48	7942.6	241.607	-11.6908	1	241.889	-2.77025	4.42584E-006	-0.46104	9
	23	50	7078.05	241.753	-12.6564	1	242.084	-2.99686	4.47105E-006	-0.461045	9
	24	52	6311.1	242.035	-14.087	1	242.444	-3.33099	4.35959E-006	-0.461044	9
	25	54	5622.14	242.53	-15.6703	1	243.036	-3.69685	4.35287E-006	-0.461042	9
	26	56	5011.18	242.376	-17.2016	1	242.986	-4.05951	4.17384E-006	-0.461031	9
	27	58	4465.21	242.821	-19.1376	1	243.574	-4.50637	4.22455E-006	-0.461045	9
	28	60	3980.93	243.025	-20.8626	1	243.919	-4.90655	4.18048E-006	-0.461008	9
	29	62	3548.18	243.608	-23.4292	1	244.732	-5.49357	4.08561E-006	-0.461019	9
	30	64	3162.67	243.997	-25.813	1	245.358	-6.03899	4.55831E-006	-0.461054	9
	31	66	2819.01	244.799	-28.719	1	246.478	-6.69116	4.77428E-006	-0.461049	9
	32	68	2511.16	245.05	-31.729	1	247.096	-7.37759	4.68352E-006	-0.46103	9
	33	70	2238.63	245.701	-35.2844	1	248.222	-8.17219	4.55161E-006	-0.461023	9
	34	72	1995.37	246.436	-39.1773	1	249.531	-9.03304	4.62453E-006	-0.461042	9
	35	74	1778.51	246.939	-43.54	1	250.748	-9.9995	4.65891E-006	-0.461036	9
	36	76	1584.49	248.211	-47.9076	1	252.792	-10.9244	4.80483E-006	-0.461043	9
	37	78	1412.76	248.605	-52.9139	1	254.174	-12.0157	4.56542E-006	-0.461027	9
	38	80	1259.04	249.406	-59.384	1	256.379	-13.3928	4.84748E-006	-0.46104	9
	39	81	1121.63	250.702	-65.52	1	259.122	-14.6465	4.69022E-006	-0.461045	9
	40	83	999.95	251.293	-72.3134	1	261.491	-16.054	4.63739E-006	-0.46105	9
	41	85	891.184	252.725	-79.8918	1	265.052	-17.5428	4.75994E-006	-0.461057	9
	42	87	794.163	254.175	-88.6006	1	269.175	-19.2176	4.61631E-006	-0.461041	9
	43	89	707.867	255.923	-98.031	1	274.056	-20.9593	4.7725E-006	-0.461057	9
	44	91	630.984	257.16	-108.341	1	279.05	-22.8455	4.54366E-006	-0.461027	9
	45	93	562.189	259.655	-120.315	1	286.175	-24.8614	4.70967E-006	-0.461029	9
	46	95	501.303	261.136	-133.481	1	293.273	-27.074	4.82428E-006	-0.46104	9
	47	97	446.614	263.158	-148.09	1	301.965	-29.3682	4.82659E-006	-0.461047	9
	48	99	398.209	265.331	-164.2	1	312.03	-31.7513	4.81214E-006	-0.461053	9
	49	101	354.821	267.76	-182.185	1	323.862	-34.2316	4.81773E-006	-0.461049	9
	50	103	316.113	270.364	-202.239	1	337.635	-36.7974	4.87414E-006	-0.461047	9
	51	105	281.926	273.249	-224.352	1	353.551	-39.3878	4.77845E-006	-0.461047	9
	52	107	251.185	276.348	-249.215	1	372.124	-42.0447	4.91312E-006	-0.461046	9
	53	109	223.946	279.824	-276.753	1	393.565	-44.6838	4.93212E-006	-0.461049	9
	54	111	199.495	283.702	-307.584	1	418.443	-47.3129	4.98764E-006	-0.461046	9
	55	113	177.836	287.971	-341.779	1	446.923	-49.8837	4.85694E-006	-0.461047	9
	56	115	158.533	292.683	-379.891	1	479.563	-52.3879	4.9885E-006	-0.461045	9
	57	117	141.263	298.091	-422.572	1	517.132	-54.8	4.88812E-006	-0.461046	9
	58	119	125.911	303.974	-470.013	1	559.743	-57.1078	4.71998E-006	-0.461047	9
	59	121	112.198	310.865	-523.09	1	608.49	-59.2775	4.82723E-006	-0.461045	9
	60	123	100.009	318.53	-581.904	1	663.38	-61.304	4.79205E-006	-0.461049	9
	61	126	89.1164	327.239	-647.718	1	725.688	-63.1963	4.7794E-006	-0.461049	9
	62	128	79.4083	336.987	-721.126	1	795.979	-64.953	4.60423E-006	-0.46105	9
	63	130	70.788	348.415	-802.573	1	874.938	-66.5333	4.59705E-006	-0.461053	9
	64	132	63.0971	361.21	-893.393	1	963.65	-67.9859	4.4569E-006	-0.461046	9
	65	134	54.5476	380.976	-1023.5	1	1092.11	-69.5834	4.52587E-006	-0.46104	9
	66	136	50.0083	394.302	-1108.94	1	1176.96	-70.4263	3.64426E-006	-0.461049	8
	67	138	46.1675	409.16	-1194.83	1	1262.94	-71.0966	3.71349E-006	-0.461045	8
	68	140	40.0059	437.521	-1365.89	1	1434.26	-72.2388	3.64493E-006	-0.461047	8
	69	142	35.3046	468.706	-1533.57	1	1603.6	-73.0053	3.6628E-006	-0.461044	8
	70	144	31.5793	501.483	-1702.57	1	1774.89	-73.5879	3.65698E-006	-0.461038	8
	71	146	28.5748	535.456	-1868.38	1	1943.59	-74.0083	3.58694E-006	-0.461045	8
	72	149	24.9911	591.146	-2116.37	1	2197.38	-74.3939	3.64194E-006	-0.461048	8
	73	151	22.2195	648.14	-2358.84	1	2446.26	-74.636	3.6705E-006	-0.461053	8
	74	153	20.0011	711.499	-2596.43	1	2692.15	-74.6754	3.68696E-006	-0.461051	8
	75	156	17.6486	802.682	-2911.94	1	3020.55	-74.589	3.57551E-006	-0.461046	8
	76	158	15.7934	883.625	-3223.16	1	3342.08	-74.6691	3.57625E-006	-0.461054	8
	77	160	14.2828	985.77	-3542.2	1	3676.81	-74.4485	3.55692E-006	-0.461049	8
	78	162	12.5002	1156.64	-3988.56	1	4152.88	-73.8283	3.6587E-006	-0.461053	8
	79	165	11.323	1309.58	-4346.8	1	4539.79	-73.2337	3.55856E-006	-0.461057	8
	80	167	9.9987	1519.19	-4846.9	1	5079.4	-72.5972	3.6486E-006	-0.461056	8
