EXPLAIN
TAG	EISPOT
TITLE	LABEL	Tomato_open	Test &Identifier
DATE	LABEL	5/10/2006	Date
TIME	LABEL	14:39:36	Time
NOTES	NOTES	1	&Notes...
	
PSTAT	PSTAT	300	Potentiostat
VDC	POTEN	1.00000E-001	T	DC &Voltage (V)
FREQINIT	QUANT	1.00000E+005	Initial Fre&q. (Hz)
FREQFINAL	QUANT	1.00000E+001	Final Fre&q. (Hz)
PTSPERDEC	QUANT	2.00000E+001	Points/&decade
VAC	QUANT	1.00000E+001	AC &Voltage (mV rms)
AREA	QUANT	1.00000E+000	&Area (cm²)
DENSITY	QUANT	7.87000E+000	&Density (gm/cm³)
EQUIV	QUANT	7.00000E+000	Equiv. &Wt
CONDIT	TWOPARAM	F	1.50000E+001	0.00000E+000	Conditionin&g	Time(s)	E(V)
DELAY	TWOPARAM	F	6.00000E+002	0.00000E+000	Init. De&lay	Time(s)	Stab.(mV/s)
SPEED	SELECTOR	1	&Optimize for:
ZGUESS	QUANT	1.00000E+002	E&stimated Z (ohms)
OCVCURVE	TABLE	39
	Pt	T	Vf	Vm	Ach	Over
	#	s	V vs. Ref.	V	V	bits
	0	0.258332	-5.98243E-001	6.72607E-006	3.15400E-004	......
	1	0.516663	-5.98193E-001	6.72607E-006	2.15400E-004	......
	2	0.774994	-5.99793E-001	6.72607E-006	1.15400E-004	......
	3	1.03333	-6.00194E-001	6.72607E-006	1.54000E-005	......
	4	1.29166	-5.99043E-001	6.72607E-006	3.15400E-004	......
	5	1.54999	-5.99943E-001	6.72607E-006	2.15400E-004	......
	6	1.80832	-6.00543E-001	6.72607E-006	3.15400E-004	......
	7	2.06665	-6.01143E-001	6.72607E-006	2.15400E-004	......
	8	2.32498	-6.01443E-001	6.72607E-006	2.15400E-004	......
	9	2.58332	-6.02443E-001	6.72607E-006	3.15400E-004	......
	10	2.84165	-6.02993E-001	6.72607E-006	3.15400E-004	......
	11	3.09998	-6.02993E-001	6.72607E-006	2.15400E-004	......
	12	3.35831	-6.02443E-001	6.72607E-006	3.15400E-004	......
	13	3.61664	-6.01843E-001	6.72607E-006	3.15400E-004	......
	14	3.87497	-6.02443E-001	6.72607E-006	3.15400E-004	......
	15	4.1333	-6.02744E-001	6.72607E-006	2.15400E-004	......
	16	4.39164	-6.02693E-001	6.72607E-006	3.15400E-004	......
	17	4.64997	-6.02893E-001	6.72607E-006	1.15400E-004	......
	18	4.9083	-6.02493E-001	6.72607E-006	2.15400E-004	......
	19	5.16663	-6.02843E-001	6.72607E-006	2.15400E-004	......
	20	5.42496	-6.02793E-001	6.72607E-006	2.15400E-004	......
	21	5.68329	-6.03393E-001	6.72607E-006	3.15400E-004	......
	22	5.94162	-6.03543E-001	6.72607E-006	3.15400E-004	......
	23	6.19996	-6.02843E-001	6.72607E-006	3.15400E-004	......
	24	6.45829	-6.03444E-001	6.72607E-006	2.15400E-004	......
	25	6.71662	-6.03593E-001	6.72607E-006	3.15400E-004	......
	26	6.97495	-6.03543E-001	6.72607E-006	3.15400E-004	......
	27	7.23328	-6.04193E-001	6.72607E-006	2.15400E-004	......
	28	7.49161	-6.04544E-001	6.72607E-006	3.15400E-004	......
	29	7.74995	-6.04293E-001	6.72607E-006	3.15400E-004	......
	30	8.00828	-6.05093E-001	6.72607E-006	3.15400E-004	......
	31	8.26661	-6.05343E-001	6.72607E-006	2.15400E-004	......
	32	8.52494	-6.05043E-001	6.72607E-006	3.15400E-004	......
	33	8.78327	-6.04793E-001	6.72607E-006	2.15400E-004	......
	34	9.0416	-6.05193E-001	6.72607E-006	3.15400E-004	......
	35	9.29993	-6.05244E-001	6.72607E-006	3.15400E-004	......
	36	9.5583	-6.04293E-001	6.72607E-006	2.15400E-004	......
	37	9.8166	-6.03643E-001	6.72607E-006	2.15400E-004	......
	38	10.0749	-6.04593E-001	6.72607E-006	2.15400E-004	......
EOC	QUANT	-0.604593	Open Circuit (V)
PSTATMODEL	IQUANT	32	Pstat Model
PSTATSECTION	LABEL	PStat0	Pstat Section
CTRLMODE	IQUANT	1	Control Mode
IESTAB	IQUANT	0	I/E Stability
CASPEED	IQUANT	1	Control Amp Speed
CONVENTION	IQUANT	1	Current Convention
ICHRANGE	IQUANT	2	Ich Range
ICHRANGEMODE	TOGGLE	F	Ich Auto Range
ICHOFFSETENABLE	TOGGLE	T	Ich Offset Enable
ICHOFFSET	QUANT	0	Ich Offset (V)
ICHFILTER	IQUANT	3	Ich Filter
VCHRANGE	IQUANT	2	Vch Range
VCHRANGEMODE	TOGGLE	F	Vch Auto Range
VCHOFFSETENABLE	TOGGLE	T	Vch Offset Enable
VCHOFFSET	QUANT	0	Vch Offset (V)
VCHFILTER	IQUANT	3	Vch Filter
ACHRANGE	IQUANT	0	Ach Range
IERANGELOWERLIMIT	IQUANT	3	I/E Range Lower Limit
IERANGEMODE	TOGGLE	F	I/E AutoRange
IERANGE	IQUANT	11	I/E Range
POSFEEDENABLE	TOGGLE	F	Positive Feedback IR Comp
POSFEEDRESISTANCE	QUANT	0	Positive Feedback Resistance (ohm)
FC350IDIVISOR	IQUANT	0	FC350 I Divisor
FC350VRANGE	IQUANT	0	FC350 V Range
FRAMEWORKVERSION	QUANT	4.35	Framework Version
ZCURVE	TABLE
	Pt	Time	Freq	Zreal	Zimag	Zsig	Zmod	Zphz	Idc	Vdc	IERange
	#	s	Hz	ohm	ohm	V	ohm	°	A	V	#
	0	4	100007	247.336	0.486251	1	247.337	0.112641	4.66247E-006	-0.504334	9
	1	6	89134.1	246.155	0.502801	1	246.155	0.117033	4.94061E-006	-0.504378	9
	2	8	79433.6	245.554	-0.059422	1	245.554	-0.013865	4.7812E-006	-0.504372	9
	3	10	70800.8	245.011	-0.342079	1	245.011	-0.079995	4.89128E-006	-0.504371	9
	4	12	63105.5	244.504	-0.493381	1	244.505	-0.115616	5.08506E-006	-0.504392	9
	5	14	56243.5	244.615	-0.619921	1	244.616	-0.145203	5.22478E-006	-0.504395	9
	6	15	50123.7	244.211	-1.39594	1	244.215	-0.327506	5.27905E-006	-0.504364	9
	7	17	44681	244.245	-1.36836	1	244.248	-0.320992	5.15662E-006	-0.504381	9
	8	19	39811.2	243.805	-2.06814	1	243.814	-0.486013	5.06406E-006	-0.504347	9
	9	21	35488.3	243.892	-2.31094	1	243.903	-0.542878	5.28023E-006	-0.504386	9
	10	23	31634.1	243.688	-2.85053	1	243.705	-0.670184	5.20631E-006	-0.504371	9
	11	25	28173.1	243.893	-3.06256	1	243.912	-0.719425	5.21736E-006	-0.504371	9
	12	27	25123.7	244.083	-3.76493	1	244.112	-0.883706	5.09755E-006	-0.504368	9
	13	29	22389.3	244.065	-3.9025	1	244.096	-0.916057	4.86422E-006	-0.504364	9
	14	31	19954.4	243.994	-4.43375	1	244.034	-1.04104	5.00461E-006	-0.504389	9
	15	33	17778.2	244.048	-4.99006	1	244.099	-1.17137	4.97825E-006	-0.504375	9
	16	35	15852.9	244.001	-4.94571	1	244.051	-1.16118	4.90447E-006	-0.504354	9
	17	37	14122.3	244.574	-5.5662	1	244.637	-1.30376	4.85947E-006	-0.504367	9
	18	39	12587.2	244.554	-6.32684	1	244.636	-1.48197	4.86364E-006	-0.504376	9
	19	41	11221.1	244.811	-6.92781	1	244.909	-1.62095	4.91958E-006	-0.504381	9
	20	43	9998.2	244.991	-7.56079	1	245.108	-1.76767	4.91008E-006	-0.504371	9
	21	45	8912.76	244.905	-8.38252	1	245.049	-1.96033	5.00184E-006	-0.504371	9
	22	47	7942.6	244.997	-8.93648	1	245.16	-2.08898	4.93702E-006	-0.504372	9
	23	49	7078.05	245.263	-10.7662	1	245.499	-2.51348	5.00828E-006	-0.504368	9
	24	51	6311.1	245.617	-11.2757	1	245.876	-2.62848	4.91197E-006	-0.504367	9
	25	53	5622.14	245.648	-12.6898	1	245.976	-2.95717	4.82627E-006	-0.504361	9
	26	55	5011.18	246.156	-13.8006	1	246.543	-3.20891	4.78037E-006	-0.504363	9
	27	57	4465.21	246.144	-15.1996	1	246.613	-3.53359	4.72077E-006	-0.50436	9
	28	59	3980.93	246.548	-17.2075	1	247.148	-3.9924	4.61845E-006	-0.504354	9
	29	61	3548.18	246.559	-19.003	1	247.29	-4.40723	4.82433E-006	-0.504385	9
	30	63	3162.67	246.877	-20.9563	1	247.765	-4.85197	4.58913E-006	-0.504344	9
	31	65	2819.01	247.775	-23.3886	1	248.876	-5.39242	4.84511E-006	-0.504377	9
	32	67	2511.16	247.625	-25.7896	1	248.965	-5.9458	4.64091E-006	-0.504359	9
	33	69	2238.63	248.275	-28.6459	1	249.922	-6.58168	4.54009E-006	-0.504361	9
	34	71	1995.37	248.637	-31.4242	1	250.615	-7.20319	4.56231E-006	-0.504369	9
	35	73	1778.51	249.326	-35.1876	1	251.797	-8.03316	4.56025E-006	-0.504359	9
	36	75	1584.49	249.797	-39.1958	1	252.854	-8.9176	4.5023E-006	-0.504362	9
	37	77	1412.76	250.097	-43.301	1	253.817	-9.8227	4.66084E-006	-0.504385	9
	38	78	1259.04	250.928	-47.8712	1	255.454	-10.8009	4.47684E-006	-0.504363	9
	39	80	1121.63	251.79	-53.5161	1	257.414	-11.9993	4.46236E-006	-0.504372	9
	40	82	999.95	252.523	-59.3801	1	259.411	-13.2325	4.39725E-006	-0.504374	9
	41	84	891.184	253.577	-65.8158	1	261.979	-14.55	4.45439E-006	-0.50437	9
	42	86	794.163	254.669	-72.5253	1	264.795	-15.896	4.34262E-006	-0.50437	9
	43	88	707.867	255.76	-80.8061	1	268.222	-17.5337	4.25203E-006	-0.504353	9
	44	90	630.984	257.175	-89.557	1	272.323	-19.1998	4.37328E-006	-0.504374	9
	45	92	562.189	258.481	-99.702	1	277.043	-21.0928	4.09938E-006	-0.504355	9
	46	94	501.303	259.893	-110.674	1	282.477	-23.0665	4.29908E-006	-0.504385	9
	47	96	446.614	261.538	-122.961	1	289.001	-25.1804	4.2272E-006	-0.504386	9
	48	98	398.209	263.31	-136.528	1	296.601	-27.407	4.24116E-006	-0.504389	9
	49	100	354.821	265.307	-151.599	1	305.565	-29.744	4.19392E-006	-0.504384	9
	50	102	316.113	267.505	-168.427	1	316.111	-32.1954	4.05169E-006	-0.504383	9
	51	104	281.926	269.924	-186.998	1	328.371	-34.7134	4.04664E-006	-0.504381	9
	52	106	251.185	272.606	-207.786	1	342.767	-37.3153	4.05842E-006	-0.504382	9
	53	108	223.946	275.587	-230.849	1	359.499	-39.9517	4.06078E-006	-0.504375	9
	54	110	199.495	278.933	-256.685	1	379.066	-42.6215	4.10672E-006	-0.50438	9
	55	112	177.836	282.611	-285.239	1	401.535	-45.2651	4.14467E-006	-0.504382	9
	56	114	158.533	286.728	-317.052	1	427.475	-47.8752	4.03802E-006	-0.504384	9
	57	116	141.263	291.353	-352.59	1	457.391	-50.4324	3.99084E-006	-0.504383	9
	58	118	125.911	296.662	-392.126	1	491.702	-52.8907	4.23173E-006	-0.504385	9
	59	120	112.198	302.64	-436.19	1	530.898	-55.2461	4.229E-006	-0.50438	9
	60	123	100.009	309.312	-485.146	1	575.362	-57.4798	4.20939E-006	-0.504384	9
	61	125	89.1164	317.034	-539.808	1	626.022	-59.5739	4.27835E-006	-0.504383	9
	62	127	79.4083	325.966	-600.59	1	683.346	-61.5094	4.34708E-006	-0.504377	9
	63	129	70.788	335.702	-668.02	1	747.627	-63.319	4.36233E-006	-0.504379	9
	64	131	63.0971	347.642	-743.322	1	820.599	-64.9351	4.49556E-006	-0.504379	9
	65	133	54.5476	365.089	-850.899	1	925.915	-66.7776	4.57428E-006	-0.504379	9
	66	135	50.0083	376.855	-921.832	1	995.89	-67.7647	4.36281E-006	-0.504382	9
	67	137	46.1675	388.657	-993.06	1	1066.41	-68.626	4.29186E-006	-0.504379	9
	68	139	40.0059	413.574	-1133.23	1	1206.34	-69.9504	3.48262E-006	-0.504384	8
	69	141	35.3046	440.329	-1271.98	1	1346.04	-70.9053	3.58191E-006	-0.504384	8
	70	144	31.5793	469.31	-1410.12	1	1486.17	-71.5918	3.69996E-006	-0.504381	8
	71	146	28.5748	497.225	-1546.77	1	1624.73	-72.1795	3.47455E-006	-0.504384	8
	72	148	24.9911	543.028	-1750.38	1	1832.68	-72.7643	3.3726E-006	-0.504391	8
	73	150	22.2195	590.548	-1950.21	1	2037.66	-73.1531	3.28191E-006	-0.504389	8
	74	152	20.0011	641.429	-2149.19	1	2242.87	-73.3822	3.1943E-006	-0.504388	8
	75	155	17.6486	716.303	-2409.35	1	2513.58	-73.4427	3.3387E-006	-0.504387	8
	76	157	15.7934	788.991	-2664.36	1	2778.72	-73.5045	3.22188E-006	-0.504392	8
	77	159	14.2828	880.007	-2918.72	1	3048.5	-73.2217	3.33192E-006	-0.504388	8
	78	161	12.5002	1011.91	-3289.83	1	3441.94	-72.9028	3.33151E-006	-0.504385	8
	79	164	11.323	1126.45	-3591.97	1	3764.46	-72.5884	3.2963E-006	-0.504376	8
	80	167	9.9987	1308.58	-4006.54	1	4214.82	-71.9124	3.26922E-006	-0.504383	8
