EXPLAIN
TAG	EISPOT
TITLE	LABEL	Tomato_open	Test &Identifier
DATE	LABEL	5/10/2006	Date
TIME	LABEL	14:29:31	Time
NOTES	NOTES	1	&Notes...
	
PSTAT	PSTAT	300	Potentiostat
VDC	POTEN	1.00000E-001	T	DC &Voltage (V)
FREQINIT	QUANT	1.00000E+005	Initial Fre&q. (Hz)
FREQFINAL	QUANT	1.00000E+001	Final Fre&q. (Hz)
PTSPERDEC	QUANT	2.00000E+001	Points/&decade
VAC	QUANT	1.00000E+001	AC &Voltage (mV rms)
AREA	QUANT	1.00000E+000	&Area (cm²)
DENSITY	QUANT	7.87000E+000	&Density (gm/cm³)
EQUIV	QUANT	7.00000E+000	Equiv. &Wt
CONDIT	TWOPARAM	F	1.50000E+001	0.00000E+000	Conditionin&g	Time(s)	E(V)
DELAY	TWOPARAM	F	6.00000E+002	0.00000E+000	Init. De&lay	Time(s)	Stab.(mV/s)
SPEED	SELECTOR	1	&Optimize for:
ZGUESS	QUANT	1.00000E+002	E&stimated Z (ohms)
OCVCURVE	TABLE	39
	Pt	T	Vf	Vm	Ach	Over
	#	s	V vs. Ref.	V	V	bits
	0	0.258332	-6.07793E-001	6.51407E-006	-1.84600E-004	......
	1	0.516663	-6.07444E-001	6.51407E-006	-1.84600E-004	......
	2	0.774994	-6.06393E-001	6.51407E-006	-1.84600E-004	......
	3	1.03333	-6.08144E-001	6.51407E-006	-8.46000E-005	......
	4	1.29166	-6.08993E-001	6.51407E-006	-8.46000E-005	......
	5	1.54999	-6.08543E-001	6.51407E-006	-8.46000E-005	......
	6	1.80832	-6.07794E-001	6.51407E-006	-1.84600E-004	......
	7	2.06665	-6.08443E-001	6.51407E-006	-1.84600E-004	......
	8	2.32498	-6.08793E-001	6.51407E-006	-1.84600E-004	......
	9	2.58332	-6.08144E-001	6.51407E-006	-1.84600E-004	......
	10	2.84165	-6.07943E-001	6.51407E-006	-1.84600E-004	......
	11	3.09998	-6.08043E-001	6.51407E-006	-1.84600E-004	......
	12	3.35831	-6.06893E-001	6.51407E-006	-8.46000E-005	......
	13	3.61664	-6.06593E-001	6.51407E-006	-1.84600E-004	......
	14	3.87497	-6.06344E-001	6.51407E-006	-1.84600E-004	......
	15	4.1333	-6.06443E-001	6.51407E-006	-2.84600E-004	......
	16	4.39164	-6.07893E-001	6.51407E-006	-1.84600E-004	......
	17	4.64997	-6.08443E-001	6.51407E-006	-8.46000E-005	......
	18	4.9083	-6.08293E-001	6.51407E-006	-8.46000E-005	......
	19	5.16663	-6.08643E-001	6.51407E-006	-1.84600E-004	......
	20	5.42496	-6.09594E-001	6.51407E-006	-1.84600E-004	......
	21	5.68329	-6.10593E-001	6.51407E-006	-1.84600E-004	......
	22	5.94162	-6.10093E-001	6.51407E-006	-1.84600E-004	......
	23	6.19996	-6.09793E-001	6.51407E-006	-8.46000E-005	......
	24	6.45829	-6.09843E-001	6.51407E-006	-8.46000E-005	......
	25	6.71662	-6.10943E-001	6.51407E-006	-1.84600E-004	......
	26	6.97495	-6.11643E-001	6.51407E-006	-8.46000E-005	......
	27	7.23328	-6.12193E-001	6.51407E-006	-1.84600E-004	......
	28	7.49161	-6.11793E-001	6.51407E-006	-8.46000E-005	......
	29	7.74995	-6.12643E-001	6.51407E-006	-8.46000E-005	......
	30	8.00828	-6.13494E-001	6.51407E-006	-1.84600E-004	......
	31	8.26661	-6.13893E-001	6.51407E-006	-1.84600E-004	......
	32	8.52494	-6.14193E-001	6.51407E-006	-2.84600E-004	......
	33	8.78327	-6.13643E-001	6.51407E-006	-1.84600E-004	......
	34	9.0416	-6.13593E-001	6.51407E-006	-8.46000E-005	......
	35	9.29993	-6.13743E-001	6.51407E-006	-1.84600E-004	......
	36	9.5583	-6.14244E-001	6.51407E-006	-1.84600E-004	......
	37	9.8166	-6.14644E-001	6.51407E-006	-8.46000E-005	......
	38	10.0749	-6.14843E-001	6.51407E-006	1.54000E-005	......
EOC	QUANT	-0.614843	Open Circuit (V)
PSTATMODEL	IQUANT	32	Pstat Model
PSTATSECTION	LABEL	PStat0	Pstat Section
CTRLMODE	IQUANT	1	Control Mode
IESTAB	IQUANT	0	I/E Stability
CASPEED	IQUANT	1	Control Amp Speed
CONVENTION	IQUANT	1	Current Convention
ICHRANGE	IQUANT	2	Ich Range
ICHRANGEMODE	TOGGLE	F	Ich Auto Range
ICHOFFSETENABLE	TOGGLE	T	Ich Offset Enable
ICHOFFSET	QUANT	0	Ich Offset (V)
ICHFILTER	IQUANT	3	Ich Filter
VCHRANGE	IQUANT	2	Vch Range
VCHRANGEMODE	TOGGLE	F	Vch Auto Range
VCHOFFSETENABLE	TOGGLE	T	Vch Offset Enable
VCHOFFSET	QUANT	0	Vch Offset (V)
VCHFILTER	IQUANT	3	Vch Filter
ACHRANGE	IQUANT	0	Ach Range
IERANGELOWERLIMIT	IQUANT	3	I/E Range Lower Limit
IERANGEMODE	TOGGLE	F	I/E AutoRange
IERANGE	IQUANT	11	I/E Range
POSFEEDENABLE	TOGGLE	F	Positive Feedback IR Comp
POSFEEDRESISTANCE	QUANT	0	Positive Feedback Resistance (ohm)
FC350IDIVISOR	IQUANT	0	FC350 I Divisor
FC350VRANGE	IQUANT	0	FC350 V Range
FRAMEWORKVERSION	QUANT	4.35	Framework Version
ZCURVE	TABLE
	Pt	Time	Freq	Zreal	Zimag	Zsig	Zmod	Zphz	Idc	Vdc	IERange
	#	s	Hz	ohm	ohm	V	ohm	°	A	V	#
	0	4	100007	249.199	0.33423	1	249.199	0.076846	4.50688E-006	-0.514654	9
	1	6	89134.1	247.655	0.253005	1	247.655	0.058534	4.99891E-006	-0.514681	9
	2	8	79433.6	246.93	0.023423	1	246.93	0.005435	5.12497E-006	-0.514668	9
	3	10	70800.8	246.39	-0.291999	1	246.39	-0.067902	5.42058E-006	-0.514689	9
	4	12	63105.5	246.333	-0.823938	1	246.334	-0.191643	5.78439E-006	-0.514719	9
	5	14	56243.5	245.995	-0.87204	1	245.996	-0.20311	5.75791E-006	-0.514691	9
	6	16	50123.7	245.811	-1.64717	1	245.816	-0.383931	5.64231E-006	-0.514713	9
	7	18	44681	245.7	-1.91273	1	245.707	-0.446028	5.55706E-006	-0.514686	9
	8	20	39811.2	245.41	-2.47449	1	245.422	-0.577701	5.4575E-006	-0.514692	9
	9	22	35488.3	245.54	-2.39689	1	245.551	-0.559287	5.64277E-006	-0.514705	9
	10	24	31634.1	245.442	-2.8165	1	245.458	-0.657454	5.19975E-006	-0.514677	9
	11	26	28173.1	245.576	-3.21596	1	245.597	-0.750279	5.24634E-006	-0.514704	9
	12	28	25123.7	245.638	-3.67156	1	245.665	-0.85634	4.93872E-006	-0.514672	9
	13	29	22389.3	245.673	-4.0117	1	245.706	-0.935525	4.73409E-006	-0.514669	9
	14	31	19954.4	245.687	-4.56198	1	245.729	-1.06376	4.73322E-006	-0.514704	9
	15	33	17778.2	245.465	-5.19694	1	245.52	-1.21287	4.75514E-006	-0.514695	9
	16	35	15852.9	246.117	-5.26343	1	246.174	-1.22513	4.4583E-006	-0.514677	9
	17	37	14122.3	245.988	-6.08921	1	246.063	-1.41802	4.55814E-006	-0.514697	9
	18	39	12587.2	246.284	-6.66377	1	246.374	-1.54989	4.57066E-006	-0.514705	9
	19	41	11221.1	246.606	-7.34727	1	246.715	-1.70654	4.54306E-006	-0.514696	9
	20	43	9998.2	246.728	-8.06563	1	246.86	-1.87235	4.48573E-006	-0.514693	9
	21	45	8912.76	246.592	-8.71611	1	246.746	-2.02435	4.25611E-006	-0.514708	9
	22	47	7942.6	246.733	-9.06836	1	246.899	-2.10489	4.12086E-006	-0.514696	9
	23	49	7078.05	247.022	-10.3441	1	247.238	-2.39788	3.94444E-006	-0.514698	9
	24	51	6311.1	247.669	-11.4801	1	247.935	-2.6539	4.07683E-006	-0.514686	9
	25	53	5622.14	247.227	-13.0954	1	247.574	-3.03206	4.16448E-006	-0.514691	9
	26	55	5011.18	247.672	-14.0185	1	248.068	-3.23954	4.21527E-006	-0.514693	9
	27	57	4465.21	247.982	-15.4686	1	248.464	-3.56935	4.30725E-006	-0.514692	9
	28	59	3980.93	248.277	-17.4398	1	248.889	-4.01804	4.27355E-006	-0.514713	9
	29	61	3548.18	248.818	-19.2802	1	249.563	-4.43085	4.19167E-006	-0.514696	9
	30	63	3162.67	248.721	-21.4272	1	249.642	-4.92385	4.42175E-006	-0.514706	9
	31	65	2819.01	249.323	-23.599	1	250.438	-5.40707	4.09672E-006	-0.514692	9
	32	67	2511.16	249.26	-26.3254	1	250.646	-6.02889	4.26298E-006	-0.514694	9
	33	69	2238.63	249.882	-29.3303	1	251.598	-6.69455	4.22991E-006	-0.514697	9
	34	71	1995.37	250.323	-32.0263	1	252.363	-7.29081	4.04217E-006	-0.514695	9
	35	73	1778.51	250.954	-35.3014	1	253.425	-8.00718	4.1175E-006	-0.514702	9
	36	75	1584.49	251.623	-39.4066	1	254.69	-8.90079	4.20005E-006	-0.5147	9
	37	77	1412.76	252.387	-43.9485	1	256.185	-9.8779	4.24269E-006	-0.514694	9
	38	79	1259.04	253.357	-48.4842	1	257.955	-10.8335	4.18989E-006	-0.514698	9
	39	81	1121.63	253.923	-53.4824	1	259.494	-11.894	4.18678E-006	-0.514702	9
	40	83	999.95	254.691	-59.2895	1	261.501	-13.1045	4.11047E-006	-0.514702	9
	41	85	891.184	255.729	-66.3779	1	264.203	-14.5508	3.85212E-006	-0.514705	9
	42	87	794.163	257.184	-73.4249	1	267.46	-15.9338	3.86778E-006	-0.514699	9
	43	89	707.867	257.983	-81.0536	1	270.416	-17.4418	3.76264E-006	-0.514693	9
	44	91	630.984	258.939	-89.7994	1	274.068	-19.1264	3.86934E-006	-0.514691	9
	45	93	562.189	260.623	-99.634	1	279.018	-20.9214	3.94695E-006	-0.514717	9
	46	95	501.303	262.344	-110.607	1	284.707	-22.8608	3.88647E-006	-0.514702	9
	47	97	446.614	264.032	-122.803	1	291.193	-24.9435	3.958E-006	-0.514704	9
	48	99	398.209	265.822	-136.253	1	298.707	-27.1384	3.96006E-006	-0.514707	9
	49	101	354.821	267.855	-151.242	1	307.604	-29.4508	3.6887E-006	-0.514705	9
	50	103	316.113	270.076	-167.962	1	318.044	-31.8776	3.82023E-006	-0.514695	9
	51	105	281.926	272.504	-186.37	1	330.139	-34.3689	3.91184E-006	-0.514696	9
	52	107	251.185	275.208	-207.078	1	344.413	-36.9593	3.84936E-006	-0.514704	9
	53	109	223.946	278.16	-229.919	1	360.882	-39.5762	3.91595E-006	-0.514697	9
	54	111	199.495	281.505	-255.581	1	380.219	-42.2366	3.97247E-006	-0.514702	9
	55	112	177.836	285.17	-283.941	1	402.424	-44.8763	4.04208E-006	-0.514704	9
	56	115	158.533	289.215	-315.515	1	428.013	-47.4903	3.97945E-006	-0.514706	9
	57	117	141.263	293.751	-350.851	1	457.588	-50.0621	3.8625E-006	-0.514699	9
	58	119	125.911	298.84	-390.051	1	491.371	-52.5422	3.9668E-006	-0.514703	9
	59	121	112.198	304.649	-433.864	1	530.141	-54.9243	3.98872E-006	-0.514708	9
	60	123	100.009	311.076	-482.535	1	574.116	-57.1913	3.87685E-006	-0.514709	9
	61	125	89.1164	318.46	-536.853	1	624.202	-59.3236	3.9794E-006	-0.514709	9
	62	127	79.4083	326.563	-597.329	1	680.768	-61.3343	3.84548E-006	-0.514712	9
	63	129	70.788	335.818	-664.493	1	744.53	-63.1891	3.86097E-006	-0.514709	9
	64	131	63.0971	346.737	-739.411	1	816.673	-64.8764	3.7205E-006	-0.514718	9
	65	133	54.5476	362.495	-846.258	1	920.628	-66.8121	3.84937E-006	-0.514714	9
	66	135	50.0083	373.455	-917.614	1	990.7	-67.8544	3.89773E-006	-0.514711	9
	67	137	46.1675	385.187	-988.3	1	1060.71	-68.7069	3.99302E-006	-0.514713	9
	68	139	40.0059	410.595	-1127.38	1	1199.82	-69.9882	3.31177E-006	-0.51471	8
	69	141	35.3046	434.478	-1266.45	1	1338.91	-71.0646	3.27173E-006	-0.51471	8
	70	144	31.5793	461.117	-1404.56	1	1478.31	-71.825	3.32227E-006	-0.514717	8
	71	146	28.5748	484.165	-1541.85	1	1616.08	-72.5669	3.12226E-006	-0.514719	8
	72	148	24.9911	529.268	-1745.03	1	1823.52	-73.1274	3.16728E-006	-0.514715	8
	73	150	22.2195	576.292	-1944.94	1	2028.52	-73.4953	3.23586E-006	-0.514725	8
	74	152	20.0011	624.876	-2139.96	1	2229.33	-73.722	3.09442E-006	-0.51471	8
	75	155	17.6486	687.814	-2404.66	1	2501.09	-74.0376	2.97015E-006	-0.514719	8
	76	157	15.7934	759.042	-2659.47	1	2765.67	-74.0707	2.97516E-006	-0.514723	8
	77	159	14.2828	833.682	-2914.31	1	3031.21	-74.0361	2.98037E-006	-0.514721	8
	78	162	12.5002	962.95	-3288.58	1	3426.66	-73.6791	3.02174E-006	-0.514712	8
	79	164	11.323	1069.64	-3601.36	1	3756.85	-73.458	2.98725E-006	-0.514728	8
	80	167	9.9987	1228.03	-4015.88	1	4199.45	-72.9968	2.96214E-006	-0.514721	8
