EXPLAIN
TAG	EISPOT
TITLE	LABEL	Tomato_open	Test &Identifier
DATE	LABEL	5/10/2006	Date
TIME	LABEL	14:44:33	Time
NOTES	NOTES	1	&Notes...
	
PSTAT	PSTAT	300	Potentiostat
VDC	POTEN	1.00000E-001	T	DC &Voltage (V)
FREQINIT	QUANT	1.00000E+005	Initial Fre&q. (Hz)
FREQFINAL	QUANT	1.00000E+001	Final Fre&q. (Hz)
PTSPERDEC	QUANT	2.00000E+001	Points/&decade
VAC	QUANT	1.00000E+001	AC &Voltage (mV rms)
AREA	QUANT	1.00000E+000	&Area (cm²)
DENSITY	QUANT	7.87000E+000	&Density (gm/cm³)
EQUIV	QUANT	7.00000E+000	Equiv. &Wt
CONDIT	TWOPARAM	F	1.50000E+001	0.00000E+000	Conditionin&g	Time(s)	E(V)
DELAY	TWOPARAM	F	6.00000E+002	0.00000E+000	Init. De&lay	Time(s)	Stab.(mV/s)
SPEED	SELECTOR	1	&Optimize for:
ZGUESS	QUANT	1.00000E+002	E&stimated Z (ohms)
OCVCURVE	TABLE	39
	Pt	T	Vf	Vm	Ach	Over
	#	s	V vs. Ref.	V	V	bits
	0	0.258332	-5.91644E-001	6.59607E-006	-1.84600E-004	......
	1	0.516663	-5.90643E-001	6.59607E-006	-8.46000E-005	......
	2	0.774994	-5.89693E-001	6.59607E-006	-1.84600E-004	......
	3	1.03333	-5.90544E-001	6.59607E-006	-1.84600E-004	......
	4	1.29166	-5.90443E-001	6.59607E-006	-1.84600E-004	......
	5	1.54999	-5.89794E-001	6.59607E-006	-8.46000E-005	......
	6	1.80832	-5.89144E-001	6.59607E-006	-1.84600E-004	......
	7	2.06665	-5.89893E-001	6.59607E-006	-8.46000E-005	......
	8	2.32498	-5.89844E-001	6.59607E-006	-1.84600E-004	......
	9	2.58332	-5.89293E-001	6.59607E-006	-8.46000E-005	......
	10	2.84165	-5.89593E-001	6.59607E-006	-1.84600E-004	......
	11	3.09998	-5.89094E-001	6.59607E-006	-1.84600E-004	......
	12	3.35831	-5.89543E-001	6.59607E-006	1.54000E-005	......
	13	3.61664	-5.89293E-001	6.59607E-006	-1.84600E-004	......
	14	3.87497	-5.89643E-001	6.59607E-006	-1.84600E-004	......
	15	4.1333	-5.90793E-001	6.59607E-006	-1.84600E-004	......
	16	4.39164	-5.91393E-001	6.59607E-006	-1.84600E-004	......
	17	4.64997	-5.91244E-001	6.59607E-006	-1.84600E-004	......
	18	4.9083	-5.90993E-001	6.59607E-006	-2.84600E-004	......
	19	5.16663	-5.91443E-001	6.59607E-006	-1.84600E-004	......
	20	5.42496	-5.91743E-001	6.59607E-006	-2.84600E-004	......
	21	5.68329	-5.91693E-001	6.59607E-006	-8.46000E-005	......
	22	5.94162	-5.90943E-001	6.59607E-006	-1.84600E-004	......
	23	6.19996	-5.91543E-001	6.59607E-006	-2.84600E-004	......
	24	6.45829	-5.91644E-001	6.59607E-006	-1.84600E-004	......
	25	6.71662	-5.90743E-001	6.59607E-006	-8.46000E-005	......
	26	6.97495	-5.90343E-001	6.59607E-006	-8.46000E-005	......
	27	7.23328	-5.91293E-001	6.59607E-006	-2.84600E-004	......
	28	7.49161	-5.91143E-001	6.59607E-006	-8.46000E-005	......
	29	7.74995	-5.89844E-001	6.59607E-006	-2.84600E-004	......
	30	8.00828	-5.89343E-001	6.59607E-006	-1.84600E-004	......
	31	8.26661	-5.89893E-001	6.59607E-006	-8.46000E-005	......
	32	8.52494	-5.87994E-001	6.59607E-006	-2.84600E-004	......
	33	8.78327	-5.86043E-001	6.59607E-006	-8.46000E-005	......
	34	9.0416	-5.86043E-001	6.59607E-006	-1.84600E-004	......
	35	9.29993	-5.87294E-001	6.59607E-006	-1.84600E-004	......
	36	9.5583	-5.88744E-001	6.59607E-006	-1.84600E-004	......
	37	9.8166	-5.88643E-001	6.59607E-006	-1.84600E-004	......
	38	10.0749	-5.88344E-001	6.59607E-006	1.54000E-005	......
EOC	QUANT	-0.588344	Open Circuit (V)
PSTATMODEL	IQUANT	32	Pstat Model
PSTATSECTION	LABEL	PStat0	Pstat Section
CTRLMODE	IQUANT	1	Control Mode
IESTAB	IQUANT	0	I/E Stability
CASPEED	IQUANT	1	Control Amp Speed
CONVENTION	IQUANT	1	Current Convention
ICHRANGE	IQUANT	2	Ich Range
ICHRANGEMODE	TOGGLE	F	Ich Auto Range
ICHOFFSETENABLE	TOGGLE	T	Ich Offset Enable
ICHOFFSET	QUANT	0	Ich Offset (V)
ICHFILTER	IQUANT	3	Ich Filter
VCHRANGE	IQUANT	2	Vch Range
VCHRANGEMODE	TOGGLE	F	Vch Auto Range
VCHOFFSETENABLE	TOGGLE	T	Vch Offset Enable
VCHOFFSET	QUANT	0	Vch Offset (V)
VCHFILTER	IQUANT	3	Vch Filter
ACHRANGE	IQUANT	0	Ach Range
IERANGELOWERLIMIT	IQUANT	3	I/E Range Lower Limit
IERANGEMODE	TOGGLE	F	I/E AutoRange
IERANGE	IQUANT	11	I/E Range
POSFEEDENABLE	TOGGLE	F	Positive Feedback IR Comp
POSFEEDRESISTANCE	QUANT	0	Positive Feedback Resistance (ohm)
FC350IDIVISOR	IQUANT	0	FC350 I Divisor
FC350VRANGE	IQUANT	0	FC350 V Range
FRAMEWORKVERSION	QUANT	4.35	Framework Version
ZCURVE	TABLE
	Pt	Time	Freq	Zreal	Zimag	Zsig	Zmod	Zphz	Idc	Vdc	IERange
	#	s	Hz	ohm	ohm	V	ohm	°	A	V	#
	0	4	100007	246.799	0.508371	1	246.799	0.118021	5.0727E-006	-0.488084	9
	1	6	89134.1	245.301	0.441118	1	245.301	0.103033	5.03373E-006	-0.48808	9
	2	8	79433.6	244.822	0.324925	1	244.823	0.076042	4.98039E-006	-0.48809	9
	3	10	70800.8	244.722	-0.370014	1	244.722	-0.08663	5.17852E-006	-0.488108	9
	4	12	63105.5	244.404	-0.48632	1	244.405	-0.114008	5.03255E-006	-0.488081	9
	5	14	56243.5	244.084	-0.839854	1	244.086	-0.197145	5.55138E-006	-0.488092	9
	6	16	50123.7	243.698	-1.30695	1	243.702	-0.307275	5.60886E-006	-0.488105	9
	7	18	44681	243.244	-1.55907	1	243.249	-0.367231	5.17139E-006	-0.488087	9
	8	19	39811.2	243.495	-1.78443	1	243.501	-0.419879	5.20259E-006	-0.488087	9
	9	21	35488.3	243.32	-2.49751	1	243.332	-0.588081	5.13756E-006	-0.488082	9
	10	23	31634.1	243.504	-2.75265	1	243.52	-0.647662	5.06237E-006	-0.488078	9
	11	25	28173.1	243.262	-2.78085	1	243.277	-0.65495	5.07709E-006	-0.488096	9
	12	27	25123.7	243.348	-3.19115	1	243.369	-0.751307	4.9767E-006	-0.488068	9
	13	29	22389.3	243.382	-3.63634	1	243.409	-0.855986	5.29733E-006	-0.488112	9
	14	31	19954.4	243.371	-4.42608	1	243.411	-1.0419	5.24834E-006	-0.488085	9
	15	33	17778.2	243.9	-4.87134	1	243.949	-1.1442	5.34211E-006	-0.488097	9
	16	35	15852.9	243.947	-5.27483	1	244.004	-1.2387	5.2602E-006	-0.488086	9
	17	37	14122.3	243.963	-5.55056	1	244.027	-1.30335	5.40295E-006	-0.488095	9
	18	39	12587.2	244.382	-6.4091	1	244.466	-1.50228	5.15789E-006	-0.488093	9
	19	41	11221.1	244.567	-6.96885	1	244.666	-1.63218	5.07403E-006	-0.488097	9
	20	43	9998.2	244.431	-7.84279	1	244.556	-1.83776	5.09664E-006	-0.488108	9
	21	45	8912.76	244.166	-8.38538	1	244.31	-1.96693	5.36377E-006	-0.48812	9
	22	47	7942.6	244.431	-9.07065	1	244.599	-2.12523	4.91381E-006	-0.4881	9
	23	49	7078.05	245.032	-10.3615	1	245.251	-2.42139	4.93753E-006	-0.488097	9
	24	51	6311.1	244.735	-11.5399	1	245.007	-2.69965	4.90786E-006	-0.488096	9
	25	53	5622.14	245.721	-12.3743	1	246.032	-2.88292	4.59189E-006	-0.488101	9
	26	55	5011.18	245.388	-13.8182	1	245.777	-3.22303	4.71748E-006	-0.488092	9
	27	57	4465.21	246.051	-15.272	1	246.524	-3.5517	4.74789E-006	-0.488108	9
	28	59	3980.93	246.115	-16.8337	1	246.69	-3.9128	4.73709E-006	-0.488098	9
	29	61	3548.18	245.95	-18.8518	1	246.672	-4.38309	4.79359E-006	-0.488095	9
	30	63	3162.67	246.407	-20.9348	1	247.295	-4.8562	4.64713E-006	-0.488097	9
	31	65	2819.01	246.589	-23.5135	1	247.708	-5.44698	4.67809E-006	-0.488106	9
	32	67	2511.16	247.016	-25.4014	1	248.318	-5.87128	4.89419E-006	-0.488095	9
	33	69	2238.63	247.663	-28.301	1	249.274	-6.51906	4.65662E-006	-0.488095	9
	34	71	1995.37	247.989	-31.4159	1	249.971	-7.21991	4.75895E-006	-0.488107	9
	35	73	1778.51	248.74	-35.4578	1	251.255	-8.11283	4.90356E-006	-0.488086	9
	36	75	1584.49	248.874	-39.1067	1	251.928	-8.93012	5.04014E-006	-0.48809	9
	37	77	1412.76	249.915	-43.2883	1	253.636	-9.8268	5.04228E-006	-0.488109	9
	38	79	1259.04	250.393	-47.925	1	254.938	-10.8353	4.76203E-006	-0.488095	9
	39	81	1121.63	250.943	-53.4728	1	256.577	-12.0291	4.79033E-006	-0.488094	9
	40	83	999.95	252.085	-59.3089	1	258.968	-13.2394	4.89416E-006	-0.4881	9
	41	84	891.184	253.02	-65.6788	1	261.405	-14.5517	4.84162E-006	-0.488092	9
	42	86	794.163	253.943	-72.9396	1	264.211	-16.0255	4.94373E-006	-0.488092	9
	43	88	707.867	255.173	-80.8083	1	267.663	-17.5719	4.93814E-006	-0.488084	9
	44	90	630.984	256.396	-89.7258	1	271.642	-19.2875	4.81064E-006	-0.488096	9
	45	92	562.189	257.586	-99.848	1	276.261	-21.1877	4.86137E-006	-0.488093	9
	46	94	501.303	259.094	-110.513	1	281.679	-23.1001	4.86817E-006	-0.488107	9
	47	96	446.614	260.696	-122.81	1	288.175	-25.2244	4.79966E-006	-0.4881	9
	48	98	398.209	262.452	-136.371	1	295.767	-27.4566	4.73583E-006	-0.488094	9
	49	100	354.821	264.391	-151.51	1	304.726	-29.8151	4.61498E-006	-0.488103	9
	50	102	316.113	266.591	-168.343	1	315.294	-32.2711	4.69433E-006	-0.4881	9
	51	104	281.926	268.957	-186.958	1	327.553	-34.8041	4.66306E-006	-0.488101	9
	52	106	251.185	271.61	-207.782	1	341.973	-37.416	4.56098E-006	-0.488102	9
	53	108	223.946	274.52	-230.885	1	358.705	-40.0655	4.52952E-006	-0.488102	9
	54	110	199.495	277.837	-256.736	1	378.295	-42.7396	4.51802E-006	-0.4881	9
	55	112	177.836	281.491	-285.391	1	400.856	-45.3941	4.44836E-006	-0.488097	9
	56	114	158.533	285.55	-317.236	1	426.822	-48.0091	4.36405E-006	-0.488098	9
	57	116	141.263	290.13	-352.888	1	456.843	-50.5744	4.48062E-006	-0.488099	9
	58	118	125.911	295.21	-392.472	1	491.105	-53.0502	4.43936E-006	-0.488093	9
	59	120	112.198	301.093	-436.689	1	530.429	-55.4141	4.42559E-006	-0.488099	9
	60	122	100.009	307.603	-485.775	1	574.975	-57.6572	4.42871E-006	-0.488097	9
	61	125	89.1164	315.03	-540.616	1	625.707	-59.7696	4.37208E-006	-0.488095	9
	62	127	79.4083	323.311	-601.483	1	682.87	-61.741	4.22655E-006	-0.488101	9
	63	129	70.788	333.086	-669.407	1	747.697	-63.5458	4.30068E-006	-0.488099	9
	64	131	63.0971	344.234	-744.912	1	820.604	-65.1977	4.3706E-006	-0.488091	9
	65	133	54.5476	360.914	-852.886	1	926.107	-67.0635	4.49259E-006	-0.4881	9
	66	135	50.0083	372.142	-924.542	1	996.63	-68.0745	4.39122E-006	-0.488104	9
	67	137	46.1675	384.302	-995.97	1	1067.54	-68.9006	4.39123E-006	-0.488103	9
	68	139	40.0059	408.598	-1136.79	1	1207.99	-70.2299	3.6433E-006	-0.488107	8
	69	141	35.3046	433.801	-1276.73	1	1348.41	-71.2335	3.54892E-006	-0.488099	8
	70	143	31.5793	460.125	-1415.26	1	1488.18	-71.9898	3.51182E-006	-0.488102	8
	71	145	28.5748	489.933	-1553.48	1	1628.91	-72.4959	3.60375E-006	-0.488107	8
	72	148	24.9911	534.408	-1758.19	1	1837.61	-73.0931	3.69246E-006	-0.488109	8
	73	150	22.2195	582.927	-1959.37	1	2044.24	-73.4319	3.62117E-006	-0.488113	8
	74	152	20.0011	630.353	-2158.05	1	2248.23	-73.7173	3.56115E-006	-0.488103	8
	75	155	17.6486	704.844	-2421.42	1	2521.92	-73.7704	3.68697E-006	-0.488094	8
	76	157	15.7934	781.504	-2675.13	1	2786.95	-73.715	3.68784E-006	-0.488099	8
	77	159	14.2828	867.429	-2930.77	1	3056.45	-73.5127	3.69636E-006	-0.488095	8
	78	161	12.5002	994.65	-3301.03	1	3447.63	-73.2317	3.62051E-006	-0.4881	8
	79	164	11.323	1112.55	-3610.76	1	3778.28	-72.8749	3.58149E-006	-0.488097	8
	80	166	9.9987	1281.77	-4035.93	1	4234.58	-72.3806	3.54972E-006	-0.488088	8
