EXPLAIN
TAG	EISPOT
TITLE	LABEL	Tomato_open	Test &Identifier
DATE	LABEL	5/10/2006	Date
TIME	LABEL	14:34:33	Time
NOTES	NOTES	1	&Notes...
	
PSTAT	PSTAT	300	Potentiostat
VDC	POTEN	1.00000E-001	T	DC &Voltage (V)
FREQINIT	QUANT	1.00000E+005	Initial Fre&q. (Hz)
FREQFINAL	QUANT	1.00000E+001	Final Fre&q. (Hz)
PTSPERDEC	QUANT	2.00000E+001	Points/&decade
VAC	QUANT	1.00000E+001	AC &Voltage (mV rms)
AREA	QUANT	1.00000E+000	&Area (cm²)
DENSITY	QUANT	7.87000E+000	&Density (gm/cm³)
EQUIV	QUANT	7.00000E+000	Equiv. &Wt
CONDIT	TWOPARAM	F	1.50000E+001	0.00000E+000	Conditionin&g	Time(s)	E(V)
DELAY	TWOPARAM	F	6.00000E+002	0.00000E+000	Init. De&lay	Time(s)	Stab.(mV/s)
SPEED	SELECTOR	1	&Optimize for:
ZGUESS	QUANT	1.00000E+002	E&stimated Z (ohms)
OCVCURVE	TABLE	39
	Pt	T	Vf	Vm	Ach	Over
	#	s	V vs. Ref.	V	V	bits
	0	0.258332	-6.02693E-001	6.05508E-006	3.15400E-004	......
	1	0.516663	-6.02493E-001	6.05508E-006	2.15400E-004	......
	2	0.774994	-5.99443E-001	6.05508E-006	2.15400E-004	......
	3	1.03333	-5.98693E-001	6.05508E-006	3.15400E-004	......
	4	1.29166	-5.98743E-001	6.05508E-006	2.15400E-004	......
	5	1.54999	-5.99343E-001	6.05508E-006	2.15400E-004	......
	6	1.80832	-5.99844E-001	6.05508E-006	2.15400E-004	......
	7	2.06665	-5.98743E-001	6.05508E-006	3.15400E-004	......
	8	2.32498	-5.98643E-001	6.05508E-006	2.15400E-004	......
	9	2.58332	-5.99393E-001	6.05508E-006	3.15400E-004	......
	10	2.84165	-6.00293E-001	6.05508E-006	2.15400E-004	......
	11	3.09998	-6.00593E-001	6.05508E-006	2.15400E-004	......
	12	3.35831	-6.00543E-001	6.05508E-006	2.15400E-004	......
	13	3.61664	-6.00294E-001	6.05508E-006	3.15400E-004	......
	14	3.87497	-5.99443E-001	6.05508E-006	3.15400E-004	......
	15	4.1333	-5.99443E-001	6.05508E-006	3.15400E-004	......
	16	4.39164	-5.99193E-001	6.05508E-006	2.15400E-004	......
	17	4.64997	-5.99194E-001	6.05508E-006	3.15400E-004	......
	18	4.9083	-5.99443E-001	6.05508E-006	2.15400E-004	......
	19	5.16663	-5.99093E-001	6.05508E-006	3.15400E-004	......
	20	5.42496	-5.99243E-001	6.05508E-006	2.15400E-004	......
	21	5.68329	-5.99793E-001	6.05508E-006	3.15400E-004	......
	22	5.94162	-5.99943E-001	6.05508E-006	2.15400E-004	......
	23	6.19996	-5.99343E-001	6.05508E-006	1.15400E-004	......
	24	6.45829	-5.98343E-001	6.05508E-006	2.15400E-004	......
	25	6.71662	-5.99243E-001	6.05508E-006	2.15400E-004	......
	26	6.97495	-5.99494E-001	6.05508E-006	2.15400E-004	......
	27	7.23328	-5.99593E-001	6.05508E-006	2.15400E-004	......
	28	7.49161	-5.99544E-001	6.05508E-006	3.15400E-004	......
	29	7.74995	-5.99893E-001	6.05508E-006	2.15400E-004	......
	30	8.00828	-5.99743E-001	6.05508E-006	2.15400E-004	......
	31	8.26661	-6.00293E-001	6.05508E-006	3.15400E-004	......
	32	8.52494	-6.00843E-001	6.05508E-006	1.15400E-004	......
	33	8.78327	-6.01193E-001	6.05508E-006	3.15400E-004	......
	34	9.0416	-6.01644E-001	6.05508E-006	3.15400E-004	......
	35	9.29993	-6.01243E-001	6.05508E-006	3.15400E-004	......
	36	9.5583	-6.00643E-001	6.05508E-006	2.15400E-004	......
	37	9.8166	-5.99443E-001	6.05508E-006	3.15400E-004	......
	38	10.0749	-5.99494E-001	6.05508E-006	2.15400E-004	......
EOC	QUANT	-0.599494	Open Circuit (V)
PSTATMODEL	IQUANT	32	Pstat Model
PSTATSECTION	LABEL	PStat0	Pstat Section
CTRLMODE	IQUANT	1	Control Mode
IESTAB	IQUANT	0	I/E Stability
CASPEED	IQUANT	1	Control Amp Speed
CONVENTION	IQUANT	1	Current Convention
ICHRANGE	IQUANT	2	Ich Range
ICHRANGEMODE	TOGGLE	F	Ich Auto Range
ICHOFFSETENABLE	TOGGLE	T	Ich Offset Enable
ICHOFFSET	QUANT	0	Ich Offset (V)
ICHFILTER	IQUANT	3	Ich Filter
VCHRANGE	IQUANT	2	Vch Range
VCHRANGEMODE	TOGGLE	F	Vch Auto Range
VCHOFFSETENABLE	TOGGLE	T	Vch Offset Enable
VCHOFFSET	QUANT	0	Vch Offset (V)
VCHFILTER	IQUANT	3	Vch Filter
ACHRANGE	IQUANT	0	Ach Range
IERANGELOWERLIMIT	IQUANT	3	I/E Range Lower Limit
IERANGEMODE	TOGGLE	F	I/E AutoRange
IERANGE	IQUANT	11	I/E Range
POSFEEDENABLE	TOGGLE	F	Positive Feedback IR Comp
POSFEEDRESISTANCE	QUANT	0	Positive Feedback Resistance (ohm)
FC350IDIVISOR	IQUANT	0	FC350 I Divisor
FC350VRANGE	IQUANT	0	FC350 V Range
FRAMEWORKVERSION	QUANT	4.35	Framework Version
ZCURVE	TABLE
	Pt	Time	Freq	Zreal	Zimag	Zsig	Zmod	Zphz	Idc	Vdc	IERange
	#	s	Hz	ohm	ohm	V	ohm	°	A	V	#
	0	4	100007	248.316	0.779033	1	248.317	0.179751	4.35472E-006	-0.499319	9
	1	6	89134.1	246.661	0.320024	1	246.661	0.074337	4.0137E-006	-0.499307	9
	2	8	79433.6	246.329	-0.006107	1	246.329	-0.001421	4.23891E-006	-0.499329	9
	3	10	70800.8	245.786	-0.174244	1	245.786	-0.040619	4.3092E-006	-0.499335	9
	4	12	63105.5	245.48	-0.311068	1	245.48	-0.072604	4.38311E-006	-0.499307	9
	5	14	56243.5	245.292	-0.930043	1	245.293	-0.217241	4.79492E-006	-0.499337	9
	6	16	50123.7	245.057	-1.30545	1	245.06	-0.30522	4.62552E-006	-0.499316	9
	7	18	44681	244.486	-1.55813	1	244.491	-0.365147	4.4638E-006	-0.499293	9
	8	20	39811.2	244.497	-2.07316	1	244.506	-0.485817	4.81594E-006	-0.499335	9
	9	22	35488.3	244.46	-2.04875	1	244.468	-0.480168	4.60627E-006	-0.499283	9
	10	24	31634.1	244.575	-2.53987	1	244.588	-0.594986	4.87767E-006	-0.499336	9
	11	26	28173.1	244.407	-2.907	1	244.425	-0.681448	4.71319E-006	-0.499311	9
	12	27	25123.7	244.634	-3.46729	1	244.659	-0.81202	4.68703E-006	-0.499309	9
	13	29	22389.3	244.811	-4.08477	1	244.845	-0.95592	4.35977E-006	-0.499296	9
	14	31	19954.4	244.715	-4.43355	1	244.755	-1.03792	4.76497E-006	-0.499334	9
	15	33	17778.2	245.123	-4.63946	1	245.166	-1.08431	4.53294E-006	-0.49931	9
	16	35	15852.9	244.831	-5.43774	1	244.892	-1.27234	4.73158E-006	-0.499318	9
	17	37	14122.3	245.012	-5.80473	1	245.08	-1.35718	4.56453E-006	-0.499312	9
	18	39	12587.2	245.396	-6.93117	1	245.494	-1.61788	4.7355E-006	-0.499296	9
	19	41	11221.1	245.409	-7.19788	1	245.515	-1.68001	4.87645E-006	-0.499302	9
	20	43	9998.2	245.243	-7.74039	1	245.365	-1.80778	4.82067E-006	-0.499299	9
	21	45	8912.76	246.105	-8.58866	1	246.255	-1.99872	4.75966E-006	-0.499308	9
	22	47	7942.6	245.87	-9.49609	1	246.054	-2.2118	4.77194E-006	-0.499319	9
	23	49	7078.05	245.84	-10.3111	1	246.056	-2.4017	4.67405E-006	-0.499311	9
	24	51	6311.1	246.34	-11.4667	1	246.607	-2.66511	4.49109E-006	-0.499309	9
	25	53	5622.14	246.351	-12.8243	1	246.685	-2.97995	4.36633E-006	-0.499319	9
	26	55	5011.18	246.623	-14.2343	1	247.033	-3.30326	4.24059E-006	-0.499315	9
	27	57	4465.21	246.843	-15.5642	1	247.333	-3.60789	4.24484E-006	-0.499304	9
	28	59	3980.93	247.309	-17.4151	1	247.921	-4.02802	4.4403E-006	-0.499327	9
	29	61	3548.18	247.58	-19.1172	1	248.317	-4.41539	3.99625E-006	-0.499292	9
	30	63	3162.67	247.672	-21.0517	1	248.565	-4.85836	4.31461E-006	-0.499306	9
	31	65	2819.01	248.06	-23.5966	1	249.18	-5.43388	4.24322E-006	-0.499301	9
	32	67	2511.16	248.594	-26.2236	1	249.973	-6.02172	4.00505E-006	-0.499307	9
	33	69	2238.63	248.846	-28.7796	1	250.505	-6.59708	4.10747E-006	-0.499311	9
	34	71	1995.37	249.167	-31.8571	1	251.195	-7.28599	4.09573E-006	-0.499305	9
	35	73	1778.51	249.816	-35.4841	1	252.324	-8.08426	4.29578E-006	-0.499305	9
	36	75	1584.49	250.883	-39.4378	1	253.964	-8.93355	4.24086E-006	-0.499298	9
	37	77	1412.76	251.178	-43.5497	1	254.925	-9.8363	4.29894E-006	-0.49928	9
	38	79	1259.04	251.972	-48.415	1	256.581	-10.8765	4.53961E-006	-0.499295	9
	39	81	1121.63	252.314	-53.7349	1	257.973	-12.0226	4.65322E-006	-0.499308	9
	40	83	999.95	253.578	-59.2078	1	260.399	-13.1425	4.56109E-006	-0.499287	9
	41	85	891.184	253.976	-65.708	1	262.338	-14.5054	4.59956E-006	-0.499296	9
	42	87	794.163	255.569	-73.0683	1	265.809	-15.9555	4.53592E-006	-0.499301	9
	43	89	707.867	256.462	-81.183	1	269.005	-17.5652	4.46506E-006	-0.499305	9
	44	91	630.984	257.693	-90.2257	1	273.031	-19.2966	4.63148E-006	-0.499312	9
	45	93	562.189	259.194	-100.222	1	277.896	-21.1398	4.48475E-006	-0.499303	9
	46	94	501.303	260.921	-110.815	1	283.478	-23.0113	4.60098E-006	-0.499309	9
	47	96	446.614	262.564	-123.089	1	289.984	-25.1169	4.58609E-006	-0.499309	9
	48	98	398.209	264.35	-136.605	1	297.56	-27.3281	4.55591E-006	-0.499303	9
	49	100	354.821	266.383	-151.673	1	306.536	-29.6562	4.68525E-006	-0.499306	9
	50	102	316.113	268.592	-168.462	1	317.051	-32.0962	4.54433E-006	-0.499301	9
	51	104	281.926	271.013	-186.976	1	329.254	-34.6023	4.59605E-006	-0.499304	9
	52	106	251.185	273.717	-207.748	1	343.628	-37.1981	4.6392E-006	-0.499302	9
	53	108	223.946	276.718	-230.752	1	360.304	-39.8243	4.74831E-006	-0.499307	9
	54	110	199.495	280.081	-256.52	1	379.8	-42.4858	4.92733E-006	-0.499307	9
	55	112	177.836	283.833	-285.033	1	402.249	-45.1208	4.81636E-006	-0.499312	9
	56	114	158.533	287.965	-316.746	1	428.079	-47.7249	5.00797E-006	-0.499307	9
	57	116	141.263	292.631	-352.171	1	457.883	-50.2756	4.84433E-006	-0.499308	9
	58	118	125.911	297.901	-391.581	1	492.017	-52.7374	4.91859E-006	-0.499307	9
	59	121	112.198	303.934	-435.599	1	531.152	-55.095	4.84906E-006	-0.499315	9
	60	123	100.009	310.698	-484.522	1	575.582	-57.3302	4.91695E-006	-0.499306	9
	61	125	89.1164	318.239	-539	1	625.937	-59.4413	4.81783E-006	-0.49931	9
	62	127	79.4083	326.777	-599.596	1	682.861	-61.4098	4.64712E-006	-0.499308	9
	63	129	70.788	336.541	-667.04	1	747.129	-63.2277	4.61335E-006	-0.499303	9
	64	131	63.0971	347.529	-742.117	1	819.46	-64.9066	4.50976E-006	-0.4993	9
	65	133	54.5476	364.345	-849.569	1	924.4	-66.7875	4.45473E-006	-0.499296	9
	66	135	50.0083	375.698	-920.883	1	994.57	-67.8057	4.45425E-006	-0.499302	9
	67	137	46.1675	387.435	-992.08	1	1065.05	-68.6679	4.42728E-006	-0.499298	9
	68	139	40.0059	412.172	-1131.99	1	1204.7	-69.9929	3.68085E-006	-0.499302	8
	69	141	35.3046	437.573	-1271.21	1	1344.41	-71.0056	3.56751E-006	-0.499308	8
	70	144	31.5793	464.964	-1409.35	1	1484.07	-71.7416	3.54742E-006	-0.4993	8
	71	146	28.5748	491.105	-1546.46	1	1622.56	-72.3818	3.4083E-006	-0.499298	8
	72	148	24.9911	534.806	-1750.57	1	1830.44	-73.0118	3.3953E-006	-0.499299	8
	73	150	22.2195	581.077	-1951.52	1	2036.19	-73.4188	3.34431E-006	-0.499305	8
	74	152	20.0011	629.613	-2150.35	1	2240.63	-73.6802	3.32896E-006	-0.499295	8
	75	155	17.6486	697.339	-2410.8	1	2509.63	-73.8672	3.2587E-006	-0.499302	8
	76	157	15.7934	767.573	-2672.06	1	2780.12	-73.9728	3.09895E-006	-0.499305	8
	77	159	14.2828	846.199	-2926.36	1	3046.25	-73.872	3.14386E-006	-0.499301	8
	78	161	12.5002	974.59	-3296.77	1	3437.81	-73.5313	3.3426E-006	-0.499295	8
	79	164	11.323	1094.86	-3602.95	1	3765.63	-73.097	3.37431E-006	-0.499309	8
	80	167	9.9987	1266.31	-4018.77	1	4213.56	-72.5105	3.37981E-006	-0.499307	8
