EXPLAIN
TAG	EISPOT
TITLE	LABEL	Tomato_open	Test &Identifier
DATE	LABEL	5/10/2006	Date
TIME	LABEL	14:24:28	Time
NOTES	NOTES	1	&Notes...
	
PSTAT	PSTAT	300	Potentiostat
VDC	POTEN	1.00000E-001	T	DC &Voltage (V)
FREQINIT	QUANT	1.00000E+005	Initial Fre&q. (Hz)
FREQFINAL	QUANT	1.00000E+001	Final Fre&q. (Hz)
PTSPERDEC	QUANT	2.00000E+001	Points/&decade
VAC	QUANT	1.00000E+001	AC &Voltage (mV rms)
AREA	QUANT	1.00000E+000	&Area (cm²)
DENSITY	QUANT	7.87000E+000	&Density (gm/cm³)
EQUIV	QUANT	7.00000E+000	Equiv. &Wt
CONDIT	TWOPARAM	F	1.50000E+001	0.00000E+000	Conditionin&g	Time(s)	E(V)
DELAY	TWOPARAM	F	6.00000E+002	0.00000E+000	Init. De&lay	Time(s)	Stab.(mV/s)
SPEED	SELECTOR	1	&Optimize for:
ZGUESS	QUANT	1.00000E+002	E&stimated Z (ohms)
OCVCURVE	TABLE	39
	Pt	T	Vf	Vm	Ach	Over
	#	s	V vs. Ref.	V	V	bits
	0	0.258332	-5.99544E-001	4.50907E-006	1.54000E-005	......
	1	0.516663	-5.99494E-001	4.50907E-006	1.54000E-005	......
	2	0.774994	-5.99093E-001	4.50907E-006	2.15400E-004	......
	3	1.03333	-5.98543E-001	4.50907E-006	1.54000E-005	......
	4	1.29166	-5.99743E-001	4.50907E-006	2.15400E-004	......
	5	1.54999	-6.00043E-001	4.50907E-006	1.15400E-004	......
	6	1.80832	-6.00443E-001	4.50907E-006	3.15400E-004	......
	7	2.06665	-6.01693E-001	4.50907E-006	1.54000E-005	......
	8	2.32498	-6.01943E-001	4.50907E-006	1.54000E-005	......
	9	2.58332	-6.02693E-001	4.50907E-006	1.54000E-005	......
	10	2.84165	-6.02393E-001	4.50907E-006	2.15400E-004	......
	11	3.09998	-6.03343E-001	4.50907E-006	1.54000E-005	......
	12	3.35831	-6.02893E-001	4.50907E-006	2.15400E-004	......
	13	3.61664	-6.01043E-001	4.50907E-006	1.54000E-005	......
	14	3.87497	-6.02394E-001	4.50907E-006	2.15400E-004	......
	15	4.1333	-6.03243E-001	4.50907E-006	1.54000E-005	......
	16	4.39164	-6.02593E-001	4.50907E-006	2.15400E-004	......
	17	4.64997	-6.02093E-001	4.50907E-006	1.54000E-005	......
	18	4.9083	-6.02143E-001	4.50907E-006	2.15400E-004	......
	19	5.16663	-6.03144E-001	4.50907E-006	1.15400E-004	......
	20	5.42496	-6.03293E-001	4.50907E-006	2.15400E-004	......
	21	5.68329	-6.02643E-001	4.50907E-006	1.54000E-005	......
	22	5.94162	-6.03543E-001	4.50907E-006	2.15400E-004	......
	23	6.19996	-6.03844E-001	4.50907E-006	2.15400E-004	......
	24	6.45829	-6.04943E-001	4.50907E-006	2.15400E-004	......
	25	6.71662	-6.05843E-001	4.50907E-006	1.15400E-004	......
	26	6.97495	-6.05694E-001	4.50907E-006	3.15400E-004	......
	27	7.23328	-6.05793E-001	4.50907E-006	1.54000E-005	......
	28	7.49161	-6.04894E-001	4.50907E-006	2.15400E-004	......
	29	7.74995	-6.05343E-001	4.50907E-006	1.54000E-005	......
	30	8.00828	-6.04994E-001	4.50907E-006	2.15400E-004	......
	31	8.26661	-6.05893E-001	4.50907E-006	1.54000E-005	......
	32	8.52494	-6.06744E-001	4.50907E-006	2.15400E-004	......
	33	8.78327	-6.07593E-001	4.50907E-006	1.54000E-005	......
	34	9.0416	-6.08793E-001	4.50907E-006	2.15400E-004	......
	35	9.29993	-6.08793E-001	4.50907E-006	1.54000E-005	......
	36	9.5583	-6.09393E-001	4.50907E-006	2.15400E-004	......
	37	9.8166	-6.09393E-001	4.50907E-006	1.54000E-005	......
	38	10.0749	-6.10043E-001	4.50907E-006	3.15400E-004	......
EOC	QUANT	-0.610043	Open Circuit (V)
PSTATMODEL	IQUANT	32	Pstat Model
PSTATSECTION	LABEL	PStat0	Pstat Section
CTRLMODE	IQUANT	1	Control Mode
IESTAB	IQUANT	0	I/E Stability
CASPEED	IQUANT	1	Control Amp Speed
CONVENTION	IQUANT	1	Current Convention
ICHRANGE	IQUANT	2	Ich Range
ICHRANGEMODE	TOGGLE	F	Ich Auto Range
ICHOFFSETENABLE	TOGGLE	T	Ich Offset Enable
ICHOFFSET	QUANT	0	Ich Offset (V)
ICHFILTER	IQUANT	3	Ich Filter
VCHRANGE	IQUANT	2	Vch Range
VCHRANGEMODE	TOGGLE	F	Vch Auto Range
VCHOFFSETENABLE	TOGGLE	T	Vch Offset Enable
VCHOFFSET	QUANT	0	Vch Offset (V)
VCHFILTER	IQUANT	3	Vch Filter
ACHRANGE	IQUANT	0	Ach Range
IERANGELOWERLIMIT	IQUANT	3	I/E Range Lower Limit
IERANGEMODE	TOGGLE	F	I/E AutoRange
IERANGE	IQUANT	11	I/E Range
POSFEEDENABLE	TOGGLE	F	Positive Feedback IR Comp
POSFEEDRESISTANCE	QUANT	0	Positive Feedback Resistance (ohm)
FC350IDIVISOR	IQUANT	0	FC350 I Divisor
FC350VRANGE	IQUANT	0	FC350 V Range
FRAMEWORKVERSION	QUANT	4.35	Framework Version
ZCURVE	TABLE
	Pt	Time	Freq	Zreal	Zimag	Zsig	Zmod	Zphz	Idc	Vdc	IERange
	#	s	Hz	ohm	ohm	V	ohm	°	A	V	#
	0	4	100007	248.127	0.657605	1	248.128	0.15185	5.25616E-006	-0.509793	9
	1	6	89134.1	247.532	0.525098	1	247.533	0.121543	5.32641E-006	-0.509772	9
	2	8	79433.6	246.777	-0.024349	1	246.777	-0.005653	5.75041E-006	-0.509776	9
	3	10	70800.8	246.387	-0.699005	1	246.388	-0.162549	5.84831E-006	-0.509795	9
	4	12	63105.5	245.928	-0.98294	1	245.93	-0.229002	6.37533E-006	-0.509806	9
	5	14	56243.5	245.722	-1.04555	1	245.724	-0.243794	6.33061E-006	-0.509759	9
	6	16	50123.7	245.658	-1.45671	1	245.663	-0.33975	6.05027E-006	-0.509772	9
	7	18	44681	245.381	-1.79591	1	245.388	-0.419331	5.89769E-006	-0.509754	9
	8	20	39811.2	245.256	-1.96872	1	245.264	-0.459916	6.13227E-006	-0.509779	9
	9	22	35488.3	245.226	-2.70585	1	245.241	-0.632183	6.21981E-006	-0.5098	9
	10	24	31634.1	245.571	-2.97661	1	245.589	-0.694459	6.13561E-006	-0.5098	9
	11	26	28173.1	245.615	-3.25664	1	245.636	-0.759648	6.08731E-006	-0.509778	9
	12	28	25123.7	245.728	-3.44371	1	245.752	-0.802908	5.92123E-006	-0.50979	9
	13	30	22389.3	245.995	-4.14561	1	246.03	-0.96548	5.85731E-006	-0.509786	9
	14	32	19954.4	245.605	-4.61163	1	245.648	-1.07569	5.8632E-006	-0.509759	9
	15	34	17778.2	246.005	-4.92833	1	246.054	-1.14768	6.01913E-006	-0.509782	9
	16	35	15852.9	246.197	-5.35684	1	246.256	-1.24646	5.78533E-006	-0.509762	9
	17	37	14122.3	245.946	-6.30696	1	246.027	-1.46895	5.71789E-006	-0.509777	9
	18	39	12587.2	246.373	-6.76754	1	246.466	-1.57344	5.547E-006	-0.509767	9
	19	41	11221.1	246.869	-7.49512	1	246.983	-1.73901	5.45366E-006	-0.509773	9
	20	43	9998.2	247.01	-8.28485	1	247.149	-1.92101	5.37816E-006	-0.509771	9
	21	45	8912.76	247.583	-8.90059	1	247.743	-2.05889	5.55642E-006	-0.509787	9
	22	47	7942.6	247.373	-10.0089	1	247.576	-2.31697	5.42814E-006	-0.509776	9
	23	49	7078.05	247.554	-10.8565	1	247.792	-2.5111	5.33073E-006	-0.509777	9
	24	51	6311.1	248.182	-11.5396	1	248.45	-2.66214	5.33044E-006	-0.509778	9
	25	53	5622.14	248.167	-13.0001	1	248.507	-2.99867	5.26119E-006	-0.50978	9
	26	55	5011.18	248.668	-14.0784	1	249.066	-3.24036	5.02367E-006	-0.509779	9
	27	57	4465.21	248.947	-15.8391	1	249.45	-3.64051	5.13912E-006	-0.509779	9
	28	59	3980.93	249.215	-17.5767	1	249.835	-4.03429	5.31809E-006	-0.509772	9
	29	61	3548.18	249.286	-18.7041	1	249.987	-4.29091	4.88953E-006	-0.509758	9
	30	63	3162.67	249.529	-21.1775	1	250.426	-4.85105	4.82455E-006	-0.50976	9
	31	65	2819.01	250.028	-23.8456	1	251.162	-5.44792	5.12891E-006	-0.509794	9
	32	67	2511.16	250.859	-26.1762	1	252.221	-5.95704	4.85506E-006	-0.509767	9
	33	69	2238.63	251.153	-28.8897	1	252.809	-6.56179	4.65073E-006	-0.509771	9
	34	71	1995.37	251.852	-31.9258	1	253.868	-7.2245	4.69295E-006	-0.509787	9
	35	73	1778.51	252.157	-35.5002	1	254.644	-8.01377	4.75975E-006	-0.509779	9
	36	75	1584.49	253	-39.0228	1	255.992	-8.76821	4.66616E-006	-0.509793	9
	37	77	1412.76	253.313	-43.5887	1	257.036	-9.7635	4.57019E-006	-0.509774	9
	38	79	1259.04	254.533	-48.6068	1	259.132	-10.8113	4.6992E-006	-0.509792	9
	39	81	1121.63	255.33	-53.6791	1	260.912	-11.8726	4.65838E-006	-0.509783	9
	40	83	999.95	256.046	-59.4328	1	262.854	-13.0679	4.77203E-006	-0.509789	9
	41	85	891.184	257.258	-65.6317	1	265.498	-14.312	5.00103E-006	-0.509778	9
	42	87	794.163	258.661	-73.0643	1	268.783	-15.7734	5.01831E-006	-0.509776	9
	43	89	707.867	259.578	-80.0488	1	271.64	-17.1388	4.87178E-006	-0.509792	9
	44	91	630.984	260.911	-89.4122	1	275.806	-18.9162	4.81661E-006	-0.509771	9
	45	93	562.189	262.459	-99.276	1	280.608	-20.7192	4.55519E-006	-0.509769	9
	46	95	501.303	263.935	-109.647	1	285.804	-22.5596	4.58658E-006	-0.509786	9
	47	97	446.614	265.604	-121.677	1	292.148	-24.6132	4.56602E-006	-0.509785	9
	48	99	398.209	267.452	-134.997	1	299.591	-26.7825	4.48566E-006	-0.509785	9
	49	100	354.821	269.481	-149.803	1	308.319	-29.0694	4.66147E-006	-0.509786	9
	50	102	316.113	271.737	-166.314	1	318.593	-31.4682	4.60522E-006	-0.509784	9
	51	104	281.926	274.177	-184.489	1	330.468	-33.9359	4.48803E-006	-0.509786	9
	52	106	251.185	276.894	-204.901	1	344.463	-36.5014	4.43231E-006	-0.509787	9
	53	108	223.946	279.892	-227.495	1	360.684	-39.1041	4.56539E-006	-0.509791	9
	54	110	199.495	283.205	-252.84	1	379.648	-41.7578	4.60328E-006	-0.509784	9
	55	112	177.836	286.909	-280.889	1	401.516	-44.3925	4.63817E-006	-0.509789	9
	56	114	158.533	291.019	-312.115	1	426.741	-47.0032	4.74286E-006	-0.509784	9
	57	116	141.263	295.638	-347.016	1	455.875	-49.571	4.76734E-006	-0.50978	9
	58	118	125.911	300.72	-385.75	1	489.117	-52.061	4.70238E-006	-0.509782	9
	59	120	112.198	306.56	-429.115	1	527.37	-54.4579	4.73744E-006	-0.509785	9
	60	123	100.009	313.093	-477.139	1	570.692	-56.7276	4.62774E-006	-0.509781	9
	61	125	89.1164	320.413	-530.93	1	620.122	-58.8893	4.6094E-006	-0.509781	9
	62	127	79.4083	328.605	-590.73	1	675.976	-60.9141	4.52788E-006	-0.509782	9
	63	129	70.788	338.381	-657.378	1	739.357	-62.7632	4.71671E-006	-0.509786	9
	64	131	63.0971	349.45	-731.404	1	810.596	-64.4625	4.63915E-006	-0.509788	9
	65	133	54.5476	366.359	-836.888	1	913.565	-66.358	4.77729E-006	-0.50979	9
	66	135	50.0083	377.962	-907.406	1	982.98	-67.3868	4.85255E-006	-0.509793	9
	67	137	46.1675	388.146	-977.47	1	1051.71	-68.3422	4.53042E-006	-0.509791	9
	68	139	40.0059	412.283	-1115.7	1	1189.44	-69.7193	3.76147E-006	-0.509792	8
	69	141	35.3046	438.368	-1252.91	1	1327.38	-70.7161	3.82783E-006	-0.50979	8
	70	143	31.5793	464.303	-1389.64	1	1465.16	-71.5247	3.80307E-006	-0.509787	8
	71	145	28.5748	492.212	-1524.1	1	1601.61	-72.102	3.67113E-006	-0.509784	8
	72	148	24.9911	535.317	-1726.62	1	1807.7	-72.7746	3.5864E-006	-0.509789	8
	73	150	22.2195	582.177	-1922.81	1	2009.02	-73.1551	3.53845E-006	-0.509784	8
	74	152	20.0011	630.424	-2122.04	1	2213.71	-73.4542	3.48998E-006	-0.509789	8
	75	155	17.6486	698.022	-2381.46	1	2481.65	-73.6638	3.56433E-006	-0.509788	8
	76	157	15.7934	783.847	-2627.91	1	2742.32	-73.3913	3.84068E-006	-0.509798	8
	77	159	14.2828	868.561	-2884.28	1	3012.22	-73.2411	3.44522E-006	-0.509784	8
	78	161	12.5002	973.53	-3244.57	1	3387.48	-73.2981	3.3407E-006	-0.509793	8
	79	164	11.323	1073.62	-3558.67	1	3717.09	-73.2119	3.20422E-006	-0.509801	8
	80	166	9.9987	1236.96	-3993.26	1	4180.45	-72.789	3.13181E-006	-0.509798	8
