EXPLAIN
TAG	EISPOT
TITLE	LABEL	Tomato_open	Test &Identifier
DATE	LABEL	5/16/2006	Date
TIME	LABEL	13:41:17	Time
NOTES	NOTES	1	&Notes...
	
PSTAT	PSTAT	300	Potentiostat
VDC	POTEN	1.00000E-001	T	DC &Voltage (V)
FREQINIT	QUANT	1.00000E+005	Initial Fre&q. (Hz)
FREQFINAL	QUANT	1.00000E+001	Final Fre&q. (Hz)
PTSPERDEC	QUANT	2.00000E+001	Points/&decade
VAC	QUANT	1.00000E+001	AC &Voltage (mV rms)
AREA	QUANT	1.00000E+000	&Area (cm²)
DENSITY	QUANT	7.87000E+000	&Density (gm/cm³)
EQUIV	QUANT	7.00000E+000	Equiv. &Wt
CONDIT	TWOPARAM	F	1.50000E+001	0.00000E+000	Conditionin&g	Time(s)	E(V)
DELAY	TWOPARAM	F	6.00000E+002	0.00000E+000	Init. De&lay	Time(s)	Stab.(mV/s)
SPEED	SELECTOR	1	&Optimize for:
ZGUESS	QUANT	1.00000E+002	E&stimated Z (ohms)
OCVCURVE	TABLE	39
	Pt	T	Vf	Vm	Ach	Over
	#	s	V vs. Ref.	V	V	bits
	0	0.258332	-4.18469E-001	3.89694E-006	-1.63400E-004	......
	1	0.516663	-4.19069E-001	3.89694E-006	3.66000E-005	......
	2	0.774994	-4.19669E-001	3.89694E-006	-1.63400E-004	......
	3	1.03333	-4.20520E-001	3.89694E-006	1.36600E-004	......
	4	1.29166	-4.21519E-001	3.89694E-006	-6.34000E-005	......
	5	1.54999	-4.23069E-001	3.89694E-006	3.66000E-005	......
	6	1.80832	-4.24619E-001	3.89694E-006	-1.63400E-004	......
	7	2.06665	-4.26069E-001	3.89694E-006	1.36600E-004	......
	8	2.32498	-4.27569E-001	3.89694E-006	-6.34000E-005	......
	9	2.58332	-4.29019E-001	3.89694E-006	1.36600E-004	......
	10	2.84165	-4.29969E-001	3.89694E-006	-1.63400E-004	......
	11	3.09998	-4.31169E-001	3.89694E-006	3.66000E-005	......
	12	3.35831	-4.32570E-001	3.89694E-006	-1.63400E-004	......
	13	3.61664	-4.33270E-001	3.89694E-006	3.66000E-005	......
	14	3.87497	-4.34319E-001	3.89694E-006	-6.34000E-005	......
	15	4.1333	-4.35419E-001	3.89694E-006	-1.63400E-004	......
	16	4.39164	-4.36319E-001	3.89694E-006	-6.34000E-005	......
	17	4.64997	-4.36719E-001	3.89694E-006	3.66000E-005	......
	18	4.9083	-4.33320E-001	3.89694E-006	-6.34000E-005	......
	19	5.16663	-4.32319E-001	3.89694E-006	3.66000E-005	......
	20	5.42496	-4.32519E-001	3.89694E-006	-1.63400E-004	......
	21	5.68329	-4.32919E-001	3.89694E-006	2.36600E-004	......
	22	5.94162	-4.33619E-001	3.89694E-006	3.66000E-005	......
	23	6.19996	-4.34269E-001	3.89694E-006	2.36600E-004	......
	24	6.45829	-4.33919E-001	3.89694E-006	-1.63400E-004	......
	25	6.71662	-4.33969E-001	3.89694E-006	3.66000E-005	......
	26	6.97495	-4.34369E-001	3.89694E-006	-1.63400E-004	......
	27	7.23328	-4.34819E-001	3.89694E-006	3.66000E-005	......
	28	7.49161	-4.35919E-001	3.89694E-006	-1.63400E-004	......
	29	7.74995	-4.36870E-001	3.89694E-006	3.66000E-005	......
	30	8.00828	-4.37770E-001	3.89694E-006	-6.34000E-005	......
	31	8.26661	-4.38269E-001	3.89694E-006	3.66000E-005	......
	32	8.52494	-4.38269E-001	3.89694E-006	-6.34000E-005	......
	33	8.78327	-4.39019E-001	3.89694E-006	3.66000E-005	......
	34	9.0416	-4.38069E-001	3.89694E-006	-6.34000E-005	......
	35	9.29993	-4.32769E-001	3.89694E-006	3.66000E-005	......
	36	9.5583	-4.30519E-001	3.89694E-006	-6.34000E-005	......
	37	9.8166	-4.30469E-001	3.89694E-006	1.36600E-004	......
	38	10.0749	-4.32319E-001	3.89694E-006	-6.34000E-005	......
EOC	QUANT	-0.432319	Open Circuit (V)
PSTATMODEL	IQUANT	32	Pstat Model
PSTATSECTION	LABEL	PStat0	Pstat Section
CTRLMODE	IQUANT	1	Control Mode
IESTAB	IQUANT	0	I/E Stability
CASPEED	IQUANT	1	Control Amp Speed
CONVENTION	IQUANT	1	Current Convention
ICHRANGE	IQUANT	2	Ich Range
ICHRANGEMODE	TOGGLE	F	Ich Auto Range
ICHOFFSETENABLE	TOGGLE	T	Ich Offset Enable
ICHOFFSET	QUANT	0	Ich Offset (V)
ICHFILTER	IQUANT	3	Ich Filter
VCHRANGE	IQUANT	2	Vch Range
VCHRANGEMODE	TOGGLE	F	Vch Auto Range
VCHOFFSETENABLE	TOGGLE	T	Vch Offset Enable
VCHOFFSET	QUANT	0	Vch Offset (V)
VCHFILTER	IQUANT	3	Vch Filter
ACHRANGE	IQUANT	0	Ach Range
IERANGELOWERLIMIT	IQUANT	3	I/E Range Lower Limit
IERANGEMODE	TOGGLE	F	I/E AutoRange
IERANGE	IQUANT	11	I/E Range
POSFEEDENABLE	TOGGLE	F	Positive Feedback IR Comp
POSFEEDRESISTANCE	QUANT	0	Positive Feedback Resistance (ohm)
FC350IDIVISOR	IQUANT	0	FC350 I Divisor
FC350VRANGE	IQUANT	0	FC350 V Range
FRAMEWORKVERSION	QUANT	4.35	Framework Version
ZCURVE	TABLE
	Pt	Time	Freq	Zreal	Zimag	Zsig	Zmod	Zphz	Idc	Vdc	IERange
	#	s	Hz	ohm	ohm	V	ohm	°	A	V	#
	0	4	100007	215.372	-0.325181	1	215.372	-0.086508	2.32965E-006	-0.332352	9
	1	6	89134.1	214.232	-0.597892	1	214.233	-0.159904	3.14687E-006	-0.332333	9
	2	8	79433.6	213.707	-0.879048	1	213.709	-0.235675	3.53573E-006	-0.33234	9
	3	10	70800.8	212.946	-1.35213	1	212.95	-0.363803	3.68946E-006	-0.33236	9
	4	12	63105.5	212.616	-1.71626	1	212.623	-0.462489	3.88157E-006	-0.332335	9
	5	14	56243.5	212.793	-2.32164	1	212.806	-0.62509	3.59845E-006	-0.332333	9
	6	16	50123.7	212.254	-2.72392	1	212.271	-0.735255	3.71671E-006	-0.332328	9
	7	18	44681	212.024	-3.26122	1	212.049	-0.881217	3.93465E-006	-0.332343	9
	8	20	39811.2	212.103	-3.49966	1	212.132	-0.945282	3.66763E-006	-0.332338	9
	9	22	35488.3	212.061	-4.02857	1	212.099	-1.08833	3.6736E-006	-0.332336	9
	10	24	31634.1	212.104	-4.50301	1	212.152	-1.21622	3.53063E-006	-0.332345	9
	11	26	28173.1	211.952	-5.16843	1	212.015	-1.39688	3.57332E-006	-0.332369	9
	12	28	25123.7	212.142	-5.41436	1	212.211	-1.46201	3.5054E-006	-0.332374	9
	13	29	22389.3	212.191	-6.04475	1	212.277	-1.63176	3.4471E-006	-0.332334	9
	14	31	19954.4	212.347	-6.78184	1	212.455	-1.82927	3.43876E-006	-0.332332	9
	15	33	17778.2	212.717	-7.76252	1	212.859	-2.08992	3.46195E-006	-0.332348	9
	16	35	15852.9	212.828	-8.16456	1	212.985	-2.19692	3.40335E-006	-0.332356	9
	17	37	14122.3	213.223	-8.9782	1	213.412	-2.41113	3.49259E-006	-0.332349	9
	18	39	12587.2	213.236	-9.7557	1	213.459	-2.61949	3.50057E-006	-0.332356	9
	19	41	11221.1	213.486	-10.7576	1	213.757	-2.8847	3.56987E-006	-0.33234	9
	20	43	9998.2	214.014	-12.4183	1	214.374	-3.32091	3.55953E-006	-0.332345	9
	21	45	8912.76	214.326	-13.125	1	214.727	-3.50433	3.60032E-006	-0.332354	9
	22	47	7942.6	214.526	-14.4499	1	215.012	-3.85346	3.45543E-006	-0.33235	9
	23	49	7078.05	214.555	-16.1399	1	215.161	-4.30197	3.36901E-006	-0.33235	9
	24	51	6311.1	215.163	-17.5841	1	215.88	-4.67207	3.38949E-006	-0.332345	9
	25	53	5622.14	215.456	-19.5693	1	216.343	-5.18977	3.43804E-006	-0.332355	9
	26	55	5011.18	216.066	-21.2014	1	217.104	-5.60418	3.20563E-006	-0.332346	9
	27	57	4465.21	216.542	-23.5312	1	217.817	-6.20188	3.36396E-006	-0.332339	9
	28	59	3980.93	217.181	-25.9725	1	218.728	-6.81959	3.31351E-006	-0.332344	9
	29	61	3548.18	217.73	-28.2005	1	219.549	-7.37987	3.13779E-006	-0.332352	9
	30	63	3162.67	218.154	-31.6488	1	220.437	-8.25463	3.20906E-006	-0.332366	9
	31	65	2819.01	219.109	-34.6104	1	221.826	-8.97626	2.99626E-006	-0.332378	9
	32	67	2511.16	219.582	-38.3011	1	222.897	-9.8944	3.04404E-006	-0.332341	9
	33	69	2238.63	220.808	-42.3397	1	224.831	-10.8547	3.05084E-006	-0.332351	9
	34	71	1995.37	221.476	-46.5663	1	226.319	-11.8737	3.08017E-006	-0.332339	9
	35	73	1778.51	222.566	-51.4697	1	228.44	-13.0211	3.01582E-006	-0.332343	9
	36	75	1584.49	223.761	-56.2826	1	230.731	-14.1187	2.98117E-006	-0.332343	9
	37	77	1412.76	225.018	-62.5259	1	233.544	-15.5291	2.79153E-006	-0.332339	9
	38	79	1259.04	226.027	-68.6694	1	236.229	-16.8993	2.68184E-006	-0.332345	9
	39	81	1121.63	227.727	-76.0477	1	240.089	-18.4663	2.54948E-006	-0.332341	9
	40	83	999.95	229.425	-83.7618	1	244.238	-20.0568	2.56123E-006	-0.332334	9
	41	85	891.184	231.113	-92.8036	1	249.049	-21.878	2.65838E-006	-0.332346	9
	42	87	794.163	232.613	-102.251	1	254.095	-23.729	2.69201E-006	-0.332342	9
	43	89	707.867	234.148	-112.747	1	259.879	-25.7118	2.58354E-006	-0.332365	9
	44	91	630.984	236.463	-124.902	1	267.424	-27.8434	2.46807E-006	-0.332343	9
	45	93	562.189	238.818	-138.124	1	275.885	-30.0436	2.42849E-006	-0.332322	9
	46	95	501.303	241.076	-152.445	1	285.232	-32.3073	2.61079E-006	-0.332332	9
	47	97	446.614	243.549	-168.768	1	296.309	-34.7202	2.65198E-006	-0.332334	9
	48	99	398.209	246.228	-186.783	1	309.057	-37.1831	2.57046E-006	-0.332342	9
	49	101	354.821	249.133	-206.827	1	323.798	-39.6991	2.60198E-006	-0.332335	9
	50	103	316.113	252.255	-229.228	1	340.849	-42.2619	2.56496E-006	-0.332334	9
	51	105	281.926	255.643	-253.924	1	360.32	-44.8068	2.60307E-006	-0.332336	9
	52	107	251.185	259.345	-281.631	1	382.852	-47.359	2.59568E-006	-0.332335	9
	53	109	223.946	263.311	-312.284	1	408.477	-49.8631	2.58024E-006	-0.332339	9
	54	111	199.495	267.786	-346.72	1	438.091	-52.3196	2.82807E-006	-0.33234	9
	55	113	177.836	272.631	-384.887	1	471.663	-54.6885	2.78773E-006	-0.332339	9
	56	115	158.533	277.857	-427.359	1	509.746	-56.9692	2.73039E-006	-0.332347	9
	57	117	141.263	283.53	-474.769	1	552.987	-59.1545	2.55131E-006	-0.332342	9
	58	119	125.911	289.87	-527.611	1	601.995	-61.2155	2.54097E-006	-0.332348	9
	59	121	112.198	296.89	-586.584	1	657.438	-63.1545	2.41601E-006	-0.332348	9
	60	123	100.009	304.907	-652.231	1	719.982	-64.9447	2.51453E-006	-0.332344	9
	61	125	89.1164	313.683	-725.387	1	790.305	-66.6146	2.51166E-006	-0.332347	9
	62	127	79.4083	323.44	-806.966	1	869.372	-68.1586	2.50979E-006	-0.332336	9
	63	129	70.788	334.509	-897.62	1	957.92	-69.5615	2.4965E-006	-0.332336	9
	64	131	63.0971	347.026	-998.74	1	1057.31	-70.8395	2.52213E-006	-0.332333	9
	65	133	54.5476	364.671	-1142.43	1	1199.22	-72.2966	1.75683E-006	-0.332348	8
	66	135	50.0083	376.507	-1238.63	1	1294.59	-73.0922	1.70248E-006	-0.332349	8
	67	137	46.1675	389.709	-1334.42	1	1390.16	-73.7199	1.73168E-006	-0.332347	8
	68	140	40.0059	413.248	-1524.46	1	1579.48	-74.8328	1.63556E-006	-0.332354	8
	69	142	35.3046	439.473	-1712.88	1	1768.36	-75.6101	1.73928E-006	-0.332343	8
	70	144	31.5793	464.797	-1900.3	1	1956.32	-76.2558	1.74275E-006	-0.332345	8
	71	146	28.5748	491.017	-2086.26	1	2143.27	-76.7561	1.62722E-006	-0.332353	8
	72	148	24.9911	536.762	-2363.45	1	2423.63	-77.2046	1.75907E-006	-0.332345	8
	73	150	22.2195	580.562	-2636.41	1	2699.58	-77.5812	1.66158E-006	-0.332353	8
	74	153	20.0011	631.728	-2909.1	1	2976.9	-77.7481	1.7293E-006	-0.332349	8
	75	155	17.6486	695.032	-3269.56	1	3342.62	-77.9989	1.77211E-006	-0.332349	8
	76	157	15.7934	758.057	-3624.13	1	3702.56	-78.1858	1.68722E-006	-0.332355	8
	77	160	14.2828	819.136	-3976.58	1	4060.08	-78.3605	1.60912E-006	-0.332352	8
	78	162	12.5002	904.725	-4504.41	1	4594.37	-78.6431	1.5181E-006	-0.332354	8
	79	164	11.323	984.39	-4933.99	1	5031.23	-78.717	1.49806E-006	-0.332349	8
	80	167	9.9987	1104.39	-5538.46	1	5647.5	-78.7229	1.38882E-006	-0.33235	8
