EXPLAIN
TAG	EISPOT
TITLE	LABEL	Tomato_open	Test &Identifier
DATE	LABEL	5/16/2006	Date
TIME	LABEL	13:46:19	Time
NOTES	NOTES	1	&Notes...
	
PSTAT	PSTAT	300	Potentiostat
VDC	POTEN	1.00000E-001	T	DC &Voltage (V)
FREQINIT	QUANT	1.00000E+005	Initial Fre&q. (Hz)
FREQFINAL	QUANT	1.00000E+001	Final Fre&q. (Hz)
PTSPERDEC	QUANT	2.00000E+001	Points/&decade
VAC	QUANT	1.00000E+001	AC &Voltage (mV rms)
AREA	QUANT	1.00000E+000	&Area (cm²)
DENSITY	QUANT	7.87000E+000	&Density (gm/cm³)
EQUIV	QUANT	7.00000E+000	Equiv. &Wt
CONDIT	TWOPARAM	F	1.50000E+001	0.00000E+000	Conditionin&g	Time(s)	E(V)
DELAY	TWOPARAM	F	6.00000E+002	0.00000E+000	Init. De&lay	Time(s)	Stab.(mV/s)
SPEED	SELECTOR	1	&Optimize for:
ZGUESS	QUANT	1.00000E+002	E&stimated Z (ohms)
OCVCURVE	TABLE	39
	Pt	T	Vf	Vm	Ach	Over
	#	s	V vs. Ref.	V	V	bits
	0	0.258332	-3.89519E-001	3.76474E-006	-1.63400E-004	......
	1	0.516663	-3.89169E-001	3.76474E-006	3.66000E-005	......
	2	0.774994	-3.88619E-001	3.76474E-006	-1.63400E-004	......
	3	1.03333	-3.88319E-001	3.76474E-006	3.66000E-005	......
	4	1.29166	-3.87670E-001	3.76474E-006	-1.63400E-004	......
	5	1.54999	-3.87219E-001	3.76474E-006	3.66000E-005	......
	6	1.80832	-3.86669E-001	3.76474E-006	-1.63400E-004	......
	7	2.06665	-3.86069E-001	3.76474E-006	3.66000E-005	......
	8	2.32498	-3.85469E-001	3.76474E-006	-6.34000E-005	......
	9	2.58332	-3.85169E-001	3.76474E-006	3.66000E-005	......
	10	2.84165	-3.85069E-001	3.76474E-006	-1.63400E-004	......
	11	3.09998	-3.84769E-001	3.76474E-006	3.66000E-005	......
	12	3.35831	-3.84269E-001	3.76474E-006	-1.63400E-004	......
	13	3.61664	-3.83319E-001	3.76474E-006	1.36600E-004	......
	14	3.87497	-3.82470E-001	3.76474E-006	-1.63400E-004	......
	15	4.1333	-3.81869E-001	3.76474E-006	3.66000E-005	......
	16	4.39164	-3.81519E-001	3.76474E-006	-1.63400E-004	......
	17	4.64997	-3.81370E-001	3.76474E-006	3.66000E-005	......
	18	4.9083	-3.81219E-001	3.76474E-006	-6.34000E-005	......
	19	5.16663	-3.81069E-001	3.76474E-006	2.36600E-004	......
	20	5.42496	-3.80819E-001	3.76474E-006	-1.63400E-004	......
	21	5.68329	-3.80120E-001	3.76474E-006	1.36600E-004	......
	22	5.94162	-3.77669E-001	3.76474E-006	-1.63400E-004	......
	23	6.19996	-3.76019E-001	3.76474E-006	1.36600E-004	......
	24	6.45829	-3.75219E-001	3.76474E-006	-6.34000E-005	......
	25	6.71662	-3.74370E-001	3.76474E-006	-6.34000E-005	......
	26	6.97495	-3.73869E-001	3.76474E-006	-6.34000E-005	......
	27	7.23328	-3.74119E-001	3.76474E-006	3.66000E-005	......
	28	7.49161	-3.74419E-001	3.76474E-006	-6.34000E-005	......
	29	7.74995	-3.74669E-001	3.76474E-006	3.66000E-005	......
	30	8.00828	-3.75270E-001	3.76474E-006	-6.34000E-005	......
	31	8.26661	-3.76269E-001	3.76474E-006	3.66000E-005	......
	32	8.52494	-3.77569E-001	3.76474E-006	-6.34000E-005	......
	33	8.78327	-3.78269E-001	3.76474E-006	1.36600E-004	......
	34	9.0416	-3.79369E-001	3.76474E-006	-1.63400E-004	......
	35	9.29993	-3.80269E-001	3.76474E-006	3.66000E-005	......
	36	9.5583	-3.81319E-001	3.76474E-006	-1.63400E-004	......
	37	9.8166	-3.82169E-001	3.76474E-006	1.36600E-004	......
	38	10.0749	-3.83019E-001	3.76474E-006	-1.63400E-004	......
EOC	QUANT	-0.383019	Open Circuit (V)
PSTATMODEL	IQUANT	32	Pstat Model
PSTATSECTION	LABEL	PStat0	Pstat Section
CTRLMODE	IQUANT	1	Control Mode
IESTAB	IQUANT	0	I/E Stability
CASPEED	IQUANT	1	Control Amp Speed
CONVENTION	IQUANT	1	Current Convention
ICHRANGE	IQUANT	2	Ich Range
ICHRANGEMODE	TOGGLE	F	Ich Auto Range
ICHOFFSETENABLE	TOGGLE	T	Ich Offset Enable
ICHOFFSET	QUANT	0	Ich Offset (V)
ICHFILTER	IQUANT	3	Ich Filter
VCHRANGE	IQUANT	2	Vch Range
VCHRANGEMODE	TOGGLE	F	Vch Auto Range
VCHOFFSETENABLE	TOGGLE	T	Vch Offset Enable
VCHOFFSET	QUANT	0	Vch Offset (V)
VCHFILTER	IQUANT	3	Vch Filter
ACHRANGE	IQUANT	0	Ach Range
IERANGELOWERLIMIT	IQUANT	3	I/E Range Lower Limit
IERANGEMODE	TOGGLE	F	I/E AutoRange
IERANGE	IQUANT	11	I/E Range
POSFEEDENABLE	TOGGLE	F	Positive Feedback IR Comp
POSFEEDRESISTANCE	QUANT	0	Positive Feedback Resistance (ohm)
FC350IDIVISOR	IQUANT	0	FC350 I Divisor
FC350VRANGE	IQUANT	0	FC350 V Range
FRAMEWORKVERSION	QUANT	4.35	Framework Version
ZCURVE	TABLE
	Pt	Time	Freq	Zreal	Zimag	Zsig	Zmod	Zphz	Idc	Vdc	IERange
	#	s	Hz	ohm	ohm	V	ohm	°	A	V	#
	0	5	100007	211.442	-0.762692	1	211.443	-0.206671	2.93578E-006	-0.28297	9
	1	7	89134.1	211.11	-0.389823	1	211.111	-0.105799	3.45104E-006	-0.282938	9
	2	9	79433.6	210.332	-0.96163	1	210.334	-0.261953	3.59735E-006	-0.282952	9
	3	11	70800.8	210.215	-1.44681	1	210.22	-0.394334	3.5931E-006	-0.282949	9
	4	13	63105.5	209.95	-1.77855	1	209.958	-0.485358	3.68781E-006	-0.282929	9
	5	15	56243.5	209.509	-1.5751	1	209.515	-0.430745	3.86228E-006	-0.282943	9
	6	17	50123.7	209.404	-2.51747	1	209.419	-0.688781	3.74468E-006	-0.282964	9
	7	19	44681	209.278	-2.99013	1	209.299	-0.818577	3.98157E-006	-0.282977	9
	8	21	39811.2	209.087	-3.08137	1	209.11	-0.844322	4.05927E-006	-0.28293	9
	9	22	35488.3	208.871	-3.6862	1	208.904	-1.01106	3.98324E-006	-0.282985	9
	10	24	31634.1	209.355	-4.34416	1	209.4	-1.18873	3.61335E-006	-0.282941	9
	11	26	28173.1	209.058	-4.69974	1	209.111	-1.28782	3.91817E-006	-0.28295	9
	12	28	25123.7	209.059	-5.3426	1	209.128	-1.4639	3.7509E-006	-0.282947	9
	13	30	22389.3	209.451	-6.07082	1	209.539	-1.66022	3.91715E-006	-0.282943	9
	14	32	19954.4	209.26	-6.84468	1	209.372	-1.87342	4.00006E-006	-0.28297	9
	15	34	17778.2	209.577	-7.50236	1	209.711	-2.05018	3.78765E-006	-0.282952	9
	16	36	15852.9	209.912	-8.36172	1	210.078	-2.28114	3.41017E-006	-0.282953	9
	17	38	14122.3	210.12	-8.93126	1	210.31	-2.43392	3.60043E-006	-0.282945	9
	18	40	12587.2	210.284	-9.9265	1	210.519	-2.70265	3.60351E-006	-0.282952	9
	19	42	11221.1	210.524	-10.8196	1	210.802	-2.94205	3.65828E-006	-0.282947	9
	20	44	9998.2	210.738	-12.0933	1	211.085	-3.28434	3.66615E-006	-0.282945	9
	21	46	8912.76	211.084	-13.4335	1	211.511	-3.64144	3.53904E-006	-0.282966	9
	22	48	7942.6	211.532	-14.592	1	212.035	-3.94614	3.57618E-006	-0.282954	9
	23	50	7078.05	211.951	-16.0713	1	212.559	-4.33618	3.67454E-006	-0.282949	9
	24	52	6311.1	212.306	-17.5781	1	213.033	-4.73305	3.7456E-006	-0.28296	9
	25	54	5622.14	212.552	-19.3209	1	213.428	-5.1939	3.60943E-006	-0.282946	9
	26	56	5011.18	213.149	-21.2165	1	214.203	-5.6844	3.50656E-006	-0.282948	9
	27	58	4465.21	213.629	-23.3708	1	214.904	-6.24328	3.52715E-006	-0.282954	9
	28	60	3980.93	213.824	-26.0066	1	215.4	-6.93459	3.49657E-006	-0.282935	9
	29	62	3548.18	214.199	-28.5536	1	216.093	-7.59301	3.78313E-006	-0.282937	9
	30	64	3162.67	215.232	-31.4981	1	217.525	-8.32583	3.59799E-006	-0.282933	9
	31	66	2819.01	215.939	-34.5853	1	218.691	-9.09934	3.63902E-006	-0.282939	9
	32	68	2511.16	216.876	-38.0424	1	220.188	-9.9491	3.57254E-006	-0.282952	9
	33	70	2238.63	217.71	-41.9739	1	221.719	-10.9126	3.49168E-006	-0.282949	9
	34	72	1995.37	218.511	-46.305	1	223.364	-11.9646	3.57137E-006	-0.282939	9
	35	74	1778.51	219.012	-50.8951	1	224.848	-13.0825	3.56999E-006	-0.282946	9
	36	76	1584.49	220.191	-56.3633	1	227.29	-14.358	3.77981E-006	-0.282952	9
	37	78	1412.76	221.834	-62.6273	1	230.504	-15.7652	3.65459E-006	-0.282935	9
	38	80	1259.04	223.069	-68.6661	1	233.398	-17.1097	3.73295E-006	-0.282939	9
	39	82	1121.63	224.782	-75.8433	1	237.232	-18.6448	3.71442E-006	-0.28295	9
	40	84	999.95	225.928	-83.4558	1	240.849	-20.2738	3.66598E-006	-0.282948	9
	41	86	891.184	227.651	-92.6447	1	245.78	-22.1443	3.6131E-006	-0.28295	9
	42	87	794.163	229.214	-102.116	1	250.931	-24.0132	3.38659E-006	-0.282941	9
	43	89	707.867	231.301	-112.682	1	257.288	-25.9739	3.50473E-006	-0.282969	9
	44	91	630.984	233.519	-124.69	1	264.724	-28.1005	3.46915E-006	-0.282946	9
	45	93	562.189	235.324	-138.255	1	272.932	-30.4346	3.42432E-006	-0.282934	9
	46	95	501.303	237.849	-152.598	1	282.592	-32.6831	3.60662E-006	-0.282955	9
	47	97	446.614	240.316	-168.944	1	293.758	-35.1076	3.65445E-006	-0.282951	9
	48	99	398.209	242.974	-186.963	1	306.581	-37.5775	3.68099E-006	-0.282955	9
	49	101	354.821	245.897	-207.079	1	321.476	-40.102	3.49599E-006	-0.282947	9
	50	103	316.113	249.04	-229.485	1	338.651	-42.6598	3.57887E-006	-0.282942	9
	51	105	281.926	252.464	-254.243	1	358.298	-45.2012	3.59851E-006	-0.282945	9
	52	107	251.185	256.176	-282.001	1	380.987	-47.7473	3.57476E-006	-0.282946	9
	53	109	223.946	260.223	-312.73	1	406.837	-50.2361	3.67787E-006	-0.282952	9
	54	111	199.495	264.612	-347.153	1	436.503	-52.6841	3.4072E-006	-0.282955	9
	55	113	177.836	269.45	-385.322	1	470.188	-55.0356	3.40295E-006	-0.282952	9
	56	115	158.533	274.633	-427.749	1	508.323	-57.2978	3.25917E-006	-0.282955	9
	57	117	141.263	280.651	-475.428	1	552.084	-59.4461	3.30354E-006	-0.282955	9
	58	119	125.911	287.267	-528.413	1	601.45	-61.4697	3.46838E-006	-0.282958	9
	59	121	112.198	294.588	-587.591	1	657.301	-63.3731	3.52721E-006	-0.282962	9
	60	123	100.009	302.74	-653.333	1	720.066	-65.138	3.50179E-006	-0.282952	9
	61	125	89.1164	311.95	-726.804	1	790.922	-66.7706	3.41564E-006	-0.282959	9
	62	128	79.4083	321.724	-808.382	1	870.05	-68.2982	3.39348E-006	-0.282961	9
	63	130	70.788	333.455	-899.065	1	958.91	-69.6507	3.46714E-006	-0.282957	9
	64	132	63.0971	346.274	-1000.5	1	1058.73	-70.9091	3.44784E-006	-0.282956	9
	65	134	54.5476	365.013	-1144.6	1	1201.4	-72.3125	2.70171E-006	-0.282954	8
	66	136	50.0083	377.654	-1240.94	1	1297.13	-73.0734	2.63709E-006	-0.282962	8
	67	138	46.1675	388.219	-1336.5	1	1391.74	-73.8027	2.21464E-006	-0.282958	8
	68	140	40.0059	414.991	-1527.14	1	1582.52	-74.7973	2.40547E-006	-0.282964	8
	69	142	35.3046	441.67	-1715.97	1	1771.9	-75.5661	2.40327E-006	-0.282963	8
	70	144	31.5793	469.731	-1905.02	1	1962.08	-76.1486	2.38044E-006	-0.282953	8
	71	146	28.5748	501.674	-2090.77	1	2150.12	-76.5071	2.49896E-006	-0.282964	8
	72	148	24.9911	544.971	-2368.99	1	2430.87	-77.0449	2.4306E-006	-0.282961	8
	73	151	22.2195	587.685	-2642.09	1	2706.66	-77.4597	2.37253E-006	-0.282968	8
	74	153	20.0011	637.664	-2911.92	1	2980.92	-77.6481	2.41858E-006	-0.282966	8
	75	156	17.6486	712.553	-3269.22	1	3345.97	-77.7042	2.58303E-006	-0.282967	8
	76	158	15.7934	797.174	-3625.22	1	3711.83	-77.5982	2.57705E-006	-0.282969	8
	77	160	14.2828	875.849	-3982.77	1	4077.94	-77.5975	2.51353E-006	-0.282967	8
	78	162	12.5002	998.91	-4504.9	1	4614.32	-77.4976	2.3725E-006	-0.282968	8
	79	165	11.323	1098.1	-4943.55	1	5064.04	-77.4763	2.42269E-006	-0.282966	8
	80	167	9.9987	1205.36	-5530.8	1	5660.62	-77.7054	2.37823E-006	-0.28296	8
