EXPLAIN
TAG	EISPOT
TITLE	LABEL	Tomato_open	Test &Identifier
DATE	LABEL	5/16/2006	Date
TIME	LABEL	13:36:18	Time
NOTES	NOTES	1	&Notes...
	
PSTAT	PSTAT	300	Potentiostat
VDC	POTEN	1.00000E-001	T	DC &Voltage (V)
FREQINIT	QUANT	1.00000E+005	Initial Fre&q. (Hz)
FREQFINAL	QUANT	1.00000E+001	Final Fre&q. (Hz)
PTSPERDEC	QUANT	2.00000E+001	Points/&decade
VAC	QUANT	1.00000E+001	AC &Voltage (mV rms)
AREA	QUANT	1.00000E+000	&Area (cm²)
DENSITY	QUANT	7.87000E+000	&Density (gm/cm³)
EQUIV	QUANT	7.00000E+000	Equiv. &Wt
CONDIT	TWOPARAM	F	1.50000E+001	0.00000E+000	Conditionin&g	Time(s)	E(V)
DELAY	TWOPARAM	F	6.00000E+002	0.00000E+000	Init. De&lay	Time(s)	Stab.(mV/s)
SPEED	SELECTOR	1	&Optimize for:
ZGUESS	QUANT	1.00000E+002	E&stimated Z (ohms)
OCVCURVE	TABLE	39
	Pt	T	Vf	Vm	Ach	Over
	#	s	V vs. Ref.	V	V	bits
	0	0.258332	-4.46570E-001	4.38624E-006	2.36600E-004	......
	1	0.516663	-4.45569E-001	4.38624E-006	2.36600E-004	......
	2	0.774994	-4.46020E-001	4.38624E-006	3.66000E-005	......
	3	1.03333	-4.46619E-001	4.38624E-006	2.36600E-004	......
	4	1.29166	-4.48169E-001	4.38624E-006	3.36600E-004	......
	5	1.54999	-4.49019E-001	4.38624E-006	1.36600E-004	......
	6	1.80832	-4.50319E-001	4.38624E-006	2.36600E-004	......
	7	2.06665	-4.51970E-001	4.38624E-006	2.36600E-004	......
	8	2.32498	-4.53719E-001	4.38624E-006	3.36600E-004	......
	9	2.58332	-4.54169E-001	4.38624E-006	3.36600E-004	......
	10	2.84165	-4.54419E-001	4.38624E-006	2.36600E-004	......
	11	3.09998	-4.53869E-001	4.38624E-006	1.36600E-004	......
	12	3.35831	-4.54269E-001	4.38624E-006	1.36600E-004	......
	13	3.61664	-4.55019E-001	4.38624E-006	2.36600E-004	......
	14	3.87497	-4.56169E-001	4.38624E-006	2.36600E-004	......
	15	4.1333	-4.54119E-001	4.38624E-006	2.36600E-004	......
	16	4.39164	-4.52369E-001	4.38624E-006	3.36600E-004	......
	17	4.64997	-4.50569E-001	4.38624E-006	2.36600E-004	......
	18	4.9083	-4.50669E-001	4.38624E-006	1.36600E-004	......
	19	5.16663	-4.50769E-001	4.38624E-006	3.36600E-004	......
	20	5.42496	-4.50719E-001	4.38624E-006	3.36600E-004	......
	21	5.68329	-4.50569E-001	4.38624E-006	2.36600E-004	......
	22	5.94162	-4.50619E-001	4.38624E-006	3.36600E-004	......
	23	6.19996	-4.50369E-001	4.38624E-006	2.36600E-004	......
	24	6.45829	-4.49270E-001	4.38624E-006	1.36600E-004	......
	25	6.71662	-4.48219E-001	4.38624E-006	2.36600E-004	......
	26	6.97495	-4.47869E-001	4.38624E-006	3.36600E-004	......
	27	7.23328	-4.47969E-001	4.38624E-006	2.36600E-004	......
	28	7.49161	-4.46869E-001	4.38624E-006	2.36600E-004	......
	29	7.74995	-4.47319E-001	4.38624E-006	3.36600E-004	......
	30	8.00828	-4.47969E-001	4.38624E-006	2.36600E-004	......
	31	8.26661	-4.48319E-001	4.38624E-006	2.36600E-004	......
	32	8.52494	-4.49120E-001	4.38624E-006	2.36600E-004	......
	33	8.78327	-4.49469E-001	4.38624E-006	2.36600E-004	......
	34	9.0416	-4.49369E-001	4.38624E-006	3.36600E-004	......
	35	9.29993	-4.50519E-001	4.38624E-006	3.66000E-005	......
	36	9.5583	-4.50469E-001	4.38624E-006	3.36600E-004	......
	37	9.8166	-4.51070E-001	4.38624E-006	2.36600E-004	......
	38	10.0749	-4.52219E-001	4.38624E-006	2.36600E-004	......
EOC	QUANT	-0.452219	Open Circuit (V)
PSTATMODEL	IQUANT	32	Pstat Model
PSTATSECTION	LABEL	PStat0	Pstat Section
CTRLMODE	IQUANT	1	Control Mode
IESTAB	IQUANT	0	I/E Stability
CASPEED	IQUANT	1	Control Amp Speed
CONVENTION	IQUANT	1	Current Convention
ICHRANGE	IQUANT	2	Ich Range
ICHRANGEMODE	TOGGLE	F	Ich Auto Range
ICHOFFSETENABLE	TOGGLE	T	Ich Offset Enable
ICHOFFSET	QUANT	0	Ich Offset (V)
ICHFILTER	IQUANT	3	Ich Filter
VCHRANGE	IQUANT	2	Vch Range
VCHRANGEMODE	TOGGLE	F	Vch Auto Range
VCHOFFSETENABLE	TOGGLE	T	Vch Offset Enable
VCHOFFSET	QUANT	0	Vch Offset (V)
VCHFILTER	IQUANT	3	Vch Filter
ACHRANGE	IQUANT	0	Ach Range
IERANGELOWERLIMIT	IQUANT	3	I/E Range Lower Limit
IERANGEMODE	TOGGLE	F	I/E AutoRange
IERANGE	IQUANT	11	I/E Range
POSFEEDENABLE	TOGGLE	F	Positive Feedback IR Comp
POSFEEDRESISTANCE	QUANT	0	Positive Feedback Resistance (ohm)
FC350IDIVISOR	IQUANT	0	FC350 I Divisor
FC350VRANGE	IQUANT	0	FC350 V Range
FRAMEWORKVERSION	QUANT	4.35	Framework Version
ZCURVE	TABLE
	Pt	Time	Freq	Zreal	Zimag	Zsig	Zmod	Zphz	Idc	Vdc	IERange
	#	s	Hz	ohm	ohm	V	ohm	°	A	V	#
	0	4	100007	217.686	-0.37636	1	217.687	-0.099059	1.83495E-006	-0.35214	9
	1	6	89134.1	216.654	-0.425448	1	216.654	-0.112513	2.30818E-006	-0.352181	9
	2	8	79433.6	216.164	-0.892018	1	216.165	-0.236435	2.74295E-006	-0.352138	9
	3	10	70800.8	215.961	-1.56784	1	215.966	-0.415951	3.3129E-006	-0.352166	9
	4	12	63105.5	215.411	-1.86045	1	215.419	-0.494837	3.60988E-006	-0.352185	9
	5	14	56243.5	215.279	-2.16703	1	215.29	-0.576729	3.49817E-006	-0.352147	9
	6	16	50123.7	215.024	-2.23776	1	215.036	-0.596255	3.74845E-006	-0.352178	9
	7	18	44681	215.138	-3.00556	1	215.159	-0.800394	3.35098E-006	-0.352151	9
	8	20	39811.2	214.831	-3.53791	1	214.86	-0.943484	3.5787E-006	-0.352161	9
	9	22	35488.3	214.663	-3.78829	1	214.696	-1.01103	3.65253E-006	-0.352165	9
	10	24	31634.1	214.62	-4.31633	1	214.663	-1.15215	3.4214E-006	-0.352155	9
	11	26	28173.1	215.159	-4.92602	1	215.215	-1.31154	3.50603E-006	-0.352173	9
	12	28	25123.7	214.868	-5.48415	1	214.938	-1.46206	3.24126E-006	-0.352159	9
	13	30	22389.3	215.103	-6.30695	1	215.195	-1.67947	3.42854E-006	-0.352185	9
	14	32	19954.4	215.381	-6.80987	1	215.489	-1.81096	3.56201E-006	-0.352161	9
	15	33	17778.2	215.671	-7.4902	1	215.801	-1.98907	3.37742E-006	-0.352179	9
	16	35	15852.9	215.639	-8.04154	1	215.789	-2.13567	3.3961E-006	-0.352146	9
	17	37	14122.3	215.778	-9.05348	1	215.968	-2.40257	3.3009E-006	-0.352169	9
	18	39	12587.2	215.831	-9.9499	1	216.061	-2.6395	3.15918E-006	-0.352163	9
	19	41	11221.1	216.636	-11.1763	1	216.924	-2.95329	3.17518E-006	-0.352157	9
	20	43	9998.2	216.368	-12.2976	1	216.718	-3.25299	3.03832E-006	-0.352156	9
	21	45	8912.76	217.228	-13.2058	1	217.629	-3.47886	3.0517E-006	-0.352173	9
	22	47	7942.6	217.266	-14.6052	1	217.757	-3.84578	3.17685E-006	-0.352161	9
	23	49	7078.05	217.587	-16.0931	1	218.181	-4.23	3.32771E-006	-0.352152	9
	24	51	6311.1	218.236	-17.7834	1	218.96	-4.65856	3.10206E-006	-0.352156	9
	25	53	5622.14	218.542	-19.6515	1	219.424	-5.13828	3.1607E-006	-0.352154	9
	26	55	5011.18	218.847	-21.5985	1	219.91	-5.63639	2.9169E-006	-0.352149	9
	27	57	4465.21	219.256	-23.4239	1	220.503	-6.09798	3.18107E-006	-0.352151	9
	28	59	3980.93	219.839	-25.997	1	221.371	-6.74417	3.02006E-006	-0.352172	9
	29	61	3548.18	220.675	-29.1063	1	222.587	-7.51375	3.03193E-006	-0.352139	9
	30	63	3162.67	221.244	-31.5588	1	223.483	-8.11806	3.22606E-006	-0.352169	9
	31	65	2819.01	221.935	-34.7923	1	224.645	-8.90962	3.00087E-006	-0.352166	9
	32	67	2511.16	222.776	-38.2407	1	226.034	-9.7402	2.98992E-006	-0.352148	9
	33	69	2238.63	223.68	-42.5529	1	227.691	-10.7713	3.08888E-006	-0.352158	9
	34	71	1995.37	224.719	-46.62	1	229.504	-11.7203	3.03178E-006	-0.352146	9
	35	73	1778.51	225.766	-51.416	1	231.546	-12.8297	2.95704E-006	-0.352151	9
	36	75	1584.49	227.062	-56.7684	1	234.051	-14.0369	2.8472E-006	-0.352157	9
	37	77	1412.76	228.046	-62.6579	1	236.497	-15.3635	2.7444E-006	-0.352155	9
	38	79	1259.04	229.524	-68.9865	1	239.668	-16.7288	2.7364E-006	-0.352143	9
	39	81	1121.63	231.078	-76.1824	1	243.313	-18.2465	2.53192E-006	-0.352154	9
	40	83	999.95	232.423	-84.0069	1	247.139	-19.8718	2.66653E-006	-0.352153	9
	41	85	891.184	234.005	-92.8693	1	251.76	-21.6466	2.68745E-006	-0.35215	9
	42	87	794.163	235.935	-102.471	1	257.227	-23.4762	2.65401E-006	-0.352167	9
	43	89	707.867	238.023	-112.986	1	263.478	-25.393	2.85528E-006	-0.352164	9
	44	91	630.984	240.139	-124.768	1	270.617	-27.4548	2.96826E-006	-0.35216	9
	45	93	562.189	242.664	-138.159	1	279.238	-29.6547	2.98648E-006	-0.352172	9
	46	95	501.303	244.65	-152.522	1	288.3	-31.9405	2.81999E-006	-0.352158	9
	47	97	446.614	247.16	-168.77	1	299.285	-34.3267	2.86559E-006	-0.352152	9
	48	99	398.209	249.863	-186.694	1	311.907	-36.7665	2.65196E-006	-0.352153	9
	49	101	354.821	252.803	-206.729	1	326.568	-39.2745	2.6241E-006	-0.352163	9
	50	102	316.113	255.977	-229.051	1	343.494	-41.8226	2.66035E-006	-0.352159	9
	51	104	281.926	259.388	-253.623	1	362.777	-44.3562	2.58778E-006	-0.35216	9
	52	106	251.185	263.123	-281.245	1	385.139	-46.9066	2.50478E-006	-0.352159	9
	53	108	223.946	267.182	-311.827	1	410.636	-49.4091	2.5569E-006	-0.352159	9
	54	110	199.495	271.657	-346.139	1	440.011	-51.8744	2.60373E-006	-0.352162	9
	55	112	177.836	276.523	-384.161	1	473.334	-54.2532	2.45446E-006	-0.35216	9
	56	114	158.533	282.121	-426.718	1	511.547	-56.5296	2.69916E-006	-0.352159	9
	57	116	141.263	287.915	-473.887	1	554.494	-58.7187	2.62871E-006	-0.352161	9
	58	119	125.911	294.302	-526.473	1	603.148	-60.7945	2.44876E-006	-0.352165	9
	59	121	112.198	301.458	-585.247	1	658.324	-62.7472	2.42245E-006	-0.352166	9
	60	123	100.009	309.706	-650.69	1	720.635	-64.5471	2.46721E-006	-0.352159	9
	61	125	89.1164	318.776	-723.692	1	790.789	-66.2272	2.51003E-006	-0.352161	9
	62	127	79.4083	329.011	-805.175	1	869.801	-67.7741	2.47124E-006	-0.352167	9
	63	129	70.788	340.494	-895.535	1	958.08	-69.1825	2.5411E-006	-0.352158	9
	64	131	63.0971	353.872	-996.27	1	1057.25	-70.4451	2.63732E-006	-0.35216	9
	65	133	54.5476	371.665	-1139.42	1	1198.5	-71.9343	1.69669E-006	-0.352167	8
	66	135	50.0083	383.075	-1234.82	1	1292.88	-72.7647	1.48968E-006	-0.352165	8
	67	137	46.1675	396.667	-1330.3	1	1388.18	-73.3965	1.58275E-006	-0.35217	8
	68	139	40.0059	421.576	-1519.48	1	1576.88	-74.4935	1.49916E-006	-0.352174	8
	69	141	35.3046	443.629	-1707.24	1	1763.93	-75.4337	1.24695E-006	-0.352171	8
	70	144	31.5793	475.159	-1893.55	1	1952.26	-75.9133	1.57902E-006	-0.352162	8
	71	146	28.5748	510.284	-2078.88	1	2140.6	-76.2088	1.68688E-006	-0.352167	8
	72	148	24.9911	550.529	-2355.04	1	2418.53	-76.8425	1.61447E-006	-0.352176	8
	73	150	22.2195	585.219	-2626.2	1	2690.62	-77.4375	1.39003E-006	-0.352163	8
	74	152	20.0011	633.294	-2895.39	1	2963.84	-77.6623	1.46399E-006	-0.352168	8
	75	155	17.6486	708.529	-3255.99	1	3332.19	-77.7234	1.71833E-006	-0.352162	8
	76	157	15.7934	781.001	-3606.5	1	3690.1	-77.7811	1.6977E-006	-0.352168	8
	77	159	14.2828	853.456	-3959.92	1	4050.85	-77.8375	1.51578E-006	-0.352175	8
	78	161	12.5002	934.083	-4475.74	1	4572.17	-78.2116	1.44831E-006	-0.352179	8
	79	164	11.323	1031.89	-4908.8	1	5016.08	-78.1285	1.44679E-006	-0.352168	8
	80	167	9.9987	1165.3	-5501.67	1	5623.72	-78.0411	1.47095E-006	-0.352165	8
