EXPLAIN
TAG	EISPOT
TITLE	LABEL	Tomato_open	Test &Identifier
DATE	LABEL	5/16/2006	Date
TIME	LABEL	13:26:16	Time
NOTES	NOTES	1	&Notes...
	
PSTAT	PSTAT	300	Potentiostat
VDC	POTEN	1.00000E-001	T	DC &Voltage (V)
FREQINIT	QUANT	1.00000E+005	Initial Fre&q. (Hz)
FREQFINAL	QUANT	1.00000E+001	Final Fre&q. (Hz)
PTSPERDEC	QUANT	2.00000E+001	Points/&decade
VAC	QUANT	1.00000E+001	AC &Voltage (mV rms)
AREA	QUANT	1.00000E+000	&Area (cm²)
DENSITY	QUANT	7.87000E+000	&Density (gm/cm³)
EQUIV	QUANT	7.00000E+000	Equiv. &Wt
CONDIT	TWOPARAM	F	1.50000E+001	0.00000E+000	Conditionin&g	Time(s)	E(V)
DELAY	TWOPARAM	F	6.00000E+002	0.00000E+000	Init. De&lay	Time(s)	Stab.(mV/s)
SPEED	SELECTOR	1	&Optimize for:
ZGUESS	QUANT	1.00000E+002	E&stimated Z (ohms)
OCVCURVE	TABLE	39
	Pt	T	Vf	Vm	Ach	Over
	#	s	V vs. Ref.	V	V	bits
	0	0.258332	-4.53319E-001	4.66484E-006	-6.34000E-005	......
	1	0.516663	-4.51820E-001	4.66484E-006	1.36600E-004	......
	2	0.774994	-4.53269E-001	4.66484E-006	-1.63400E-004	......
	3	1.03333	-4.52219E-001	4.66484E-006	3.66000E-005	......
	4	1.29166	-4.49069E-001	4.66484E-006	-6.34000E-005	......
	5	1.54999	-4.46219E-001	4.66484E-006	2.36600E-004	......
	6	1.80832	-4.44369E-001	4.66484E-006	-1.63400E-004	......
	7	2.06665	-4.43119E-001	4.66484E-006	-6.34000E-005	......
	8	2.32498	-4.42469E-001	4.66484E-006	-1.63400E-004	......
	9	2.58332	-4.41919E-001	4.66484E-006	3.66000E-005	......
	10	2.84165	-4.41170E-001	4.66484E-006	-1.63400E-004	......
	11	3.09998	-4.41269E-001	4.66484E-006	3.66000E-005	......
	12	3.35831	-4.41920E-001	4.66484E-006	-6.34000E-005	......
	13	3.61664	-4.44119E-001	4.66484E-006	2.36600E-004	......
	14	3.87497	-4.46969E-001	4.66484E-006	-6.34000E-005	......
	15	4.1333	-4.50419E-001	4.66484E-006	3.66000E-005	......
	16	4.39164	-4.50469E-001	4.66484E-006	-1.63400E-004	......
	17	4.64997	-4.49819E-001	4.66484E-006	1.36600E-004	......
	18	4.9083	-4.49019E-001	4.66484E-006	-1.63400E-004	......
	19	5.16663	-4.49169E-001	4.66484E-006	1.36600E-004	......
	20	5.42496	-4.49069E-001	4.66484E-006	-2.63400E-004	......
	21	5.68329	-4.48720E-001	4.66484E-006	1.36600E-004	......
	22	5.94162	-4.49169E-001	4.66484E-006	-6.34000E-005	......
	23	6.19996	-4.50169E-001	4.66484E-006	1.36600E-004	......
	24	6.45829	-4.51269E-001	4.66484E-006	3.66000E-005	......
	25	6.71662	-4.52670E-001	4.66484E-006	3.66000E-005	......
	26	6.97495	-4.53019E-001	4.66484E-006	-1.63400E-004	......
	27	7.23328	-4.52169E-001	4.66484E-006	2.36600E-004	......
	28	7.49161	-4.51619E-001	4.66484E-006	-2.63400E-004	......
	29	7.74995	-4.50469E-001	4.66484E-006	1.36600E-004	......
	30	8.00828	-4.50419E-001	4.66484E-006	-1.63400E-004	......
	31	8.26661	-4.50920E-001	4.66484E-006	1.36600E-004	......
	32	8.52494	-4.51219E-001	4.66484E-006	-6.34000E-005	......
	33	8.78327	-4.51269E-001	4.66484E-006	-6.34000E-005	......
	34	9.0416	-4.51820E-001	4.66484E-006	-1.63400E-004	......
	35	9.29993	-4.51219E-001	4.66484E-006	3.66000E-005	......
	36	9.5583	-4.48919E-001	4.66484E-006	-6.34000E-005	......
	37	9.8166	-4.47719E-001	4.66484E-006	3.66000E-005	......
	38	10.0749	-4.47319E-001	4.66484E-006	-1.63400E-004	......
EOC	QUANT	-0.447319	Open Circuit (V)
PSTATMODEL	IQUANT	32	Pstat Model
PSTATSECTION	LABEL	PStat0	Pstat Section
CTRLMODE	IQUANT	1	Control Mode
IESTAB	IQUANT	0	I/E Stability
CASPEED	IQUANT	1	Control Amp Speed
CONVENTION	IQUANT	1	Current Convention
ICHRANGE	IQUANT	2	Ich Range
ICHRANGEMODE	TOGGLE	F	Ich Auto Range
ICHOFFSETENABLE	TOGGLE	T	Ich Offset Enable
ICHOFFSET	QUANT	0	Ich Offset (V)
ICHFILTER	IQUANT	3	Ich Filter
VCHRANGE	IQUANT	2	Vch Range
VCHRANGEMODE	TOGGLE	F	Vch Auto Range
VCHOFFSETENABLE	TOGGLE	T	Vch Offset Enable
VCHOFFSET	QUANT	0	Vch Offset (V)
VCHFILTER	IQUANT	3	Vch Filter
ACHRANGE	IQUANT	0	Ach Range
IERANGELOWERLIMIT	IQUANT	3	I/E Range Lower Limit
IERANGEMODE	TOGGLE	F	I/E AutoRange
IERANGE	IQUANT	11	I/E Range
POSFEEDENABLE	TOGGLE	F	Positive Feedback IR Comp
POSFEEDRESISTANCE	QUANT	0	Positive Feedback Resistance (ohm)
FC350IDIVISOR	IQUANT	0	FC350 I Divisor
FC350VRANGE	IQUANT	0	FC350 V Range
FRAMEWORKVERSION	QUANT	4.35	Framework Version
ZCURVE	TABLE
	Pt	Time	Freq	Zreal	Zimag	Zsig	Zmod	Zphz	Idc	Vdc	IERange
	#	s	Hz	ohm	ohm	V	ohm	°	A	V	#
	0	4	100007	222.783	-0.224834	1	222.783	-0.057823	1.91387E-006	-0.347148	9
	1	6	89134.1	221.639	-0.585363	1	221.639	-0.151322	2.05871E-006	-0.347157	9
	2	8	79433.6	220.894	-1.35653	1	220.898	-0.351854	2.16451E-006	-0.347187	9
	3	10	70800.8	220.406	-1.51659	1	220.411	-0.394239	2.40849E-006	-0.347147	9
	4	12	63105.5	220.411	-1.75966	1	220.418	-0.457413	3.15696E-006	-0.347151	9
	5	14	56243.5	220.248	-2.26857	1	220.26	-0.590129	3.85731E-006	-0.34718	9
	6	16	50123.7	219.915	-2.44725	1	219.928	-0.637571	3.99895E-006	-0.347143	9
	7	18	44681	219.758	-3.29904	1	219.782	-0.860071	4.63323E-006	-0.347179	9
	8	20	39811.2	219.897	-3.69248	1	219.928	-0.96201	4.79648E-006	-0.347153	9
	9	22	35488.3	219.736	-4.15938	1	219.775	-1.08442	5.34396E-006	-0.347178	9
	10	24	31634.1	219.826	-5.03075	1	219.884	-1.31099	5.49395E-006	-0.347145	9
	11	26	28173.1	219.7	-5.3376	1	219.764	-1.39173	5.57448E-006	-0.347147	9
	12	28	25123.7	220.034	-5.63309	1	220.106	-1.46651	5.74187E-006	-0.347139	9
	13	30	22389.3	220.251	-6.34982	1	220.343	-1.65138	5.7924E-006	-0.347137	9
	14	32	19954.4	220.229	-7.17501	1	220.346	-1.86602	5.33017E-006	-0.347136	9
	15	34	17778.2	220.527	-7.94629	1	220.671	-2.06365	5.54993E-006	-0.34715	9
	16	35	15852.9	220.498	-8.582	1	220.665	-2.22889	5.33185E-006	-0.347134	9
	17	37	14122.3	221.024	-9.5032	1	221.228	-2.462	5.15359E-006	-0.347146	9
	18	39	12587.2	221.053	-10.6271	1	221.308	-2.75236	4.89137E-006	-0.34715	9
	19	41	11221.1	221.536	-11.8035	1	221.85	-3.04986	4.67285E-006	-0.34715	9
	20	43	9998.2	221.866	-12.5864	1	222.223	-3.2469	4.5622E-006	-0.347157	9
	21	45	8912.76	222.184	-13.5402	1	222.596	-3.48738	4.52959E-006	-0.347152	9
	22	47	7942.6	222.461	-15.0115	1	222.967	-3.86042	4.58553E-006	-0.34714	9
	23	49	7078.05	222.95	-16.7583	1	223.579	-4.29862	4.24102E-006	-0.347148	9
	24	51	6311.1	223.501	-18.3479	1	224.253	-4.69307	4.3362E-006	-0.347136	9
	25	53	5622.14	223.62	-20.1148	1	224.523	-5.13997	4.1946E-006	-0.347152	9
	26	55	5011.18	224.371	-22.3579	1	225.482	-5.69056	4.12232E-006	-0.347149	9
	27	57	4465.21	225.308	-24.9538	1	226.686	-6.31999	3.96788E-006	-0.34715	9
	28	59	3980.93	225.447	-26.9892	1	227.056	-6.82664	3.95098E-006	-0.347173	9
	29	61	3548.18	226.354	-29.9492	1	228.327	-7.53711	3.56817E-006	-0.347132	9
	30	63	3162.67	226.869	-32.7732	1	229.224	-8.22001	3.5497E-006	-0.347149	9
	31	65	2819.01	227.669	-36.0037	1	230.498	-8.98637	3.71362E-006	-0.347175	9
	32	67	2511.16	228.552	-39.5032	1	231.941	-9.8062	3.69518E-006	-0.347142	9
	33	69	2238.63	229.304	-43.716	1	233.434	-10.7937	3.67071E-006	-0.347155	9
	34	71	1995.37	230.611	-48.2972	1	235.615	-11.8286	3.51587E-006	-0.347158	9
	35	73	1778.51	231.812	-52.9989	1	237.793	-12.8781	3.54345E-006	-0.347156	9
	36	75	1584.49	233.108	-58.4566	1	240.326	-14.0778	3.63148E-006	-0.347158	9
	37	77	1412.76	234.765	-64.5843	1	243.487	-15.3817	3.63395E-006	-0.347153	9
	38	79	1259.04	236.011	-70.9412	1	246.442	-16.7299	3.67834E-006	-0.34715	9
	39	81	1121.63	237.852	-78.0494	1	250.331	-18.1669	3.66392E-006	-0.347146	9
	40	83	999.95	239.388	-85.8441	1	254.315	-19.7277	3.48134E-006	-0.347157	9
	41	85	891.184	241.466	-94.3876	1	259.258	-21.3502	3.57046E-006	-0.347136	9
	42	87	794.163	243.49	-103.984	1	264.764	-23.1251	3.2531E-006	-0.347149	9
	43	89	707.867	245.972	-114.854	1	271.466	-25.0297	3.35817E-006	-0.347161	9
	44	91	630.984	248.742	-126.306	1	278.973	-26.9205	3.17434E-006	-0.347141	9
	45	93	562.189	250.522	-139.449	1	286.718	-29.1019	3.15465E-006	-0.347131	9
	46	95	501.303	253.45	-153.509	1	296.314	-31.2025	3.19543E-006	-0.347142	9
	47	97	446.614	256.256	-169.562	1	307.275	-33.4922	3.26738E-006	-0.347151	9
	48	99	398.209	259.272	-187.26	1	319.825	-35.8389	3.24273E-006	-0.347145	9
	49	101	354.821	262.543	-206.985	1	334.322	-38.2517	3.16718E-006	-0.347145	9
	50	103	316.113	266.07	-228.992	1	351.043	-40.7168	3.33787E-006	-0.347146	9
	51	105	281.926	269.915	-253.255	1	370.124	-43.1761	3.51024E-006	-0.347152	9
	52	107	251.185	274.047	-280.479	1	392.135	-45.6645	3.30518E-006	-0.347151	9
	53	109	223.946	278.545	-310.608	1	417.211	-48.1151	3.22957E-006	-0.347151	9
	54	111	199.495	283.508	-344.368	1	446.056	-50.5364	3.28074E-006	-0.347144	9
	55	113	177.836	289.004	-381.719	1	478.783	-52.8702	3.14429E-006	-0.34715	9
	56	115	158.533	295.029	-423.385	1	516.04	-55.13	3.14114E-006	-0.347152	9
	57	117	141.263	301.527	-469.95	1	558.364	-57.3152	3.08352E-006	-0.347155	9
	58	119	125.911	309.376	-521.86	1	606.673	-59.3391	3.29594E-006	-0.347152	9
	59	121	112.198	317.424	-579.463	1	660.708	-61.2865	3.23949E-006	-0.347155	9
	60	123	100.009	326.427	-643.598	1	721.646	-63.1063	2.96633E-006	-0.347151	9
	61	125	89.1164	336.807	-715.115	1	790.461	-64.7804	2.98796E-006	-0.347158	9
	62	127	79.4083	348.822	-794.824	1	867.999	-66.3049	3.06498E-006	-0.347158	9
	63	129	70.788	361.282	-883.025	1	954.07	-67.7485	2.94341E-006	-0.347149	9
	64	131	63.0971	377.039	-981.47	1	1051.4	-68.9855	3.0163E-006	-0.34715	9
	65	133	54.5476	399.552	-1121.28	1	1190.34	-70.3871	2.3893E-006	-0.347149	8
	66	135	50.0083	414.864	-1214.25	1	1283.17	-71.1367	2.51568E-006	-0.347157	8
	67	137	46.1675	429.54	-1307.17	1	1375.93	-71.8093	2.28284E-006	-0.347157	8
	68	140	40.0059	460.293	-1491.29	1	1560.71	-72.8469	2.18301E-006	-0.347148	8
	69	142	35.3046	489.992	-1672.57	1	1742.87	-73.6717	2.10922E-006	-0.347163	8
	70	144	31.5793	523.212	-1852.63	1	1925.09	-74.2294	2.21604E-006	-0.347153	8
	71	146	28.5748	556.906	-2031.61	1	2106.56	-74.6706	2.15343E-006	-0.34715	8
	72	148	24.9911	611.65	-2297.67	1	2377.69	-75.0933	2.21269E-006	-0.347155	8
	73	150	22.2195	665.451	-2559.36	1	2644.45	-75.4254	2.18398E-006	-0.347163	8
	74	153	20.0011	716.169	-2816.91	1	2906.52	-75.7354	2.02831E-006	-0.347158	8
	75	155	17.6486	800.857	-3158.54	1	3258.48	-75.7723	2.18362E-006	-0.347147	8
	76	157	15.7934	898.423	-3491.9	1	3605.63	-75.5715	2.24206E-006	-0.347152	8
	77	159	14.2828	994.19	-3829.35	1	3956.3	-75.446	2.32457E-006	-0.347152	8
	78	162	12.5002	1139.71	-4315.98	1	4463.92	-75.2077	2.27198E-006	-0.347141	8
	79	164	11.323	1298.97	-4725.35	1	4900.63	-74.6294	2.3985E-006	-0.347153	8
	80	167	9.9987	1467.77	-5272.6	1	5473.09	-74.444	2.39263E-006	-0.347148	8
