EXPLAIN
TAG	EISPOT
TITLE	LABEL	Tomato_open	Test &Identifier
DATE	LABEL	5/16/2006	Date
TIME	LABEL	13:31:16	Time
NOTES	NOTES	1	&Notes...
	
PSTAT	PSTAT	300	Potentiostat
VDC	POTEN	1.00000E-001	T	DC &Voltage (V)
FREQINIT	QUANT	1.00000E+005	Initial Fre&q. (Hz)
FREQFINAL	QUANT	1.00000E+001	Final Fre&q. (Hz)
PTSPERDEC	QUANT	2.00000E+001	Points/&decade
VAC	QUANT	1.00000E+001	AC &Voltage (mV rms)
AREA	QUANT	1.00000E+000	&Area (cm²)
DENSITY	QUANT	7.87000E+000	&Density (gm/cm³)
EQUIV	QUANT	7.00000E+000	Equiv. &Wt
CONDIT	TWOPARAM	F	1.50000E+001	0.00000E+000	Conditionin&g	Time(s)	E(V)
DELAY	TWOPARAM	F	6.00000E+002	0.00000E+000	Init. De&lay	Time(s)	Stab.(mV/s)
SPEED	SELECTOR	1	&Optimize for:
ZGUESS	QUANT	1.00000E+002	E&stimated Z (ohms)
OCVCURVE	TABLE	39
	Pt	T	Vf	Vm	Ach	Over
	#	s	V vs. Ref.	V	V	bits
	0	0.258332	-4.60519E-001	4.60734E-006	-1.63400E-004	......
	1	0.516663	-4.58269E-001	4.60734E-006	3.66000E-005	......
	2	0.774994	-4.57019E-001	4.60734E-006	-6.34000E-005	......
	3	1.03333	-4.58869E-001	4.60734E-006	1.36600E-004	......
	4	1.29166	-4.60869E-001	4.60734E-006	-6.34000E-005	......
	5	1.54999	-4.57869E-001	4.60734E-006	3.66000E-005	......
	6	1.80832	-4.54369E-001	4.60734E-006	-1.63400E-004	......
	7	2.06665	-4.51169E-001	4.60734E-006	1.36600E-004	......
	8	2.32498	-4.50469E-001	4.60734E-006	-6.34000E-005	......
	9	2.58332	-4.49219E-001	4.60734E-006	3.66000E-005	......
	10	2.84165	-4.50269E-001	4.60734E-006	-2.63400E-004	......
	11	3.09998	-4.50369E-001	4.60734E-006	3.66000E-005	......
	12	3.35831	-4.50269E-001	4.60734E-006	-6.34000E-005	......
	13	3.61664	-4.49219E-001	4.60734E-006	-6.34000E-005	......
	14	3.87497	-4.46769E-001	4.60734E-006	-1.63400E-004	......
	15	4.1333	-4.44369E-001	4.60734E-006	1.36600E-004	......
	16	4.39164	-4.42669E-001	4.60734E-006	-6.34000E-005	......
	17	4.64997	-4.42769E-001	4.60734E-006	3.66000E-005	......
	18	4.9083	-4.43069E-001	4.60734E-006	-1.63400E-004	......
	19	5.16663	-4.44669E-001	4.60734E-006	3.66000E-005	......
	20	5.42496	-4.47019E-001	4.60734E-006	-1.63400E-004	......
	21	5.68329	-4.49069E-001	4.60734E-006	1.36600E-004	......
	22	5.94162	-4.50469E-001	4.60734E-006	-1.63400E-004	......
	23	6.19996	-4.52670E-001	4.60734E-006	3.66000E-005	......
	24	6.45829	-4.53920E-001	4.60734E-006	-6.34000E-005	......
	25	6.71662	-4.55569E-001	4.60734E-006	-6.34000E-005	......
	26	6.97495	-4.57219E-001	4.60734E-006	-6.34000E-005	......
	27	7.23328	-4.58669E-001	4.60734E-006	2.36600E-004	......
	28	7.49161	-4.60019E-001	4.60734E-006	-2.63400E-004	......
	29	7.74995	-4.61569E-001	4.60734E-006	1.36600E-004	......
	30	8.00828	-4.63419E-001	4.60734E-006	-1.63400E-004	......
	31	8.26661	-4.64669E-001	4.60734E-006	3.66000E-005	......
	32	8.52494	-4.64419E-001	4.60734E-006	-1.63400E-004	......
	33	8.78327	-4.61369E-001	4.60734E-006	2.36600E-004	......
	34	9.0416	-4.59919E-001	4.60734E-006	-1.63400E-004	......
	35	9.29993	-4.58070E-001	4.60734E-006	1.36600E-004	......
	36	9.5583	-4.48669E-001	4.60734E-006	-1.63400E-004	......
	37	9.8166	-4.41269E-001	4.60734E-006	3.66000E-005	......
	38	10.0749	-4.36069E-001	4.60734E-006	-6.34000E-005	......
EOC	QUANT	-0.436069	Open Circuit (V)
PSTATMODEL	IQUANT	32	Pstat Model
PSTATSECTION	LABEL	PStat0	Pstat Section
CTRLMODE	IQUANT	1	Control Mode
IESTAB	IQUANT	0	I/E Stability
CASPEED	IQUANT	1	Control Amp Speed
CONVENTION	IQUANT	1	Current Convention
ICHRANGE	IQUANT	2	Ich Range
ICHRANGEMODE	TOGGLE	F	Ich Auto Range
ICHOFFSETENABLE	TOGGLE	T	Ich Offset Enable
ICHOFFSET	QUANT	0	Ich Offset (V)
ICHFILTER	IQUANT	3	Ich Filter
VCHRANGE	IQUANT	2	Vch Range
VCHRANGEMODE	TOGGLE	F	Vch Auto Range
VCHOFFSETENABLE	TOGGLE	T	Vch Offset Enable
VCHOFFSET	QUANT	0	Vch Offset (V)
VCHFILTER	IQUANT	3	Vch Filter
ACHRANGE	IQUANT	0	Ach Range
IERANGELOWERLIMIT	IQUANT	3	I/E Range Lower Limit
IERANGEMODE	TOGGLE	F	I/E AutoRange
IERANGE	IQUANT	11	I/E Range
POSFEEDENABLE	TOGGLE	F	Positive Feedback IR Comp
POSFEEDRESISTANCE	QUANT	0	Positive Feedback Resistance (ohm)
FC350IDIVISOR	IQUANT	0	FC350 I Divisor
FC350VRANGE	IQUANT	0	FC350 V Range
FRAMEWORKVERSION	QUANT	4.35	Framework Version
ZCURVE	TABLE
	Pt	Time	Freq	Zreal	Zimag	Zsig	Zmod	Zphz	Idc	Vdc	IERange
	#	s	Hz	ohm	ohm	V	ohm	°	A	V	#
	0	4	100007	220.564	-0.404417	1	220.565	-0.105055	2.35576E-006	-0.336019	9
	1	6	89134.1	219.382	-0.439947	1	219.383	-0.1149	2.73548E-006	-0.336021	9
	2	8	79433.6	218.855	-0.97523	1	218.857	-0.255311	3.15878E-006	-0.33602	9
	3	10	70800.8	218.411	-1.79904	1	218.418	-0.471932	3.49813E-006	-0.336045	9
	4	12	63105.5	217.912	-1.67686	1	217.919	-0.440889	3.48006E-006	-0.336004	9
	5	14	56243.5	217.688	-2.0383	1	217.698	-0.536467	3.67221E-006	-0.336008	9
	6	16	50123.7	217.591	-2.73775	1	217.608	-0.720863	3.95088E-006	-0.336047	9
	7	18	44681	217.558	-2.87414	1	217.577	-0.756887	3.9611E-006	-0.336036	9
	8	20	39811.2	217.417	-3.25314	1	217.442	-0.857232	3.91709E-006	-0.336035	9
	9	22	35488.3	217.157	-4.01925	1	217.195	-1.06034	4.28084E-006	-0.336015	9
	10	24	31634.1	217.371	-4.3718	1	217.415	-1.15219	4.43218E-006	-0.335998	9
	11	26	28173.1	217.296	-5.17372	1	217.357	-1.36393	4.45554E-006	-0.336017	9
	12	28	25123.7	217.414	-5.49467	1	217.483	-1.44772	4.40559E-006	-0.336	9
	13	30	22389.3	217.617	-6.37442	1	217.71	-1.67782	4.50445E-006	-0.336015	9
	14	32	19954.4	217.948	-6.77943	1	218.053	-1.78165	4.31874E-006	-0.336032	9
	15	34	17778.2	217.907	-7.59517	1	218.039	-1.99624	4.27221E-006	-0.336008	9
	16	36	15852.9	218.151	-8.37785	1	218.312	-2.1993	4.04123E-006	-0.336037	9
	17	38	14122.3	218.6	-9.49964	1	218.807	-2.48832	3.99267E-006	-0.336004	9
	18	40	12587.2	218.616	-10.2778	1	218.857	-2.69166	3.94848E-006	-0.336013	9
	19	42	11221.1	218.87	-11.1402	1	219.153	-2.91378	3.90684E-006	-0.336008	9
	20	44	9998.2	219.317	-12.5269	1	219.674	-3.26907	3.92034E-006	-0.336007	9
	21	46	8912.76	219.447	-13.9139	1	219.888	-3.62795	3.97809E-006	-0.336001	9
	22	48	7942.6	219.825	-14.5735	1	220.307	-3.79292	3.77021E-006	-0.336005	9
	23	50	7078.05	220.266	-16.4011	1	220.876	-4.25841	3.78849E-006	-0.336013	9
	24	52	6311.1	220.639	-17.735	1	221.35	-4.59557	3.42837E-006	-0.335999	9
	25	54	5622.14	221.139	-19.7553	1	222.02	-5.10493	3.49854E-006	-0.335989	9
	26	56	5011.18	221.521	-22.003	1	222.611	-5.67241	3.6126E-006	-0.335992	9
	27	58	4465.21	222.107	-23.8178	1	223.38	-6.12075	3.7034E-006	-0.335988	9
	28	60	3980.93	222.491	-26.4693	1	224.06	-6.78449	4.0846E-006	-0.336015	9
	29	61	3548.18	223.26	-29.0304	1	225.139	-7.40858	3.88388E-006	-0.335989	9
	30	63	3162.67	224.065	-32.0874	1	226.351	-8.14967	3.6592E-006	-0.336022	9
	31	65	2819.01	224.663	-35.1699	1	227.399	-8.89716	3.58151E-006	-0.335989	9
	32	67	2511.16	225.66	-38.9064	1	228.99	-9.7823	3.30218E-006	-0.336	9
	33	69	2238.63	226.284	-43.0611	1	230.345	-10.7744	3.26138E-006	-0.335998	9
	34	71	1995.37	227.597	-47.1698	1	232.433	-11.7089	3.14665E-006	-0.335995	9
	35	73	1778.51	229.126	-52.0354	1	234.96	-12.7951	3.18026E-006	-0.335994	9
	36	75	1584.49	229.756	-57.2192	1	236.774	-13.9846	3.27865E-006	-0.335995	9
	37	77	1412.76	231.099	-63.1072	1	239.56	-15.2736	3.5699E-006	-0.336024	9
	38	79	1259.04	232.3	-69.6847	1	242.527	-16.698	3.38762E-006	-0.335997	9
	39	81	1121.63	234.168	-76.7757	1	246.433	-18.1526	3.17148E-006	-0.335995	9
	40	83	999.95	235.669	-84.4146	1	250.331	-19.7071	3.27781E-006	-0.336004	9
	41	85	891.184	237.823	-93.1727	1	255.423	-21.3939	3.25482E-006	-0.336001	9
	42	87	794.163	239.174	-103.236	1	260.503	-23.3468	3.37495E-006	-0.335997	9
	43	89	707.867	241.883	-113.719	1	267.282	-25.1801	3.13149E-006	-0.335985	9
	44	91	630.984	243.93	-125.639	1	274.384	-27.2512	3.1339E-006	-0.336002	9
	45	93	562.189	245.813	-138.058	1	281.929	-29.3203	2.9586E-006	-0.336015	9
	46	95	501.303	248.42	-152.716	1	291.607	-31.5811	2.91387E-006	-0.335993	9
	47	97	446.614	251.006	-168.879	1	302.53	-33.9329	2.86457E-006	-0.335997	9
	48	99	398.209	253.808	-186.741	1	315.104	-36.344	3.05304E-006	-0.336002	9
	49	101	354.821	256.865	-206.672	1	329.686	-38.82	3.12723E-006	-0.335998	9
	50	103	316.113	260.152	-228.871	1	346.498	-41.34	3.17299E-006	-0.335995	9
	51	105	281.926	263.712	-253.358	1	365.697	-43.8528	3.28942E-006	-0.336002	9
	52	107	251.185	267.556	-280.794	1	387.855	-46.383	3.02215E-006	-0.336	9
	53	109	223.946	271.673	-311.241	1	413.131	-48.8833	2.90354E-006	-0.335995	9
	54	111	199.495	276.243	-345.353	1	442.243	-51.3441	2.7806E-006	-0.335996	9
	55	113	177.836	281.281	-383.154	1	475.317	-53.7169	2.90095E-006	-0.335997	9
	56	115	158.533	286.875	-425.288	1	512.998	-55.9986	2.87932E-006	-0.335995	9
	57	117	141.263	292.916	-472.402	1	555.844	-58.1987	2.87243E-006	-0.336001	9
	58	119	125.911	299.959	-524.759	1	604.44	-60.2471	3.00867E-006	-0.335995	9
	59	121	112.198	307.374	-583.188	1	659.232	-62.2082	2.93344E-006	-0.335996	9
	60	123	100.009	316.101	-648.082	1	721.062	-63.9993	3.00969E-006	-0.335995	9
	61	125	89.1164	325.304	-720.453	1	790.49	-65.6996	2.8619E-006	-0.33599	9
	62	127	79.4083	336.843	-801.59	1	869.489	-67.2069	3.15955E-006	-0.335994	9
	63	129	70.788	348.804	-891.021	1	956.86	-68.6214	3.01147E-006	-0.335992	9
	64	131	63.0971	362.264	-990.8	1	1054.95	-69.9163	2.90821E-006	-0.336002	9
	65	133	54.5476	382.025	-1132.93	1	1195.61	-71.3658	2.24156E-006	-0.335999	8
	66	136	50.0083	396.012	-1227.85	1	1290.13	-72.1243	2.24914E-006	-0.336006	8
	67	138	46.1675	410.494	-1322.48	1	1384.73	-72.7559	2.31647E-006	-0.336009	8
	68	140	40.0059	438.359	-1509.55	1	1571.91	-73.8072	2.25581E-006	-0.33601	8
	69	142	35.3046	470.072	-1694.48	1	1758.48	-74.4953	2.32211E-006	-0.336002	8
	70	144	31.5793	506.228	-1880.62	1	1947.56	-74.9342	2.45868E-006	-0.336002	8
	71	146	28.5748	534.441	-2062.66	1	2130.78	-75.474	2.33708E-006	-0.336002	8
	72	148	24.9911	576.868	-2335.58	1	2405.76	-76.1261	2.09123E-006	-0.335995	8
	73	151	22.2195	624.324	-2601.67	1	2675.53	-76.5059	2.0575E-006	-0.336011	8
	74	153	20.0011	672.076	-2867.14	1	2944.86	-76.8077	1.98653E-006	-0.335995	8
	75	156	17.6486	755.362	-3221.06	1	3308.44	-76.8022	2.05191E-006	-0.335993	8
	76	158	15.7934	836.743	-3567.94	1	3664.75	-76.8017	2.16707E-006	-0.335994	8
	77	160	14.2828	891.658	-3908.68	1	4009.09	-77.1494	1.94881E-006	-0.335997	8
	78	162	12.5002	1024.83	-4413.38	1	4530.81	-76.927	2.01978E-006	-0.335999	8
	79	165	11.323	1140.3	-4832.74	1	4965.45	-76.7238	1.91522E-006	-0.336003	8
	80	167	9.9987	1325.5	-5414.57	1	5574.45	-76.2444	1.9933E-006	-0.336007	8
