EXPLAIN
TAG	EISPOT
TITLE	LABEL	Tomato_open	Test &Identifier
DATE	LABEL	5/14/2006	Date
TIME	LABEL	12:33:00	Time
NOTES	NOTES	1	&Notes...
	
PSTAT	PSTAT	300	Potentiostat
VDC	POTEN	1.00000E-001	T	DC &Voltage (V)
FREQINIT	QUANT	1.00000E+005	Initial Fre&q. (Hz)
FREQFINAL	QUANT	1.00000E+001	Final Fre&q. (Hz)
PTSPERDEC	QUANT	2.00000E+001	Points/&decade
VAC	QUANT	1.00000E+001	AC &Voltage (mV rms)
AREA	QUANT	1.00000E+000	&Area (cm²)
DENSITY	QUANT	7.87000E+000	&Density (gm/cm³)
EQUIV	QUANT	7.00000E+000	Equiv. &Wt
CONDIT	TWOPARAM	F	1.50000E+001	0.00000E+000	Conditionin&g	Time(s)	E(V)
DELAY	TWOPARAM	F	6.00000E+002	0.00000E+000	Init. De&lay	Time(s)	Stab.(mV/s)
SPEED	SELECTOR	1	&Optimize for:
ZGUESS	QUANT	1.00000E+002	E&stimated Z (ohms)
OCVCURVE	TABLE	39
	Pt	T	Vf	Vm	Ach	Over
	#	s	V vs. Ref.	V	V	bits
	0	0.258332	-4.49119E-001	3.57876E-006	3.66000E-005	......
	1	0.516663	-4.50419E-001	3.57876E-006	2.36600E-004	......
	2	0.774994	-4.49169E-001	3.57876E-006	1.36600E-004	......
	3	1.03333	-4.48269E-001	3.57876E-006	2.36600E-004	......
	4	1.29166	-4.48569E-001	3.57876E-006	2.36600E-004	......
	5	1.54999	-4.47169E-001	3.57876E-006	3.36600E-004	......
	6	1.80832	-4.47120E-001	3.57876E-006	1.36600E-004	......
	7	2.06665	-4.50720E-001	3.57876E-006	1.36600E-004	......
	8	2.32498	-4.54669E-001	3.57876E-006	2.36600E-004	......
	9	2.58332	-4.57069E-001	3.57876E-006	4.36600E-004	......
	10	2.84165	-4.58169E-001	3.57876E-006	3.36600E-004	......
	11	3.09998	-4.57119E-001	3.57876E-006	2.36600E-004	......
	12	3.35831	-4.53920E-001	3.57876E-006	3.36600E-004	......
	13	3.61664	-4.51169E-001	3.57876E-006	3.36600E-004	......
	14	3.87497	-4.49019E-001	3.57876E-006	1.36600E-004	......
	15	4.1333	-4.46769E-001	3.57876E-006	2.36600E-004	......
	16	4.39164	-4.45869E-001	3.57876E-006	2.36600E-004	......
	17	4.64997	-4.43669E-001	3.57876E-006	3.36600E-004	......
	18	4.9083	-4.42569E-001	3.57876E-006	2.36600E-004	......
	19	5.16663	-4.41569E-001	3.57876E-006	3.36600E-004	......
	20	5.42496	-4.41469E-001	3.57876E-006	2.36600E-004	......
	21	5.68329	-4.42669E-001	3.57876E-006	3.36600E-004	......
	22	5.94162	-4.43870E-001	3.57876E-006	3.66000E-005	......
	23	6.19996	-4.42769E-001	3.57876E-006	2.36600E-004	......
	24	6.45829	-4.42369E-001	3.57876E-006	2.36600E-004	......
	25	6.71662	-4.42070E-001	3.57876E-006	2.36600E-004	......
	26	6.97495	-4.41919E-001	3.57876E-006	2.36600E-004	......
	27	7.23328	-4.41619E-001	3.57876E-006	4.36600E-004	......
	28	7.49161	-4.47269E-001	3.57876E-006	2.36600E-004	......
	29	7.74995	-4.50870E-001	3.57876E-006	3.36600E-004	......
	30	8.00828	-4.49669E-001	3.57876E-006	2.36600E-004	......
	31	8.26661	-4.48819E-001	3.57876E-006	3.36600E-004	......
	32	8.52494	-4.48869E-001	3.57876E-006	2.36600E-004	......
	33	8.78327	-4.48669E-001	3.57876E-006	2.36600E-004	......
	34	9.0416	-4.49769E-001	3.57876E-006	3.36600E-004	......
	35	9.29993	-4.49619E-001	3.57876E-006	2.36600E-004	......
	36	9.5583	-4.50219E-001	3.57876E-006	2.36600E-004	......
	37	9.8166	-4.52119E-001	3.57876E-006	3.36600E-004	......
	38	10.0749	-4.53519E-001	3.57876E-006	3.66000E-005	......
EOC	QUANT	-0.453519	Open Circuit (V)
PSTATMODEL	IQUANT	32	Pstat Model
PSTATSECTION	LABEL	PStat0	Pstat Section
CTRLMODE	IQUANT	1	Control Mode
IESTAB	IQUANT	0	I/E Stability
CASPEED	IQUANT	1	Control Amp Speed
CONVENTION	IQUANT	1	Current Convention
ICHRANGE	IQUANT	2	Ich Range
ICHRANGEMODE	TOGGLE	F	Ich Auto Range
ICHOFFSETENABLE	TOGGLE	T	Ich Offset Enable
ICHOFFSET	QUANT	0	Ich Offset (V)
ICHFILTER	IQUANT	3	Ich Filter
VCHRANGE	IQUANT	2	Vch Range
VCHRANGEMODE	TOGGLE	F	Vch Auto Range
VCHOFFSETENABLE	TOGGLE	T	Vch Offset Enable
VCHOFFSET	QUANT	0	Vch Offset (V)
VCHFILTER	IQUANT	3	Vch Filter
ACHRANGE	IQUANT	0	Ach Range
IERANGELOWERLIMIT	IQUANT	3	I/E Range Lower Limit
IERANGEMODE	TOGGLE	F	I/E AutoRange
IERANGE	IQUANT	11	I/E Range
POSFEEDENABLE	TOGGLE	F	Positive Feedback IR Comp
POSFEEDRESISTANCE	QUANT	0	Positive Feedback Resistance (ohm)
FC350IDIVISOR	IQUANT	0	FC350 I Divisor
FC350VRANGE	IQUANT	0	FC350 V Range
FRAMEWORKVERSION	QUANT	4.35	Framework Version
ZCURVE	TABLE
	Pt	Time	Freq	Zreal	Zimag	Zsig	Zmod	Zphz	Idc	Vdc	IERange
	#	s	Hz	ohm	ohm	V	ohm	°	A	V	#
	0	4	100007	252.873	-1.40738	1	252.877	-0.31888	3.58265E-006	-0.353334	9
	1	6	89134.1	252.029	-1.54073	1	252.033	-0.350263	4.20845E-006	-0.353366	9
	2	8	79433.6	251.587	-2.27514	1	251.598	-0.518119	4.15873E-006	-0.35338	9
	3	10	70800.8	250.935	-2.73733	1	250.95	-0.624989	5.50781E-006	-0.353341	9
	4	12	63105.5	250.402	-2.98525	1	250.42	-0.683038	5.91359E-006	-0.353378	9
	5	14	56243.5	250.56	-3.54172	1	250.585	-0.809834	5.46576E-006	-0.353381	9
	6	16	50123.7	250.309	-3.95315	1	250.34	-0.9048	4.53563E-006	-0.353388	9
	7	18	44681	250.749	-4.36922	1	250.787	-0.99826	4.4711E-006	-0.353373	9
	8	20	39811.2	250.548	-5.41524	1	250.606	-1.23817	3.99793E-006	-0.353354	9
	9	22	35488.3	250.557	-5.85712	1	250.626	-1.33912	3.85574E-006	-0.35338	9
	10	24	31634.1	250.706	-6.72304	1	250.797	-1.5361	3.22713E-006	-0.353356	9
	11	26	28173.1	250.757	-7.52567	1	250.87	-1.71903	3.45092E-006	-0.353366	9
	12	28	25123.7	250.906	-8.14441	1	251.038	-1.85917	3.37495E-006	-0.353377	9
	13	30	22389.3	251.291	-8.88191	1	251.448	-2.02428	2.87081E-006	-0.353353	9
	14	32	19954.4	251.873	-9.7127	1	252.06	-2.20834	2.30999E-006	-0.353367	9
	15	34	17778.2	252.076	-10.7277	1	252.304	-2.43689	2.40695E-006	-0.353373	9
	16	36	15852.9	252.261	-11.7086	1	252.532	-2.65746	2.23603E-006	-0.353372	9
	17	38	14122.3	252.699	-12.8658	1	253.026	-2.91461	2.20779E-006	-0.353371	9
	18	40	12587.2	253.669	-14.2021	1	254.067	-3.20446	2.6354E-006	-0.353368	9
	19	42	11221.1	254.056	-15.8173	1	254.548	-3.56257	2.97838E-006	-0.353367	9
	20	44	9998.2	254.232	-16.7841	1	254.785	-3.77712	3.13678E-006	-0.353369	9
	21	46	8912.76	254.952	-18.6366	1	255.632	-4.1808	2.73684E-006	-0.353399	9
	22	48	7942.6	255.826	-20.4625	1	256.643	-4.57314	2.74823E-006	-0.353373	9
	23	50	7078.05	255.896	-22.3824	1	256.873	-4.99876	2.75634E-006	-0.353369	9
	24	52	6311.1	256.438	-24.593	1	257.615	-5.47805	3.00827E-006	-0.353373	9
	25	54	5622.14	257.732	-26.5726	1	259.098	-5.88649	3.21731E-006	-0.353373	9
	26	56	5011.18	258.082	-29.1273	1	259.72	-6.4392	3.33985E-006	-0.353373	9
	27	58	4465.21	258.976	-32.4294	1	260.998	-7.13753	3.74524E-006	-0.353374	9
	28	60	3980.93	260.02	-35.4965	1	262.432	-7.77364	3.40443E-006	-0.353381	9
	29	62	3548.18	260.631	-38.7565	1	263.497	-8.45805	3.86929E-006	-0.353351	9
	30	64	3162.67	262.292	-42.7532	1	265.753	-9.25772	3.56859E-006	-0.353366	9
	31	67	2819.01	263.106	-47.0871	1	267.286	-10.1466	3.54942E-006	-0.35335	9
	32	69	2511.16	264.634	-51.4945	1	269.598	-11.0114	3.20724E-006	-0.353359	9
	33	71	2238.63	265.612	-56.5136	1	271.557	-12.0116	3.16181E-006	-0.353366	9
	34	73	1995.37	267.472	-61.8905	1	274.539	-13.0284	3.11745E-006	-0.353359	9
	35	75	1778.51	269.569	-68.2277	1	278.069	-14.2033	3.02078E-006	-0.353365	9
	36	77	1584.49	271.585	-74.3269	1	281.572	-15.3058	3.05481E-006	-0.353364	9
	37	79	1412.76	272.487	-81.9757	1	284.55	-16.7436	3.17754E-006	-0.353378	9
	38	81	1259.04	275.071	-89.7911	1	289.355	-18.0782	3.05565E-006	-0.353359	9
	39	83	1121.63	276.834	-98.866	1	293.958	-19.6531	2.91248E-006	-0.353372	9
	40	85	999.95	278.944	-109.33	1	299.604	-21.4023	2.74706E-006	-0.35337	9
	41	87	891.184	280.787	-119.777	1	305.267	-23.102	2.78376E-006	-0.353361	9
	42	89	794.163	283.995	-132.657	1	313.45	-25.0378	2.41749E-006	-0.353369	9
	43	91	707.867	286.478	-145.681	1	321.391	-26.9545	2.38263E-006	-0.353351	9
	44	93	630.984	289.328	-160.231	1	330.733	-28.9779	2.56828E-006	-0.353376	9
	45	95	562.189	292.852	-177.134	1	342.255	-31.1679	2.35137E-006	-0.353373	9
	46	97	501.303	296.001	-195.763	1	354.88	-33.4791	2.31334E-006	-0.353373	9
	47	99	446.614	299.661	-216.432	1	369.648	-35.8389	2.40006E-006	-0.353375	9
	48	101	398.209	303.595	-239.228	1	386.522	-38.2375	2.40498E-006	-0.353385	9
	49	103	354.821	307.992	-264.637	1	406.069	-40.6702	2.27754E-006	-0.353376	9
	50	105	316.113	312.857	-292.937	1	428.593	-43.1166	2.42831E-006	-0.353377	9
	51	107	281.926	318.146	-324.091	1	454.15	-45.5304	2.48973E-006	-0.353377	9
	52	109	251.185	324.13	-358.92	1	483.615	-47.9158	2.6819E-006	-0.353374	9
	53	111	223.946	330.888	-397.456	1	517.164	-50.2221	2.99981E-006	-0.35338	9
	54	113	199.495	338.328	-440.454	1	555.397	-52.4709	3.18565E-006	-0.353376	9
	55	115	177.836	346.33	-488.006	1	598.409	-54.6373	2.94908E-006	-0.353378	9
	56	117	158.533	355.506	-540.728	1	647.126	-56.6767	3.37553E-006	-0.353378	9
	57	119	141.263	365.472	-599.445	1	702.071	-58.63	2.88641E-006	-0.353379	9
	58	121	125.911	376.653	-664.607	1	763.917	-60.4584	2.94243E-006	-0.353378	9
	59	124	112.198	390.023	-737.065	1	833.896	-62.1141	3.08944E-006	-0.353373	9
	60	126	100.009	406.409	-816.895	1	912.407	-63.5494	4.00578E-006	-0.353374	9
	61	128	89.1164	422.008	-906.078	1	999.53	-65.0261	3.59651E-006	-0.353382	9
	62	130	79.4083	439.922	-1005.05	1	1097.11	-66.3604	3.59278E-006	-0.353381	9
	63	132	70.788	458.362	-1113.84	1	1204.47	-67.6321	2.61558E-006	-0.353375	8
	64	134	63.0971	481.759	-1235.48	1	1326.09	-68.6974	2.49789E-006	-0.353374	8
	65	136	54.5476	514.225	-1408.52	1	1499.45	-69.9438	2.37675E-006	-0.353372	8
	66	138	50.0083	540.322	-1520.34	1	1613.5	-70.435	2.65756E-006	-0.353375	8
	67	140	46.1675	556.671	-1636.12	1	1728.23	-71.2098	2.01224E-006	-0.353378	8
	68	143	40.0059	597.303	-1863.72	1	1957.1	-72.2299	1.77381E-006	-0.353375	8
	69	145	35.3046	644.7	-2086.16	1	2183.51	-72.8269	1.89542E-006	-0.353379	8
	70	147	31.5793	693.555	-2305.45	1	2407.51	-73.257	1.86662E-006	-0.353376	8
	71	149	28.5748	735.582	-2523.39	1	2628.41	-73.7483	1.54679E-006	-0.353378	8
	72	151	24.9911	794.011	-2847.51	1	2956.14	-74.4192	1.40003E-006	-0.353378	8
	73	153	22.2195	869.442	-3164.95	1	3282.2	-74.6392	1.40084E-006	-0.35338	8
	74	156	20.0011	938.481	-3480.27	1	3604.59	-74.9087	1.37412E-006	-0.353382	8
	75	158	17.6486	1065	-3871.46	1	4015.28	-74.6189	1.83306E-006	-0.35338	8
	76	160	15.7934	1145.99	-4277.16	1	4428.02	-75.0009	1.48894E-006	-0.353377	8
	77	163	14.2828	1238.45	-4672.63	1	4833.96	-75.1555	1.52527E-006	-0.353377	8
	78	165	12.5002	1414.14	-5284.51	1	5470.46	-75.0187	1.64824E-006	-0.353372	8
	79	169	11.323	1641.75	-5725.64	1	5956.37	-74.0005	1.83379E-006	-0.353376	8
	80	172	9.9987	1836.57	-6450.69	1	6707.04	-74.1079	1.88067E-006	-0.353366	8
