EXPLAIN
TAG	EISPOT
TITLE	LABEL	Tomato_open	Test &Identifier
DATE	LABEL	5/14/2006	Date
TIME	LABEL	12:52:57	Time
NOTES	NOTES	1	&Notes...
	
PSTAT	PSTAT	300	Potentiostat
VDC	POTEN	1.00000E-001	T	DC &Voltage (V)
FREQINIT	QUANT	1.00000E+005	Initial Fre&q. (Hz)
FREQFINAL	QUANT	1.00000E+001	Final Fre&q. (Hz)
PTSPERDEC	QUANT	2.00000E+001	Points/&decade
VAC	QUANT	1.00000E+001	AC &Voltage (mV rms)
AREA	QUANT	1.00000E+000	&Area (cm²)
DENSITY	QUANT	7.87000E+000	&Density (gm/cm³)
EQUIV	QUANT	7.00000E+000	Equiv. &Wt
CONDIT	TWOPARAM	F	1.50000E+001	0.00000E+000	Conditionin&g	Time(s)	E(V)
DELAY	TWOPARAM	F	6.00000E+002	0.00000E+000	Init. De&lay	Time(s)	Stab.(mV/s)
SPEED	SELECTOR	1	&Optimize for:
ZGUESS	QUANT	1.00000E+002	E&stimated Z (ohms)
OCVCURVE	TABLE	39
	Pt	T	Vf	Vm	Ach	Over
	#	s	V vs. Ref.	V	V	bits
	0	0.258332	-4.79469E-001	3.38124E-006	-1.63400E-004	......
	1	0.516663	-4.78419E-001	3.38124E-006	-1.63400E-004	......
	2	0.774994	-4.78519E-001	3.38124E-006	-1.63400E-004	......
	3	1.03333	-4.78569E-001	3.38124E-006	-1.63400E-004	......
	4	1.29166	-4.77219E-001	3.38124E-006	-2.63400E-004	......
	5	1.54999	-4.76469E-001	3.38124E-006	-2.63400E-004	......
	6	1.80832	-4.75819E-001	3.38124E-006	-1.63400E-004	......
	7	2.06665	-4.77270E-001	3.38124E-006	3.66000E-005	......
	8	2.32498	-4.80419E-001	3.38124E-006	-2.63400E-004	......
	9	2.58332	-4.81319E-001	3.38124E-006	-1.63400E-004	......
	10	2.84165	-4.78369E-001	3.38124E-006	-1.63400E-004	......
	11	3.09998	-4.76619E-001	3.38124E-006	-6.34000E-005	......
	12	3.35831	-4.72569E-001	3.38124E-006	-2.63400E-004	......
	13	3.61664	-4.73469E-001	3.38124E-006	-6.34000E-005	......
	14	3.87497	-4.78019E-001	3.38124E-006	-6.34000E-005	......
	15	4.1333	-4.78020E-001	3.38124E-006	-6.34000E-005	......
	16	4.39164	-4.78269E-001	3.38124E-006	-1.63400E-004	......
	17	4.64997	-4.79319E-001	3.38124E-006	-1.63400E-004	......
	18	4.9083	-4.79419E-001	3.38124E-006	-2.63400E-004	......
	19	5.16663	-4.80569E-001	3.38124E-006	3.66000E-005	......
	20	5.42496	-4.80219E-001	3.38124E-006	-1.63400E-004	......
	21	5.68329	-4.79569E-001	3.38124E-006	-2.63400E-004	......
	22	5.94162	-4.81519E-001	3.38124E-006	-3.63400E-004	......
	23	6.19996	-4.82670E-001	3.38124E-006	-1.63400E-004	......
	24	6.45829	-4.82269E-001	3.38124E-006	-6.34000E-005	......
	25	6.71662	-4.83569E-001	3.38124E-006	-1.63400E-004	......
	26	6.97495	-4.84419E-001	3.38124E-006	-1.63400E-004	......
	27	7.23328	-4.81469E-001	3.38124E-006	3.66000E-005	......
	28	7.49161	-4.79169E-001	3.38124E-006	-6.34000E-005	......
	29	7.74995	-4.79369E-001	3.38124E-006	-1.63400E-004	......
	30	8.00828	-4.78119E-001	3.38124E-006	-1.63400E-004	......
	31	8.26661	-4.75969E-001	3.38124E-006	-1.63400E-004	......
	32	8.52494	-4.73619E-001	3.38124E-006	-1.63400E-004	......
	33	8.78327	-4.77169E-001	3.38124E-006	-1.63400E-004	......
	34	9.0416	-4.82319E-001	3.38124E-006	-1.63400E-004	......
	35	9.29993	-4.85069E-001	3.38124E-006	-2.63400E-004	......
	36	9.5583	-4.85669E-001	3.38124E-006	-1.63400E-004	......
	37	9.8166	-4.82119E-001	3.38124E-006	-1.63400E-004	......
	38	10.0749	-4.76319E-001	3.38124E-006	-2.63400E-004	......
EOC	QUANT	-0.476319	Open Circuit (V)
PSTATMODEL	IQUANT	32	Pstat Model
PSTATSECTION	LABEL	PStat0	Pstat Section
CTRLMODE	IQUANT	1	Control Mode
IESTAB	IQUANT	0	I/E Stability
CASPEED	IQUANT	1	Control Amp Speed
CONVENTION	IQUANT	1	Current Convention
ICHRANGE	IQUANT	2	Ich Range
ICHRANGEMODE	TOGGLE	F	Ich Auto Range
ICHOFFSETENABLE	TOGGLE	T	Ich Offset Enable
ICHOFFSET	QUANT	0	Ich Offset (V)
ICHFILTER	IQUANT	3	Ich Filter
VCHRANGE	IQUANT	2	Vch Range
VCHRANGEMODE	TOGGLE	F	Vch Auto Range
VCHOFFSETENABLE	TOGGLE	T	Vch Offset Enable
VCHOFFSET	QUANT	0	Vch Offset (V)
VCHFILTER	IQUANT	3	Vch Filter
ACHRANGE	IQUANT	0	Ach Range
IERANGELOWERLIMIT	IQUANT	3	I/E Range Lower Limit
IERANGEMODE	TOGGLE	F	I/E AutoRange
IERANGE	IQUANT	11	I/E Range
POSFEEDENABLE	TOGGLE	F	Positive Feedback IR Comp
POSFEEDRESISTANCE	QUANT	0	Positive Feedback Resistance (ohm)
FC350IDIVISOR	IQUANT	0	FC350 I Divisor
FC350VRANGE	IQUANT	0	FC350 V Range
FRAMEWORKVERSION	QUANT	4.35	Framework Version
ZCURVE	TABLE
	Pt	Time	Freq	Zreal	Zimag	Zsig	Zmod	Zphz	Idc	Vdc	IERange
	#	s	Hz	ohm	ohm	V	ohm	°	A	V	#
	0	5	100007	252.517	0.0155	1	252.517	0.003517	2.09545E-006	-0.376504	9
	1	7	89134.1	251.894	-0.905937	1	251.896	-0.206063	1.98884E-006	-0.376489	9
	2	9	79433.6	251.342	-1.55374	1	251.346	-0.354186	2.06799E-006	-0.376477	9
	3	11	70800.8	250.943	-1.9596	1	250.951	-0.44741	2.08732E-006	-0.37647	9
	4	13	63105.5	250.465	-2.78535	1	250.481	-0.637144	2.16123E-006	-0.37648	9
	5	15	56243.5	250.839	-2.61487	1	250.852	-0.597259	2.14826E-006	-0.376474	9
	6	17	50123.7	250.315	-3.65473	1	250.342	-0.83649	2.42557E-006	-0.376481	9
	7	19	44681	250.096	-4.3853	1	250.134	-1.00455	2.46881E-006	-0.376454	9
	8	21	39811.2	249.936	-4.57944	1	249.978	-1.04968	2.54093E-006	-0.37645	9
	9	23	35488.3	250.21	-5.36121	1	250.268	-1.22748	2.33159E-006	-0.376477	9
	10	25	31634.1	250.108	-5.72681	1	250.173	-1.31169	2.34587E-006	-0.376457	9
	11	26	28173.1	250.063	-6.78111	1	250.155	-1.55335	2.42946E-006	-0.376471	9
	12	28	25123.7	250.428	-7.31006	1	250.535	-1.672	2.58031E-006	-0.37648	9
	13	30	22389.3	250.787	-8.29829	1	250.924	-1.89517	2.64396E-006	-0.376492	9
	14	32	19954.4	251.362	-9.13789	1	251.528	-2.08199	2.49935E-006	-0.376454	9
	15	34	17778.2	251.413	-10.144	1	251.618	-2.31051	2.53176E-006	-0.37647	9
	16	36	15852.9	251.414	-10.4778	1	251.632	-2.38645	2.59612E-006	-0.376489	9
	17	38	14122.3	251.617	-12.2877	1	251.916	-2.79582	2.41931E-006	-0.376466	9
	18	40	12587.2	252.386	-13.2395	1	252.733	-3.00284	2.51692E-006	-0.376475	9
	19	42	11221.1	252.453	-14.2575	1	252.855	-3.23239	2.67779E-006	-0.376477	9
	20	44	9998.2	253.09	-15.8787	1	253.588	-3.58999	2.69634E-006	-0.376474	9
	21	46	8912.76	253.352	-17.2276	1	253.937	-3.89005	2.71495E-006	-0.376483	9
	22	48	7942.6	253.669	-19.0399	1	254.383	-4.29246	2.73199E-006	-0.376475	9
	23	50	7078.05	254.847	-20.8158	1	255.695	-4.66953	2.55623E-006	-0.376475	9
	24	52	6311.1	254.753	-23.1448	1	255.803	-5.19117	2.57612E-006	-0.37648	9
	25	54	5622.14	255.738	-24.844	1	256.942	-5.54864	2.54506E-006	-0.376469	9
	26	56	5011.18	256.293	-27.6648	1	257.782	-6.16078	2.60629E-006	-0.376481	9
	27	58	4465.21	256.436	-30.5156	1	258.245	-6.78622	2.63045E-006	-0.37647	9
	28	60	3980.93	257.37	-33.4711	1	259.537	-7.40978	2.63812E-006	-0.376496	9
	29	62	3548.18	258.561	-36.5061	1	261.126	-8.03644	2.25892E-006	-0.376479	9
	30	64	3162.67	259.423	-40.0746	1	262.5	-8.78141	2.60806E-006	-0.376489	9
	31	66	2819.01	260.213	-44.3409	1	263.964	-9.6705	2.56179E-006	-0.37648	9
	32	68	2511.16	261.74	-48.6584	1	266.224	-10.5313	2.5149E-006	-0.376476	9
	33	70	2238.63	262.687	-53.4713	1	268.074	-11.5056	2.53759E-006	-0.37647	9
	34	72	1995.37	263.401	-58.9763	1	269.922	-12.6206	2.42924E-006	-0.376472	9
	35	74	1778.51	264.918	-64.8494	1	272.74	-13.755	2.4546E-006	-0.376469	9
	36	76	1584.49	266.415	-71.2479	1	275.778	-14.9723	2.49779E-006	-0.376469	9
	37	78	1412.76	267.973	-78.6715	1	279.282	-16.3612	2.47456E-006	-0.376485	9
	38	80	1259.04	269.54	-87.2915	1	283.323	-17.9447	2.44742E-006	-0.376465	9
	39	82	1121.63	271.084	-96.114	1	287.619	-19.5222	2.63412E-006	-0.37647	9
	40	84	999.95	272.548	-106.133	1	292.483	-21.2764	2.44301E-006	-0.376475	9
	41	86	891.184	274.924	-116.943	1	298.762	-23.0431	2.4984E-006	-0.376467	9
	42	88	794.163	276.9	-129.523	1	305.696	-25.0684	2.3792E-006	-0.376464	9
	43	90	707.867	278.722	-143.297	1	313.4	-27.2087	2.3187E-006	-0.37647	9
	44	92	630.984	281.953	-158.589	1	323.493	-29.3562	2.41585E-006	-0.376458	9
	45	94	562.189	284.297	-175.389	1	334.045	-31.6713	2.55379E-006	-0.376441	9
	46	96	501.303	287.22	-194.068	1	346.638	-34.0461	2.47867E-006	-0.376459	9
	47	98	446.614	290.326	-215.087	1	361.32	-36.5328	2.55857E-006	-0.37646	9
	48	100	398.209	293.734	-238.26	1	378.216	-39.047	2.4922E-006	-0.376462	9
	49	102	354.821	297.555	-264.08	1	397.841	-41.5891	2.34604E-006	-0.376463	9
	50	104	316.113	301.726	-292.917	1	420.522	-44.1513	2.31634E-006	-0.376456	9
	51	106	281.926	306.35	-324.746	1	446.442	-46.6696	2.49421E-006	-0.376459	9
	52	108	251.185	311.534	-360.401	1	476.385	-49.1595	2.65096E-006	-0.376455	9
	53	110	223.946	317.351	-399.919	1	510.536	-51.5666	2.76431E-006	-0.376459	9
	54	112	199.495	323.795	-444.065	1	549.579	-53.9019	2.86584E-006	-0.376466	9
	55	114	177.836	330.888	-492.845	1	593.619	-56.1233	2.8321E-006	-0.376466	9
	56	116	158.533	338.862	-547.135	1	643.572	-58.2285	2.97597E-006	-0.376465	9
	57	118	141.263	347.681	-607.59	1	700.034	-60.2205	2.92612E-006	-0.376464	9
	58	120	125.911	357.479	-674.567	1	763.434	-62.0792	2.88401E-006	-0.376459	9
	59	122	112.198	369.333	-749.519	1	835.575	-63.7678	3.24877E-006	-0.376455	9
	60	124	100.009	382.055	-832.473	1	915.957	-65.3477	3.18251E-006	-0.376454	9
	61	126	89.1164	397.095	-924.948	1	1006.59	-66.7654	3.38586E-006	-0.376452	9
	62	129	79.4083	413.209	-1026.83	1	1106.85	-68.0795	2.63504E-006	-0.376451	8
	63	131	70.788	432.393	-1140.68	1	1219.88	-69.24	2.58072E-006	-0.376451	8
	64	133	63.0971	453.235	-1267.14	1	1345.76	-70.3188	2.60084E-006	-0.376455	8
	65	135	54.5476	485.725	-1447.11	1	1526.46	-71.4456	2.78822E-006	-0.376452	8
	66	137	50.0083	508.619	-1566.5	1	1647	-72.0121	2.80241E-006	-0.376449	8
	67	139	46.1675	527.628	-1686.02	1	1766.65	-72.6228	2.44161E-006	-0.376451	8
	68	141	40.0059	571.994	-1921.95	1	2005.26	-73.4264	2.43841E-006	-0.376456	8
	69	143	35.3046	618.257	-2154.9	1	2241.83	-73.9914	2.39964E-006	-0.376456	8
	70	146	31.5793	664.59	-2384.75	1	2475.63	-74.4277	2.37838E-006	-0.37645	8
	71	148	28.5748	712.462	-2613.62	1	2708.99	-74.7519	2.19913E-006	-0.376452	8
	72	150	24.9911	785.373	-2952.09	1	3054.78	-75.1021	2.08227E-006	-0.376446	8
	73	152	22.2195	862.94	-3285.35	1	3396.79	-75.283	2.04118E-006	-0.376445	8
	74	154	20.0011	939.377	-3614.41	1	3734.48	-75.4313	1.87704E-006	-0.376445	8
	75	157	17.6486	1052.13	-4044.24	1	4178.85	-75.4175	1.95442E-006	-0.376454	8
	76	159	15.7934	1174.51	-4470.14	1	4621.86	-75.2785	1.88766E-006	-0.376455	8
	77	161	14.2828	1303.04	-4888.33	1	5059.02	-75.0742	1.87358E-006	-0.376451	8
	78	164	12.5002	1495.41	-5503.68	1	5703.22	-74.7991	1.95465E-006	-0.376455	8
	79	166	11.323	1663.27	-6004.63	1	6230.73	-74.5173	1.91219E-006	-0.376451	8
	80	169	9.9987	1942.68	-6700.94	1	6976.86	-73.8325	1.86452E-006	-0.376455	8
