EXPLAIN
TAG	EISPOT
TITLE	LABEL	Tomato_open	Test &Identifier
DATE	LABEL	5/14/2006	Date
TIME	LABEL	12:48:02	Time
NOTES	NOTES	1	&Notes...
	
PSTAT	PSTAT	300	Potentiostat
VDC	POTEN	1.00000E-001	T	DC &Voltage (V)
FREQINIT	QUANT	1.00000E+005	Initial Fre&q. (Hz)
FREQFINAL	QUANT	1.00000E+001	Final Fre&q. (Hz)
PTSPERDEC	QUANT	2.00000E+001	Points/&decade
VAC	QUANT	1.00000E+001	AC &Voltage (mV rms)
AREA	QUANT	1.00000E+000	&Area (cm²)
DENSITY	QUANT	7.87000E+000	&Density (gm/cm³)
EQUIV	QUANT	7.00000E+000	Equiv. &Wt
CONDIT	TWOPARAM	F	1.50000E+001	0.00000E+000	Conditionin&g	Time(s)	E(V)
DELAY	TWOPARAM	F	6.00000E+002	0.00000E+000	Init. De&lay	Time(s)	Stab.(mV/s)
SPEED	SELECTOR	1	&Optimize for:
ZGUESS	QUANT	1.00000E+002	E&stimated Z (ohms)
OCVCURVE	TABLE	39
	Pt	T	Vf	Vm	Ach	Over
	#	s	V vs. Ref.	V	V	bits
	0	0.258332	-4.55269E-001	3.70644E-006	3.66000E-005	......
	1	0.516663	-4.55569E-001	3.70644E-006	2.36600E-004	......
	2	0.774994	-4.53869E-001	3.70644E-006	1.36600E-004	......
	3	1.03333	-4.52869E-001	3.70644E-006	3.36600E-004	......
	4	1.29166	-4.56069E-001	3.70644E-006	2.36600E-004	......
	5	1.54999	-4.57219E-001	3.70644E-006	3.36600E-004	......
	6	1.80832	-4.57469E-001	3.70644E-006	2.36600E-004	......
	7	2.06665	-4.55069E-001	3.70644E-006	2.36600E-004	......
	8	2.32498	-4.57519E-001	3.70644E-006	1.36600E-004	......
	9	2.58332	-4.58169E-001	3.70644E-006	3.36600E-004	......
	10	2.84165	-4.57369E-001	3.70644E-006	2.36600E-004	......
	11	3.09998	-4.56869E-001	3.70644E-006	3.36600E-004	......
	12	3.35831	-4.58469E-001	3.70644E-006	2.36600E-004	......
	13	3.61664	-4.59369E-001	3.70644E-006	2.36600E-004	......
	14	3.87497	-4.57369E-001	3.70644E-006	1.36600E-004	......
	15	4.1333	-4.58169E-001	3.70644E-006	2.36600E-004	......
	16	4.39164	-4.56919E-001	3.70644E-006	2.36600E-004	......
	17	4.64997	-4.57969E-001	3.70644E-006	2.36600E-004	......
	18	4.9083	-4.50719E-001	3.70644E-006	1.36600E-004	......
	19	5.16663	-4.49270E-001	3.70644E-006	2.36600E-004	......
	20	5.42496	-4.53619E-001	3.70644E-006	2.36600E-004	......
	21	5.68329	-4.58369E-001	3.70644E-006	2.36600E-004	......
	22	5.94162	-4.62719E-001	3.70644E-006	2.36600E-004	......
	23	6.19996	-4.66269E-001	3.70644E-006	2.36600E-004	......
	24	6.45829	-4.66069E-001	3.70644E-006	2.36600E-004	......
	25	6.71662	-4.64469E-001	3.70644E-006	2.36600E-004	......
	26	6.97495	-4.64619E-001	3.70644E-006	3.36600E-004	......
	27	7.23328	-4.64969E-001	3.70644E-006	1.36600E-004	......
	28	7.49161	-4.65919E-001	3.70644E-006	2.36600E-004	......
	29	7.74995	-4.65669E-001	3.70644E-006	3.36600E-004	......
	30	8.00828	-4.65569E-001	3.70644E-006	1.36600E-004	......
	31	8.26661	-4.66269E-001	3.70644E-006	4.36600E-004	......
	32	8.52494	-4.66019E-001	3.70644E-006	3.36600E-004	......
	33	8.78327	-4.65970E-001	3.70644E-006	4.36600E-004	......
	34	9.0416	-4.64669E-001	3.70644E-006	2.36600E-004	......
	35	9.29993	-4.65019E-001	3.70644E-006	3.36600E-004	......
	36	9.5583	-4.64719E-001	3.70644E-006	2.36600E-004	......
	37	9.8166	-4.62819E-001	3.70644E-006	2.36600E-004	......
	38	10.0749	-4.62619E-001	3.70644E-006	3.66000E-005	......
EOC	QUANT	-0.462619	Open Circuit (V)
PSTATMODEL	IQUANT	32	Pstat Model
PSTATSECTION	LABEL	PStat0	Pstat Section
CTRLMODE	IQUANT	1	Control Mode
IESTAB	IQUANT	0	I/E Stability
CASPEED	IQUANT	1	Control Amp Speed
CONVENTION	IQUANT	1	Current Convention
ICHRANGE	IQUANT	2	Ich Range
ICHRANGEMODE	TOGGLE	F	Ich Auto Range
ICHOFFSETENABLE	TOGGLE	T	Ich Offset Enable
ICHOFFSET	QUANT	0	Ich Offset (V)
ICHFILTER	IQUANT	3	Ich Filter
VCHRANGE	IQUANT	2	Vch Range
VCHRANGEMODE	TOGGLE	F	Vch Auto Range
VCHOFFSETENABLE	TOGGLE	T	Vch Offset Enable
VCHOFFSET	QUANT	0	Vch Offset (V)
VCHFILTER	IQUANT	3	Vch Filter
ACHRANGE	IQUANT	0	Ach Range
IERANGELOWERLIMIT	IQUANT	3	I/E Range Lower Limit
IERANGEMODE	TOGGLE	F	I/E AutoRange
IERANGE	IQUANT	11	I/E Range
POSFEEDENABLE	TOGGLE	F	Positive Feedback IR Comp
POSFEEDRESISTANCE	QUANT	0	Positive Feedback Resistance (ohm)
FC350IDIVISOR	IQUANT	0	FC350 I Divisor
FC350VRANGE	IQUANT	0	FC350 V Range
FRAMEWORKVERSION	QUANT	4.35	Framework Version
ZCURVE	TABLE
	Pt	Time	Freq	Zreal	Zimag	Zsig	Zmod	Zphz	Idc	Vdc	IERange
	#	s	Hz	ohm	ohm	V	ohm	°	A	V	#
	0	4	100007	253.301	-1.12557	1	253.303	-0.254599	1.82329E-006	-0.362538	9
	1	6	89134.1	253.044	-1.08054	1	253.046	-0.244662	1.69059E-006	-0.362515	9
	2	8	79433.6	252.432	-1.27302	1	252.435	-0.288941	1.86329E-006	-0.362524	9
	3	10	70800.8	251.931	-1.86909	1	251.938	-0.425074	1.88168E-006	-0.362514	9
	4	12	63105.5	251.353	-2.69157	1	251.368	-0.613517	2.14704E-006	-0.362557	9
	5	14	56243.5	251.434	-3.35078	1	251.456	-0.763517	2.21631E-006	-0.362557	9
	6	16	50123.7	250.849	-3.59543	1	250.875	-0.821166	2.2646E-006	-0.362552	9
	7	18	44681	250.94	-4.02291	1	250.972	-0.918451	2.48673E-006	-0.362555	9
	8	20	39811.2	250.817	-4.83298	1	250.864	-1.10389	2.37424E-006	-0.36252	9
	9	22	35488.3	250.869	-5.35252	1	250.927	-1.22227	2.52498E-006	-0.362549	9
	10	24	31634.1	251.161	-5.9046	1	251.23	-1.34673	2.32082E-006	-0.362547	9
	11	26	28173.1	251.514	-7.08024	1	251.614	-1.61247	2.38387E-006	-0.362539	9
	12	28	25123.7	251.535	-7.37823	1	251.643	-1.68017	2.40685E-006	-0.362554	9
	13	30	22389.3	251.456	-7.93338	1	251.581	-1.80707	2.21835E-006	-0.362538	9
	14	32	19954.4	251.589	-9.00041	1	251.75	-2.04884	2.19704E-006	-0.362524	9
	15	34	17778.2	252.09	-9.9047	1	252.285	-2.25002	2.23679E-006	-0.362538	9
	16	36	15852.9	252.3	-10.5816	1	252.522	-2.40162	2.27406E-006	-0.362566	9
	17	38	14122.3	252.658	-11.8574	1	252.937	-2.68694	2.48398E-006	-0.362542	9
	18	40	12587.2	253.259	-13.2598	1	253.606	-2.99708	2.49834E-006	-0.362546	9
	19	42	11221.1	253.556	-14.4297	1	253.966	-3.25715	2.3794E-006	-0.362547	9
	20	44	9998.2	253.816	-15.7216	1	254.302	-3.54442	2.46618E-006	-0.362556	9
	21	46	8912.76	254.452	-17.3789	1	255.045	-3.90719	2.72903E-006	-0.362532	9
	22	48	7942.6	254.794	-18.9147	1	255.495	-4.24558	2.63628E-006	-0.362558	9
	23	50	7078.05	255.239	-20.8071	1	256.086	-4.66044	2.64556E-006	-0.362551	9
	24	52	6311.1	256.03	-23.3598	1	257.093	-5.21315	2.68403E-006	-0.362557	9
	25	54	5622.14	256.119	-25.1542	1	257.351	-5.6092	2.65138E-006	-0.362552	9
	26	56	5011.18	257.007	-28.0048	1	258.528	-6.21871	2.75706E-006	-0.36255	9
	27	58	4465.21	257.875	-29.9243	1	259.606	-6.6191	2.54374E-006	-0.362572	9
	28	60	3980.93	258.388	-33.4923	1	260.549	-7.38551	2.43256E-006	-0.362538	9
	29	62	3548.18	259.371	-36.7629	1	261.963	-8.06729	2.6896E-006	-0.362568	9
	30	64	3162.67	260.014	-40.5227	1	263.153	-8.85819	2.63782E-006	-0.362558	9
	31	66	2819.01	261.172	-44.4205	1	264.922	-9.6526	2.45068E-006	-0.362548	9
	32	68	2511.16	262.102	-48.6384	1	266.577	-10.5128	2.5387E-006	-0.36255	9
	33	70	2238.63	263.316	-53.7572	1	268.747	-11.5386	2.47382E-006	-0.36256	9
	34	72	1995.37	264.695	-58.9091	1	271.171	-12.547	2.49929E-006	-0.362548	9
	35	74	1778.51	265.521	-65.1686	1	273.402	-13.7899	2.50338E-006	-0.362558	9
	36	76	1584.49	267.191	-71.7742	1	276.664	-15.0361	2.39956E-006	-0.362546	9
	37	78	1412.76	269.069	-79.1854	1	280.479	-16.3989	2.59745E-006	-0.362561	9
	38	80	1259.04	269.94	-87.2121	1	283.678	-17.9046	2.42003E-006	-0.362555	9
	39	82	1121.63	272.287	-96.343	1	288.829	-19.4853	2.5217E-006	-0.362555	9
	40	84	999.95	273.927	-106.492	1	293.899	-21.2442	2.50623E-006	-0.362562	9
	41	86	891.184	276.029	-117.194	1	299.877	-23.0047	2.44454E-006	-0.36256	9
	42	88	794.163	278.005	-129.965	1	306.883	-25.0557	2.45368E-006	-0.362562	9
	43	90	707.867	280.585	-143.165	1	314.999	-27.0324	2.42093E-006	-0.362533	9
	44	92	630.984	282.845	-158.2	1	324.081	-29.219	2.54212E-006	-0.362542	9
	45	94	562.189	285.717	-175.209	1	335.16	-31.5178	2.59978E-006	-0.362557	9
	46	96	501.303	288.628	-194.083	1	347.814	-33.9183	2.38843E-006	-0.362548	9
	47	98	446.614	291.782	-215.098	1	362.497	-36.3972	2.44348E-006	-0.362551	9
	48	100	398.209	295.242	-238.238	1	379.375	-38.9009	2.35817E-006	-0.362551	9
	49	102	354.821	299.094	-264.103	1	399.008	-41.4448	2.41593E-006	-0.362549	9
	50	104	316.113	303.373	-292.935	1	421.718	-43.9972	2.32213E-006	-0.362553	9
	51	106	281.926	308.051	-324.657	1	447.547	-46.5034	2.40304E-006	-0.362556	9
	52	108	251.185	313.277	-360.221	1	477.39	-48.9872	2.31685E-006	-0.362559	9
	53	110	223.946	319.051	-399.58	1	511.33	-51.3938	2.28699E-006	-0.362551	9
	54	113	199.495	325.502	-443.705	1	550.296	-53.7362	2.41082E-006	-0.362545	9
	55	115	177.836	332.601	-492.354	1	594.168	-55.9597	2.42183E-006	-0.362548	9
	56	117	158.533	340.627	-546.465	1	643.934	-58.0636	2.44418E-006	-0.362547	9
	57	119	141.263	349.139	-606.933	1	700.19	-60.0902	2.20517E-006	-0.362545	9
	58	121	125.911	359.083	-673.784	1	763.495	-61.9453	2.05095E-006	-0.362542	9
	59	123	112.198	370.339	-748.508	1	835.114	-63.6752	2.11953E-006	-0.362549	9
	60	126	100.009	382.409	-831.226	1	914.972	-65.295	2.0029E-006	-0.36254	9
	61	128	89.1164	396.547	-923.53	1	1005.07	-66.7622	2.10267E-006	-0.362543	9
	62	130	79.4083	412.147	-1025.37	1	1105.1	-68.1023	1.7373E-006	-0.362537	8
	63	132	70.788	430.2	-1139.24	1	1217.76	-69.3125	1.70337E-006	-0.362538	8
	64	134	63.0971	450.005	-1265.2	1	1342.84	-70.4205	1.73206E-006	-0.362546	8
	65	136	54.5476	479.518	-1445.13	1	1522.61	-71.6433	1.70701E-006	-0.362543	8
	66	139	50.0083	500.032	-1564.97	1	1642.91	-72.2805	1.65506E-006	-0.362548	8
	67	141	46.1675	518.946	-1683.67	1	1761.84	-72.8695	1.59969E-006	-0.362548	8
	68	143	40.0059	560.885	-1918.82	1	1999.11	-73.706	1.55162E-006	-0.362548	8
	69	145	35.3046	604.983	-2151.53	1	2234.97	-74.2947	1.67356E-006	-0.362555	8
	70	147	31.5793	646.959	-2382.07	1	2468.36	-74.8053	1.62057E-006	-0.362549	8
	71	149	28.5748	690.93	-2609.59	1	2699.51	-75.1703	1.52895E-006	-0.362552	8
	72	151	24.9911	759.926	-2948.38	1	3044.74	-75.547	1.57786E-006	-0.362552	8
	73	154	22.2195	832.584	-3280.54	1	3384.54	-75.7593	1.61898E-006	-0.362553	8
	74	156	20.0011	902.488	-3607.93	1	3719.09	-75.9562	1.48886E-006	-0.362549	8
	75	159	17.6486	1011.23	-4044.46	1	4168.96	-75.9622	1.55839E-006	-0.362545	8
	76	161	15.7934	1111.14	-4469.69	1	4605.73	-76.0396	1.54182E-006	-0.362556	8
	77	163	14.2828	1216.21	-4886.22	1	5035.31	-76.0227	1.54954E-006	-0.362552	8
	78	165	12.5002	1385.68	-5504.63	1	5676.36	-75.8705	1.53827E-006	-0.362558	8
	79	168	11.323	1549.73	-6020.73	1	6216.98	-75.5654	1.61071E-006	-0.362552	8
	80	170	9.9987	1812.23	-6718.06	1	6958.19	-74.9035	1.62467E-006	-0.362554	8
