EXPLAIN
TAG	EISPOT
TITLE	LABEL	Tomato_open	Test &Identifier
DATE	LABEL	5/14/2006	Date
TIME	LABEL	12:43:01	Time
NOTES	NOTES	1	&Notes...
	
PSTAT	PSTAT	300	Potentiostat
VDC	POTEN	1.00000E-001	T	DC &Voltage (V)
FREQINIT	QUANT	1.00000E+005	Initial Fre&q. (Hz)
FREQFINAL	QUANT	1.00000E+001	Final Fre&q. (Hz)
PTSPERDEC	QUANT	2.00000E+001	Points/&decade
VAC	QUANT	1.00000E+001	AC &Voltage (mV rms)
AREA	QUANT	1.00000E+000	&Area (cm²)
DENSITY	QUANT	7.87000E+000	&Density (gm/cm³)
EQUIV	QUANT	7.00000E+000	Equiv. &Wt
CONDIT	TWOPARAM	F	1.50000E+001	0.00000E+000	Conditionin&g	Time(s)	E(V)
DELAY	TWOPARAM	F	6.00000E+002	0.00000E+000	Init. De&lay	Time(s)	Stab.(mV/s)
SPEED	SELECTOR	1	&Optimize for:
ZGUESS	QUANT	1.00000E+002	E&stimated Z (ohms)
OCVCURVE	TABLE	39
	Pt	T	Vf	Vm	Ach	Over
	#	s	V vs. Ref.	V	V	bits
	0	0.258332	-4.59569E-001	4.91734E-006	2.36600E-004	......
	1	0.516663	-4.58619E-001	4.91734E-006	2.36600E-004	......
	2	0.774994	-4.59619E-001	4.91734E-006	2.36600E-004	......
	3	1.03333	-4.59369E-001	4.91734E-006	3.36600E-004	......
	4	1.29166	-4.59269E-001	4.91734E-006	3.66000E-005	......
	5	1.54999	-4.59219E-001	4.91734E-006	4.36600E-004	......
	6	1.80832	-4.60019E-001	4.91734E-006	2.36600E-004	......
	7	2.06665	-4.60719E-001	4.91734E-006	2.36600E-004	......
	8	2.32498	-4.62319E-001	4.91734E-006	2.36600E-004	......
	9	2.58332	-4.61869E-001	4.91734E-006	2.36600E-004	......
	10	2.84165	-4.61019E-001	4.91734E-006	2.36600E-004	......
	11	3.09998	-4.56719E-001	4.91734E-006	3.36600E-004	......
	12	3.35831	-4.56769E-001	4.91734E-006	2.36600E-004	......
	13	3.61664	-4.58369E-001	4.91734E-006	3.36600E-004	......
	14	3.87497	-4.56719E-001	4.91734E-006	3.36600E-004	......
	15	4.1333	-4.55669E-001	4.91734E-006	3.36600E-004	......
	16	4.39164	-4.55069E-001	4.91734E-006	2.36600E-004	......
	17	4.64997	-4.54919E-001	4.91734E-006	3.36600E-004	......
	18	4.9083	-4.55419E-001	4.91734E-006	2.36600E-004	......
	19	5.16663	-4.56219E-001	4.91734E-006	2.36600E-004	......
	20	5.42496	-4.55869E-001	4.91734E-006	2.36600E-004	......
	21	5.68329	-4.56469E-001	4.91734E-006	3.36600E-004	......
	22	5.94162	-4.56569E-001	4.91734E-006	2.36600E-004	......
	23	6.19996	-4.57769E-001	4.91734E-006	2.36600E-004	......
	24	6.45829	-4.58269E-001	4.91734E-006	2.36600E-004	......
	25	6.71662	-4.59269E-001	4.91734E-006	2.36600E-004	......
	26	6.97495	-4.61619E-001	4.91734E-006	2.36600E-004	......
	27	7.23328	-4.63270E-001	4.91734E-006	3.36600E-004	......
	28	7.49161	-4.63419E-001	4.91734E-006	2.36600E-004	......
	29	7.74995	-4.62919E-001	4.91734E-006	4.36600E-004	......
	30	8.00828	-4.63769E-001	4.91734E-006	2.36600E-004	......
	31	8.26661	-4.63919E-001	4.91734E-006	3.36600E-004	......
	32	8.52494	-4.64919E-001	4.91734E-006	2.36600E-004	......
	33	8.78327	-4.64669E-001	4.91734E-006	3.36600E-004	......
	34	9.0416	-4.65820E-001	4.91734E-006	2.36600E-004	......
	35	9.29993	-4.66869E-001	4.91734E-006	3.36600E-004	......
	36	9.5583	-4.67220E-001	4.91734E-006	1.36600E-004	......
	37	9.8166	-4.66669E-001	4.91734E-006	2.36600E-004	......
	38	10.0749	-4.63069E-001	4.91734E-006	2.36600E-004	......
EOC	QUANT	-0.463069	Open Circuit (V)
PSTATMODEL	IQUANT	32	Pstat Model
PSTATSECTION	LABEL	PStat0	Pstat Section
CTRLMODE	IQUANT	1	Control Mode
IESTAB	IQUANT	0	I/E Stability
CASPEED	IQUANT	1	Control Amp Speed
CONVENTION	IQUANT	1	Current Convention
ICHRANGE	IQUANT	2	Ich Range
ICHRANGEMODE	TOGGLE	F	Ich Auto Range
ICHOFFSETENABLE	TOGGLE	T	Ich Offset Enable
ICHOFFSET	QUANT	0	Ich Offset (V)
ICHFILTER	IQUANT	3	Ich Filter
VCHRANGE	IQUANT	2	Vch Range
VCHRANGEMODE	TOGGLE	F	Vch Auto Range
VCHOFFSETENABLE	TOGGLE	T	Vch Offset Enable
VCHOFFSET	QUANT	0	Vch Offset (V)
VCHFILTER	IQUANT	3	Vch Filter
ACHRANGE	IQUANT	0	Ach Range
IERANGELOWERLIMIT	IQUANT	3	I/E Range Lower Limit
IERANGEMODE	TOGGLE	F	I/E AutoRange
IERANGE	IQUANT	11	I/E Range
POSFEEDENABLE	TOGGLE	F	Positive Feedback IR Comp
POSFEEDRESISTANCE	QUANT	0	Positive Feedback Resistance (ohm)
FC350IDIVISOR	IQUANT	0	FC350 I Divisor
FC350VRANGE	IQUANT	0	FC350 V Range
FRAMEWORKVERSION	QUANT	4.35	Framework Version
ZCURVE	TABLE
	Pt	Time	Freq	Zreal	Zimag	Zsig	Zmod	Zphz	Idc	Vdc	IERange
	#	s	Hz	ohm	ohm	V	ohm	°	A	V	#
	0	4	100007	254.997	-1.31004	1	255.001	-0.294351	2.28928E-006	-0.363014	9
	1	6	89134.1	253.992	-1.28543	1	253.996	-0.289965	2.51171E-006	-0.363023	9
	2	8	79433.6	253.388	-1.9771	1	253.395	-0.447051	2.99018E-006	-0.36303	9
	3	10	70800.8	252.704	-2.35567	1	252.715	-0.534086	3.29623E-006	-0.363061	9
	4	12	63105.5	252.5	-2.62316	1	252.513	-0.595211	3.4897E-006	-0.363038	9
	5	14	56243.5	252.272	-3.14764	1	252.292	-0.714852	3.53593E-006	-0.363042	9
	6	16	50123.7	251.992	-3.59076	1	252.018	-0.816381	3.70123E-006	-0.363027	9
	7	18	44681	251.58	-4.01908	1	251.612	-0.915243	3.52549E-006	-0.363037	9
	8	20	39811.2	251.819	-4.83701	1	251.865	-1.10042	3.50687E-006	-0.363028	9
	9	22	35488.3	251.923	-5.46097	1	251.982	-1.24181	3.73645E-006	-0.363072	9
	10	24	31634.1	252.021	-6.36164	1	252.101	-1.44598	3.3984E-006	-0.363029	9
	11	26	28173.1	252.358	-6.65524	1	252.446	-1.51066	3.46992E-006	-0.36304	9
	12	28	25123.7	252.24	-7.35872	1	252.347	-1.67105	3.46231E-006	-0.363052	9
	13	30	22389.3	252.311	-8.64598	1	252.459	-1.96259	3.35785E-006	-0.363022	9
	14	32	19954.4	252.614	-8.8566	1	252.77	-2.00795	3.56237E-006	-0.363058	9
	15	34	17778.2	252.837	-10.1818	1	253.042	-2.30607	3.59632E-006	-0.363032	9
	16	36	15852.9	253.364	-10.9606	1	253.601	-2.47709	3.76071E-006	-0.363053	9
	17	38	14122.3	253.639	-11.9612	1	253.92	-2.69998	3.41223E-006	-0.363038	9
	18	40	12587.2	254.235	-13.2703	1	254.581	-2.98796	3.40018E-006	-0.36304	9
	19	41	11221.1	254.271	-14.4739	1	254.683	-3.25794	3.3592E-006	-0.363039	9
	20	43	9998.2	254.705	-15.9338	1	255.203	-3.57964	3.36801E-006	-0.363044	9
	21	45	8912.76	255.464	-17.6814	1	256.075	-3.9593	3.41054E-006	-0.363059	9
	22	47	7942.6	255.696	-19.1623	1	256.413	-4.28582	3.31493E-006	-0.363029	9
	23	49	7078.05	256.345	-20.7332	1	257.182	-4.62402	3.40535E-006	-0.363038	9
	24	51	6311.1	256.56	-23.1166	1	257.599	-5.14858	3.34123E-006	-0.363029	9
	25	53	5622.14	257.706	-25.0756	1	258.923	-5.55757	3.37578E-006	-0.363033	9
	26	55	5011.18	258.087	-27.4541	1	259.543	-6.07203	3.13665E-006	-0.363031	9
	27	57	4465.21	259.29	-30.4406	1	261.07	-6.69587	3.20407E-006	-0.363033	9
	28	59	3980.93	259.73	-33.6195	1	261.897	-7.37537	3.25712E-006	-0.363023	9
	29	61	3548.18	260.193	-37.0219	1	262.813	-8.09807	2.91518E-006	-0.363044	9
	30	63	3162.67	261.218	-40.6204	1	264.358	-8.83892	3.03951E-006	-0.363024	9
	31	65	2819.01	262.558	-45.0176	1	266.389	-9.7292	3.07423E-006	-0.363019	9
	32	67	2511.16	263.504	-48.6098	1	267.95	-10.4521	3.08603E-006	-0.363028	9
	33	69	2238.63	264.597	-53.9868	1	270.048	-11.532	2.90251E-006	-0.363032	9
	34	71	1995.37	265.865	-59.4324	1	272.427	-12.6009	3.09343E-006	-0.363032	9
	35	73	1778.51	266.493	-65.5295	1	274.432	-13.8147	3.10517E-006	-0.363026	9
	36	75	1584.49	268.536	-71.6121	1	277.921	-14.9319	2.88876E-006	-0.363024	9
	37	77	1412.76	269.945	-79.2261	1	281.331	-16.3564	3.07129E-006	-0.363016	9
	38	79	1259.04	271.736	-87.1423	1	285.366	-17.7804	3.0831E-006	-0.36303	9
	39	81	1121.63	273.668	-96.464	1	290.171	-19.4169	3.06717E-006	-0.363027	9
	40	83	999.95	275.659	-106.355	1	295.465	-21.0977	3.11565E-006	-0.363027	9
	41	85	891.184	277.265	-117.646	1	301.192	-22.992	2.96873E-006	-0.363024	9
	42	87	794.163	279.56	-130.099	1	308.35	-24.9559	3.09379E-006	-0.363016	9
	43	89	707.867	281.926	-143.217	1	316.217	-26.9303	3.13437E-006	-0.363024	9
	44	91	630.984	284.372	-158.594	1	325.607	-29.1484	2.97657E-006	-0.36303	9
	45	93	562.189	287.341	-176.059	1	336.989	-31.4965	2.87302E-006	-0.36303	9
	46	95	501.303	290.409	-194.214	1	349.366	-33.773	3.18434E-006	-0.363024	9
	47	97	446.614	293.67	-215.14	1	364.043	-36.2261	3.18568E-006	-0.363027	9
	48	99	398.209	297.221	-238.263	1	380.933	-38.7169	2.87654E-006	-0.36303	9
	49	101	354.821	301.238	-264.039	1	400.576	-41.2349	3.03373E-006	-0.363018	9
	50	103	316.113	305.571	-292.765	1	423.185	-43.7739	3.02224E-006	-0.363026	9
	51	105	281.926	310.405	-324.414	1	448.995	-46.2642	2.93995E-006	-0.36303	9
	52	107	251.185	315.787	-359.848	1	478.761	-48.7313	2.99337E-006	-0.36302	9
	53	109	223.946	321.93	-399.169	1	512.811	-51.1138	3.10053E-006	-0.363027	9
	54	111	199.495	328.43	-442.997	1	551.464	-53.4475	2.93941E-006	-0.363026	9
	55	113	177.836	335.679	-491.527	1	595.213	-55.6696	2.73037E-006	-0.363024	9
	56	115	158.533	343.927	-545.445	1	644.823	-57.7668	2.78262E-006	-0.363021	9
	57	117	141.263	353.242	-605.626	1	701.115	-59.7464	2.81164E-006	-0.363032	9
	58	119	125.911	363.524	-672.226	1	764.224	-61.5965	2.74565E-006	-0.363029	9
	59	121	112.198	374.63	-746.427	1	835.165	-63.348	2.628E-006	-0.363026	9
	60	123	100.009	388.391	-828.988	1	915.461	-64.8963	2.72506E-006	-0.363031	9
	61	125	89.1164	403.237	-921.059	1	1005.46	-66.3563	2.6184E-006	-0.363031	9
	62	127	79.4083	419.442	-1022.1	1	1104.81	-67.688	2.17207E-006	-0.363025	8
	63	129	70.788	438.446	-1134.67	1	1216.44	-68.8731	2.34704E-006	-0.363024	8
	64	131	63.0971	461.165	-1260.71	1	1342.41	-69.9075	2.11391E-006	-0.363029	8
	65	133	54.5476	491.666	-1439.13	1	1520.8	-71.1377	2.15211E-006	-0.363027	8
	66	135	50.0083	510.044	-1558.3	1	1639.64	-71.8763	1.79169E-006	-0.363032	8
	67	137	46.1675	531.186	-1675.64	1	1757.82	-72.4112	1.70172E-006	-0.363035	8
	68	140	40.0059	577.239	-1909.69	1	1995.02	-73.1816	1.8196E-006	-0.363036	8
	69	142	35.3046	616.639	-2140.09	1	2227.15	-73.9263	1.58739E-006	-0.363041	8
	70	144	31.5793	663.108	-2368.8	1	2459.86	-74.3613	1.75464E-006	-0.36304	8
	71	146	28.5748	705.241	-2594.03	1	2688.18	-74.7906	1.46809E-006	-0.363039	8
	72	148	24.9911	778.541	-2930.15	1	3031.81	-75.1203	1.59007E-006	-0.363036	8
	73	150	22.2195	861.923	-3256.75	1	3368.87	-75.1761	1.77201E-006	-0.363039	8
	74	153	20.0011	954.44	-3583.57	1	3708.49	-75.0862	1.80833E-006	-0.363027	8
	75	155	17.6486	1066.2	-4000.26	1	4139.91	-75.0757	1.91526E-006	-0.363031	8
	76	157	15.7934	1191.88	-4419.02	1	4576.93	-74.9056	1.95671E-006	-0.363034	8
	77	160	14.2828	1305.84	-4834.74	1	5007.99	-74.8854	1.71704E-006	-0.363037	8
	78	162	12.5002	1480.6	-5468.13	1	5665.04	-74.8494	1.66051E-006	-0.363039	8
	79	164	11.323	1698.43	-5938.78	1	6176.88	-74.04	1.96118E-006	-0.36304	8
	80	167	9.9987	1937.2	-6644.9	1	6921.51	-73.7469	1.84092E-006	-0.363043	8
