EXPLAIN
TAG	EISPOT
TITLE	LABEL	Tomato_open	Test &Identifier
DATE	LABEL	5/14/2006	Date
TIME	LABEL	12:38:01	Time
NOTES	NOTES	1	&Notes...
	
PSTAT	PSTAT	300	Potentiostat
VDC	POTEN	1.00000E-001	T	DC &Voltage (V)
FREQINIT	QUANT	1.00000E+005	Initial Fre&q. (Hz)
FREQFINAL	QUANT	1.00000E+001	Final Fre&q. (Hz)
PTSPERDEC	QUANT	2.00000E+001	Points/&decade
VAC	QUANT	1.00000E+001	AC &Voltage (mV rms)
AREA	QUANT	1.00000E+000	&Area (cm²)
DENSITY	QUANT	7.87000E+000	&Density (gm/cm³)
EQUIV	QUANT	7.00000E+000	Equiv. &Wt
CONDIT	TWOPARAM	F	1.50000E+001	0.00000E+000	Conditionin&g	Time(s)	E(V)
DELAY	TWOPARAM	F	6.00000E+002	0.00000E+000	Init. De&lay	Time(s)	Stab.(mV/s)
SPEED	SELECTOR	1	&Optimize for:
ZGUESS	QUANT	1.00000E+002	E&stimated Z (ohms)
OCVCURVE	TABLE	39
	Pt	T	Vf	Vm	Ach	Over
	#	s	V vs. Ref.	V	V	bits
	0	0.258332	-4.40169E-001	3.93234E-006	3.66000E-005	......
	1	0.516663	-4.39819E-001	3.93234E-006	2.36600E-004	......
	2	0.774994	-4.39719E-001	3.93234E-006	3.66000E-005	......
	3	1.03333	-4.39969E-001	3.93234E-006	2.36600E-004	......
	4	1.29166	-4.39769E-001	3.93234E-006	-6.34000E-005	......
	5	1.54999	-4.39469E-001	3.93234E-006	2.36600E-004	......
	6	1.80832	-4.38719E-001	3.93234E-006	-6.34000E-005	......
	7	2.06665	-4.37919E-001	3.93234E-006	2.36600E-004	......
	8	2.32498	-4.37869E-001	3.93234E-006	3.66000E-005	......
	9	2.58332	-4.37119E-001	3.93234E-006	3.36600E-004	......
	10	2.84165	-4.36719E-001	3.93234E-006	3.66000E-005	......
	11	3.09998	-4.36669E-001	3.93234E-006	2.36600E-004	......
	12	3.35831	-4.36269E-001	3.93234E-006	-6.34000E-005	......
	13	3.61664	-4.34619E-001	3.93234E-006	2.36600E-004	......
	14	3.87497	-4.33469E-001	3.93234E-006	3.66000E-005	......
	15	4.1333	-4.33320E-001	3.93234E-006	2.36600E-004	......
	16	4.39164	-4.33069E-001	3.93234E-006	3.66000E-005	......
	17	4.64997	-4.33669E-001	3.93234E-006	3.36600E-004	......
	18	4.9083	-4.34369E-001	3.93234E-006	-1.63400E-004	......
	19	5.16663	-4.35369E-001	3.93234E-006	2.36600E-004	......
	20	5.42496	-4.34869E-001	3.93234E-006	3.66000E-005	......
	21	5.68329	-4.36469E-001	3.93234E-006	3.66000E-005	......
	22	5.94162	-4.37219E-001	3.93234E-006	3.66000E-005	......
	23	6.19996	-4.38120E-001	3.93234E-006	1.36600E-004	......
	24	6.45829	-4.38719E-001	3.93234E-006	-6.34000E-005	......
	25	6.71662	-4.39570E-001	3.93234E-006	2.36600E-004	......
	26	6.97495	-4.40219E-001	3.93234E-006	3.66000E-005	......
	27	7.23328	-4.40519E-001	3.93234E-006	2.36600E-004	......
	28	7.49161	-4.40969E-001	3.93234E-006	3.66000E-005	......
	29	7.74995	-4.41269E-001	3.93234E-006	3.36600E-004	......
	30	8.00828	-4.41170E-001	3.93234E-006	3.66000E-005	......
	31	8.26661	-4.40919E-001	3.93234E-006	2.36600E-004	......
	32	8.52494	-4.40969E-001	3.93234E-006	1.36600E-004	......
	33	8.78327	-4.40919E-001	3.93234E-006	1.36600E-004	......
	34	9.0416	-4.40819E-001	3.93234E-006	-6.34000E-005	......
	35	9.29993	-4.42819E-001	3.93234E-006	2.36600E-004	......
	36	9.5583	-4.43969E-001	3.93234E-006	3.66000E-005	......
	37	9.8166	-4.43669E-001	3.93234E-006	3.66000E-005	......
	38	10.0749	-4.42819E-001	3.93234E-006	3.66000E-005	......
EOC	QUANT	-0.442819	Open Circuit (V)
PSTATMODEL	IQUANT	32	Pstat Model
PSTATSECTION	LABEL	PStat0	Pstat Section
CTRLMODE	IQUANT	1	Control Mode
IESTAB	IQUANT	0	I/E Stability
CASPEED	IQUANT	1	Control Amp Speed
CONVENTION	IQUANT	1	Current Convention
ICHRANGE	IQUANT	2	Ich Range
ICHRANGEMODE	TOGGLE	F	Ich Auto Range
ICHOFFSETENABLE	TOGGLE	T	Ich Offset Enable
ICHOFFSET	QUANT	0	Ich Offset (V)
ICHFILTER	IQUANT	3	Ich Filter
VCHRANGE	IQUANT	2	Vch Range
VCHRANGEMODE	TOGGLE	F	Vch Auto Range
VCHOFFSETENABLE	TOGGLE	T	Vch Offset Enable
VCHOFFSET	QUANT	0	Vch Offset (V)
VCHFILTER	IQUANT	3	Vch Filter
ACHRANGE	IQUANT	0	Ach Range
IERANGELOWERLIMIT	IQUANT	3	I/E Range Lower Limit
IERANGEMODE	TOGGLE	F	I/E AutoRange
IERANGE	IQUANT	11	I/E Range
POSFEEDENABLE	TOGGLE	F	Positive Feedback IR Comp
POSFEEDRESISTANCE	QUANT	0	Positive Feedback Resistance (ohm)
FC350IDIVISOR	IQUANT	0	FC350 I Divisor
FC350VRANGE	IQUANT	0	FC350 V Range
FRAMEWORKVERSION	QUANT	4.35	Framework Version
ZCURVE	TABLE
	Pt	Time	Freq	Zreal	Zimag	Zsig	Zmod	Zphz	Idc	Vdc	IERange
	#	s	Hz	ohm	ohm	V	ohm	°	A	V	#
	0	4	100007	255.634	-0.871327	1	255.635	-0.195292	1.72481E-006	-0.342679	9
	1	6	89134.1	254.287	-1.13464	1	254.289	-0.255654	1.79443E-006	-0.342679	9
	2	8	79433.6	253.732	-1.69435	1	253.737	-0.3826	1.77187E-006	-0.342669	9
	3	10	70800.8	253.298	-2.09914	1	253.307	-0.474811	2.00287E-006	-0.342668	9
	4	12	63105.5	253.122	-2.86833	1	253.139	-0.649236	2.65748E-006	-0.342699	9
	5	14	56243.5	253.05	-2.98091	1	253.067	-0.674909	3.66412E-006	-0.34269	9
	6	16	50123.7	252.63	-3.93297	1	252.66	-0.891915	4.20987E-006	-0.342674	9
	7	18	44681	252.526	-4.47352	1	252.566	-1.01489	4.8642E-006	-0.342701	9
	8	20	39811.2	252.557	-4.97088	1	252.606	-1.12756	4.95253E-006	-0.342697	9
	9	22	35488.3	252.132	-5.742	1	252.198	-1.30461	4.84882E-006	-0.342685	9
	10	24	31634.1	252.51	-5.95737	1	252.581	-1.35151	4.63296E-006	-0.342691	9
	11	26	28173.1	252.544	-6.7052	1	252.633	-1.52088	4.28999E-006	-0.342692	9
	12	28	25123.7	252.979	-7.87576	1	253.102	-1.78316	4.47949E-006	-0.342656	9
	13	30	22389.3	253.264	-8.63516	1	253.411	-1.95277	4.66837E-006	-0.342691	9
	14	32	19954.4	253.353	-9.26743	1	253.522	-2.0949	4.55065E-006	-0.342682	9
	15	34	17778.2	253.687	-10.4731	1	253.903	-2.36403	4.74638E-006	-0.342671	9
	16	36	15852.9	253.979	-11.1105	1	254.222	-2.50484	4.07596E-006	-0.342684	9
	17	38	14122.3	254.208	-12.1101	1	254.496	-2.72743	3.94437E-006	-0.342675	9
	18	40	12587.2	254.622	-13.3535	1	254.972	-3.0021	3.72204E-006	-0.342673	9
	19	42	11221.1	255.401	-14.3988	1	255.807	-3.22676	3.77615E-006	-0.342673	9
	20	44	9998.2	255.67	-15.9921	1	256.17	-3.57916	4.07751E-006	-0.342673	9
	21	46	8912.76	256.093	-18.0149	1	256.725	-4.02385	4.16438E-006	-0.342663	9
	22	47	7942.6	256.745	-19.1721	1	257.46	-4.27055	4.26593E-006	-0.342679	9
	23	49	7078.05	257.229	-21.2888	1	258.108	-4.73113	4.24904E-006	-0.342689	9
	24	51	6311.1	257.545	-23.4407	1	258.61	-5.2005	4.21934E-006	-0.342685	9
	25	53	5622.14	258.586	-25.8461	1	259.875	-5.70785	3.98545E-006	-0.342676	9
	26	55	5011.18	258.805	-28.3219	1	260.35	-6.24524	3.93402E-006	-0.342676	9
	27	57	4465.21	259.615	-31.0905	1	261.47	-6.82901	3.86863E-006	-0.342672	9
	28	59	3980.93	260.733	-33.738	1	262.907	-7.37292	3.66788E-006	-0.342694	9
	29	61	3548.18	260.982	-37.1404	1	263.612	-8.09938	3.58934E-006	-0.342659	9
	30	63	3162.67	262.295	-41.1521	1	265.504	-8.91658	3.54354E-006	-0.342694	9
	31	65	2819.01	263.381	-44.9455	1	267.188	-9.6842	3.53962E-006	-0.342692	9
	32	67	2511.16	264.429	-49.3518	1	268.995	-10.5718	3.48248E-006	-0.342676	9
	33	69	2238.63	265.855	-54.817	1	271.448	-11.6506	3.34553E-006	-0.342672	9
	34	71	1995.37	267.079	-59.9367	1	273.722	-12.6485	3.26132E-006	-0.342664	9
	35	73	1778.51	268.677	-65.8041	1	276.618	-13.7619	3.37199E-006	-0.342674	9
	36	75	1584.49	269.674	-72.6619	1	279.292	-15.0798	3.2582E-006	-0.342674	9
	37	77	1412.76	271.159	-79.3464	1	282.53	-16.3105	3.16879E-006	-0.34265	9
	38	79	1259.04	273.113	-88.2353	1	287.013	-17.9042	3.07307E-006	-0.342679	9
	39	81	1121.63	275.214	-96.81	1	291.745	-19.38	2.90465E-006	-0.342666	9
	40	83	999.95	277.346	-106.795	1	297.196	-21.0597	2.95076E-006	-0.342666	9
	41	85	891.184	279.028	-117.916	1	302.92	-22.9087	2.9249E-006	-0.34268	9
	42	87	794.163	281.877	-129.762	1	310.311	-24.719	2.83745E-006	-0.342682	9
	43	89	707.867	283.584	-143.18	1	317.68	-26.789	2.91131E-006	-0.342677	9
	44	91	630.984	286.099	-159.076	1	327.35	-29.0747	2.80367E-006	-0.342676	9
	45	93	562.189	289.365	-176.006	1	338.689	-31.3101	3.03838E-006	-0.342696	9
	46	95	501.303	292.552	-194.452	1	351.28	-33.611	2.89765E-006	-0.342677	9
	47	97	446.614	295.938	-215.332	1	365.988	-36.0407	3.00263E-006	-0.342673	9
	48	99	398.209	299.573	-238.36	1	382.831	-38.508	2.96135E-006	-0.342676	9
	49	101	354.821	303.666	-264.014	1	402.388	-41.0044	2.99404E-006	-0.342674	9
	50	103	316.113	308.14	-292.626	1	424.947	-43.5207	2.88818E-006	-0.342676	9
	51	105	281.926	313.11	-324.104	1	450.645	-45.9884	2.9611E-006	-0.34268	9
	52	107	251.185	318.637	-359.368	1	480.286	-48.4379	2.94715E-006	-0.342675	9
	53	109	223.946	324.789	-398.407	1	514.02	-50.8124	2.90569E-006	-0.342681	9
	54	111	199.495	331.619	-442.015	1	552.584	-53.1212	2.93008E-006	-0.34268	9
	55	113	177.836	339.204	-490.215	1	596.129	-55.3187	2.97738E-006	-0.342677	9
	56	115	158.533	347.765	-543.747	1	645.447	-57.3982	3.06581E-006	-0.342674	9
	57	117	141.263	357.156	-603.345	1	701.132	-59.3762	3.05789E-006	-0.342673	9
	58	119	125.911	367.368	-669.679	1	763.826	-61.252	2.66536E-006	-0.342677	9
	59	121	112.198	379.368	-743.291	1	834.507	-62.9607	2.82308E-006	-0.342678	9
	60	123	100.009	392.944	-825.243	1	914.019	-64.5383	2.88824E-006	-0.342674	9
	61	125	89.1164	407.877	-915.908	1	1002.62	-65.9954	2.89552E-006	-0.342679	9
	62	127	79.4083	424.01	-1016.47	1	1101.36	-67.357	2.2692E-006	-0.342681	8
	63	129	70.788	443.139	-1127.81	1	1211.74	-68.5491	2.20563E-006	-0.342672	8
	64	131	63.0971	465.713	-1252.14	1	1335.94	-69.5981	2.30047E-006	-0.342675	8
	65	133	54.5476	498.135	-1428.39	1	1512.76	-70.7744	2.30623E-006	-0.342677	8
	66	135	50.0083	521.652	-1545.92	1	1631.56	-71.3537	2.4422E-006	-0.342686	8
	67	137	46.1675	544.915	-1660.65	1	1747.76	-71.8335	2.62431E-006	-0.342683	8
	68	140	40.0059	589.633	-1891.41	1	1981.18	-72.6855	2.46116E-006	-0.342683	8
	69	142	35.3046	644.661	-2118.98	1	2214.87	-73.0786	2.78106E-006	-0.34268	8
	70	144	31.5793	691.499	-2344.74	1	2444.58	-73.5684	2.77583E-006	-0.342681	8
	71	146	28.5748	752.309	-2561.18	1	2669.38	-73.6306	2.98788E-006	-0.342684	8
	72	148	24.9911	834.843	-2889.31	1	3007.5	-73.8838	2.96345E-006	-0.342686	8
	73	150	22.2195	916.315	-3211.35	1	3339.52	-74.0746	2.95343E-006	-0.34268	8
	74	153	20.0011	1004.45	-3522.91	1	3663.31	-74.0862	3.04168E-006	-0.342683	8
	75	155	17.6486	1147.37	-3945.97	1	4109.4	-73.7872	2.91031E-006	-0.342682	8
	76	157	15.7934	1205.78	-4292.19	1	4458.34	-74.3087	2.81801E-006	-0.34268	8
	77	160	14.2828	1393.44	-4756.53	1	4956.43	-73.6719	2.91377E-006	-0.342684	8
	78	162	12.5002	1601.72	-5337.23	1	5572.39	-73.2953	2.90163E-006	-0.342687	8
	79	164	11.323	1773.77	-5784.43	1	6050.28	-72.952	2.78729E-006	-0.342687	8
	80	167	9.9987	2066.63	-6478.12	1	6799.78	-72.3065	2.98998E-006	-0.342681	8
