EXPLAIN
TAG	EISPOT
TITLE	LABEL	Tomato_open	Test &Identifier
DATE	LABEL	5/15/2006	Date
TIME	LABEL	17:15:07	Time
NOTES	NOTES	1	&Notes...
	
PSTAT	PSTAT	300	Potentiostat
VDC	POTEN	1.00000E-001	T	DC &Voltage (V)
FREQINIT	QUANT	1.00000E+005	Initial Fre&q. (Hz)
FREQFINAL	QUANT	1.00000E+001	Final Fre&q. (Hz)
PTSPERDEC	QUANT	2.00000E+001	Points/&decade
VAC	QUANT	1.00000E+001	AC &Voltage (mV rms)
AREA	QUANT	1.00000E+000	&Area (cm²)
DENSITY	QUANT	7.87000E+000	&Density (gm/cm³)
EQUIV	QUANT	7.00000E+000	Equiv. &Wt
CONDIT	TWOPARAM	F	1.50000E+001	0.00000E+000	Conditionin&g	Time(s)	E(V)
DELAY	TWOPARAM	F	6.00000E+002	0.00000E+000	Init. De&lay	Time(s)	Stab.(mV/s)
SPEED	SELECTOR	1	&Optimize for:
ZGUESS	QUANT	1.00000E+002	E&stimated Z (ohms)
OCVCURVE	TABLE	39
	Pt	T	Vf	Vm	Ach	Over
	#	s	V vs. Ref.	V	V	bits
	0	0.258332	-5.54869E-001	4.05276E-006	3.66000E-005	......
	1	0.516663	-5.54519E-001	4.05276E-006	-6.34000E-005	......
	2	0.774994	-5.53670E-001	4.05276E-006	3.66000E-005	......
	3	1.03333	-5.51019E-001	4.05276E-006	-6.34000E-005	......
	4	1.29166	-5.50420E-001	4.05276E-006	3.66000E-005	......
	5	1.54999	-5.50419E-001	4.05276E-006	-1.63400E-004	......
	6	1.80832	-5.50869E-001	4.05276E-006	3.66000E-005	......
	7	2.06665	-5.52119E-001	4.05276E-006	3.66000E-005	......
	8	2.32498	-5.52520E-001	4.05276E-006	3.66000E-005	......
	9	2.58332	-5.52769E-001	4.05276E-006	-6.34000E-005	......
	10	2.84165	-5.54169E-001	4.05276E-006	3.66000E-005	......
	11	3.09998	-5.55719E-001	4.05276E-006	-6.34000E-005	......
	12	3.35831	-5.55119E-001	4.05276E-006	3.66000E-005	......
	13	3.61664	-5.54370E-001	4.05276E-006	-1.63400E-004	......
	14	3.87497	-5.53919E-001	4.05276E-006	3.66000E-005	......
	15	4.1333	-5.54269E-001	4.05276E-006	-1.63400E-004	......
	16	4.39164	-5.55269E-001	4.05276E-006	3.66000E-005	......
	17	4.64997	-5.56120E-001	4.05276E-006	-1.63400E-004	......
	18	4.9083	-5.56470E-001	4.05276E-006	3.66000E-005	......
	19	5.16663	-5.56719E-001	4.05276E-006	-1.63400E-004	......
	20	5.42496	-5.57069E-001	4.05276E-006	-6.34000E-005	......
	21	5.68329	-5.57769E-001	4.05276E-006	-1.63400E-004	......
	22	5.94162	-5.58119E-001	4.05276E-006	2.36600E-004	......
	23	6.19996	-5.58419E-001	4.05276E-006	-6.34000E-005	......
	24	6.45829	-5.58769E-001	4.05276E-006	3.66000E-005	......
	25	6.71662	-5.58119E-001	4.05276E-006	-6.34000E-005	......
	26	6.97495	-5.58320E-001	4.05276E-006	-6.34000E-005	......
	27	7.23328	-5.59319E-001	4.05276E-006	-1.63400E-004	......
	28	7.49161	-5.57069E-001	4.05276E-006	3.66000E-005	......
	29	7.74995	-5.52970E-001	4.05276E-006	-1.63400E-004	......
	30	8.00828	-5.51669E-001	4.05276E-006	3.66000E-005	......
	31	8.26661	-5.52170E-001	4.05276E-006	-6.34000E-005	......
	32	8.52494	-5.52719E-001	4.05276E-006	-1.63400E-004	......
	33	8.78327	-5.52319E-001	4.05276E-006	-1.63400E-004	......
	34	9.0416	-5.53169E-001	4.05276E-006	3.66000E-005	......
	35	9.29993	-5.54219E-001	4.05276E-006	-1.63400E-004	......
	36	9.5583	-5.52669E-001	4.05276E-006	3.66000E-005	......
	37	9.8166	-5.52419E-001	4.05276E-006	-1.63400E-004	......
	38	10.0749	-5.52570E-001	4.05276E-006	3.66000E-005	......
EOC	QUANT	-0.55257	Open Circuit (V)
PSTATMODEL	IQUANT	32	Pstat Model
PSTATSECTION	LABEL	PStat0	Pstat Section
CTRLMODE	IQUANT	1	Control Mode
IESTAB	IQUANT	0	I/E Stability
CASPEED	IQUANT	1	Control Amp Speed
CONVENTION	IQUANT	1	Current Convention
ICHRANGE	IQUANT	2	Ich Range
ICHRANGEMODE	TOGGLE	F	Ich Auto Range
ICHOFFSETENABLE	TOGGLE	T	Ich Offset Enable
ICHOFFSET	QUANT	0	Ich Offset (V)
ICHFILTER	IQUANT	3	Ich Filter
VCHRANGE	IQUANT	2	Vch Range
VCHRANGEMODE	TOGGLE	F	Vch Auto Range
VCHOFFSETENABLE	TOGGLE	T	Vch Offset Enable
VCHOFFSET	QUANT	0	Vch Offset (V)
VCHFILTER	IQUANT	3	Vch Filter
ACHRANGE	IQUANT	0	Ach Range
IERANGELOWERLIMIT	IQUANT	3	I/E Range Lower Limit
IERANGEMODE	TOGGLE	F	I/E AutoRange
IERANGE	IQUANT	11	I/E Range
POSFEEDENABLE	TOGGLE	F	Positive Feedback IR Comp
POSFEEDRESISTANCE	QUANT	0	Positive Feedback Resistance (ohm)
FC350IDIVISOR	IQUANT	0	FC350 I Divisor
FC350VRANGE	IQUANT	0	FC350 V Range
FRAMEWORKVERSION	QUANT	4.35	Framework Version
ZCURVE	TABLE
	Pt	Time	Freq	Zreal	Zimag	Zsig	Zmod	Zphz	Idc	Vdc	IERange
	#	s	Hz	ohm	ohm	V	ohm	°	A	V	#
	0	4	100007	234.692	0.031299	1	234.692	0.007641	2.32487E-006	-0.45234	9
	1	6	89134.1	233.73	-0.431832	1	233.73	-0.105858	2.59343E-006	-0.452374	9
	2	8	79433.6	232.859	-1.06826	1	232.861	-0.262847	2.55557E-006	-0.452396	9
	3	10	70800.8	232.769	-1.37852	1	232.773	-0.339317	2.33963E-006	-0.452353	9
	4	12	63105.5	232.15	-1.68649	1	232.157	-0.416225	2.40493E-006	-0.452392	9
	5	14	56243.5	231.567	-2.06105	1	231.576	-0.509944	2.51249E-006	-0.452397	9
	6	16	50123.7	231.58	-2.62219	1	231.595	-0.648736	2.46363E-006	-0.452359	9
	7	18	44681	231.634	-3.05214	1	231.654	-0.754918	2.32979E-006	-0.452361	9
	8	20	39811.2	231.633	-3.55315	1	231.661	-0.878821	2.28828E-006	-0.452362	9
	9	22	35488.3	231.707	-3.77658	1	231.738	-0.933778	2.52429E-006	-0.452355	9
	10	24	31634.1	231.384	-4.39261	1	231.426	-1.08758	2.44965E-006	-0.452357	9
	11	26	28173.1	232.013	-5.30573	1	232.073	-1.31003	2.3086E-006	-0.452363	9
	12	28	25123.7	231.955	-5.71434	1	232.025	-1.41123	2.29149E-006	-0.452345	9
	13	30	22389.3	232.053	-6.08116	1	232.132	-1.50115	2.3404E-006	-0.452354	9
	14	32	19954.4	232.117	-6.65969	1	232.212	-1.64343	2.30379E-006	-0.452374	9
	15	34	17778.2	232.314	-7.33813	1	232.43	-1.8092	2.17426E-006	-0.45236	9
	16	36	15852.9	232.238	-7.97833	1	232.375	-1.96757	2.12263E-006	-0.45239	9
	17	38	14122.3	232.592	-8.94389	1	232.764	-2.20211	2.01118E-006	-0.45236	9
	18	40	12587.2	232.721	-9.5117	1	232.915	-2.34048	1.94938E-006	-0.452364	9
	19	42	11221.1	233.347	-10.7568	1	233.594	-2.63936	2.05109E-006	-0.452372	9
	20	44	9998.2	233.431	-11.5908	1	233.719	-2.84264	2.03481E-006	-0.452354	9
	21	46	8912.76	233.754	-12.9631	1	234.113	-3.17416	1.93745E-006	-0.452345	9
	22	48	7942.6	234.22	-13.8827	1	234.631	-3.39207	2.04965E-006	-0.452361	9
	23	50	7078.05	234.454	-15.3264	1	234.955	-3.74014	2.04426E-006	-0.45237	9
	24	52	6311.1	235.042	-16.7992	1	235.641	-4.08817	2.06526E-006	-0.452363	9
	25	54	5622.14	235.55	-18.4818	1	236.274	-4.48637	2.09302E-006	-0.452371	9
	26	55	5011.18	235.462	-20.2865	1	236.334	-4.92422	1.98063E-006	-0.452358	9
	27	57	4465.21	236.083	-22.0099	1	237.107	-5.32625	1.91788E-006	-0.452365	9
	28	59	3980.93	236.645	-24.4759	1	237.907	-5.90505	2.10888E-006	-0.452359	9
	29	61	3548.18	237.318	-26.7682	1	238.822	-6.43547	2.20526E-006	-0.452351	9
	30	63	3162.67	237.863	-28.9669	1	239.621	-6.94328	2.47768E-006	-0.452376	9
	31	65	2819.01	238.601	-32.3979	1	240.79	-7.7325	2.48788E-006	-0.452338	9
	32	67	2511.16	239.433	-35.3369	1	242.027	-8.39544	2.34176E-006	-0.452365	9
	33	69	2238.63	240.317	-39.324	1	243.514	-9.29315	2.23096E-006	-0.452353	9
	34	71	1995.37	241.423	-43.2716	1	245.27	-10.1615	2.12246E-006	-0.452358	9
	35	73	1778.51	242.328	-48.1352	1	247.062	-11.2348	2.14165E-006	-0.452357	9
	36	75	1584.49	243.141	-52.219	1	248.685	-12.1212	2.17615E-006	-0.452349	9
	37	77	1412.76	244.289	-57.9244	1	251.062	-13.3393	2.33238E-006	-0.452346	9
	38	79	1259.04	245.666	-63.5104	1	253.742	-14.4949	2.37356E-006	-0.452343	9
	39	81	1121.63	246.352	-70.004	1	256.105	-15.8631	2.4089E-006	-0.452344	9
	40	83	999.95	247.748	-77.4867	1	259.583	-17.3678	2.22563E-006	-0.452355	9
	41	85	891.184	249.268	-85.498	1	263.523	-18.9318	2.24656E-006	-0.452341	9
	42	87	794.163	251.458	-94.5467	1	268.645	-20.606	2.24537E-006	-0.45235	9
	43	89	707.867	252.912	-104.59	1	273.685	-22.4672	2.0554E-006	-0.452333	9
	44	91	630.984	254.942	-115.354	1	279.825	-24.3455	2.09756E-006	-0.452347	9
	45	93	562.189	256.319	-128.114	1	286.553	-26.5569	2.02665E-006	-0.452343	9
	46	95	501.303	259.078	-141.292	1	295.102	-28.6064	1.94876E-006	-0.452348	9
	47	97	446.614	261.398	-156.45	1	304.64	-30.901	2.01679E-006	-0.452347	9
	48	99	398.209	263.922	-173.186	1	315.671	-33.273	2.0682E-006	-0.452355	9
	49	101	354.821	266.717	-191.847	1	328.548	-35.7271	2.08404E-006	-0.452348	9
	50	103	316.113	269.762	-212.649	1	343.498	-38.2481	2.02742E-006	-0.452356	9
	51	105	281.926	273.008	-235.53	1	360.566	-40.785	1.99142E-006	-0.452356	9
	52	107	251.185	276.673	-261.203	1	380.493	-43.3525	1.97077E-006	-0.452357	9
	53	109	223.946	280.615	-289.569	1	403.23	-45.8996	1.99567E-006	-0.452354	9
	54	111	199.495	284.947	-321.388	1	429.517	-48.4394	1.96052E-006	-0.452354	9
	55	113	177.836	289.699	-356.57	1	459.421	-50.9075	2.00799E-006	-0.452356	9
	56	115	158.533	294.955	-395.727	1	493.556	-53.301	2.09565E-006	-0.45235	9
	57	117	141.263	300.907	-439.533	1	532.667	-55.6042	2.09362E-006	-0.45235	9
	58	119	125.911	307.296	-488.08	1	576.761	-57.8055	2.0489E-006	-0.452353	9
	59	121	112.198	314.421	-542.214	1	626.782	-59.8912	2.16309E-006	-0.452356	9
	60	123	100.009	322.212	-602.362	1	683.126	-61.8571	2.00749E-006	-0.452349	9
	61	125	89.1164	330.96	-669.428	1	746.772	-63.6926	1.97073E-006	-0.452353	9
	62	127	79.4083	341.091	-744.271	1	818.707	-65.3785	2.09571E-006	-0.452351	9
	63	129	70.788	352.703	-827.362	1	899.404	-66.9115	2.32164E-006	-0.45235	9
	64	131	63.0971	366.12	-919.811	1	990	-68.2955	2.5853E-006	-0.45235	9
	65	133	54.5476	386.452	-1052.15	1	1120.88	-69.8318	2.75922E-006	-0.452355	9
	66	135	50.0083	398.197	-1138.87	1	1206.47	-70.7281	1.97697E-006	-0.452353	8
	67	138	46.1675	409.913	-1225.75	1	1292.48	-71.5092	1.79855E-006	-0.452352	8
	68	140	40.0059	436.218	-1399.64	1	1466.04	-72.6896	1.79361E-006	-0.452361	8
	69	142	35.3046	460.437	-1570.86	1	1636.95	-73.6635	1.59629E-006	-0.452352	8
	70	144	31.5793	489.023	-1741.98	1	1809.32	-74.3191	1.72791E-006	-0.452352	8
	71	146	28.5748	519.299	-1909.7	1	1979.04	-74.7875	1.86331E-006	-0.45236	8
	72	148	24.9911	562.796	-2162.32	1	2234.36	-75.411	1.70447E-006	-0.452355	8
	73	151	22.2195	607.176	-2409.5	1	2484.82	-75.8564	1.70809E-006	-0.452355	8
	74	153	20.0011	656.278	-2655.26	1	2735.16	-76.1169	1.79622E-006	-0.452352	8
	75	156	17.6486	715.052	-2978.45	1	3063.08	-76.5002	1.79391E-006	-0.452362	8
	76	158	15.7934	776.957	-3298.52	1	3388.79	-76.7457	1.71322E-006	-0.452353	8
	77	160	14.2828	856.153	-3615.52	1	3715.5	-76.6778	1.66666E-006	-0.452357	8
	78	162	12.5002	969.7	-4090.46	1	4203.83	-76.6634	1.61461E-006	-0.452361	8
	79	165	11.323	1058.49	-4472.23	1	4595.79	-76.6843	1.68859E-006	-0.45236	8
	80	167	9.9987	1194.13	-5006.16	1	5146.61	-76.5839	1.59271E-006	-0.452355	8
