EXPLAIN
TAG	EISPOT
TITLE	LABEL	Tomato_open	Test &Identifier
DATE	LABEL	5/15/2006	Date
TIME	LABEL	17:05:05	Time
NOTES	NOTES	1	&Notes...
	
PSTAT	PSTAT	300	Potentiostat
VDC	POTEN	1.00000E-001	T	DC &Voltage (V)
FREQINIT	QUANT	1.00000E+005	Initial Fre&q. (Hz)
FREQFINAL	QUANT	1.00000E+001	Final Fre&q. (Hz)
PTSPERDEC	QUANT	2.00000E+001	Points/&decade
VAC	QUANT	1.00000E+001	AC &Voltage (mV rms)
AREA	QUANT	1.00000E+000	&Area (cm²)
DENSITY	QUANT	7.87000E+000	&Density (gm/cm³)
EQUIV	QUANT	7.00000E+000	Equiv. &Wt
CONDIT	TWOPARAM	F	1.50000E+001	0.00000E+000	Conditionin&g	Time(s)	E(V)
DELAY	TWOPARAM	F	6.00000E+002	0.00000E+000	Init. De&lay	Time(s)	Stab.(mV/s)
SPEED	SELECTOR	1	&Optimize for:
ZGUESS	QUANT	1.00000E+002	E&stimated Z (ohms)
OCVCURVE	TABLE	39
	Pt	T	Vf	Vm	Ach	Over
	#	s	V vs. Ref.	V	V	bits
	0	0.258332	-5.50619E-001	4.12576E-006	3.66000E-005	......
	1	0.516663	-5.50469E-001	4.12576E-006	3.66000E-005	......
	2	0.774994	-5.50719E-001	4.12576E-006	-6.34000E-005	......
	3	1.03333	-5.50919E-001	4.12576E-006	-6.34000E-005	......
	4	1.29166	-5.51470E-001	4.12576E-006	-6.34000E-005	......
	5	1.54999	-5.52069E-001	4.12576E-006	-6.34000E-005	......
	6	1.80832	-5.52819E-001	4.12576E-006	-1.63400E-004	......
	7	2.06665	-5.51570E-001	4.12576E-006	-6.34000E-005	......
	8	2.32498	-5.50919E-001	4.12576E-006	-1.63400E-004	......
	9	2.58332	-5.49619E-001	4.12576E-006	3.66000E-005	......
	10	2.84165	-5.49019E-001	4.12576E-006	-1.63400E-004	......
	11	3.09998	-5.47269E-001	4.12576E-006	3.66000E-005	......
	12	3.35831	-5.45020E-001	4.12576E-006	-6.34000E-005	......
	13	3.61664	-5.42269E-001	4.12576E-006	3.66000E-005	......
	14	3.87497	-5.40269E-001	4.12576E-006	-1.63400E-004	......
	15	4.1333	-5.37069E-001	4.12576E-006	-6.34000E-005	......
	16	4.39164	-5.35869E-001	4.12576E-006	-6.34000E-005	......
	17	4.64997	-5.35869E-001	4.12576E-006	3.66000E-005	......
	18	4.9083	-5.36669E-001	4.12576E-006	-6.34000E-005	......
	19	5.16663	-5.37820E-001	4.12576E-006	3.66000E-005	......
	20	5.42496	-5.39169E-001	4.12576E-006	-6.34000E-005	......
	21	5.68329	-5.39569E-001	4.12576E-006	3.66000E-005	......
	22	5.94162	-5.39719E-001	4.12576E-006	-6.34000E-005	......
	23	6.19996	-5.38419E-001	4.12576E-006	2.36600E-004	......
	24	6.45829	-5.35819E-001	4.12576E-006	-1.63400E-004	......
	25	6.71662	-5.35370E-001	4.12576E-006	3.66000E-005	......
	26	6.97495	-5.38219E-001	4.12576E-006	-6.34000E-005	......
	27	7.23328	-5.40419E-001	4.12576E-006	2.36600E-004	......
	28	7.49161	-5.40119E-001	4.12576E-006	-1.63400E-004	......
	29	7.74995	-5.41070E-001	4.12576E-006	3.66000E-005	......
	30	8.00828	-5.43469E-001	4.12576E-006	-1.63400E-004	......
	31	8.26661	-5.45519E-001	4.12576E-006	1.36600E-004	......
	32	8.52494	-5.46819E-001	4.12576E-006	-1.63400E-004	......
	33	8.78327	-5.45669E-001	4.12576E-006	3.66000E-005	......
	34	9.0416	-5.45169E-001	4.12576E-006	-6.34000E-005	......
	35	9.29993	-5.46470E-001	4.12576E-006	3.66000E-005	......
	36	9.5583	-5.46669E-001	4.12576E-006	-1.63400E-004	......
	37	9.8166	-5.48220E-001	4.12576E-006	1.36600E-004	......
	38	10.0749	-5.49469E-001	4.12576E-006	-6.34000E-005	......
EOC	QUANT	-0.549469	Open Circuit (V)
PSTATMODEL	IQUANT	32	Pstat Model
PSTATSECTION	LABEL	PStat0	Pstat Section
CTRLMODE	IQUANT	1	Control Mode
IESTAB	IQUANT	0	I/E Stability
CASPEED	IQUANT	1	Control Amp Speed
CONVENTION	IQUANT	1	Current Convention
ICHRANGE	IQUANT	2	Ich Range
ICHRANGEMODE	TOGGLE	F	Ich Auto Range
ICHOFFSETENABLE	TOGGLE	T	Ich Offset Enable
ICHOFFSET	QUANT	0	Ich Offset (V)
ICHFILTER	IQUANT	3	Ich Filter
VCHRANGE	IQUANT	2	Vch Range
VCHRANGEMODE	TOGGLE	F	Vch Auto Range
VCHOFFSETENABLE	TOGGLE	T	Vch Offset Enable
VCHOFFSET	QUANT	0	Vch Offset (V)
VCHFILTER	IQUANT	3	Vch Filter
ACHRANGE	IQUANT	0	Ach Range
IERANGELOWERLIMIT	IQUANT	3	I/E Range Lower Limit
IERANGEMODE	TOGGLE	F	I/E AutoRange
IERANGE	IQUANT	11	I/E Range
POSFEEDENABLE	TOGGLE	F	Positive Feedback IR Comp
POSFEEDRESISTANCE	QUANT	0	Positive Feedback Resistance (ohm)
FC350IDIVISOR	IQUANT	0	FC350 I Divisor
FC350VRANGE	IQUANT	0	FC350 V Range
FRAMEWORKVERSION	QUANT	4.35	Framework Version
ZCURVE	TABLE
	Pt	Time	Freq	Zreal	Zimag	Zsig	Zmod	Zphz	Idc	Vdc	IERange
	#	s	Hz	ohm	ohm	V	ohm	°	A	V	#
	0	4	100007	240.481	-0.428748	1	240.482	-0.102151	2.39606E-006	-0.449276	9
	1	6	89134.1	239.07	-0.378543	1	239.07	-0.090722	2.42796E-006	-0.44927	9
	2	8	79433.6	238.527	-0.99598	1	238.529	-0.239239	2.29863E-006	-0.449267	9
	3	10	70800.8	237.937	-1.17465	1	237.939	-0.282856	2.69532E-006	-0.449303	9
	4	12	63105.5	237.654	-1.6449	1	237.66	-0.396561	2.48732E-006	-0.449276	9
	5	14	56243.5	237.539	-1.78652	1	237.545	-0.430912	2.52403E-006	-0.449287	9
	6	16	50123.7	237.083	-2.76686	1	237.099	-0.668638	2.6517E-006	-0.449283	9
	7	18	44681	236.945	-3.16581	1	236.967	-0.76548	2.52563E-006	-0.449278	9
	8	20	39811.2	237.297	-3.57635	1	237.324	-0.863451	2.70253E-006	-0.449315	9
	9	22	35488.3	236.923	-3.8686	1	236.955	-0.93547	2.77526E-006	-0.449308	9
	10	24	31634.1	237.108	-4.62282	1	237.153	-1.11694	2.77838E-006	-0.449273	9
	11	26	28173.1	237.249	-5.20831	1	237.306	-1.25761	2.71778E-006	-0.449289	9
	12	28	25123.7	237.588	-5.38687	1	237.649	-1.29885	2.79398E-006	-0.44927	9
	13	30	22389.3	237.574	-6.15062	1	237.654	-1.48301	2.83438E-006	-0.449312	9
	14	32	19954.4	237.553	-6.66627	1	237.646	-1.60743	2.68456E-006	-0.449277	9
	15	34	17778.2	238.008	-7.43386	1	238.124	-1.78897	2.64817E-006	-0.449283	9
	16	36	15852.9	238.183	-7.97563	1	238.316	-1.91785	2.58734E-006	-0.449281	9
	17	38	14122.3	238.332	-8.76389	1	238.493	-2.10592	2.71999E-006	-0.449286	9
	18	40	12587.2	238.493	-9.8178	1	238.695	-2.35731	2.62098E-006	-0.449291	9
	19	42	11221.1	238.881	-10.7872	1	239.125	-2.58557	2.57376E-006	-0.449288	9
	20	44	9998.2	239.217	-11.5406	1	239.495	-2.762	2.61349E-006	-0.449282	9
	21	46	8912.76	239.577	-13.0533	1	239.932	-3.11866	2.60667E-006	-0.449284	9
	22	48	7942.6	239.988	-14.1404	1	240.404	-3.37206	2.66698E-006	-0.449274	9
	23	50	7078.05	240.099	-15.3144	1	240.587	-3.6496	2.57745E-006	-0.449286	9
	24	52	6311.1	240.688	-17.0701	1	241.293	-4.05674	2.59867E-006	-0.449288	9
	25	54	5622.14	240.734	-18.3607	1	241.433	-4.36148	2.63581E-006	-0.449291	9
	26	56	5011.18	241.711	-20.1867	1	242.553	-4.77403	2.5986E-006	-0.449283	9
	27	58	4465.21	241.817	-22.6733	1	242.878	-5.3565	2.64404E-006	-0.44928	9
	28	59	3980.93	242.355	-24.6199	1	243.602	-5.80057	2.66071E-006	-0.449273	9
	29	61	3548.18	243.196	-26.9509	1	244.684	-6.32369	2.67699E-006	-0.449273	9
	30	63	3162.67	243.731	-29.6284	1	245.526	-6.93097	2.44459E-006	-0.449263	9
	31	65	2819.01	244.095	-32.8305	1	246.293	-7.66026	2.59465E-006	-0.449303	9
	32	67	2511.16	245.127	-36.1393	1	247.776	-8.38675	2.49938E-006	-0.449286	9
	33	69	2238.63	245.864	-39.8098	1	249.066	-9.19742	2.55018E-006	-0.449284	9
	34	71	1995.37	246.602	-43.6102	1	250.429	-10.0287	2.61843E-006	-0.449295	9
	35	73	1778.51	247.987	-48.0275	1	252.595	-10.9608	2.56467E-006	-0.449295	9
	36	75	1584.49	248.996	-52.7667	1	254.525	-11.965	2.47878E-006	-0.449294	9
	37	77	1412.76	250.382	-58.4176	1	257.106	-13.133	2.57321E-006	-0.449309	9
	38	79	1259.04	251.257	-64.2251	1	259.335	-14.3386	2.47963E-006	-0.449273	9
	39	81	1121.63	252.532	-70.8233	1	262.275	-15.6663	2.52767E-006	-0.449281	9
	40	83	999.95	253.984	-77.9408	1	265.674	-17.0598	2.40503E-006	-0.449283	9
	41	85	891.184	255.568	-85.9466	1	269.633	-18.5876	2.43967E-006	-0.449281	9
	42	87	794.163	257.31	-95.026	1	274.296	-20.2695	2.55392E-006	-0.449292	9
	43	89	707.867	258.954	-104.831	1	279.369	-22.0393	2.77662E-006	-0.449311	9
	44	91	630.984	260.847	-115.343	1	285.211	-23.8544	2.31549E-006	-0.449284	9
	45	93	562.189	263.278	-128.385	1	292.913	-25.9957	2.40707E-006	-0.449276	9
	46	95	501.303	265.478	-141.395	1	300.784	-28.0399	2.61028E-006	-0.449293	9
	47	97	446.614	267.88	-156.49	1	310.24	-30.2926	2.54254E-006	-0.449295	9
	48	99	398.209	270.444	-173.165	1	321.133	-32.6313	2.40893E-006	-0.449295	9
	49	101	354.821	273.291	-191.774	1	333.864	-35.0581	2.35892E-006	-0.449297	9
	50	103	316.113	276.403	-212.444	1	348.613	-37.546	2.35049E-006	-0.449298	9
	51	105	281.926	279.751	-235.264	1	365.526	-40.063	2.27254E-006	-0.4493	9
	52	107	251.185	283.427	-260.847	1	385.191	-42.6243	2.26209E-006	-0.4493	9
	53	109	223.946	287.489	-289.139	1	407.74	-45.1639	2.32834E-006	-0.449291	9
	54	111	199.495	291.876	-320.782	1	433.696	-47.7013	2.2261E-006	-0.449289	9
	55	113	177.836	296.767	-355.795	1	463.314	-50.1687	2.10877E-006	-0.449296	9
	56	115	158.533	302.219	-394.765	1	497.168	-52.5636	2.24298E-006	-0.449295	9
	57	117	141.263	308.401	-438.356	1	535.973	-54.8721	2.21438E-006	-0.449302	9
	58	119	125.911	315.046	-486.756	1	579.815	-57.0876	2.22598E-006	-0.449304	9
	59	121	112.198	322.335	-540.629	1	629.428	-59.1956	2.15342E-006	-0.449299	9
	60	123	100.009	330.581	-600.538	1	685.514	-61.1683	2.22819E-006	-0.449292	9
	61	125	89.1164	339.561	-667.221	1	748.656	-63.0276	2.12272E-006	-0.449299	9
	62	127	79.4083	349.556	-741.548	1	819.807	-64.7614	1.99461E-006	-0.4493	9
	63	129	70.788	361.277	-823.934	1	899.66	-66.3236	2.17971E-006	-0.449296	9
	64	131	63.0971	374.607	-915.81	1	989.46	-67.7532	2.29107E-006	-0.449294	9
	65	134	54.5476	393.665	-1047	1	1118.56	-69.394	2.43419E-006	-0.449296	9
	66	136	50.0083	405.489	-1133.13	1	1203.49	-70.3102	1.56531E-006	-0.449303	8
	67	138	46.1675	418.803	-1219.95	1	1289.84	-71.053	1.55932E-006	-0.449299	8
	68	140	40.0059	443.681	-1391.93	1	1460.94	-72.3202	1.39666E-006	-0.449299	8
	69	142	35.3046	470.672	-1561.64	1	1631.02	-73.2274	1.50394E-006	-0.449303	8
	70	144	31.5793	495.804	-1731.29	1	1800.88	-74.0194	1.43485E-006	-0.449291	8
	71	146	28.5748	524.019	-1898.07	1	1969.08	-74.5663	1.40452E-006	-0.449292	8
	72	148	24.9911	565.207	-2148.51	1	2221.61	-75.2612	1.35924E-006	-0.449286	8
	73	151	22.2195	611.534	-2393.69	1	2470.57	-75.6688	1.47169E-006	-0.449288	8
	74	153	20.0011	658.039	-2635.65	1	2716.56	-75.9816	1.46839E-006	-0.449281	8
	75	156	17.6486	725.876	-2959.14	1	3046.87	-76.2175	1.53206E-006	-0.449296	8
	76	158	15.7934	792.072	-3275.46	1	3369.86	-76.4057	1.5475E-006	-0.449296	8
	77	160	14.2828	852.527	-3591.03	1	3690.84	-76.645	1.45019E-006	-0.449291	8
	78	162	12.5002	967.79	-4057.65	1	4171.46	-76.5851	1.53904E-006	-0.449296	8
	79	165	11.323	1080.06	-4438.26	1	4567.78	-76.3228	1.61575E-006	-0.449277	8
	80	167	9.9987	1206.7	-4969.23	1	5113.65	-76.3508	1.47494E-006	-0.449283	8
