EXPLAIN
TAG	EISPOT
TITLE	LABEL	Tomato_open	Test &Identifier
DATE	LABEL	5/15/2006	Date
TIME	LABEL	16:55:04	Time
NOTES	NOTES	1	&Notes...
	
PSTAT	PSTAT	300	Potentiostat
VDC	POTEN	1.00000E-001	T	DC &Voltage (V)
FREQINIT	QUANT	1.00000E+005	Initial Fre&q. (Hz)
FREQFINAL	QUANT	1.00000E+001	Final Fre&q. (Hz)
PTSPERDEC	QUANT	2.00000E+001	Points/&decade
VAC	QUANT	1.00000E+001	AC &Voltage (mV rms)
AREA	QUANT	1.00000E+000	&Area (cm²)
DENSITY	QUANT	7.87000E+000	&Density (gm/cm³)
EQUIV	QUANT	7.00000E+000	Equiv. &Wt
CONDIT	TWOPARAM	F	1.50000E+001	0.00000E+000	Conditionin&g	Time(s)	E(V)
DELAY	TWOPARAM	F	6.00000E+002	0.00000E+000	Init. De&lay	Time(s)	Stab.(mV/s)
SPEED	SELECTOR	1	&Optimize for:
ZGUESS	QUANT	1.00000E+002	E&stimated Z (ohms)
OCVCURVE	TABLE	39
	Pt	T	Vf	Vm	Ach	Over
	#	s	V vs. Ref.	V	V	bits
	0	0.258332	-5.32869E-001	3.70104E-006	-6.34000E-005	......
	1	0.516663	-5.32569E-001	3.70104E-006	2.36600E-004	......
	2	0.774994	-5.32819E-001	3.70104E-006	-6.34000E-005	......
	3	1.03333	-5.33069E-001	3.70104E-006	2.36600E-004	......
	4	1.29166	-5.33669E-001	3.70104E-006	-1.63400E-004	......
	5	1.54999	-5.35769E-001	3.70104E-006	2.36600E-004	......
	6	1.80832	-5.39069E-001	3.70104E-006	-1.63400E-004	......
	7	2.06665	-5.38669E-001	3.70104E-006	3.66000E-005	......
	8	2.32498	-5.35269E-001	3.70104E-006	-1.63400E-004	......
	9	2.58332	-5.34419E-001	3.70104E-006	3.66000E-005	......
	10	2.84165	-5.36469E-001	3.70104E-006	3.66000E-005	......
	11	3.09998	-5.37669E-001	3.70104E-006	2.36600E-004	......
	12	3.35831	-5.39769E-001	3.70104E-006	-6.34000E-005	......
	13	3.61664	-5.42319E-001	3.70104E-006	1.36600E-004	......
	14	3.87497	-5.44869E-001	3.70104E-006	-1.63400E-004	......
	15	4.1333	-5.46070E-001	3.70104E-006	3.66000E-005	......
	16	4.39164	-5.47219E-001	3.70104E-006	-1.63400E-004	......
	17	4.64997	-5.46669E-001	3.70104E-006	3.66000E-005	......
	18	4.9083	-5.47219E-001	3.70104E-006	-1.63400E-004	......
	19	5.16663	-5.49069E-001	3.70104E-006	3.66000E-005	......
	20	5.42496	-5.51419E-001	3.70104E-006	-6.34000E-005	......
	21	5.68329	-5.54469E-001	3.70104E-006	3.66000E-005	......
	22	5.94162	-5.57969E-001	3.70104E-006	3.66000E-005	......
	23	6.19996	-5.61069E-001	3.70104E-006	2.36600E-004	......
	24	6.45829	-5.62670E-001	3.70104E-006	-1.63400E-004	......
	25	6.71662	-5.60719E-001	3.70104E-006	3.66000E-005	......
	26	6.97495	-5.59419E-001	3.70104E-006	-1.63400E-004	......
	27	7.23328	-5.53219E-001	3.70104E-006	3.66000E-005	......
	28	7.49161	-5.48519E-001	3.70104E-006	-1.63400E-004	......
	29	7.74995	-5.46269E-001	3.70104E-006	3.66000E-005	......
	30	8.00828	-5.47870E-001	3.70104E-006	-6.34000E-005	......
	31	8.26661	-5.50819E-001	3.70104E-006	3.66000E-005	......
	32	8.52494	-5.54069E-001	3.70104E-006	-6.34000E-005	......
	33	8.78327	-5.56669E-001	3.70104E-006	3.66000E-005	......
	34	9.0416	-5.58270E-001	3.70104E-006	-6.34000E-005	......
	35	9.29993	-5.58619E-001	3.70104E-006	3.66000E-005	......
	36	9.5583	-5.58919E-001	3.70104E-006	-6.34000E-005	......
	37	9.8166	-5.59070E-001	3.70104E-006	3.66000E-005	......
	38	10.0749	-5.51219E-001	3.70104E-006	-1.63400E-004	......
EOC	QUANT	-0.551219	Open Circuit (V)
PSTATMODEL	IQUANT	32	Pstat Model
PSTATSECTION	LABEL	PStat0	Pstat Section
CTRLMODE	IQUANT	1	Control Mode
IESTAB	IQUANT	0	I/E Stability
CASPEED	IQUANT	1	Control Amp Speed
CONVENTION	IQUANT	1	Current Convention
ICHRANGE	IQUANT	2	Ich Range
ICHRANGEMODE	TOGGLE	F	Ich Auto Range
ICHOFFSETENABLE	TOGGLE	T	Ich Offset Enable
ICHOFFSET	QUANT	0	Ich Offset (V)
ICHFILTER	IQUANT	3	Ich Filter
VCHRANGE	IQUANT	2	Vch Range
VCHRANGEMODE	TOGGLE	F	Vch Auto Range
VCHOFFSETENABLE	TOGGLE	T	Vch Offset Enable
VCHOFFSET	QUANT	0	Vch Offset (V)
VCHFILTER	IQUANT	3	Vch Filter
ACHRANGE	IQUANT	0	Ach Range
IERANGELOWERLIMIT	IQUANT	3	I/E Range Lower Limit
IERANGEMODE	TOGGLE	F	I/E AutoRange
IERANGE	IQUANT	11	I/E Range
POSFEEDENABLE	TOGGLE	F	Positive Feedback IR Comp
POSFEEDRESISTANCE	QUANT	0	Positive Feedback Resistance (ohm)
FC350IDIVISOR	IQUANT	0	FC350 I Divisor
FC350VRANGE	IQUANT	0	FC350 V Range
FRAMEWORKVERSION	QUANT	4.35	Framework Version
ZCURVE	TABLE
	Pt	Time	Freq	Zreal	Zimag	Zsig	Zmod	Zphz	Idc	Vdc	IERange
	#	s	Hz	ohm	ohm	V	ohm	°	A	V	#
	0	5	100007	245.445	-0.573406	1	245.446	-0.133854	3.74045E-006	-0.45106	9
	1	7	89134.1	244.295	-0.696318	1	244.296	-0.163311	4.09473E-006	-0.45112	9
	2	9	79433.6	243.659	-0.896637	1	243.66	-0.210841	3.88799E-006	-0.451097	9
	3	10	70800.8	242.982	-1.62361	1	242.987	-0.382846	3.38513E-006	-0.451115	9
	4	12	63105.5	242.646	-1.95192	1	242.654	-0.460895	3.25599E-006	-0.451119	9
	5	14	56243.5	242.997	-2.3243	1	243.008	-0.548026	2.89807E-006	-0.451127	9
	6	16	50123.7	242.561	-2.93968	1	242.579	-0.694353	2.88792E-006	-0.451075	9
	7	18	44681	242.441	-3.46974	1	242.466	-0.819944	2.80292E-006	-0.451088	9
	8	20	39811.2	242.391	-3.63411	1	242.418	-0.858958	2.56204E-006	-0.451086	9
	9	22	35488.3	242.588	-4.14986	1	242.624	-0.98004	2.37706E-006	-0.451112	9
	10	24	31634.1	242.689	-4.78226	1	242.736	-1.12888	2.01113E-006	-0.45111	9
	11	26	28173.1	242.529	-5.15834	1	242.584	-1.21844	1.81367E-006	-0.451098	9
	12	28	25123.7	242.809	-5.84166	1	242.879	-1.3782	1.90017E-006	-0.451096	9
	13	30	22389.3	243.041	-6.41868	1	243.126	-1.51282	2.07632E-006	-0.451126	9
	14	32	19954.4	243.101	-7.00924	1	243.202	-1.65153	2.38785E-006	-0.451117	9
	15	34	17778.2	243.046	-7.86967	1	243.173	-1.85455	2.52709E-006	-0.451108	9
	16	36	15852.9	243.592	-8.61184	1	243.744	-2.02477	2.40662E-006	-0.451081	9
	17	38	14122.3	243.849	-9.03285	1	244.016	-2.12143	2.55134E-006	-0.45109	9
	18	40	12587.2	244.064	-10.226	1	244.278	-2.39921	2.53071E-006	-0.451095	9
	19	42	11221.1	244.085	-11.0678	1	244.336	-2.59624	2.52638E-006	-0.4511	9
	20	44	9998.2	244.521	-12.0792	1	244.819	-2.82809	2.63192E-006	-0.451099	9
	21	46	8912.76	245.165	-13.6465	1	245.545	-3.18593	2.43178E-006	-0.451075	9
	22	48	7942.6	245.419	-14.8051	1	245.866	-3.45222	2.56095E-006	-0.451084	9
	23	50	7078.05	245.893	-16.0121	1	246.414	-3.72574	2.56309E-006	-0.451089	9
	24	52	6311.1	245.778	-17.5909	1	246.406	-4.09382	2.49871E-006	-0.451086	9
	25	54	5622.14	246.676	-19.5915	1	247.452	-4.54103	2.56135E-006	-0.451104	9
	26	56	5011.18	247.268	-21.2025	1	248.176	-4.90094	2.83012E-006	-0.451096	9
	27	58	4465.21	247.99	-23.2357	1	249.076	-5.35276	2.95807E-006	-0.451103	9
	28	60	3980.93	248.384	-25.5604	1	249.695	-5.87545	2.95074E-006	-0.451119	9
	29	62	3548.18	249.292	-28.2654	1	250.889	-6.46873	2.52357E-006	-0.451091	9
	30	64	3162.67	249.751	-31.355	1	251.711	-7.15577	2.70295E-006	-0.451076	9
	31	66	2819.01	250.621	-34.3107	1	252.959	-7.79549	2.73942E-006	-0.451094	9
	32	68	2511.16	251.721	-37.4462	1	254.491	-8.4613	2.70748E-006	-0.451102	9
	33	70	2238.63	252.478	-41.3487	1	255.842	-9.30085	2.33298E-006	-0.451105	9
	34	72	1995.37	253.57	-45.4669	1	257.614	-10.1655	2.70471E-006	-0.451093	9
	35	74	1778.51	254.921	-49.839	1	259.748	-11.0622	2.60337E-006	-0.451095	9
	36	76	1584.49	255.934	-54.7028	1	261.715	-12.0647	2.27299E-006	-0.451097	9
	37	78	1412.76	256.97	-60.5302	1	264.002	-13.2546	2.4307E-006	-0.451089	9
	38	79	1259.04	258.523	-66.4112	1	266.917	-14.407	2.31307E-006	-0.451094	9
	39	81	1121.63	260.067	-72.8268	1	270.072	-15.6439	2.21638E-006	-0.451093	9
	40	83	999.95	261.557	-80.5063	1	273.666	-17.1082	1.91098E-006	-0.451098	9
	41	85	891.184	263.875	-88.482	1	278.314	-18.5372	1.93063E-006	-0.451104	9
	42	87	794.163	265.489	-97.573	1	282.852	-20.1796	2.11167E-006	-0.451088	9
	43	89	707.867	267.56	-106.931	1	288.137	-21.7842	2.14659E-006	-0.451078	9
	44	91	630.984	269.579	-118.541	1	294.491	-23.7363	2.19931E-006	-0.451089	9
	45	93	562.189	271.771	-130.357	1	301.418	-25.6251	1.84653E-006	-0.451082	9
	46	95	501.303	274.622	-143.981	1	310.077	-27.6674	1.89142E-006	-0.451086	9
	47	97	446.614	277.249	-159.087	1	319.649	-29.8474	1.80354E-006	-0.451085	9
	48	99	398.209	280.129	-175.714	1	330.678	-32.0985	1.86015E-006	-0.451091	9
	49	101	354.821	283.287	-194.246	1	343.487	-34.4378	2.03026E-006	-0.451088	9
	50	103	316.113	286.679	-214.869	1	358.265	-36.8519	2.09242E-006	-0.451086	9
	51	105	281.926	290.389	-237.563	1	375.182	-39.286	2.01901E-006	-0.451082	9
	52	107	251.185	294.457	-262.994	1	394.805	-41.7697	2.04606E-006	-0.451083	9
	53	109	223.946	298.979	-291.099	1	417.286	-44.2349	2.28252E-006	-0.45108	9
	54	111	199.495	303.924	-322.579	1	443.201	-46.7056	2.54838E-006	-0.451083	9
	55	113	177.836	309.246	-357.28	1	472.528	-49.1219	2.41807E-006	-0.451077	9
	56	115	158.533	314.801	-395.994	1	505.876	-51.5166	1.90182E-006	-0.451077	9
	57	118	141.263	321.472	-439.144	1	544.235	-53.7943	2.02208E-006	-0.451074	9
	58	120	125.911	328.791	-487.098	1	587.68	-55.9807	2.14674E-006	-0.451077	9
	59	122	112.198	336.402	-540.525	1	636.658	-58.1034	1.83588E-006	-0.451073	9
	60	124	100.009	345.314	-599.709	1	692.021	-60.0665	1.98968E-006	-0.451077	9
	61	126	89.1164	354.993	-665.773	1	754.503	-61.9333	1.86095E-006	-0.451078	9
	62	128	79.4083	365.738	-739.315	1	824.834	-63.6784	1.87991E-006	-0.45107	9
	63	130	70.788	378.318	-820.699	1	903.699	-65.2517	1.94749E-006	-0.451073	9
	64	132	63.0971	391.516	-911.282	1	991.83	-66.7501	1.84701E-006	-0.451067	9
	65	134	54.5476	410.74	-1040.52	1	1118.66	-68.4587	1.71379E-006	-0.451073	9
	66	136	50.0083	423.293	-1125.64	1	1202.6	-69.3915	1.12865E-006	-0.451078	8
	67	138	46.1675	437.182	-1210.91	1	1287.42	-70.1487	1.17789E-006	-0.45108	8
	68	140	40.0059	464.312	-1380.71	1	1456.69	-71.4129	1.22281E-006	-0.451081	8
	69	142	35.3046	491.646	-1547.63	1	1623.85	-72.3762	1.24391E-006	-0.451076	8
	70	145	31.5793	519.652	-1712.63	1	1789.73	-73.121	1.29417E-006	-0.451072	8
	71	147	28.5748	545.952	-1877.65	1	1955.41	-73.7875	1.13269E-006	-0.451081	8
	72	149	24.9911	589.978	-2121.55	1	2202.06	-74.4594	1.21474E-006	-0.451077	8
	73	151	22.2195	645.74	-2361.05	1	2447.77	-74.7039	1.54128E-006	-0.451082	8
	74	153	20.0011	692.715	-2595.84	1	2686.67	-75.0584	1.59799E-006	-0.451078	8
	75	156	17.6486	753.431	-2910.92	1	3006.84	-75.4886	1.55819E-006	-0.451071	8
	76	158	15.7934	818.075	-3223.84	1	3326.02	-75.7613	1.38501E-006	-0.45108	8
	77	160	14.2828	888.416	-3530.68	1	3640.74	-75.876	1.30469E-006	-0.451076	8
	78	163	12.5002	982.43	-3992.9	1	4111.99	-76.1772	1.1878E-006	-0.451075	8
	79	165	11.323	1060.18	-4372.92	1	4499.6	-76.372	1.09487E-006	-0.451072	8
	80	168	9.9987	1203.68	-4882.25	1	5028.44	-76.1504	1.15213E-006	-0.451078	8
