EXPLAIN
TAG	EISPOT
TITLE	LABEL	Tomato_open	Test &Identifier
DATE	LABEL	5/15/2006	Date
TIME	LABEL	17:00:04	Time
NOTES	NOTES	1	&Notes...
	
PSTAT	PSTAT	300	Potentiostat
VDC	POTEN	1.00000E-001	T	DC &Voltage (V)
FREQINIT	QUANT	1.00000E+005	Initial Fre&q. (Hz)
FREQFINAL	QUANT	1.00000E+001	Final Fre&q. (Hz)
PTSPERDEC	QUANT	2.00000E+001	Points/&decade
VAC	QUANT	1.00000E+001	AC &Voltage (mV rms)
AREA	QUANT	1.00000E+000	&Area (cm²)
DENSITY	QUANT	7.87000E+000	&Density (gm/cm³)
EQUIV	QUANT	7.00000E+000	Equiv. &Wt
CONDIT	TWOPARAM	F	1.50000E+001	0.00000E+000	Conditionin&g	Time(s)	E(V)
DELAY	TWOPARAM	F	6.00000E+002	0.00000E+000	Init. De&lay	Time(s)	Stab.(mV/s)
SPEED	SELECTOR	1	&Optimize for:
ZGUESS	QUANT	1.00000E+002	E&stimated Z (ohms)
OCVCURVE	TABLE	39
	Pt	T	Vf	Vm	Ach	Over
	#	s	V vs. Ref.	V	V	bits
	0	0.258332	-5.49219E-001	4.04076E-006	3.66000E-005	......
	1	0.516663	-5.49869E-001	4.04076E-006	-1.63400E-004	......
	2	0.774994	-5.50770E-001	4.04076E-006	-6.34000E-005	......
	3	1.03333	-5.51870E-001	4.04076E-006	-2.63400E-004	......
	4	1.29166	-5.52269E-001	4.04076E-006	1.36600E-004	......
	5	1.54999	-5.52019E-001	4.04076E-006	-1.63400E-004	......
	6	1.80832	-5.50219E-001	4.04076E-006	3.66000E-005	......
	7	2.06665	-5.48719E-001	4.04076E-006	-1.63400E-004	......
	8	2.32498	-5.45770E-001	4.04076E-006	3.66000E-005	......
	9	2.58332	-5.41219E-001	4.04076E-006	-6.34000E-005	......
	10	2.84165	-5.39370E-001	4.04076E-006	3.66000E-005	......
	11	3.09998	-5.38369E-001	4.04076E-006	-1.63400E-004	......
	12	3.35831	-5.38870E-001	4.04076E-006	3.66000E-005	......
	13	3.61664	-5.39119E-001	4.04076E-006	-1.63400E-004	......
	14	3.87497	-5.36919E-001	4.04076E-006	3.66000E-005	......
	15	4.1333	-5.37569E-001	4.04076E-006	-1.63400E-004	......
	16	4.39164	-5.38219E-001	4.04076E-006	-6.34000E-005	......
	17	4.64997	-5.39270E-001	4.04076E-006	-1.63400E-004	......
	18	4.9083	-5.40069E-001	4.04076E-006	3.66000E-005	......
	19	5.16663	-5.40469E-001	4.04076E-006	-1.63400E-004	......
	20	5.42496	-5.40269E-001	4.04076E-006	3.66000E-005	......
	21	5.68329	-5.40419E-001	4.04076E-006	-1.63400E-004	......
	22	5.94162	-5.41770E-001	4.04076E-006	3.66000E-005	......
	23	6.19996	-5.42470E-001	4.04076E-006	-6.34000E-005	......
	24	6.45829	-5.42969E-001	4.04076E-006	2.36600E-004	......
	25	6.71662	-5.44719E-001	4.04076E-006	-1.63400E-004	......
	26	6.97495	-5.45169E-001	4.04076E-006	3.66000E-005	......
	27	7.23328	-5.45569E-001	4.04076E-006	-1.63400E-004	......
	28	7.49161	-5.46119E-001	4.04076E-006	2.36600E-004	......
	29	7.74995	-5.47170E-001	4.04076E-006	-1.63400E-004	......
	30	8.00828	-5.48419E-001	4.04076E-006	3.66000E-005	......
	31	8.26661	-5.49619E-001	4.04076E-006	-1.63400E-004	......
	32	8.52494	-5.50020E-001	4.04076E-006	3.66000E-005	......
	33	8.78327	-5.50419E-001	4.04076E-006	-1.63400E-004	......
	34	9.0416	-5.50519E-001	4.04076E-006	3.66000E-005	......
	35	9.29993	-5.51019E-001	4.04076E-006	-1.63400E-004	......
	36	9.5583	-5.49169E-001	4.04076E-006	3.66000E-005	......
	37	9.8166	-5.48769E-001	4.04076E-006	-2.63400E-004	......
	38	10.0749	-5.48669E-001	4.04076E-006	-6.34000E-005	......
EOC	QUANT	-0.548669	Open Circuit (V)
PSTATMODEL	IQUANT	32	Pstat Model
PSTATSECTION	LABEL	PStat0	Pstat Section
CTRLMODE	IQUANT	1	Control Mode
IESTAB	IQUANT	0	I/E Stability
CASPEED	IQUANT	1	Control Amp Speed
CONVENTION	IQUANT	1	Current Convention
ICHRANGE	IQUANT	2	Ich Range
ICHRANGEMODE	TOGGLE	F	Ich Auto Range
ICHOFFSETENABLE	TOGGLE	T	Ich Offset Enable
ICHOFFSET	QUANT	0	Ich Offset (V)
ICHFILTER	IQUANT	3	Ich Filter
VCHRANGE	IQUANT	2	Vch Range
VCHRANGEMODE	TOGGLE	F	Vch Auto Range
VCHOFFSETENABLE	TOGGLE	T	Vch Offset Enable
VCHOFFSET	QUANT	0	Vch Offset (V)
VCHFILTER	IQUANT	3	Vch Filter
ACHRANGE	IQUANT	0	Ach Range
IERANGELOWERLIMIT	IQUANT	3	I/E Range Lower Limit
IERANGEMODE	TOGGLE	F	I/E AutoRange
IERANGE	IQUANT	11	I/E Range
POSFEEDENABLE	TOGGLE	F	Positive Feedback IR Comp
POSFEEDRESISTANCE	QUANT	0	Positive Feedback Resistance (ohm)
FC350IDIVISOR	IQUANT	0	FC350 I Divisor
FC350VRANGE	IQUANT	0	FC350 V Range
FRAMEWORKVERSION	QUANT	4.35	Framework Version
ZCURVE	TABLE
	Pt	Time	Freq	Zreal	Zimag	Zsig	Zmod	Zphz	Idc	Vdc	IERange
	#	s	Hz	ohm	ohm	V	ohm	°	A	V	#
	0	5	100007	242.988	-0.21758	1	242.988	-0.051305	2.11409E-006	-0.448562	9
	1	7	89134.1	242.057	-0.418937	1	242.058	-0.099164	2.19801E-006	-0.448614	9
	2	9	79433.6	241.533	-0.847992	1	241.535	-0.201157	2.34304E-006	-0.448571	9
	3	10	70800.8	240.804	-1.91832	1	240.812	-0.456427	2.54254E-006	-0.448568	9
	4	12	63105.5	240.236	-1.99914	1	240.244	-0.476779	2.44124E-006	-0.448577	9
	5	14	56243.5	240.255	-2.12354	1	240.265	-0.506407	2.32484E-006	-0.448565	9
	6	16	50123.7	239.865	-2.55857	1	239.879	-0.611133	2.51982E-006	-0.448603	9
	7	18	44681	239.692	-3.09839	1	239.712	-0.740597	2.2707E-006	-0.44856	9
	8	20	39811.2	239.39	-3.41273	1	239.415	-0.816749	2.34976E-006	-0.448595	9
	9	22	35488.3	239.756	-4.05018	1	239.79	-0.9678	2.3351E-006	-0.448597	9
	10	24	31634.1	239.423	-4.63379	1	239.468	-1.10876	2.46307E-006	-0.448607	9
	11	26	28173.1	240.086	-4.85297	1	240.135	-1.15799	2.40292E-006	-0.44858	9
	12	28	25123.7	240.076	-6.06911	1	240.152	-1.44813	2.55568E-006	-0.448598	9
	13	30	22389.3	239.999	-6.14199	1	240.078	-1.46598	2.25568E-006	-0.448577	9
	14	32	19954.4	240.408	-6.92172	1	240.508	-1.64918	2.32115E-006	-0.448566	9
	15	34	17778.2	240.458	-7.6531	1	240.579	-1.82295	2.3004E-006	-0.448568	9
	16	36	15852.9	240.856	-8.49928	1	241.006	-2.02101	2.36659E-006	-0.448577	9
	17	38	14122.3	241.205	-9.09789	1	241.377	-2.16009	2.27795E-006	-0.448579	9
	18	40	12587.2	241.402	-9.7704	1	241.599	-2.31771	2.31912E-006	-0.448587	9
	19	42	11221.1	241.377	-10.8082	1	241.618	-2.56384	2.40084E-006	-0.44858	9
	20	44	9998.2	241.637	-11.693	1	241.92	-2.77042	2.23904E-006	-0.448587	9
	21	46	8912.76	242.442	-13.023	1	242.792	-3.07474	2.03128E-006	-0.448551	9
	22	48	7942.6	242.375	-14.6167	1	242.815	-3.45111	2.2484E-006	-0.448577	9
	23	50	7078.05	242.916	-15.9621	1	243.44	-3.75953	2.19321E-006	-0.448573	9
	24	52	6311.1	242.959	-16.9966	1	243.553	-4.0017	2.29801E-006	-0.448579	9
	25	54	5622.14	243.477	-18.7252	1	244.196	-4.39782	2.46732E-006	-0.448586	9
	26	56	5011.18	243.907	-20.7055	1	244.784	-4.85226	2.51179E-006	-0.448569	9
	27	58	4465.21	244.91	-22.8967	1	245.978	-5.34107	2.69382E-006	-0.448581	9
	28	60	3980.93	245.12	-25.17	1	246.409	-5.86285	2.53451E-006	-0.448558	9
	29	62	3548.18	246.049	-27.1869	1	247.547	-6.30524	2.58432E-006	-0.448604	9
	30	64	3162.67	246.65	-30.4614	1	248.524	-7.04042	2.75221E-006	-0.448576	9
	31	66	2819.01	247.289	-32.9593	1	249.476	-7.59179	2.51418E-006	-0.448551	9
	32	68	2511.16	248.076	-36.4643	1	250.741	-8.36195	2.4837E-006	-0.448572	9
	33	70	2238.63	248.902	-40.3201	1	252.147	-9.20152	2.51543E-006	-0.448582	9
	34	72	1995.37	249.869	-44.1351	1	253.736	-10.017	2.56813E-006	-0.448579	9
	35	74	1778.51	251.178	-48.7695	1	255.869	-10.988	2.40263E-006	-0.448583	9
	36	76	1584.49	252.339	-53.3542	1	257.917	-11.9387	2.4641E-006	-0.448583	9
	37	77	1412.76	253.435	-58.783	1	260.163	-13.0585	2.32684E-006	-0.448573	9
	38	79	1259.04	254.672	-64.9402	1	262.821	-14.3053	2.50773E-006	-0.448579	9
	39	81	1121.63	255.837	-71.5523	1	265.654	-15.6252	2.51796E-006	-0.448576	9
	40	83	999.95	257.774	-78.5506	1	269.477	-16.9474	2.55882E-006	-0.44858	9
	41	85	891.184	259.215	-86.7469	1	273.345	-18.5029	2.61421E-006	-0.448575	9
	42	87	794.163	260.881	-95.747	1	277.897	-20.1539	2.86751E-006	-0.448573	9
	43	89	707.867	262.97	-105.807	1	283.457	-21.9175	2.75176E-006	-0.448562	9
	44	91	630.984	265.006	-116.817	1	289.611	-23.7883	2.47679E-006	-0.448587	9
	45	93	562.189	266.615	-128.84	1	296.114	-25.7918	2.47328E-006	-0.448577	9
	46	95	501.303	269.457	-142.229	1	304.69	-27.8266	2.66884E-006	-0.448576	9
	47	97	446.614	271.943	-157.326	1	314.172	-30.0505	2.6209E-006	-0.448583	9
	48	99	398.209	274.604	-173.94	1	325.058	-32.351	2.61284E-006	-0.448586	9
	49	101	354.821	277.57	-192.495	1	337.786	-34.7414	2.71178E-006	-0.448581	9
	50	103	316.113	280.786	-213.129	1	352.513	-37.2001	2.69285E-006	-0.44858	9
	51	105	281.926	284.22	-235.872	1	369.346	-39.689	2.5204E-006	-0.44858	9
	52	107	251.185	288.12	-261.405	1	389.031	-42.2168	2.77982E-006	-0.448584	9
	53	109	223.946	292.21	-289.56	1	411.378	-44.739	2.4691E-006	-0.448577	9
	54	111	199.495	296.925	-321.199	1	437.416	-47.2489	2.62585E-006	-0.448585	9
	55	113	177.836	301.87	-356.045	1	466.791	-49.7073	2.5214E-006	-0.448585	9
	56	115	158.533	307.311	-394.91	1	500.394	-52.1107	2.32254E-006	-0.448585	9
	57	117	141.263	313.587	-438.328	1	538.951	-54.4195	2.39217E-006	-0.448582	9
	58	119	125.911	320.331	-486.481	1	582.474	-56.6365	2.32486E-006	-0.448582	9
	59	121	112.198	327.994	-540.123	1	631.912	-58.7315	2.39033E-006	-0.448579	9
	60	124	100.009	336.411	-599.758	1	687.664	-60.7114	2.41995E-006	-0.448578	9
	61	126	89.1164	345.557	-666.29	1	750.568	-62.5875	2.23914E-006	-0.44858	9
	62	128	79.4083	355.791	-740.128	1	821.204	-64.3257	2.05506E-006	-0.448582	9
	63	130	70.788	367.658	-822.28	1	900.732	-65.9096	2.11851E-006	-0.448586	9
	64	132	63.0971	380.597	-913.701	1	989.8	-67.3861	2.01351E-006	-0.448587	9
	65	134	54.5476	399.869	-1044.08	1	1118.03	-69.0438	2.08278E-006	-0.448587	9
	66	136	50.0083	411.997	-1129.85	1	1202.62	-69.9657	1.43099E-006	-0.448592	8
	67	138	46.1675	425.57	-1215.7	1	1288.04	-70.7068	1.45062E-006	-0.44859	8
	68	140	40.0059	451.779	-1387.26	1	1458.97	-71.9615	1.50671E-006	-0.448585	8
	69	142	35.3046	479.209	-1555.85	1	1627.98	-72.8809	1.46854E-006	-0.448588	8
	70	145	31.5793	509.582	-1723.3	1	1797.06	-73.527	1.65277E-006	-0.448588	8
	71	147	28.5748	540.244	-1889.09	1	1964.82	-74.0405	1.72226E-006	-0.448595	8
	72	149	24.9911	585.807	-2136.59	1	2215.44	-74.6675	1.69735E-006	-0.448593	8
	73	151	22.2195	634.681	-2379.62	1	2462.81	-75.066	1.83247E-006	-0.448588	8
	74	153	20.0011	685.693	-2618.85	1	2707.13	-75.3276	1.75758E-006	-0.448599	8
	75	156	17.6486	754.979	-2935.32	1	3030.85	-75.5759	1.78577E-006	-0.448588	8
	76	158	15.7934	831.283	-3251.77	1	3356.35	-75.66	1.8368E-006	-0.448598	8
	77	160	14.2828	890.65	-3566.68	1	3676.2	-75.9792	1.65171E-006	-0.448604	8
	78	163	12.5002	1015.33	-4022.98	1	4149.13	-75.8353	1.62285E-006	-0.448593	8
	79	165	11.323	1112.47	-4399.47	1	4537.95	-75.8094	1.63836E-006	-0.4486	8
	80	168	9.9987	1252.26	-4915.56	1	5072.56	-75.7076	1.51711E-006	-0.448596	8
