EXPLAIN
TAG	EISPOT
TITLE	LABEL	Tomato_open	Test &Identifier
DATE	LABEL	5/15/2006	Date
TIME	LABEL	17:10:06	Time
NOTES	NOTES	1	&Notes...
	
PSTAT	PSTAT	300	Potentiostat
VDC	POTEN	1.00000E-001	T	DC &Voltage (V)
FREQINIT	QUANT	1.00000E+005	Initial Fre&q. (Hz)
FREQFINAL	QUANT	1.00000E+001	Final Fre&q. (Hz)
PTSPERDEC	QUANT	2.00000E+001	Points/&decade
VAC	QUANT	1.00000E+001	AC &Voltage (mV rms)
AREA	QUANT	1.00000E+000	&Area (cm²)
DENSITY	QUANT	7.87000E+000	&Density (gm/cm³)
EQUIV	QUANT	7.00000E+000	Equiv. &Wt
CONDIT	TWOPARAM	F	1.50000E+001	0.00000E+000	Conditionin&g	Time(s)	E(V)
DELAY	TWOPARAM	F	6.00000E+002	0.00000E+000	Init. De&lay	Time(s)	Stab.(mV/s)
SPEED	SELECTOR	1	&Optimize for:
ZGUESS	QUANT	1.00000E+002	E&stimated Z (ohms)
OCVCURVE	TABLE	39
	Pt	T	Vf	Vm	Ach	Over
	#	s	V vs. Ref.	V	V	bits
	0	0.258332	-5.57220E-001	4.31076E-006	3.66000E-005	......
	1	0.516663	-5.56569E-001	4.31076E-006	-1.63400E-004	......
	2	0.774994	-5.56069E-001	4.31076E-006	3.66000E-005	......
	3	1.03333	-5.55869E-001	4.31076E-006	-1.63400E-004	......
	4	1.29166	-5.55869E-001	4.31076E-006	3.66000E-005	......
	5	1.54999	-5.54719E-001	4.31076E-006	-1.63400E-004	......
	6	1.80832	-5.54619E-001	4.31076E-006	3.66000E-005	......
	7	2.06665	-5.55569E-001	4.31076E-006	-1.63400E-004	......
	8	2.32498	-5.56870E-001	4.31076E-006	2.36600E-004	......
	9	2.58332	-5.57970E-001	4.31076E-006	-1.63400E-004	......
	10	2.84165	-5.59770E-001	4.31076E-006	1.36600E-004	......
	11	3.09998	-5.61469E-001	4.31076E-006	-1.63400E-004	......
	12	3.35831	-5.62369E-001	4.31076E-006	1.36600E-004	......
	13	3.61664	-5.62270E-001	4.31076E-006	3.66000E-005	......
	14	3.87497	-5.60870E-001	4.31076E-006	2.36600E-004	......
	15	4.1333	-5.58019E-001	4.31076E-006	-2.63400E-004	......
	16	4.39164	-5.56969E-001	4.31076E-006	1.36600E-004	......
	17	4.64997	-5.55269E-001	4.31076E-006	-6.34000E-005	......
	18	4.9083	-5.54869E-001	4.31076E-006	3.66000E-005	......
	19	5.16663	-5.54819E-001	4.31076E-006	-1.63400E-004	......
	20	5.42496	-5.55819E-001	4.31076E-006	-6.34000E-005	......
	21	5.68329	-5.56870E-001	4.31076E-006	-6.34000E-005	......
	22	5.94162	-5.57169E-001	4.31076E-006	1.36600E-004	......
	23	6.19996	-5.57220E-001	4.31076E-006	-1.63400E-004	......
	24	6.45829	-5.57019E-001	4.31076E-006	3.66000E-005	......
	25	6.71662	-5.57369E-001	4.31076E-006	-6.34000E-005	......
	26	6.97495	-5.57719E-001	4.31076E-006	1.36600E-004	......
	27	7.23328	-5.58519E-001	4.31076E-006	-1.63400E-004	......
	28	7.49161	-5.58819E-001	4.31076E-006	3.66000E-005	......
	29	7.74995	-5.59269E-001	4.31076E-006	-1.63400E-004	......
	30	8.00828	-5.59569E-001	4.31076E-006	3.66000E-005	......
	31	8.26661	-5.59619E-001	4.31076E-006	-6.34000E-005	......
	32	8.52494	-5.56870E-001	4.31076E-006	3.66000E-005	......
	33	8.78327	-5.56369E-001	4.31076E-006	3.66000E-005	......
	34	9.0416	-5.56969E-001	4.31076E-006	3.66000E-005	......
	35	9.29993	-5.57469E-001	4.31076E-006	-1.63400E-004	......
	36	9.5583	-5.57669E-001	4.31076E-006	3.66000E-005	......
	37	9.8166	-5.55319E-001	4.31076E-006	-6.34000E-005	......
	38	10.0749	-5.51669E-001	4.31076E-006	2.36600E-004	......
EOC	QUANT	-0.551669	Open Circuit (V)
PSTATMODEL	IQUANT	32	Pstat Model
PSTATSECTION	LABEL	PStat0	Pstat Section
CTRLMODE	IQUANT	1	Control Mode
IESTAB	IQUANT	0	I/E Stability
CASPEED	IQUANT	1	Control Amp Speed
CONVENTION	IQUANT	1	Current Convention
ICHRANGE	IQUANT	2	Ich Range
ICHRANGEMODE	TOGGLE	F	Ich Auto Range
ICHOFFSETENABLE	TOGGLE	T	Ich Offset Enable
ICHOFFSET	QUANT	0	Ich Offset (V)
ICHFILTER	IQUANT	3	Ich Filter
VCHRANGE	IQUANT	2	Vch Range
VCHRANGEMODE	TOGGLE	F	Vch Auto Range
VCHOFFSETENABLE	TOGGLE	T	Vch Offset Enable
VCHOFFSET	QUANT	0	Vch Offset (V)
VCHFILTER	IQUANT	3	Vch Filter
ACHRANGE	IQUANT	0	Ach Range
IERANGELOWERLIMIT	IQUANT	3	I/E Range Lower Limit
IERANGEMODE	TOGGLE	F	I/E AutoRange
IERANGE	IQUANT	11	I/E Range
POSFEEDENABLE	TOGGLE	F	Positive Feedback IR Comp
POSFEEDRESISTANCE	QUANT	0	Positive Feedback Resistance (ohm)
FC350IDIVISOR	IQUANT	0	FC350 I Divisor
FC350VRANGE	IQUANT	0	FC350 V Range
FRAMEWORKVERSION	QUANT	4.35	Framework Version
ZCURVE	TABLE
	Pt	Time	Freq	Zreal	Zimag	Zsig	Zmod	Zphz	Idc	Vdc	IERange
	#	s	Hz	ohm	ohm	V	ohm	°	A	V	#
	0	4	100007	237.551	-0.056276	1	237.551	-0.013573	2.4616E-006	-0.451605	9
	1	6	89134.1	236.374	-0.262379	1	236.374	-0.063599	2.72249E-006	-0.451613	9
	2	8	79433.6	235.669	-0.906839	1	235.67	-0.22047	2.6836E-006	-0.451598	9
	3	10	70800.8	235.601	-1.7241	1	235.607	-0.419277	2.79615E-006	-0.451617	9
	4	12	63105.5	235.151	-1.72126	1	235.157	-0.419386	2.94149E-006	-0.451602	9
	5	14	56243.5	234.815	-2.27134	1	234.826	-0.554198	2.78154E-006	-0.45158	9
	6	16	50123.7	234.667	-2.86386	1	234.684	-0.699199	2.88771E-006	-0.451611	9
	7	18	44681	234.296	-3.12629	1	234.317	-0.764471	2.86018E-006	-0.45158	9
	8	20	39811.2	234.305	-3.81893	1	234.336	-0.933781	2.7289E-006	-0.451573	9
	9	22	35488.3	234.642	-4.18336	1	234.679	-1.0214	2.78074E-006	-0.451574	9
	10	24	31634.1	234.417	-4.31578	1	234.457	-1.05474	2.64246E-006	-0.451584	9
	11	26	28173.1	234.179	-5.16265	1	234.236	-1.26293	2.65645E-006	-0.451593	9
	12	28	25123.7	234.841	-5.40117	1	234.903	-1.31753	2.62238E-006	-0.451609	9
	13	30	22389.3	234.702	-6.01589	1	234.779	-1.46829	2.68256E-006	-0.451582	9
	14	32	19954.4	235.044	-6.87932	1	235.145	-1.67646	2.55954E-006	-0.451581	9
	15	34	17778.2	235.673	-7.3232	1	235.787	-1.77981	2.41473E-006	-0.451578	9
	16	36	15852.9	235.14	-7.93387	1	235.273	-1.93249	2.37303E-006	-0.451612	9
	17	38	14122.3	235.842	-9.11308	1	236.018	-2.21284	2.49187E-006	-0.451581	9
	18	40	12587.2	235.971	-9.9627	1	236.181	-2.4176	2.32298E-006	-0.451587	9
	19	42	11221.1	236.086	-10.8303	1	236.334	-2.62657	2.42604E-006	-0.451578	9
	20	44	9998.2	236.339	-11.7795	1	236.632	-2.85335	2.47443E-006	-0.451578	9
	21	46	8912.76	237.04	-12.7168	1	237.381	-3.07087	2.28096E-006	-0.451585	9
	22	48	7942.6	237.239	-13.9259	1	237.648	-3.3594	2.49338E-006	-0.451587	9
	23	50	7078.05	237.561	-15.2898	1	238.053	-3.68256	2.4059E-006	-0.451586	9
	24	52	6311.1	237.334	-16.5805	1	237.912	-3.99629	2.38679E-006	-0.451583	9
	25	54	5622.14	238.504	-18.3695	1	239.21	-4.40422	2.48782E-006	-0.451589	9
	26	56	5011.18	238.542	-20.4932	1	239.421	-4.91023	2.37648E-006	-0.45158	9
	27	58	4465.21	239.339	-21.9277	1	240.341	-5.23471	2.25667E-006	-0.451588	9
	28	60	3980.93	239.762	-24.2396	1	240.984	-5.77292	2.21115E-006	-0.451571	9
	29	62	3548.18	240.164	-26.7518	1	241.649	-6.35598	1.87903E-006	-0.451582	9
	30	64	3162.67	241.072	-29.4085	1	242.86	-6.95517	2.12693E-006	-0.451617	9
	31	66	2819.01	241.991	-32.4015	1	244.15	-7.6263	2.21365E-006	-0.451581	9
	32	68	2511.16	242.525	-35.5714	1	245.12	-8.34415	2.09763E-006	-0.451579	9
	33	70	2238.63	243.375	-39.0143	1	246.483	-9.10733	2.00965E-006	-0.451587	9
	34	72	1995.37	243.932	-43.278	1	247.742	-10.0606	1.87326E-006	-0.451595	9
	35	74	1778.51	245.187	-47.5168	1	249.749	-10.9679	1.8974E-006	-0.451576	9
	36	76	1584.49	245.864	-52.3451	1	251.375	-12.019	1.95509E-006	-0.451594	9
	37	78	1412.76	247.039	-57.8365	1	253.719	-13.1767	1.90132E-006	-0.451585	9
	38	79	1259.04	248.631	-63.5819	1	256.632	-14.3447	1.97898E-006	-0.451577	9
	39	81	1121.63	249.605	-70.3686	1	259.335	-15.7442	1.92931E-006	-0.451585	9
	40	83	999.95	251.427	-77.5532	1	263.116	-17.1425	1.99479E-006	-0.451583	9
	41	85	891.184	252.755	-85.7754	1	266.913	-18.7452	2.22495E-006	-0.451581	9
	42	87	794.163	254.528	-94.8138	1	271.614	-20.4308	2.21432E-006	-0.45159	9
	43	89	707.867	255.898	-104.216	1	276.306	-22.1589	2.39976E-006	-0.451604	9
	44	91	630.984	258.222	-115.421	1	282.843	-24.0839	2.39368E-006	-0.451582	9
	45	93	562.189	259.818	-127.99	1	289.633	-26.2255	2.36193E-006	-0.451567	9
	46	95	501.303	262.333	-141.248	1	297.942	-28.2993	2.22781E-006	-0.451588	9
	47	97	446.614	264.67	-156.414	1	307.434	-30.582	2.0854E-006	-0.45158	9
	48	99	398.209	267.214	-173.117	1	318.391	-32.9376	2.02877E-006	-0.451584	9
	49	101	354.821	270.006	-191.727	1	331.154	-35.378	1.87845E-006	-0.451585	9
	50	103	316.113	273.049	-212.481	1	345.982	-37.8893	1.95856E-006	-0.451584	9
	51	105	281.926	276.352	-235.334	1	362.977	-40.4168	1.81642E-006	-0.451583	9
	52	107	251.185	279.995	-260.963	1	382.751	-42.9851	1.99177E-006	-0.451576	9
	53	109	223.946	283.977	-289.304	1	405.388	-45.5324	1.92167E-006	-0.451575	9
	54	111	199.495	288.355	-321.086	1	431.561	-48.0743	1.92665E-006	-0.451571	9
	55	113	177.836	293.152	-356.247	1	461.357	-50.5494	1.98404E-006	-0.451566	9
	56	115	158.533	298.442	-395.309	1	495.315	-52.9488	1.99898E-006	-0.451573	9
	57	117	141.263	304.496	-439.03	1	534.289	-55.2561	2.15551E-006	-0.451566	9
	58	119	125.911	310.9	-487.532	1	578.227	-57.4742	1.94248E-006	-0.451572	9
	59	121	112.198	317.985	-541.567	1	628.02	-59.5804	1.95401E-006	-0.45156	9
	60	123	100.009	325.954	-601.672	1	684.292	-61.5535	1.91745E-006	-0.451568	9
	61	126	89.1164	334.786	-668.522	1	747.665	-63.399	1.84644E-006	-0.451568	9
	62	128	79.4083	344.756	-743.158	1	819.232	-65.1131	1.88773E-006	-0.451568	9
	63	130	70.788	355.634	-825.977	1	899.285	-66.7051	1.84187E-006	-0.451571	9
	64	132	63.0971	368.416	-918.316	1	989.46	-68.14	1.93113E-006	-0.451568	9
	65	134	54.5476	386.146	-1050.29	1	1119.03	-69.8137	1.97036E-006	-0.451565	9
	66	136	50.0083	398.194	-1136.67	1	1204.4	-70.6938	1.3633E-006	-0.451569	8
	67	138	46.1675	412.107	-1223.83	1	1291.35	-71.3897	1.47957E-006	-0.451569	8
	68	140	40.0059	436.376	-1397.11	1	1463.67	-72.6542	1.46683E-006	-0.451576	8
	69	142	35.3046	460.736	-1567.6	1	1633.9	-73.6213	1.27986E-006	-0.451576	8
	70	145	31.5793	486.188	-1738.07	1	1804.79	-74.3722	1.31364E-006	-0.451572	8
	71	146	28.5748	512.801	-1906.25	1	1974.02	-74.9433	1.31441E-006	-0.451574	8
	72	149	24.9911	555.767	-2157.16	1	2227.6	-75.5526	1.42477E-006	-0.451583	8
	73	151	22.2195	597.221	-2405.03	1	2478.08	-76.0543	1.33233E-006	-0.451584	8
	74	153	20.0011	644.023	-2649.87	1	2727.01	-76.3397	1.41256E-006	-0.451578	8
	75	156	17.6486	699.002	-2973.7	1	3054.75	-76.7721	1.33926E-006	-0.451583	8
	76	158	15.7934	767.644	-3294.73	1	3382.98	-76.8846	1.39178E-006	-0.451584	8
	77	160	14.2828	827.75	-3615.51	1	3709.05	-77.1047	1.33626E-006	-0.451585	8
	78	162	12.5002	927.853	-4081.78	1	4185.91	-77.1934	1.30882E-006	-0.451595	8
	79	165	11.323	1006.07	-4474.85	1	4586.55	-77.329	1.2463E-006	-0.451587	8
	80	168	9.9987	1131.76	-5017.25	1	5143.32	-77.2883	1.19087E-006	-0.451578	8
