EXPLAIN
TAG	EISPOT
TITLE	LABEL	Tomato_open	Test &Identifier
DATE	LABEL	5/12/2006	Date
TIME	LABEL	12:17:59	Time
NOTES	NOTES	1	&Notes...
	
PSTAT	PSTAT	300	Potentiostat
VDC	POTEN	1.00000E-001	T	DC &Voltage (V)
FREQINIT	QUANT	1.00000E+005	Initial Fre&q. (Hz)
FREQFINAL	QUANT	1.00000E+001	Final Fre&q. (Hz)
PTSPERDEC	QUANT	2.00000E+001	Points/&decade
VAC	QUANT	1.00000E+001	AC &Voltage (mV rms)
AREA	QUANT	1.00000E+000	&Area (cm²)
DENSITY	QUANT	7.87000E+000	&Density (gm/cm³)
EQUIV	QUANT	7.00000E+000	Equiv. &Wt
CONDIT	TWOPARAM	F	1.50000E+001	0.00000E+000	Conditionin&g	Time(s)	E(V)
DELAY	TWOPARAM	F	6.00000E+002	0.00000E+000	Init. De&lay	Time(s)	Stab.(mV/s)
SPEED	SELECTOR	1	&Optimize for:
ZGUESS	QUANT	1.00000E+002	E&stimated Z (ohms)
OCVCURVE	TABLE	39
	Pt	T	Vf	Vm	Ach	Over
	#	s	V vs. Ref.	V	V	bits
	0	0.258332	-6.05619E-001	5.57677E-006	3.36600E-004	......
	1	0.516663	-6.05069E-001	5.57677E-006	3.36600E-004	......
	2	0.774994	-6.05769E-001	5.57677E-006	2.36600E-004	......
	3	1.03333	-5.99319E-001	5.57677E-006	2.36600E-004	......
	4	1.29166	-5.94920E-001	5.57677E-006	2.36600E-004	......
	5	1.54999	-5.92869E-001	5.57677E-006	2.36600E-004	......
	6	1.80832	-5.92369E-001	5.57677E-006	3.66000E-005	......
	7	2.06665	-5.90670E-001	5.57677E-006	2.36600E-004	......
	8	2.32498	-5.87469E-001	5.57677E-006	3.66000E-005	......
	9	2.58332	-5.83619E-001	5.57677E-006	3.36600E-004	......
	10	2.84165	-5.83869E-001	5.57677E-006	2.36600E-004	......
	11	3.09998	-5.85019E-001	5.57677E-006	2.36600E-004	......
	12	3.35831	-5.86869E-001	5.57677E-006	2.36600E-004	......
	13	3.61664	-5.88669E-001	5.57677E-006	2.36600E-004	......
	14	3.87497	-5.88820E-001	5.57677E-006	3.66000E-005	......
	15	4.1333	-5.89969E-001	5.57677E-006	1.36600E-004	......
	16	4.39164	-5.89570E-001	5.57677E-006	1.36600E-004	......
	17	4.64997	-5.91869E-001	5.57677E-006	3.36600E-004	......
	18	4.9083	-5.94069E-001	5.57677E-006	2.36600E-004	......
	19	5.16663	-5.93870E-001	5.57677E-006	3.36600E-004	......
	20	5.42496	-5.94369E-001	5.57677E-006	2.36600E-004	......
	21	5.68329	-5.94669E-001	5.57677E-006	3.36600E-004	......
	22	5.94162	-5.96319E-001	5.57677E-006	2.36600E-004	......
	23	6.19996	-5.95569E-001	5.57677E-006	2.36600E-004	......
	24	6.45829	-5.97470E-001	5.57677E-006	2.36600E-004	......
	25	6.71662	-5.98969E-001	5.57677E-006	3.36600E-004	......
	26	6.97495	-5.99069E-001	5.57677E-006	2.36600E-004	......
	27	7.23328	-5.99869E-001	5.57677E-006	3.36600E-004	......
	28	7.49161	-5.99819E-001	5.57677E-006	2.36600E-004	......
	29	7.74995	-5.99970E-001	5.57677E-006	3.36600E-004	......
	30	8.00828	-6.00069E-001	5.57677E-006	2.36600E-004	......
	31	8.26661	-6.00769E-001	5.57677E-006	2.36600E-004	......
	32	8.52494	-6.01020E-001	5.57677E-006	3.36600E-004	......
	33	8.78327	-6.02120E-001	5.57677E-006	4.36600E-004	......
	34	9.0416	-6.02820E-001	5.57677E-006	3.36600E-004	......
	35	9.29993	-6.01519E-001	5.57677E-006	2.36600E-004	......
	36	9.5583	-5.99919E-001	5.57677E-006	3.36600E-004	......
	37	9.8166	-5.99220E-001	5.57677E-006	3.36600E-004	......
	38	10.0749	-5.99119E-001	5.57677E-006	2.36600E-004	......
EOC	QUANT	-0.599119	Open Circuit (V)
PSTATMODEL	IQUANT	32	Pstat Model
PSTATSECTION	LABEL	PStat0	Pstat Section
CTRLMODE	IQUANT	1	Control Mode
IESTAB	IQUANT	0	I/E Stability
CASPEED	IQUANT	1	Control Amp Speed
CONVENTION	IQUANT	1	Current Convention
ICHRANGE	IQUANT	2	Ich Range
ICHRANGEMODE	TOGGLE	F	Ich Auto Range
ICHOFFSETENABLE	TOGGLE	T	Ich Offset Enable
ICHOFFSET	QUANT	0	Ich Offset (V)
ICHFILTER	IQUANT	3	Ich Filter
VCHRANGE	IQUANT	2	Vch Range
VCHRANGEMODE	TOGGLE	F	Vch Auto Range
VCHOFFSETENABLE	TOGGLE	T	Vch Offset Enable
VCHOFFSET	QUANT	0	Vch Offset (V)
VCHFILTER	IQUANT	3	Vch Filter
ACHRANGE	IQUANT	0	Ach Range
IERANGELOWERLIMIT	IQUANT	3	I/E Range Lower Limit
IERANGEMODE	TOGGLE	F	I/E AutoRange
IERANGE	IQUANT	11	I/E Range
POSFEEDENABLE	TOGGLE	F	Positive Feedback IR Comp
POSFEEDRESISTANCE	QUANT	0	Positive Feedback Resistance (ohm)
FC350IDIVISOR	IQUANT	0	FC350 I Divisor
FC350VRANGE	IQUANT	0	FC350 V Range
FRAMEWORKVERSION	QUANT	4.35	Framework Version
ZCURVE	TABLE
	Pt	Time	Freq	Zreal	Zimag	Zsig	Zmod	Zphz	Idc	Vdc	IERange
	#	s	Hz	ohm	ohm	V	ohm	°	A	V	#
	0	4	100007	113.827	-0.606132	1	113.829	-0.305098	3.10479E-006	-0.498945	9
	1	6	89134.1	113.435	-0.756699	1	113.437	-0.382202	3.71703E-006	-0.498935	9
	2	8	79433.6	113.017	-0.932864	1	113.021	-0.472918	3.36637E-006	-0.498933	9
	3	10	70800.8	112.804	-1.17792	1	112.81	-0.59827	3.9486E-006	-0.498947	9
	4	12	63105.5	112.704	-1.58634	1	112.715	-0.8064	3.63146E-006	-0.498942	9
	5	14	56243.5	112.667	-1.64767	1	112.679	-0.837847	3.86126E-006	-0.498949	9
	6	16	50123.7	112.472	-2.13081	1	112.492	-1.08535	3.9827E-006	-0.498953	9
	7	18	44681	112.34	-2.46662	1	112.367	-1.25783	3.99818E-006	-0.498951	9
	8	20	39811.2	112.491	-2.77587	1	112.525	-1.41357	3.96776E-006	-0.498926	9
	9	22	35488.3	112.415	-3.18463	1	112.46	-1.62271	4.04343E-006	-0.498967	9
	10	24	31634.1	112.444	-3.61306	1	112.502	-1.8404	3.64404E-006	-0.498949	9
	11	26	28173.1	112.563	-3.84548	1	112.628	-1.95664	3.8086E-006	-0.498941	9
	12	28	25123.7	112.645	-4.39133	1	112.731	-2.23247	3.89356E-006	-0.49893	9
	13	30	22389.3	112.879	-4.87999	1	112.984	-2.47547	3.48385E-006	-0.498946	9
	14	32	19954.4	112.88	-5.42175	1	113.01	-2.74988	3.67142E-006	-0.498946	9
	15	34	17778.2	113.071	-5.99484	1	113.23	-3.03488	3.44027E-006	-0.498941	9
	16	36	15852.9	113.18	-6.6358	1	113.374	-3.35545	3.26026E-006	-0.49893	9
	17	38	14122.3	113.315	-7.21109	1	113.544	-3.64127	3.26382E-006	-0.498934	9
	18	40	12587.2	113.535	-8.14851	1	113.827	-4.10514	3.44571E-006	-0.498932	9
	19	42	11221.1	113.649	-8.72302	1	113.983	-4.38908	2.96106E-006	-0.498941	9
	20	44	9998.2	113.846	-9.8314	1	114.27	-4.93566	3.13742E-006	-0.498933	9
	21	46	8912.76	114.073	-10.783	1	114.582	-5.39993	2.88629E-006	-0.498918	9
	22	48	7942.6	114.445	-11.9029	1	115.062	-5.93775	3.32815E-006	-0.498931	9
	23	50	7078.05	114.684	-13.0633	1	115.425	-6.49837	3.33631E-006	-0.498929	9
	24	52	6311.1	114.829	-14.437	1	115.733	-7.16601	3.36645E-006	-0.498931	9
	25	54	5622.14	115.202	-15.8718	1	116.291	-7.84445	3.41859E-006	-0.498944	9
	26	56	5011.18	115.477	-17.4894	1	116.794	-8.61215	3.14443E-006	-0.49893	9
	27	58	4465.21	116.052	-19.4156	1	117.665	-9.49765	3.31529E-006	-0.498938	9
	28	60	3980.93	116.064	-21.3829	1	118.017	-10.4388	3.26251E-006	-0.49892	9
	29	62	3548.18	116.689	-23.5925	1	119.05	-11.4301	2.95642E-006	-0.498941	9
	30	64	3162.67	117.199	-26.1682	1	120.085	-12.5866	3.21004E-006	-0.498929	9
	31	66	2819.01	117.613	-28.8519	1	121.1	-13.7832	3.47864E-006	-0.498945	9
	32	68	2511.16	118.18	-31.8957	1	122.408	-15.1038	3.40384E-006	-0.498925	9
	33	70	2238.63	119.021	-35.4303	1	124.182	-16.5773	3.08893E-006	-0.49892	9
	34	72	1995.37	119.838	-39.0783	1	126.048	-18.0608	3.27468E-006	-0.49892	9
	35	74	1778.51	120.561	-43.1326	1	128.045	-19.6854	3.28742E-006	-0.498922	9
	36	75	1584.49	121.326	-47.7278	1	130.376	-21.4739	3.14153E-006	-0.498924	9
	37	77	1412.76	122.41	-52.8484	1	133.331	-23.3514	3.55707E-006	-0.498938	9
	38	79	1259.04	123.105	-58.5203	1	136.307	-25.4249	3.41242E-006	-0.498929	9
	39	81	1121.63	124.309	-64.7858	1	140.178	-27.5271	3.4496E-006	-0.498948	9
	40	83	999.95	125.37	-71.2318	1	144.193	-29.604	3.47956E-006	-0.498927	9
	41	85	891.184	126.61	-79.2538	1	149.369	-32.0453	3.36738E-006	-0.498941	9
	42	87	794.163	128.106	-87.8272	1	155.322	-34.4339	3.30664E-006	-0.498945	9
	43	89	707.867	129.439	-97.179	1	161.858	-36.898	3.2199E-006	-0.498918	9
	44	91	630.984	131.104	-107.678	1	169.655	-39.3969	3.16295E-006	-0.498939	9
	45	93	562.189	132.916	-119.204	1	178.539	-41.8871	3.22379E-006	-0.498928	9
	46	95	501.303	134.887	-132.099	1	188.798	-44.4018	3.63729E-006	-0.498932	9
	47	97	446.614	136.953	-146.514	1	200.556	-46.9317	3.61893E-006	-0.498939	9
	48	99	398.209	139.223	-162.431	1	213.932	-49.3993	3.67749E-006	-0.49894	9
	49	101	354.821	141.768	-180.188	1	229.272	-51.8051	3.77737E-006	-0.498934	9
	50	103	316.113	144.563	-199.977	1	246.757	-54.1369	3.82902E-006	-0.498941	9
	51	105	281.926	147.551	-221.786	1	266.384	-56.3647	3.5282E-006	-0.498943	9
	52	107	251.185	150.953	-246.256	1	288.84	-58.4921	3.59329E-006	-0.498942	9
	53	109	223.946	154.673	-273.275	1	314.012	-60.4902	3.58112E-006	-0.498942	9
	54	111	199.495	158.709	-303.565	1	342.55	-62.3987	3.15592E-006	-0.498943	9
	55	113	177.836	163.363	-337.114	1	374.611	-64.1455	3.44142E-006	-0.498944	9
	56	115	158.533	168.403	-374.406	1	410.535	-65.7824	3.38956E-006	-0.49894	9
	57	117	141.263	174.011	-416.021	1	450.947	-67.3017	3.40006E-006	-0.498941	9
	58	119	125.911	180.232	-462.18	1	496.079	-68.6962	3.52065E-006	-0.49894	9
	59	121	112.198	187.219	-513.774	1	546.823	-69.9782	3.43126E-006	-0.49894	9
	60	123	100.009	195.166	-571.096	1	603.523	-71.1327	3.50906E-006	-0.49894	9
	61	126	89.1164	204.644	-635.17	1	667.324	-72.1417	3.59567E-006	-0.498937	9
	62	128	79.4083	213.918	-706.366	1	738.047	-73.1514	3.49449E-006	-0.498939	9
	63	130	70.788	224.654	-785.321	1	816.823	-74.036	3.49801E-006	-0.498942	9
	64	132	63.0971	237.715	-873.405	1	905.177	-74.7746	3.57331E-006	-0.498941	9
	65	134	54.5476	256.213	-999.37	1	1031.69	-75.6205	3.38654E-006	-0.498947	9
	66	136	50.0083	268.773	-1082.29	1	1115.16	-76.0534	2.40074E-006	-0.498949	8
	67	138	46.1675	281.052	-1165.24	1	1198.66	-76.4395	2.53449E-006	-0.498957	8
	68	140	40.0059	308.999	-1330.84	1	1366.24	-76.9285	2.65221E-006	-0.498955	8
	69	142	35.3046	339.096	-1493.82	1	1531.82	-77.2106	2.62731E-006	-0.498949	8
	70	145	31.5793	363.904	-1656.22	1	1695.73	-77.6079	2.37937E-006	-0.498946	8
	71	147	28.5748	388.159	-1818.06	1	1859.03	-77.9482	2.2614E-006	-0.498955	8
	72	149	24.9911	433.249	-2059.91	1	2104.98	-78.1224	2.20397E-006	-0.498957	8
	73	151	22.2195	488.698	-2294.22	1	2345.69	-77.975	2.17371E-006	-0.498957	8
	74	153	20.0011	553.654	-2528.32	1	2588.23	-77.6483	2.56788E-006	-0.498957	8
	75	156	17.6486	632.143	-2838.52	1	2908.06	-77.445	2.57063E-006	-0.498957	8
	76	158	15.7934	689.174	-3144.37	1	3219.01	-77.6376	2.38504E-006	-0.498955	8
	77	160	14.2828	771.428	-3438.77	1	3524.24	-77.356	2.3884E-006	-0.498949	8
	78	163	12.5002	903.01	-3889.41	1	3992.86	-76.9291	2.24442E-006	-0.498951	8
	79	165	11.323	990.43	-4263.59	1	4377.12	-76.9222	2.18332E-006	-0.498952	8
	80	168	9.9987	1140.39	-4781.98	1	4916.08	-76.5868	2.10291E-006	-0.498952	8
