EXPLAIN
TAG	EISPOT
TITLE	LABEL	Tomato_open	Test &Identifier
DATE	LABEL	5/12/2006	Date
TIME	LABEL	12:27:55	Time
NOTES	NOTES	1	&Notes...
	
PSTAT	PSTAT	300	Potentiostat
VDC	POTEN	1.00000E-001	T	DC &Voltage (V)
FREQINIT	QUANT	1.00000E+005	Initial Fre&q. (Hz)
FREQFINAL	QUANT	1.00000E+001	Final Fre&q. (Hz)
PTSPERDEC	QUANT	2.00000E+001	Points/&decade
VAC	QUANT	1.00000E+001	AC &Voltage (mV rms)
AREA	QUANT	1.00000E+000	&Area (cm²)
DENSITY	QUANT	7.87000E+000	&Density (gm/cm³)
EQUIV	QUANT	7.00000E+000	Equiv. &Wt
CONDIT	TWOPARAM	F	1.50000E+001	0.00000E+000	Conditionin&g	Time(s)	E(V)
DELAY	TWOPARAM	F	6.00000E+002	0.00000E+000	Init. De&lay	Time(s)	Stab.(mV/s)
SPEED	SELECTOR	1	&Optimize for:
ZGUESS	QUANT	1.00000E+002	E&stimated Z (ohms)
OCVCURVE	TABLE	39
	Pt	T	Vf	Vm	Ach	Over
	#	s	V vs. Ref.	V	V	bits
	0	0.258332	-5.74870E-001	6.08776E-006	-1.63400E-004	......
	1	0.516663	-5.75369E-001	6.08776E-006	-1.63400E-004	......
	2	0.774994	-5.76219E-001	6.08776E-006	-1.63400E-004	......
	3	1.03333	-5.76769E-001	6.08776E-006	-1.63400E-004	......
	4	1.29166	-5.76469E-001	6.08776E-006	-1.63400E-004	......
	5	1.54999	-5.75469E-001	6.08776E-006	-1.63400E-004	......
	6	1.80832	-5.75619E-001	6.08776E-006	-6.34000E-005	......
	7	2.06665	-5.75570E-001	6.08776E-006	-6.34000E-005	......
	8	2.32498	-5.74619E-001	6.08776E-006	-1.63400E-004	......
	9	2.58332	-5.74719E-001	6.08776E-006	-1.63400E-004	......
	10	2.84165	-5.74820E-001	6.08776E-006	3.66000E-005	......
	11	3.09998	-5.75170E-001	6.08776E-006	-3.63400E-004	......
	12	3.35831	-5.74820E-001	6.08776E-006	-2.63400E-004	......
	13	3.61664	-5.74969E-001	6.08776E-006	-6.34000E-005	......
	14	3.87497	-5.74870E-001	6.08776E-006	-6.34000E-005	......
	15	4.1333	-5.73969E-001	6.08776E-006	-1.63400E-004	......
	16	4.39164	-5.72319E-001	6.08776E-006	-1.63400E-004	......
	17	4.64997	-5.71920E-001	6.08776E-006	-2.63400E-004	......
	18	4.9083	-5.72919E-001	6.08776E-006	-1.63400E-004	......
	19	5.16663	-5.74470E-001	6.08776E-006	-6.34000E-005	......
	20	5.42496	-5.74519E-001	6.08776E-006	-1.63400E-004	......
	21	5.68329	-5.75969E-001	6.08776E-006	-1.63400E-004	......
	22	5.94162	-5.76769E-001	6.08776E-006	-1.63400E-004	......
	23	6.19996	-5.77469E-001	6.08776E-006	-1.63400E-004	......
	24	6.45829	-5.77919E-001	6.08776E-006	-1.63400E-004	......
	25	6.71662	-5.78819E-001	6.08776E-006	-1.63400E-004	......
	26	6.97495	-5.79369E-001	6.08776E-006	-6.34000E-005	......
	27	7.23328	-5.79669E-001	6.08776E-006	-6.34000E-005	......
	28	7.49161	-5.79619E-001	6.08776E-006	3.66000E-005	......
	29	7.74995	-5.80469E-001	6.08776E-006	-1.63400E-004	......
	30	8.00828	-5.80869E-001	6.08776E-006	-1.63400E-004	......
	31	8.26661	-5.81069E-001	6.08776E-006	-6.34000E-005	......
	32	8.52494	-5.81569E-001	6.08776E-006	-6.34000E-005	......
	33	8.78327	-5.80369E-001	6.08776E-006	-2.63400E-004	......
	34	9.0416	-5.80269E-001	6.08776E-006	-6.34000E-005	......
	35	9.29993	-5.80469E-001	6.08776E-006	-1.63400E-004	......
	36	9.5583	-5.80469E-001	6.08776E-006	-1.63400E-004	......
	37	9.8166	-5.80970E-001	6.08776E-006	-1.63400E-004	......
	38	10.0749	-5.81219E-001	6.08776E-006	-1.63400E-004	......
EOC	QUANT	-0.581219	Open Circuit (V)
PSTATMODEL	IQUANT	32	Pstat Model
PSTATSECTION	LABEL	PStat0	Pstat Section
CTRLMODE	IQUANT	1	Control Mode
IESTAB	IQUANT	0	I/E Stability
CASPEED	IQUANT	1	Control Amp Speed
CONVENTION	IQUANT	1	Current Convention
ICHRANGE	IQUANT	2	Ich Range
ICHRANGEMODE	TOGGLE	F	Ich Auto Range
ICHOFFSETENABLE	TOGGLE	T	Ich Offset Enable
ICHOFFSET	QUANT	0	Ich Offset (V)
ICHFILTER	IQUANT	3	Ich Filter
VCHRANGE	IQUANT	2	Vch Range
VCHRANGEMODE	TOGGLE	F	Vch Auto Range
VCHOFFSETENABLE	TOGGLE	T	Vch Offset Enable
VCHOFFSET	QUANT	0	Vch Offset (V)
VCHFILTER	IQUANT	3	Vch Filter
ACHRANGE	IQUANT	0	Ach Range
IERANGELOWERLIMIT	IQUANT	3	I/E Range Lower Limit
IERANGEMODE	TOGGLE	F	I/E AutoRange
IERANGE	IQUANT	11	I/E Range
POSFEEDENABLE	TOGGLE	F	Positive Feedback IR Comp
POSFEEDRESISTANCE	QUANT	0	Positive Feedback Resistance (ohm)
FC350IDIVISOR	IQUANT	0	FC350 I Divisor
FC350VRANGE	IQUANT	0	FC350 V Range
FRAMEWORKVERSION	QUANT	4.35	Framework Version
ZCURVE	TABLE
	Pt	Time	Freq	Zreal	Zimag	Zsig	Zmod	Zphz	Idc	Vdc	IERange
	#	s	Hz	ohm	ohm	V	ohm	°	A	V	#
	0	4	100007	113.634	-0.459116	1	113.635	-0.231491	2.15178E-006	-0.481278	9
	1	6	89134.1	113.157	-0.627545	1	113.159	-0.317747	2.02568E-006	-0.481288	9
	2	8	79433.6	112.736	-0.949083	1	112.74	-0.482342	2.24085E-006	-0.481319	9
	3	10	70800.8	112.726	-1.1894	1	112.732	-0.604518	2.07773E-006	-0.481288	9
	4	12	63105.5	112.378	-1.48813	1	112.388	-0.758678	2.18717E-006	-0.481292	9
	5	14	56243.5	112.47	-1.72152	1	112.483	-0.876931	2.60774E-006	-0.481307	9
	6	16	50123.7	112.299	-2.1346	1	112.32	-1.08895	2.80668E-006	-0.481287	9
	7	18	44681	112.2	-2.36504	1	112.225	-1.20755	4.3732E-006	-0.48129	9
	8	20	39811.2	112.129	-2.8908	1	112.166	-1.47682	4.56309E-006	-0.481281	9
	9	22	35488.3	112.192	-3.14574	1	112.236	-1.60609	4.6772E-006	-0.481294	9
	10	24	31634.1	112.288	-3.56822	1	112.344	-1.82011	4.46407E-006	-0.481299	9
	11	25	28173.1	112.356	-4.05537	1	112.429	-2.06714	4.1637E-006	-0.481291	9
	12	27	25123.7	112.373	-4.60226	1	112.467	-2.34525	3.81402E-006	-0.481269	9
	13	29	22389.3	112.623	-4.83795	1	112.727	-2.45975	3.40923E-006	-0.481309	9
	14	31	19954.4	112.566	-5.48569	1	112.7	-2.78999	4.70454E-006	-0.481303	9
	15	33	17778.2	112.839	-6.06624	1	113.002	-3.07727	4.38551E-006	-0.48128	9
	16	35	15852.9	112.979	-6.5073	1	113.166	-3.29645	3.72887E-006	-0.481301	9
	17	37	14122.3	113.042	-7.42074	1	113.286	-3.75583	4.44315E-006	-0.481288	9
	18	39	12587.2	113.282	-7.9812	1	113.563	-4.03007	4.3057E-006	-0.481283	9
	19	41	11221.1	113.358	-8.91318	1	113.708	-4.49583	3.99298E-006	-0.481288	9
	20	43	9998.2	113.777	-9.7328	1	114.192	-4.88936	3.12788E-006	-0.481294	9
	21	45	8912.76	113.772	-10.9734	1	114.3	-5.50919	3.57999E-006	-0.481307	9
	22	47	7942.6	114.133	-11.9941	1	114.761	-5.99916	3.73728E-006	-0.481293	9
	23	49	7078.05	114.421	-13.179	1	115.178	-6.57038	4.28445E-006	-0.481294	9
	24	51	6311.1	114.614	-14.4062	1	115.516	-7.16411	3.45617E-006	-0.481279	9
	25	53	5622.14	115.047	-16.03	1	116.158	-7.93223	3.83721E-006	-0.48129	9
	26	55	5011.18	115.409	-17.7558	1	116.767	-8.74641	3.66288E-006	-0.481289	9
	27	57	4465.21	115.596	-19.5755	1	117.242	-9.6115	3.93782E-006	-0.481297	9
	28	59	3980.93	116.127	-21.5305	1	118.106	-10.5037	3.94651E-006	-0.4813	9
	29	61	3548.18	116.399	-23.7286	1	118.793	-11.5222	3.58729E-006	-0.481305	9
	30	63	3162.67	117.044	-26.3905	1	119.982	-12.7063	4.16392E-006	-0.481311	9
	31	65	2819.01	117.564	-29.2573	1	121.15	-13.9749	3.67879E-006	-0.481314	9
	32	67	2511.16	118.336	-32.2697	1	122.657	-15.2534	2.93995E-006	-0.481294	9
	33	69	2238.63	118.824	-35.5537	1	124.029	-16.6578	3.34485E-006	-0.481303	9
	34	71	1995.37	119.454	-39.3408	1	125.765	-18.2287	3.74949E-006	-0.481302	9
	35	73	1778.51	120.18	-43.4212	1	127.783	-19.8649	3.99129E-006	-0.481297	9
	36	75	1584.49	121.162	-48.2336	1	130.41	-21.707	3.73543E-006	-0.481296	9
	37	77	1412.76	122.052	-53.3	1	133.183	-23.5908	3.86609E-006	-0.48128	9
	38	79	1259.04	122.942	-58.9502	1	136.345	-25.6176	3.40009E-006	-0.481293	9
	39	81	1121.63	124.279	-65.1715	1	140.33	-27.6724	3.80701E-006	-0.4813	9
	40	83	999.95	125.285	-72.3067	1	144.653	-29.9909	3.63849E-006	-0.481297	9
	41	85	891.184	126.515	-79.729	1	149.542	-32.2189	3.7157E-006	-0.481305	9
	42	87	794.163	128.046	-88.7793	1	155.813	-34.7351	3.49659E-006	-0.481306	9
	43	89	707.867	129.485	-97.891	1	162.323	-37.0894	2.94063E-006	-0.481297	9
	44	91	630.984	131.03	-108.575	1	170.169	-39.6462	3.53737E-006	-0.481305	9
	45	93	562.189	132.622	-120.23	1	179.008	-42.1943	3.04579E-006	-0.481303	9
	46	95	501.303	134.717	-133.246	1	189.481	-44.6856	3.28931E-006	-0.481301	9
	47	97	446.614	136.783	-147.772	1	201.36	-47.2115	3.19213E-006	-0.481304	9
	48	99	398.209	139.047	-163.843	1	214.892	-49.68	3.61524E-006	-0.481301	9
	49	101	354.821	141.545	-181.752	1	230.367	-52.0892	3.36385E-006	-0.481304	9
	50	103	316.113	144.3	-201.718	1	248.018	-54.4219	3.18012E-006	-0.481303	9
	51	105	281.926	147.36	-223.791	1	267.95	-56.6362	3.68207E-006	-0.481305	9
	52	107	251.185	150.762	-248.47	1	290.631	-58.7523	3.82085E-006	-0.481304	9
	53	109	223.946	154.313	-275.719	1	315.964	-60.7653	3.13381E-006	-0.481303	9
	54	111	199.495	158.271	-306.252	1	344.731	-62.6701	2.92665E-006	-0.481305	9
	55	113	177.836	162.867	-340.17	1	377.149	-64.4158	3.4704E-006	-0.481308	9
	56	115	158.533	167.793	-377.797	1	413.382	-66.0523	3.40226E-006	-0.481303	9
	57	117	141.263	173.399	-419.936	1	454.327	-67.5634	3.79176E-006	-0.481298	9
	58	119	125.911	179.499	-466.587	1	499.924	-68.9579	3.11357E-006	-0.481298	9
	59	121	112.198	185.55	-518.468	1	550.67	-70.3086	2.6119E-006	-0.481301	9
	60	123	100.009	192.817	-576.533	1	607.922	-71.5079	2.68772E-006	-0.481295	9
	61	125	89.1164	201.57	-641.19	1	672.127	-72.5485	2.62161E-006	-0.481293	9
	62	127	79.4083	211.658	-713.13	1	743.877	-73.469	3.42477E-006	-0.481289	9
	63	129	70.788	223.04	-793.525	1	824.275	-74.3006	3.03409E-006	-0.481293	9
	64	131	63.0971	235.192	-882.167	1	912.981	-75.0718	3.42119E-006	-0.481301	9
	65	133	54.5476	254.644	-1010.12	1	1041.72	-75.851	3.75695E-006	-0.481296	9
	66	135	50.0083	268.164	-1094.78	1	1127.14	-76.2365	3.29934E-006	-0.4813	8
	67	137	46.1675	276.726	-1177.59	1	1209.66	-76.7757	2.68491E-006	-0.481301	8
	68	140	40.0059	299.092	-1346.83	1	1379.64	-77.4795	2.64445E-006	-0.4813	8
	69	142	35.3046	325.906	-1507.44	1	1542.27	-77.8005	2.35362E-006	-0.481302	8
	70	144	31.5793	342.098	-1679.57	1	1714.05	-78.4874	2.22399E-006	-0.481295	8
	71	146	28.5748	375.889	-1836.62	1	1874.69	-78.4334	2.05594E-006	-0.481302	8
	72	148	24.9911	429.048	-2078.43	1	2122.25	-78.3364	2.3137E-006	-0.481294	8
	73	150	22.2195	452.275	-2322.2	1	2365.83	-78.979	2.25465E-006	-0.481293	8
	74	153	20.0011	529.044	-2560.32	1	2614.41	-78.3252	2.82276E-006	-0.481293	8
	75	155	17.6486	570.33	-2867.86	1	2924.02	-78.7524	2.21121E-006	-0.481287	8
	76	157	15.7934	652.716	-3167	1	3233.57	-78.3545	2.1219E-006	-0.48129	8
	77	159	14.2828	685.386	-3488.81	1	3555.49	-78.8856	2.21683E-006	-0.481291	8
	78	162	12.5002	852.343	-3971.67	1	4062.1	-77.8877	2.00252E-006	-0.481287	8
	79	164	11.323	961.24	-4359.86	1	4464.57	-77.5667	2.46348E-006	-0.481289	8
	80	167	9.9987	1127.06	-4851.92	1	4981.11	-76.9226	2.85996E-006	-0.481292	8
