EXPLAIN
TAG	EISPOT
TITLE	LABEL	Tomato_open	Test &Identifier
DATE	LABEL	5/12/2006	Date
TIME	LABEL	12:32:56	Time
NOTES	NOTES	1	&Notes...
	
PSTAT	PSTAT	300	Potentiostat
VDC	POTEN	1.00000E-001	T	DC &Voltage (V)
FREQINIT	QUANT	1.00000E+005	Initial Fre&q. (Hz)
FREQFINAL	QUANT	1.00000E+001	Final Fre&q. (Hz)
PTSPERDEC	QUANT	2.00000E+001	Points/&decade
VAC	QUANT	1.00000E+001	AC &Voltage (mV rms)
AREA	QUANT	1.00000E+000	&Area (cm²)
DENSITY	QUANT	7.87000E+000	&Density (gm/cm³)
EQUIV	QUANT	7.00000E+000	Equiv. &Wt
CONDIT	TWOPARAM	F	1.50000E+001	0.00000E+000	Conditionin&g	Time(s)	E(V)
DELAY	TWOPARAM	F	6.00000E+002	0.00000E+000	Init. De&lay	Time(s)	Stab.(mV/s)
SPEED	SELECTOR	1	&Optimize for:
ZGUESS	QUANT	1.00000E+002	E&stimated Z (ohms)
OCVCURVE	TABLE	39
	Pt	T	Vf	Vm	Ach	Over
	#	s	V vs. Ref.	V	V	bits
	0	0.258332	-5.88969E-001	5.63376E-006	-6.34000E-005	......
	1	0.516663	-5.88619E-001	5.63376E-006	2.36600E-004	......
	2	0.774994	-5.89269E-001	5.63376E-006	3.66000E-005	......
	3	1.03333	-5.88419E-001	5.63376E-006	2.36600E-004	......
	4	1.29166	-5.87819E-001	5.63376E-006	3.66000E-005	......
	5	1.54999	-5.86469E-001	5.63376E-006	2.36600E-004	......
	6	1.80832	-5.88019E-001	5.63376E-006	3.66000E-005	......
	7	2.06665	-5.89069E-001	5.63376E-006	1.36600E-004	......
	8	2.32498	-5.87720E-001	5.63376E-006	3.66000E-005	......
	9	2.58332	-5.85819E-001	5.63376E-006	3.66000E-005	......
	10	2.84165	-5.84870E-001	5.63376E-006	-6.34000E-005	......
	11	3.09998	-5.86269E-001	5.63376E-006	2.36600E-004	......
	12	3.35831	-5.88369E-001	5.63376E-006	3.66000E-005	......
	13	3.61664	-5.89669E-001	5.63376E-006	3.36600E-004	......
	14	3.87497	-5.91169E-001	5.63376E-006	-1.63400E-004	......
	15	4.1333	-5.92569E-001	5.63376E-006	2.36600E-004	......
	16	4.39164	-5.93319E-001	5.63376E-006	3.66000E-005	......
	17	4.64997	-5.95219E-001	5.63376E-006	2.36600E-004	......
	18	4.9083	-5.94270E-001	5.63376E-006	3.66000E-005	......
	19	5.16663	-5.93220E-001	5.63376E-006	1.36600E-004	......
	20	5.42496	-5.93619E-001	5.63376E-006	3.66000E-005	......
	21	5.68329	-5.93669E-001	5.63376E-006	3.36600E-004	......
	22	5.94162	-5.94220E-001	5.63376E-006	-6.34000E-005	......
	23	6.19996	-5.94719E-001	5.63376E-006	2.36600E-004	......
	24	6.45829	-5.96119E-001	5.63376E-006	-6.34000E-005	......
	25	6.71662	-5.97669E-001	5.63376E-006	3.36600E-004	......
	26	6.97495	-5.97470E-001	5.63376E-006	3.66000E-005	......
	27	7.23328	-5.94819E-001	5.63376E-006	1.36600E-004	......
	28	7.49161	-5.89669E-001	5.63376E-006	-6.34000E-005	......
	29	7.74995	-5.88119E-001	5.63376E-006	2.36600E-004	......
	30	8.00828	-5.88870E-001	5.63376E-006	3.66000E-005	......
	31	8.26661	-5.90219E-001	5.63376E-006	3.36600E-004	......
	32	8.52494	-5.90519E-001	5.63376E-006	3.66000E-005	......
	33	8.78327	-5.91519E-001	5.63376E-006	1.36600E-004	......
	34	9.0416	-5.92569E-001	5.63376E-006	-6.34000E-005	......
	35	9.29993	-5.93019E-001	5.63376E-006	2.36600E-004	......
	36	9.5583	-5.91469E-001	5.63376E-006	3.66000E-005	......
	37	9.8166	-5.92019E-001	5.63376E-006	2.36600E-004	......
	38	10.0749	-5.92269E-001	5.63376E-006	3.66000E-005	......
EOC	QUANT	-0.592269	Open Circuit (V)
PSTATMODEL	IQUANT	32	Pstat Model
PSTATSECTION	LABEL	PStat0	Pstat Section
CTRLMODE	IQUANT	1	Control Mode
IESTAB	IQUANT	0	I/E Stability
CASPEED	IQUANT	1	Control Amp Speed
CONVENTION	IQUANT	1	Current Convention
ICHRANGE	IQUANT	2	Ich Range
ICHRANGEMODE	TOGGLE	F	Ich Auto Range
ICHOFFSETENABLE	TOGGLE	T	Ich Offset Enable
ICHOFFSET	QUANT	0	Ich Offset (V)
ICHFILTER	IQUANT	3	Ich Filter
VCHRANGE	IQUANT	2	Vch Range
VCHRANGEMODE	TOGGLE	F	Vch Auto Range
VCHOFFSETENABLE	TOGGLE	T	Vch Offset Enable
VCHOFFSET	QUANT	0	Vch Offset (V)
VCHFILTER	IQUANT	3	Vch Filter
ACHRANGE	IQUANT	0	Ach Range
IERANGELOWERLIMIT	IQUANT	3	I/E Range Lower Limit
IERANGEMODE	TOGGLE	F	I/E AutoRange
IERANGE	IQUANT	11	I/E Range
POSFEEDENABLE	TOGGLE	F	Positive Feedback IR Comp
POSFEEDRESISTANCE	QUANT	0	Positive Feedback Resistance (ohm)
FC350IDIVISOR	IQUANT	0	FC350 I Divisor
FC350VRANGE	IQUANT	0	FC350 V Range
FRAMEWORKVERSION	QUANT	4.35	Framework Version
ZCURVE	TABLE
	Pt	Time	Freq	Zreal	Zimag	Zsig	Zmod	Zphz	Idc	Vdc	IERange
	#	s	Hz	ohm	ohm	V	ohm	°	A	V	#
	0	4	100007	113.716	-0.453286	1	113.716	-0.228388	2.63971E-006	-0.492201	9
	1	6	89134.1	113.148	-0.633422	1	113.15	-0.320749	3.62023E-006	-0.492209	9
	2	8	79433.6	112.933	-1.03486	1	112.938	-0.525014	4.09031E-006	-0.49223	9
	3	10	70800.8	112.586	-1.40105	1	112.594	-0.712967	3.58291E-006	-0.492218	9
	4	12	63105.5	112.482	-1.46979	1	112.492	-0.748635	3.40848E-006	-0.492207	9
	5	14	56243.5	112.452	-1.75132	1	112.466	-0.892248	3.61887E-006	-0.492212	9
	6	16	50123.7	112.258	-2.20482	1	112.28	-1.12518	3.83238E-006	-0.492204	9
	7	18	44681	112.212	-2.50118	1	112.24	-1.2769	3.68074E-006	-0.492198	9
	8	20	39811.2	111.98	-2.84209	1	112.016	-1.45387	3.93901E-006	-0.492216	9
	9	22	35488.3	112.226	-3.01838	1	112.266	-1.54064	3.74399E-006	-0.49221	9
	10	24	31634.1	112.459	-3.44374	1	112.512	-1.75397	3.95817E-006	-0.492214	9
	11	26	28173.1	112.321	-3.95083	1	112.39	-2.01452	3.81838E-006	-0.492215	9
	12	28	25123.7	112.391	-4.46628	1	112.48	-2.27566	4.16796E-006	-0.492226	9
	13	30	22389.3	112.508	-4.86948	1	112.614	-2.47827	3.26951E-006	-0.492214	9
	14	32	19954.4	112.587	-5.40147	1	112.717	-2.74671	3.85112E-006	-0.4922	9
	15	34	17778.2	112.71	-6.10421	1	112.875	-3.10003	4.16306E-006	-0.492206	9
	16	36	15852.9	112.84	-6.62618	1	113.034	-3.36066	4.05738E-006	-0.492219	9
	17	38	14122.3	113.001	-7.38239	1	113.242	-3.73784	3.70203E-006	-0.492202	9
	18	40	12587.2	113.307	-8.05116	1	113.593	-4.06437	3.36017E-006	-0.492198	9
	19	42	11221.1	113.408	-8.84314	1	113.752	-4.4587	3.37457E-006	-0.492202	9
	20	44	9998.2	113.563	-9.798	1	113.985	-4.93116	3.87115E-006	-0.492206	9
	21	46	8912.76	113.825	-10.8441	1	114.34	-5.44213	3.82054E-006	-0.492214	9
	22	47	7942.6	114.057	-11.9437	1	114.68	-5.97809	3.43329E-006	-0.492202	9
	23	49	7078.05	114.41	-13.2401	1	115.174	-6.60118	3.2356E-006	-0.492202	9
	24	51	6311.1	114.66	-14.5816	1	115.583	-7.24754	2.81126E-006	-0.492197	9
	25	53	5622.14	115.05	-16.0062	1	116.158	-7.92039	2.77187E-006	-0.492202	9
	26	55	5011.18	115.352	-17.7373	1	116.708	-8.74167	2.69174E-006	-0.492201	9
	27	57	4465.21	115.806	-19.6034	1	117.453	-9.6078	2.21828E-006	-0.492198	9
	28	59	3980.93	116.126	-21.6263	1	118.123	-10.5494	2.27428E-006	-0.492209	9
	29	61	3548.18	116.42	-24.0488	1	118.878	-11.6714	2.09582E-006	-0.492191	9
	30	63	3162.67	117.008	-26.3594	1	119.941	-12.6956	2.68296E-006	-0.492218	9
	31	65	2819.01	117.508	-29.2886	1	121.103	-13.9957	3.10857E-006	-0.492183	9
	32	67	2511.16	118.264	-32.2452	1	122.581	-15.2513	3.37218E-006	-0.492202	9
	33	69	2238.63	118.803	-35.6192	1	124.028	-16.6897	3.36213E-006	-0.492204	9
	34	71	1995.37	119.431	-39.698	1	125.856	-18.3864	2.69046E-006	-0.49221	9
	35	73	1778.51	120.215	-43.5296	1	127.853	-19.9052	2.72435E-006	-0.492197	9
	36	75	1584.49	121.083	-48.4004	1	130.398	-21.7881	2.52132E-006	-0.492202	9
	37	77	1412.76	122.082	-53.4265	1	133.26	-23.6356	2.62087E-006	-0.49218	9
	38	79	1259.04	122.861	-58.9824	1	136.285	-25.6445	2.73881E-006	-0.492193	9
	39	81	1121.63	124.181	-65.6684	1	140.475	-27.8704	2.43056E-006	-0.4922	9
	40	83	999.95	125.178	-72.3363	1	144.575	-30.0222	2.42953E-006	-0.49221	9
	41	85	891.184	126.631	-80.3874	1	149.992	-32.4081	2.27337E-006	-0.492197	9
	42	87	794.163	128.189	-88.7332	1	155.904	-34.6912	2.44424E-006	-0.492207	9
	43	89	707.867	129.358	-98.288	1	162.462	-37.2279	2.82738E-006	-0.492208	9
	44	91	630.984	130.918	-108.784	1	170.216	-39.7243	2.58476E-006	-0.492199	9
	45	93	562.189	133.012	-120.81	1	179.687	-42.2477	2.78346E-006	-0.492207	9
	46	95	501.303	134.742	-133.74	1	189.847	-44.7861	2.46587E-006	-0.492201	9
	47	97	446.614	136.823	-148.334	1	201.801	-47.3116	2.64349E-006	-0.492204	9
	48	99	398.209	139.058	-164.453	1	215.364	-49.7828	2.78598E-006	-0.492203	9
	49	101	354.821	141.544	-182.453	1	230.92	-52.1963	2.83371E-006	-0.492201	9
	50	103	316.113	144.297	-202.484	1	248.639	-54.5251	2.89904E-006	-0.492203	9
	51	105	281.926	147.283	-224.591	1	268.576	-56.7437	3.04742E-006	-0.492201	9
	52	107	251.185	150.593	-249.374	1	291.317	-58.8728	3.17359E-006	-0.492198	9
	53	109	223.946	154.206	-276.768	1	316.828	-60.8748	2.90357E-006	-0.492197	9
	54	111	199.495	158.227	-307.416	1	345.747	-62.7652	2.83292E-006	-0.492193	9
	55	113	177.836	162.509	-341.422	1	378.125	-64.5466	2.60854E-006	-0.492196	9
	56	115	158.533	167.297	-379.136	1	414.406	-66.1901	2.60806E-006	-0.492195	9
	57	117	141.263	172.659	-421.495	1	455.488	-67.7242	2.6711E-006	-0.492198	9
	58	119	125.911	178.622	-468.366	1	501.271	-69.1245	2.64399E-006	-0.492193	9
	59	121	112.198	185.232	-520.706	1	552.671	-70.4178	2.81637E-006	-0.492197	9
	60	123	100.009	192.476	-578.844	1	610.006	-71.6071	2.64531E-006	-0.492195	9
	61	125	89.1164	200.508	-643.808	1	674.308	-72.7013	2.6082E-006	-0.492195	9
	62	127	79.4083	209.221	-715.963	1	745.906	-73.7104	2.55491E-006	-0.492201	9
	63	129	70.788	219.444	-796.259	1	825.944	-74.5921	2.5156E-006	-0.492196	9
	64	131	63.0971	230.34	-885.912	1	915.367	-75.4256	2.46368E-006	-0.492196	9
	65	133	54.5476	246.666	-1013.9	1	1043.47	-76.3264	2.54052E-006	-0.492195	9
	66	135	50.0083	262.319	-1099.62	1	1130.48	-76.5826	2.36235E-006	-0.492194	8
	67	138	46.1675	275.149	-1184.13	1	1215.67	-76.9186	2.74165E-006	-0.492197	8
	68	140	40.0059	299.701	-1351.6	1	1384.43	-77.4977	2.83171E-006	-0.492196	8
	69	142	35.3046	327.142	-1517.13	1	1552	-77.8315	2.82114E-006	-0.492199	8
	70	144	31.5793	352.604	-1684.3	1	1720.81	-78.176	2.60226E-006	-0.4922	8
	71	146	28.5748	382.004	-1850.01	1	1889.04	-78.3331	2.65185E-006	-0.492204	8
	72	148	24.9911	428.217	-2087.73	1	2131.19	-78.4087	2.5635E-006	-0.492207	8
	73	151	22.2195	478.702	-2333.81	1	2382.4	-78.4085	2.83088E-006	-0.492201	8
	74	153	20.0011	529.136	-2566.65	1	2620.62	-78.3512	2.80848E-006	-0.492205	8
	75	155	17.6486	601.124	-2896.65	1	2958.36	-78.2762	2.99854E-006	-0.492204	8
	76	158	15.7934	684.525	-3199.54	1	3271.95	-77.9239	2.96285E-006	-0.492205	8
	77	160	14.2828	732.003	-3486.94	1	3562.95	-78.1442	2.63579E-006	-0.492206	8
	78	162	12.5002	797.508	-3977.06	1	4056.24	-78.661	2.64032E-006	-0.4922	8
	79	165	11.323	959.73	-4334.73	1	4439.71	-77.5158	2.72118E-006	-0.492199	8
	80	167	9.9987	1105.8	-4833.89	1	4958.76	-77.1147	2.64601E-006	-0.492205	8
