EXPLAIN
TAG	EISPOT
TITLE	LABEL	Tomato_open	Test &Identifier
DATE	LABEL	5/12/2006	Date
TIME	LABEL	12:23:06	Time
NOTES	NOTES	1	&Notes...
	
PSTAT	PSTAT	300	Potentiostat
VDC	POTEN	1.00000E-001	T	DC &Voltage (V)
FREQINIT	QUANT	1.00000E+005	Initial Fre&q. (Hz)
FREQFINAL	QUANT	1.00000E+001	Final Fre&q. (Hz)
PTSPERDEC	QUANT	2.00000E+001	Points/&decade
VAC	QUANT	1.00000E+001	AC &Voltage (mV rms)
AREA	QUANT	1.00000E+000	&Area (cm²)
DENSITY	QUANT	7.87000E+000	&Density (gm/cm³)
EQUIV	QUANT	7.00000E+000	Equiv. &Wt
CONDIT	TWOPARAM	F	1.50000E+001	0.00000E+000	Conditionin&g	Time(s)	E(V)
DELAY	TWOPARAM	F	6.00000E+002	0.00000E+000	Init. De&lay	Time(s)	Stab.(mV/s)
SPEED	SELECTOR	1	&Optimize for:
ZGUESS	QUANT	1.00000E+002	E&stimated Z (ohms)
OCVCURVE	TABLE	39
	Pt	T	Vf	Vm	Ach	Over
	#	s	V vs. Ref.	V	V	bits
	0	0.258332	-5.66069E-001	4.86176E-006	-1.63400E-004	......
	1	0.516663	-5.67169E-001	4.86176E-006	-1.63400E-004	......
	2	0.774994	-5.68019E-001	4.86176E-006	-1.63400E-004	......
	3	1.03333	-5.69019E-001	4.86176E-006	-1.63400E-004	......
	4	1.29166	-5.70619E-001	4.86176E-006	-1.63400E-004	......
	5	1.54999	-5.73469E-001	4.86176E-006	-1.63400E-004	......
	6	1.80832	-5.75219E-001	4.86176E-006	-1.63400E-004	......
	7	2.06665	-5.76469E-001	4.86176E-006	-2.63400E-004	......
	8	2.32498	-5.76919E-001	4.86176E-006	-1.63400E-004	......
	9	2.58332	-5.78269E-001	4.86176E-006	-2.63400E-004	......
	10	2.84165	-5.78219E-001	4.86176E-006	-1.63400E-004	......
	11	3.09998	-5.78319E-001	4.86176E-006	-1.63400E-004	......
	12	3.35831	-5.77169E-001	4.86176E-006	-1.63400E-004	......
	13	3.61664	-5.77020E-001	4.86176E-006	-1.63400E-004	......
	14	3.87497	-5.74719E-001	4.86176E-006	-2.63400E-004	......
	15	4.1333	-5.73869E-001	4.86176E-006	-2.63400E-004	......
	16	4.39164	-5.74519E-001	4.86176E-006	-1.63400E-004	......
	17	4.64997	-5.74120E-001	4.86176E-006	-2.63400E-004	......
	18	4.9083	-5.74470E-001	4.86176E-006	-6.34000E-005	......
	19	5.16663	-5.74669E-001	4.86176E-006	-6.34000E-005	......
	20	5.42496	-5.73370E-001	4.86176E-006	-6.34000E-005	......
	21	5.68329	-5.73020E-001	4.86176E-006	-1.63400E-004	......
	22	5.94162	-5.73720E-001	4.86176E-006	-1.63400E-004	......
	23	6.19996	-5.74569E-001	4.86176E-006	-1.63400E-004	......
	24	6.45829	-5.75419E-001	4.86176E-006	-1.63400E-004	......
	25	6.71662	-5.75719E-001	4.86176E-006	-6.34000E-005	......
	26	6.97495	-5.75870E-001	4.86176E-006	-6.34000E-005	......
	27	7.23328	-5.76119E-001	4.86176E-006	-6.34000E-005	......
	28	7.49161	-5.76819E-001	4.86176E-006	-1.63400E-004	......
	29	7.74995	-5.77269E-001	4.86176E-006	-2.63400E-004	......
	30	8.00828	-5.75319E-001	4.86176E-006	-1.63400E-004	......
	31	8.26661	-5.72219E-001	4.86176E-006	-1.63400E-004	......
	32	8.52494	-5.71019E-001	4.86176E-006	-2.63400E-004	......
	33	8.78327	-5.70620E-001	4.86176E-006	-1.63400E-004	......
	34	9.0416	-5.70919E-001	4.86176E-006	-2.63400E-004	......
	35	9.29993	-5.71270E-001	4.86176E-006	-1.63400E-004	......
	36	9.5583	-5.73720E-001	4.86176E-006	-1.63400E-004	......
	37	9.8166	-5.74269E-001	4.86176E-006	-1.63400E-004	......
	38	10.0749	-5.73119E-001	4.86176E-006	-1.63400E-004	......
EOC	QUANT	-0.573119	Open Circuit (V)
PSTATMODEL	IQUANT	32	Pstat Model
PSTATSECTION	LABEL	PStat0	Pstat Section
CTRLMODE	IQUANT	1	Control Mode
IESTAB	IQUANT	0	I/E Stability
CASPEED	IQUANT	1	Control Amp Speed
CONVENTION	IQUANT	1	Current Convention
ICHRANGE	IQUANT	2	Ich Range
ICHRANGEMODE	TOGGLE	F	Ich Auto Range
ICHOFFSETENABLE	TOGGLE	T	Ich Offset Enable
ICHOFFSET	QUANT	0	Ich Offset (V)
ICHFILTER	IQUANT	3	Ich Filter
VCHRANGE	IQUANT	2	Vch Range
VCHRANGEMODE	TOGGLE	F	Vch Auto Range
VCHOFFSETENABLE	TOGGLE	T	Vch Offset Enable
VCHOFFSET	QUANT	0	Vch Offset (V)
VCHFILTER	IQUANT	3	Vch Filter
ACHRANGE	IQUANT	0	Ach Range
IERANGELOWERLIMIT	IQUANT	3	I/E Range Lower Limit
IERANGEMODE	TOGGLE	F	I/E AutoRange
IERANGE	IQUANT	11	I/E Range
POSFEEDENABLE	TOGGLE	F	Positive Feedback IR Comp
POSFEEDRESISTANCE	QUANT	0	Positive Feedback Resistance (ohm)
FC350IDIVISOR	IQUANT	0	FC350 I Divisor
FC350VRANGE	IQUANT	0	FC350 V Range
FRAMEWORKVERSION	QUANT	4.35	Framework Version
ZCURVE	TABLE
	Pt	Time	Freq	Zreal	Zimag	Zsig	Zmod	Zphz	Idc	Vdc	IERange
	#	s	Hz	ohm	ohm	V	ohm	°	A	V	#
	0	4	100007	113.688	-0.175991	1	113.688	-0.088695	2.72535E-006	-0.472993	9
	1	6	89134.1	113.2	-0.591594	1	113.201	-0.299432	2.8851E-006	-0.47301	9
	2	8	79433.6	112.993	-0.941527	1	112.997	-0.477412	2.65928E-006	-0.473017	9
	3	10	70800.8	112.74	-1.26852	1	112.747	-0.64465	2.43907E-006	-0.472988	9
	4	12	63105.5	112.475	-1.57438	1	112.486	-0.801949	2.86681E-006	-0.473014	9
	5	14	56243.5	112.458	-1.79513	1	112.473	-0.914514	2.86928E-006	-0.47302	9
	6	16	50123.7	112.241	-2.21932	1	112.263	-1.13275	2.9671E-006	-0.473006	9
	7	18	44681	112.237	-2.40617	1	112.263	-1.22814	3.0019E-006	-0.473011	9
	8	20	39811.2	112.326	-2.82588	1	112.362	-1.44113	3.00251E-006	-0.473006	9
	9	22	35488.3	112.228	-3.08297	1	112.27	-1.57355	2.99996E-006	-0.473016	9
	10	24	31634.1	112.246	-3.49221	1	112.301	-1.78201	3.07846E-006	-0.473006	9
	11	26	28173.1	112.333	-4.03283	1	112.405	-2.05608	3.21157E-006	-0.473018	9
	12	28	25123.7	112.384	-4.55633	1	112.476	-2.32164	3.35013E-006	-0.473012	9
	13	29	22389.3	112.674	-4.73953	1	112.773	-2.40868	3.57853E-006	-0.473031	9
	14	31	19954.4	112.652	-5.28663	1	112.776	-2.68685	3.32998E-006	-0.47302	9
	15	33	17778.2	112.841	-6.14859	1	113.008	-3.1189	3.57413E-006	-0.473008	9
	16	35	15852.9	113.196	-6.64314	1	113.391	-3.35866	3.47626E-006	-0.473019	9
	17	37	14122.3	113.09	-7.29145	1	113.325	-3.68902	3.44015E-006	-0.473	9
	18	39	12587.2	113.286	-7.95089	1	113.564	-4.01469	3.45559E-006	-0.473006	9
	19	41	11221.1	113.474	-8.89247	1	113.822	-4.48087	3.99012E-006	-0.473005	9
	20	43	9998.2	113.688	-9.7973	1	114.109	-4.92539	4.32845E-006	-0.473003	9
	21	45	8912.76	113.815	-10.8457	1	114.331	-5.4434	4.39698E-006	-0.473019	9
	22	47	7942.6	114.256	-11.9403	1	114.878	-5.96601	4.4482E-006	-0.473007	9
	23	49	7078.05	114.274	-13.0802	1	115.02	-6.52984	4.23543E-006	-0.473007	9
	24	51	6311.1	114.712	-14.5282	1	115.628	-7.21802	4.25167E-006	-0.473008	9
	25	53	5622.14	115.062	-15.9246	1	116.158	-7.87969	4.22513E-006	-0.472995	9
	26	55	5011.18	115.348	-17.5722	1	116.679	-8.66188	4.37934E-006	-0.472993	9
	27	57	4465.21	115.7	-19.5921	1	117.347	-9.611	3.84542E-006	-0.472989	9
	28	59	3980.93	116.316	-21.5604	1	118.298	-10.5012	3.85929E-006	-0.473004	9
	29	61	3548.18	116.57	-23.662	1	118.948	-11.4743	3.77028E-006	-0.473001	9
	30	63	3162.67	116.918	-26.3201	1	119.844	-12.6867	3.81598E-006	-0.473001	9
	31	65	2819.01	117.683	-28.9969	1	121.203	-13.8418	3.92623E-006	-0.473005	9
	32	67	2511.16	118.14	-32.1553	1	122.437	-15.226	3.61323E-006	-0.472995	9
	33	69	2238.63	118.835	-35.3181	1	123.973	-16.5521	3.51793E-006	-0.472997	9
	34	71	1995.37	119.513	-39.3686	1	125.83	-18.2323	4.1887E-006	-0.472997	9
	35	73	1778.51	120.162	-43.3925	1	127.757	-19.8555	3.87913E-006	-0.472983	9
	36	75	1584.49	121.027	-48.1242	1	130.244	-21.6844	4.18885E-006	-0.472994	9
	37	77	1412.76	122.047	-53.1269	1	133.109	-23.5234	4.53337E-006	-0.473008	9
	38	79	1259.04	123.111	-58.8121	1	136.437	-25.5346	4.23921E-006	-0.472987	9
	39	81	1121.63	124.029	-65.0366	1	140.047	-27.6709	3.74496E-006	-0.472981	9
	40	83	999.95	125.397	-71.832	1	144.513	-29.8057	4.03815E-006	-0.472992	9
	41	85	891.184	126.574	-79.6182	1	149.533	-32.1708	4.01146E-006	-0.47299	9
	42	87	794.163	127.845	-88.1981	1	155.316	-34.6012	3.91312E-006	-0.472988	9
	43	89	707.867	129.312	-97.797	1	162.129	-37.0998	3.82385E-006	-0.472992	9
	44	91	630.984	131.006	-108.259	1	169.949	-39.569	3.99093E-006	-0.47299	9
	45	93	562.189	133.349	-119.836	1	179.283	-41.9448	4.07698E-006	-0.472981	9
	46	95	501.303	134.774	-132.762	1	189.182	-44.5691	4.18235E-006	-0.472991	9
	47	97	446.614	136.862	-147.239	1	201.024	-47.0917	4.25613E-006	-0.472988	9
	48	99	398.209	139.108	-163.203	1	214.444	-49.557	4.07154E-006	-0.472985	9
	49	101	354.821	141.591	-181.033	1	229.828	-51.9701	3.50092E-006	-0.472986	9
	50	102	316.113	144.368	-200.942	1	247.427	-54.3044	3.70413E-006	-0.472989	9
	51	104	281.926	147.4	-222.894	1	267.224	-56.5233	3.93684E-006	-0.472988	9
	52	107	251.185	150.833	-247.514	1	289.851	-58.6423	3.95079E-006	-0.47299	9
	53	109	223.946	154.583	-274.716	1	315.222	-60.6335	4.15562E-006	-0.472989	9
	54	110	199.495	158.836	-305.212	1	344.069	-62.5071	4.39474E-006	-0.472987	9
	55	112	177.836	163.141	-338.822	1	376.052	-64.2894	3.91676E-006	-0.472992	9
	56	115	158.533	168.121	-376.3	1	412.148	-65.9261	4.1524E-006	-0.472991	9
	57	117	141.263	173.785	-418.181	1	452.853	-67.4335	4.16996E-006	-0.472991	9
	58	119	125.911	180.146	-464.727	1	498.422	-68.8118	4.36143E-006	-0.472984	9
	59	121	112.198	187.43	-516.69	1	549.635	-70.0617	4.51331E-006	-0.472987	9
	60	123	100.009	194.089	-574.093	1	606.014	-71.3207	3.55597E-006	-0.472987	9
	61	125	89.1164	202.262	-638.342	1	669.619	-72.4189	3.63763E-006	-0.472984	9
	62	127	79.4083	210.914	-710.399	1	741.048	-73.4641	2.85254E-006	-0.47298	9
	63	129	70.788	224.034	-790.178	1	821.324	-74.1707	3.91831E-006	-0.472978	9
	64	131	63.0971	237.841	-878.448	1	910.076	-74.8503	4.22559E-006	-0.472983	9
	65	133	54.5476	256.116	-1005.38	1	1037.49	-75.7081	4.22979E-006	-0.472981	9
	66	135	50.0083	266.563	-1088.09	1	1120.27	-76.2347	2.99693E-006	-0.472986	8
	67	137	46.1675	286.722	-1171.9	1	1206.47	-76.2519	3.21404E-006	-0.472991	8
	68	139	40.0059	313.693	-1339.42	1	1375.66	-76.8188	3.39161E-006	-0.472986	8
	69	141	35.3046	338.73	-1502.17	1	1539.89	-77.2927	3.41842E-006	-0.472988	8
	70	144	31.5793	349.443	-1671.22	1	1707.36	-78.1899	2.14611E-006	-0.472987	8
	71	146	28.5748	391.841	-1836.45	1	1877.79	-77.9555	3.06604E-006	-0.472983	8
	72	148	24.9911	450.11	-2064.95	1	2113.44	-77.7032	3.3154E-006	-0.472984	8
	73	150	22.2195	504.848	-2299.15	1	2353.93	-77.6155	3.61571E-006	-0.472994	8
	74	152	20.0011	556.023	-2553.81	1	2613.64	-77.7171	3.17887E-006	-0.472998	8
	75	155	17.6486	621.007	-2859.7	1	2926.36	-77.748	3.35539E-006	-0.472993	8
	76	157	15.7934	698.581	-3160.84	1	3237.12	-77.5373	2.98712E-006	-0.472995	8
	77	159	14.2828	763.714	-3462.45	1	3545.68	-77.5614	2.66911E-006	-0.472999	8
	78	162	12.5002	900.202	-3919.88	1	4021.92	-77.0663	3.21843E-006	-0.47299	8
	79	164	11.323	1031.38	-4230.07	1	4353.99	-76.2974	3.26729E-006	-0.472992	8
	80	167	9.9987	1225.66	-4793.38	1	4947.6	-75.6569	3.09735E-006	-0.472997	8
