EXPLAIN
TAG	EISPOT
TITLE	LABEL	Tomato_open	Test &Identifier
DATE	LABEL	5/12/2006	Date
TIME	LABEL	12:12:55	Time
NOTES	NOTES	1	&Notes...
	
PSTAT	PSTAT	300	Potentiostat
VDC	POTEN	1.00000E-001	T	DC &Voltage (V)
FREQINIT	QUANT	1.00000E+005	Initial Fre&q. (Hz)
FREQFINAL	QUANT	1.00000E+001	Final Fre&q. (Hz)
PTSPERDEC	QUANT	2.00000E+001	Points/&decade
VAC	QUANT	1.00000E+001	AC &Voltage (mV rms)
AREA	QUANT	1.00000E+000	&Area (cm²)
DENSITY	QUANT	7.87000E+000	&Density (gm/cm³)
EQUIV	QUANT	7.00000E+000	Equiv. &Wt
CONDIT	TWOPARAM	F	1.50000E+001	0.00000E+000	Conditionin&g	Time(s)	E(V)
DELAY	TWOPARAM	F	6.00000E+002	0.00000E+000	Init. De&lay	Time(s)	Stab.(mV/s)
SPEED	SELECTOR	1	&Optimize for:
ZGUESS	QUANT	1.00000E+002	E&stimated Z (ohms)
OCVCURVE	TABLE	39
	Pt	T	Vf	Vm	Ach	Over
	#	s	V vs. Ref.	V	V	bits
	0	0.258332	-5.48970E-001	4.60474E-006	-2.63400E-004	......
	1	0.516663	-5.49219E-001	4.60474E-006	-1.63400E-004	......
	2	0.774994	-5.49670E-001	4.60474E-006	-1.63400E-004	......
	3	1.03333	-5.50219E-001	4.60474E-006	-6.34000E-005	......
	4	1.29166	-5.50419E-001	4.60474E-006	-1.63400E-004	......
	5	1.54999	-5.50269E-001	4.60474E-006	-1.63400E-004	......
	6	1.80832	-5.50219E-001	4.60474E-006	-6.34000E-005	......
	7	2.06665	-5.50269E-001	4.60474E-006	-6.34000E-005	......
	8	2.32498	-5.50770E-001	4.60474E-006	-3.63400E-004	......
	9	2.58332	-5.51069E-001	4.60474E-006	-1.63400E-004	......
	10	2.84165	-5.51170E-001	4.60474E-006	-6.34000E-005	......
	11	3.09998	-5.51419E-001	4.60474E-006	-1.63400E-004	......
	12	3.35831	-5.51769E-001	4.60474E-006	-1.63400E-004	......
	13	3.61664	-5.51769E-001	4.60474E-006	-1.63400E-004	......
	14	3.87497	-5.52170E-001	4.60474E-006	-1.63400E-004	......
	15	4.1333	-5.52419E-001	4.60474E-006	-1.63400E-004	......
	16	4.39164	-5.52869E-001	4.60474E-006	-1.63400E-004	......
	17	4.64997	-5.53219E-001	4.60474E-006	-1.63400E-004	......
	18	4.9083	-5.53670E-001	4.60474E-006	-6.34000E-005	......
	19	5.16663	-5.54269E-001	4.60474E-006	-1.63400E-004	......
	20	5.42496	-5.55070E-001	4.60474E-006	3.66000E-005	......
	21	5.68329	-5.56170E-001	4.60474E-006	-1.63400E-004	......
	22	5.94162	-5.57469E-001	4.60474E-006	-6.34000E-005	......
	23	6.19996	-5.58469E-001	4.60474E-006	-6.34000E-005	......
	24	6.45829	-5.59419E-001	4.60474E-006	-6.34000E-005	......
	25	6.71662	-5.60219E-001	4.60474E-006	-1.63400E-004	......
	26	6.97495	-5.61369E-001	4.60474E-006	-6.34000E-005	......
	27	7.23328	-5.61570E-001	4.60474E-006	3.66000E-005	......
	28	7.49161	-5.61870E-001	4.60474E-006	-1.63400E-004	......
	29	7.74995	-5.62369E-001	4.60474E-006	-1.63400E-004	......
	30	8.00828	-5.63269E-001	4.60474E-006	-2.63400E-004	......
	31	8.26661	-5.63019E-001	4.60474E-006	-6.34000E-005	......
	32	8.52494	-5.63069E-001	4.60474E-006	-1.63400E-004	......
	33	8.78327	-5.63069E-001	4.60474E-006	-6.34000E-005	......
	34	9.0416	-5.63269E-001	4.60474E-006	-1.63400E-004	......
	35	9.29993	-5.63469E-001	4.60474E-006	-6.34000E-005	......
	36	9.5583	-5.63819E-001	4.60474E-006	-6.34000E-005	......
	37	9.8166	-5.64319E-001	4.60474E-006	-1.63400E-004	......
	38	10.0749	-5.65069E-001	4.60474E-006	-1.63400E-004	......
EOC	QUANT	-0.565069	Open Circuit (V)
PSTATMODEL	IQUANT	32	Pstat Model
PSTATSECTION	LABEL	PStat0	Pstat Section
CTRLMODE	IQUANT	1	Control Mode
IESTAB	IQUANT	0	I/E Stability
CASPEED	IQUANT	1	Control Amp Speed
CONVENTION	IQUANT	1	Current Convention
ICHRANGE	IQUANT	2	Ich Range
ICHRANGEMODE	TOGGLE	F	Ich Auto Range
ICHOFFSETENABLE	TOGGLE	T	Ich Offset Enable
ICHOFFSET	QUANT	0	Ich Offset (V)
ICHFILTER	IQUANT	3	Ich Filter
VCHRANGE	IQUANT	2	Vch Range
VCHRANGEMODE	TOGGLE	F	Vch Auto Range
VCHOFFSETENABLE	TOGGLE	T	Vch Offset Enable
VCHOFFSET	QUANT	0	Vch Offset (V)
VCHFILTER	IQUANT	3	Vch Filter
ACHRANGE	IQUANT	0	Ach Range
IERANGELOWERLIMIT	IQUANT	3	I/E Range Lower Limit
IERANGEMODE	TOGGLE	F	I/E AutoRange
IERANGE	IQUANT	11	I/E Range
POSFEEDENABLE	TOGGLE	F	Positive Feedback IR Comp
POSFEEDRESISTANCE	QUANT	0	Positive Feedback Resistance (ohm)
FC350IDIVISOR	IQUANT	0	FC350 I Divisor
FC350VRANGE	IQUANT	0	FC350 V Range
FRAMEWORKVERSION	QUANT	4.35	Framework Version
ZCURVE	TABLE
	Pt	Time	Freq	Zreal	Zimag	Zsig	Zmod	Zphz	Idc	Vdc	IERange
	#	s	Hz	ohm	ohm	V	ohm	°	A	V	#
	0	4	100007	114.362	-0.464349	1	114.363	-0.232639	3.43362E-006	-0.464874	9
	1	6	89134.1	113.952	-0.676498	1	113.954	-0.340144	4.0429E-006	-0.46487	9
	2	8	79433.6	113.574	-0.876277	1	113.577	-0.442057	3.87099E-006	-0.464873	9
	3	10	70800.8	113.331	-1.29379	1	113.338	-0.654062	4.09785E-006	-0.464871	9
	4	12	63105.5	113.126	-1.49311	1	113.136	-0.756186	4.49578E-006	-0.464882	9
	5	14	56243.5	113.082	-1.78334	1	113.097	-0.903494	4.40546E-006	-0.464873	9
	6	16	50123.7	112.876	-2.0673	1	112.895	-1.04925	4.35126E-006	-0.464875	9
	7	18	44681	112.699	-2.43682	1	112.725	-1.23868	4.14492E-006	-0.464858	9
	8	20	39811.2	112.802	-2.74166	1	112.836	-1.3923	4.41023E-006	-0.464848	9
	9	22	35488.3	112.882	-3.10377	1	112.925	-1.57499	4.50443E-006	-0.464839	9
	10	24	31634.1	112.745	-3.36694	1	112.795	-1.71053	4.7549E-006	-0.464866	9
	11	26	28173.1	112.898	-3.74173	1	112.96	-1.89824	4.92431E-006	-0.464873	9
	12	28	25123.7	112.881	-4.31494	1	112.963	-2.1891	5.23415E-006	-0.464873	9
	13	29	22389.3	112.967	-4.88925	1	113.073	-2.47823	4.1879E-006	-0.464864	9
	14	31	19954.4	113.166	-5.46714	1	113.298	-2.76584	4.4717E-006	-0.464845	9
	15	33	17778.2	113.269	-5.74542	1	113.415	-2.90375	4.70799E-006	-0.464861	9
	16	35	15852.9	113.473	-6.62355	1	113.666	-3.34062	4.80584E-006	-0.464872	9
	17	37	14122.3	113.68	-7.28	1	113.913	-3.66418	4.91309E-006	-0.464863	9
	18	39	12587.2	113.67	-8.04173	1	113.954	-4.04672	4.72637E-006	-0.464861	9
	19	41	11221.1	113.878	-8.80123	1	114.217	-4.41942	4.72829E-006	-0.464862	9
	20	43	9998.2	114.303	-9.7037	1	114.714	-4.8525	4.34929E-006	-0.464857	9
	21	45	8912.76	114.325	-10.7387	1	114.828	-5.36613	4.50235E-006	-0.464846	9
	22	47	7942.6	114.733	-11.5842	1	115.316	-5.76544	4.36151E-006	-0.464869	9
	23	49	7078.05	114.689	-12.8133	1	115.403	-6.37477	4.29181E-006	-0.464869	9
	24	51	6311.1	115.087	-14.3614	1	115.979	-7.11305	4.18195E-006	-0.464856	9
	25	53	5622.14	115.427	-15.8303	1	116.507	-7.80914	4.32604E-006	-0.464863	9
	26	55	5011.18	115.76	-17.5476	1	117.082	-8.61964	4.23499E-006	-0.464858	9
	27	57	4465.21	116.215	-19.1698	1	117.785	-9.36667	4.33552E-006	-0.464857	9
	28	59	3980.93	116.417	-21.1655	1	118.325	-10.3042	4.40668E-006	-0.464868	9
	29	61	3548.18	117.033	-23.2845	1	119.327	-11.2524	4.19487E-006	-0.464876	9
	30	63	3162.67	117.333	-26.0163	1	120.183	-12.502	4.24624E-006	-0.464863	9
	31	65	2819.01	117.928	-28.6336	1	121.355	-13.6476	4.05671E-006	-0.464871	9
	32	67	2511.16	118.448	-31.6709	1	122.609	-14.9696	3.97692E-006	-0.464864	9
	33	69	2238.63	119.193	-35.0087	1	124.227	-16.3683	4.10409E-006	-0.464862	9
	34	71	1995.37	119.914	-38.4306	1	125.921	-17.7699	4.27554E-006	-0.464867	9
	35	73	1778.51	120.925	-42.6803	1	128.236	-19.4404	4.14346E-006	-0.464857	9
	36	75	1584.49	121.413	-47.2789	1	130.293	-21.2763	4.09801E-006	-0.46486	9
	37	77	1412.76	122.323	-52.4909	1	133.11	-23.225	3.80376E-006	-0.464854	9
	38	79	1259.04	123.422	-57.6723	1	136.231	-25.0457	3.97921E-006	-0.464859	9
	39	81	1121.63	124.562	-64.1114	1	140.093	-27.2346	3.94871E-006	-0.464854	9
	40	83	999.95	125.693	-70.7649	1	144.244	-29.3794	3.56404E-006	-0.46486	9
	41	85	891.184	127.039	-78.5028	1	149.337	-31.7138	3.93604E-006	-0.464859	9
	42	87	794.163	128.298	-86.8259	1	154.916	-34.0883	4.02031E-006	-0.464866	9
	43	89	707.867	129.74	-95.991	1	161.39	-36.4968	4.08974E-006	-0.464842	9
	44	91	630.984	131.237	-106.427	1	168.967	-39.0402	3.97221E-006	-0.464865	9
	45	93	562.189	132.878	-117.946	1	177.673	-41.5931	3.94109E-006	-0.464875	9
	46	95	501.303	135.107	-130.665	1	187.955	-44.0425	3.91495E-006	-0.464855	9
	47	97	446.614	137.203	-144.928	1	199.572	-46.5686	4.09648E-006	-0.464858	9
	48	99	398.209	139.474	-160.67	1	212.762	-49.0394	3.97793E-006	-0.464854	9
	49	101	354.821	141.985	-178.227	1	227.87	-51.4573	3.84459E-006	-0.464855	9
	50	103	316.113	144.77	-197.805	1	245.122	-53.8003	3.78845E-006	-0.464854	9
	51	105	281.926	147.784	-219.36	1	264.498	-56.0316	3.66951E-006	-0.464854	9
	52	107	251.185	151.118	-243.542	1	286.617	-58.1803	3.4312E-006	-0.464856	9
	53	109	223.946	154.855	-270.272	1	311.492	-60.1889	3.59904E-006	-0.464855	9
	54	111	199.495	158.993	-300.246	1	339.745	-62.0968	3.68873E-006	-0.464852	9
	55	113	177.836	163.543	-333.353	1	371.309	-63.8675	3.51313E-006	-0.464854	9
	56	115	158.533	168.772	-370.199	1	406.855	-65.492	3.88801E-006	-0.464851	9
	57	117	141.263	174.659	-411.319	1	446.866	-66.9924	4.20979E-006	-0.464856	9
	58	119	125.911	181.305	-456.931	1	491.587	-68.3574	4.37163E-006	-0.464859	9
	59	121	112.198	188.611	-508.021	1	541.903	-69.6317	4.14091E-006	-0.464862	9
	60	123	100.009	196.634	-564.415	1	597.687	-70.7924	4.20428E-006	-0.464864	9
	61	125	89.1164	206.168	-627.582	1	660.579	-71.814	4.33288E-006	-0.464861	9
	62	127	79.4083	216.885	-697.815	1	730.742	-72.7344	4.48533E-006	-0.464856	9
	63	129	70.788	228.616	-775.596	1	808.588	-73.5765	4.51171E-006	-0.464854	9
	64	131	63.0971	241.754	-862.035	1	895.293	-74.3341	4.46249E-006	-0.464857	9
	65	133	54.5476	261.277	-986.34	1	1020.36	-75.1634	4.45769E-006	-0.464855	9
	66	135	50.0083	275.232	-1067.38	1	1102.3	-75.5409	3.42772E-006	-0.464863	8
	67	137	46.1675	289.437	-1149.05	1	1184.94	-75.8617	3.59962E-006	-0.464864	8
	68	140	40.0059	318.102	-1311.18	1	1349.22	-76.3631	3.7802E-006	-0.464864	8
	69	142	35.3046	349.988	-1472.4	1	1513.42	-76.629	3.38423E-006	-0.464866	8
	70	144	31.5793	375.62	-1633.36	1	1675.99	-77.049	3.43046E-006	-0.464861	8
	71	146	28.5748	411.681	-1791.26	1	1837.96	-77.0566	3.42559E-006	-0.464864	8
	72	148	24.9911	470.903	-2022.41	1	2076.51	-76.8926	3.72068E-006	-0.464858	8
	73	150	22.2195	529.191	-2259.65	1	2320.79	-76.8193	3.63994E-006	-0.464854	8
	74	153	20.0011	574.143	-2482.29	1	2547.83	-76.9768	3.33904E-006	-0.464861	8
	75	155	17.6486	643.279	-2781.35	1	2854.77	-76.9774	3.31528E-006	-0.464857	8
	76	157	15.7934	732.444	-3078.66	1	3164.59	-76.6175	3.36561E-006	-0.464859	8
	77	160	14.2828	833.251	-3378.24	1	3479.49	-76.1444	3.41161E-006	-0.464865	8
	78	162	12.5002	959.44	-3807.52	1	3926.55	-75.8567	3.20313E-006	-0.464857	8
	79	164	11.323	1051.15	-4149.53	1	4280.6	-75.785	3.16751E-006	-0.464855	8
	80	167	9.9987	1184.91	-4662.19	1	4810.41	-75.74	2.66746E-006	-0.464858	8
