EXPLAIN
TAG	EISPOT
TITLE	LABEL	Tomato_open	Test &Identifier
DATE	LABEL	5/15/2006	Date
TIME	LABEL	14:52:37	Time
NOTES	NOTES	1	&Notes...
	
PSTAT	PSTAT	300	Potentiostat
VDC	POTEN	1.00000E-001	T	DC &Voltage (V)
FREQINIT	QUANT	1.00000E+005	Initial Fre&q. (Hz)
FREQFINAL	QUANT	1.00000E+001	Final Fre&q. (Hz)
PTSPERDEC	QUANT	2.00000E+001	Points/&decade
VAC	QUANT	1.00000E+001	AC &Voltage (mV rms)
AREA	QUANT	1.00000E+000	&Area (cm²)
DENSITY	QUANT	7.87000E+000	&Density (gm/cm³)
EQUIV	QUANT	7.00000E+000	Equiv. &Wt
CONDIT	TWOPARAM	F	1.50000E+001	0.00000E+000	Conditionin&g	Time(s)	E(V)
DELAY	TWOPARAM	F	6.00000E+002	0.00000E+000	Init. De&lay	Time(s)	Stab.(mV/s)
SPEED	SELECTOR	1	&Optimize for:
ZGUESS	QUANT	1.00000E+002	E&stimated Z (ohms)
OCVCURVE	TABLE	39
	Pt	T	Vf	Vm	Ach	Over
	#	s	V vs. Ref.	V	V	bits
	0	0.258332	-5.11320E-001	4.09234E-006	-1.63400E-004	......
	1	0.516663	-5.11270E-001	4.09234E-006	3.66000E-005	......
	2	0.774994	-5.11620E-001	4.09234E-006	-1.63400E-004	......
	3	1.03333	-5.11819E-001	4.09234E-006	3.66000E-005	......
	4	1.29166	-5.11719E-001	4.09234E-006	-6.34000E-005	......
	5	1.54999	-5.11819E-001	4.09234E-006	3.66000E-005	......
	6	1.80832	-5.12069E-001	4.09234E-006	-1.63400E-004	......
	7	2.06665	-5.12119E-001	4.09234E-006	3.66000E-005	......
	8	2.32498	-5.12869E-001	4.09234E-006	-2.63400E-004	......
	9	2.58332	-5.13269E-001	4.09234E-006	3.66000E-005	......
	10	2.84165	-5.12419E-001	4.09234E-006	-6.34000E-005	......
	11	3.09998	-5.11919E-001	4.09234E-006	3.66000E-005	......
	12	3.35831	-5.11620E-001	4.09234E-006	-1.63400E-004	......
	13	3.61664	-5.07670E-001	4.09234E-006	-6.34000E-005	......
	14	3.87497	-5.05719E-001	4.09234E-006	-1.63400E-004	......
	15	4.1333	-5.05069E-001	4.09234E-006	3.66000E-005	......
	16	4.39164	-5.04569E-001	4.09234E-006	-6.34000E-005	......
	17	4.64997	-4.99619E-001	4.09234E-006	-6.34000E-005	......
	18	4.9083	-4.97719E-001	4.09234E-006	3.66000E-005	......
	19	5.16663	-4.98419E-001	4.09234E-006	3.66000E-005	......
	20	5.42496	-4.98969E-001	4.09234E-006	-6.34000E-005	......
	21	5.68329	-4.99269E-001	4.09234E-006	1.36600E-004	......
	22	5.94162	-4.99269E-001	4.09234E-006	-1.63400E-004	......
	23	6.19996	-4.99219E-001	4.09234E-006	3.66000E-005	......
	24	6.45829	-4.99469E-001	4.09234E-006	-1.63400E-004	......
	25	6.71662	-5.00120E-001	4.09234E-006	2.36600E-004	......
	26	6.97495	-5.00669E-001	4.09234E-006	-1.63400E-004	......
	27	7.23328	-5.01069E-001	4.09234E-006	1.36600E-004	......
	28	7.49161	-5.01419E-001	4.09234E-006	-1.63400E-004	......
	29	7.74995	-5.01520E-001	4.09234E-006	3.66000E-005	......
	30	8.00828	-5.01719E-001	4.09234E-006	3.66000E-005	......
	31	8.26661	-5.01469E-001	4.09234E-006	3.66000E-005	......
	32	8.52494	-5.00569E-001	4.09234E-006	-6.34000E-005	......
	33	8.78327	-4.95669E-001	4.09234E-006	3.66000E-005	......
	34	9.0416	-4.92069E-001	4.09234E-006	3.66000E-005	......
	35	9.29993	-4.90919E-001	4.09234E-006	3.66000E-005	......
	36	9.5583	-4.89869E-001	4.09234E-006	-6.34000E-005	......
	37	9.8166	-4.90269E-001	4.09234E-006	3.66000E-005	......
	38	10.0749	-4.91969E-001	4.09234E-006	-1.63400E-004	......
EOC	QUANT	-0.491969	Open Circuit (V)
PSTATMODEL	IQUANT	32	Pstat Model
PSTATSECTION	LABEL	PStat0	Pstat Section
CTRLMODE	IQUANT	1	Control Mode
IESTAB	IQUANT	0	I/E Stability
CASPEED	IQUANT	1	Control Amp Speed
CONVENTION	IQUANT	1	Current Convention
ICHRANGE	IQUANT	2	Ich Range
ICHRANGEMODE	TOGGLE	F	Ich Auto Range
ICHOFFSETENABLE	TOGGLE	T	Ich Offset Enable
ICHOFFSET	QUANT	0	Ich Offset (V)
ICHFILTER	IQUANT	3	Ich Filter
VCHRANGE	IQUANT	2	Vch Range
VCHRANGEMODE	TOGGLE	F	Vch Auto Range
VCHOFFSETENABLE	TOGGLE	T	Vch Offset Enable
VCHOFFSET	QUANT	0	Vch Offset (V)
VCHFILTER	IQUANT	3	Vch Filter
ACHRANGE	IQUANT	0	Ach Range
IERANGELOWERLIMIT	IQUANT	3	I/E Range Lower Limit
IERANGEMODE	TOGGLE	F	I/E AutoRange
IERANGE	IQUANT	11	I/E Range
POSFEEDENABLE	TOGGLE	F	Positive Feedback IR Comp
POSFEEDRESISTANCE	QUANT	0	Positive Feedback Resistance (ohm)
FC350IDIVISOR	IQUANT	0	FC350 I Divisor
FC350VRANGE	IQUANT	0	FC350 V Range
FRAMEWORKVERSION	QUANT	4.35	Framework Version
ZCURVE	TABLE
	Pt	Time	Freq	Zreal	Zimag	Zsig	Zmod	Zphz	Idc	Vdc	IERange
	#	s	Hz	ohm	ohm	V	ohm	°	A	V	#
	0	4	100007	112.588	-0.720826	1	112.591	-0.36682	2.31854E-006	-0.391869	9
	1	6	89134.1	112.124	-0.897011	1	112.127	-0.458367	2.73957E-006	-0.391871	9
	2	8	79433.6	111.815	-1.29437	1	111.822	-0.663227	3.42956E-006	-0.3919	9
	3	10	70800.8	111.441	-1.60408	1	111.453	-0.824656	3.12182E-006	-0.391884	9
	4	12	63105.5	111.333	-1.71353	1	111.346	-0.881772	3.24176E-006	-0.391885	9
	5	14	56243.5	111.385	-2.02317	1	111.404	-1.04059	3.2634E-006	-0.391888	9
	6	16	50123.7	111.256	-2.52402	1	111.284	-1.29963	3.42529E-006	-0.391883	9
	7	18	44681	111.215	-2.83225	1	111.252	-1.4588	3.01187E-006	-0.391901	9
	8	20	39811.2	111.385	-3.24336	1	111.433	-1.66789	3.0117E-006	-0.391909	9
	9	22	35488.3	111.354	-3.80573	1	111.419	-1.95743	2.99556E-006	-0.391899	9
	10	24	31634.1	111.334	-4.2431	1	111.415	-2.18256	2.61249E-006	-0.391882	9
	11	26	28173.1	111.506	-4.72832	1	111.606	-2.42813	3.05996E-006	-0.3919	9
	12	28	25123.7	111.464	-5.23279	1	111.587	-2.68784	3.12688E-006	-0.391917	9
	13	30	22389.3	111.56	-5.77687	1	111.71	-2.96427	3.44318E-006	-0.391917	9
	14	32	19954.4	111.81	-6.1674	1	111.98	-3.15721	3.39324E-006	-0.391904	9
	15	34	17778.2	111.717	-7.13496	1	111.945	-3.6543	3.03656E-006	-0.3919	9
	16	36	15852.9	112.183	-7.81895	1	112.455	-3.98695	3.09621E-006	-0.391899	9
	17	38	14122.3	112.367	-8.68111	1	112.702	-4.41771	3.12398E-006	-0.391911	9
	18	40	12587.2	112.501	-9.30304	1	112.885	-4.72718	3.0119E-006	-0.391901	9
	19	42	11221.1	112.837	-10.3404	1	113.31	-5.23597	3.12726E-006	-0.391908	9
	20	44	9998.2	112.963	-11.4406	1	113.541	-5.78305	3.15253E-006	-0.391905	9
	21	46	8912.76	113.473	-12.6597	1	114.177	-6.36592	3.03615E-006	-0.391904	9
	22	48	7942.6	113.585	-13.8938	1	114.432	-6.97381	3.25767E-006	-0.391899	9
	23	50	7078.05	114.014	-15.1635	1	115.018	-7.57567	3.21281E-006	-0.391917	9
	24	52	6311.1	114.48	-16.9287	1	115.725	-8.4116	3.06431E-006	-0.39192	9
	25	54	5622.14	114.783	-18.4408	1	116.255	-9.12705	3.00638E-006	-0.391912	9
	26	56	5011.18	115.253	-20.4354	1	117.051	-10.0546	3.06104E-006	-0.391918	9
	27	58	4465.21	115.864	-22.3955	1	118.009	-10.9399	3.04895E-006	-0.391909	9
	28	60	3980.93	116.091	-24.9795	1	118.748	-12.1433	2.91601E-006	-0.391908	9
	29	62	3548.18	116.658	-27.42	1	119.837	-13.2271	2.8787E-006	-0.391908	9
	30	64	3162.67	117.361	-30.2475	1	121.196	-14.4524	2.84907E-006	-0.391926	9
	31	66	2819.01	117.989	-33.3042	1	122.6	-15.7625	2.92503E-006	-0.391921	9
	32	68	2511.16	118.73	-36.704	1	124.274	-17.1784	2.90221E-006	-0.391915	9
	33	70	2238.63	119.528	-40.5508	1	126.219	-18.7399	2.96767E-006	-0.391918	9
	34	72	1995.37	120.329	-44.723	1	128.372	-20.3887	3.10938E-006	-0.391914	9
	35	74	1778.51	121.29	-49.5039	1	131.003	-22.2026	3.18298E-006	-0.391908	9
	36	75	1584.49	121.995	-54.533	1	133.629	-24.0851	3.07709E-006	-0.391908	9
	37	77	1412.76	123.335	-60.0379	1	137.172	-25.9562	2.94374E-006	-0.391915	9
	38	79	1259.04	124.434	-66.5289	1	141.102	-28.1313	3.12307E-006	-0.391918	9
	39	81	1121.63	125.493	-73.5601	1	145.463	-30.3775	3.26248E-006	-0.391915	9
	40	83	999.95	126.997	-81.0273	1	150.644	-32.5389	3.16054E-006	-0.39191	9
	41	85	891.184	128.095	-89.8765	1	156.48	-35.055	3.15599E-006	-0.391912	9
	42	87	794.163	129.397	-99.315	1	163.117	-37.507	3.18939E-006	-0.391896	9
	43	89	707.867	131.716	-110.089	1	171.665	-39.8892	3.10762E-006	-0.391894	9
	44	91	630.984	133.019	-121.794	1	180.354	-42.4776	3.18298E-006	-0.391901	9
	45	93	562.189	134.775	-135.018	1	190.772	-45.0516	3.49721E-006	-0.391923	9
	46	95	501.303	137.147	-149.613	1	202.962	-47.4891	3.23974E-006	-0.391903	9
	47	97	446.614	139.308	-165.969	1	216.685	-49.9912	3.32384E-006	-0.391906	9
	48	99	398.209	141.666	-184.033	1	232.244	-52.4114	3.48985E-006	-0.391903	9
	49	101	354.821	144.277	-204.218	1	250.042	-54.7594	3.39429E-006	-0.391903	9
	50	103	316.113	147.117	-226.702	1	270.253	-57.0187	3.42352E-006	-0.391898	9
	51	105	281.926	150.135	-251.498	1	292.903	-59.1644	3.16685E-006	-0.391904	9
	52	107	251.185	153.586	-279.462	1	318.885	-61.2079	3.35728E-006	-0.391907	9
	53	109	223.946	157.315	-310.352	1	347.946	-63.12	3.50587E-006	-0.391911	9
	54	111	199.495	161.381	-345.014	1	380.891	-64.9321	3.27985E-006	-0.391908	9
	55	113	177.836	165.961	-383.416	1	417.793	-66.5948	3.39378E-006	-0.391913	9
	56	115	158.533	170.836	-426.144	1	459.112	-68.1547	3.30251E-006	-0.391901	9
	57	117	141.263	176.394	-474.031	1	505.787	-69.589	3.28935E-006	-0.39191	9
	58	119	125.911	182.693	-527.36	1	558.108	-70.8924	3.34762E-006	-0.391906	9
	59	121	112.198	189.37	-586.678	1	616.483	-72.1108	3.29657E-006	-0.391902	9
	60	123	100.009	197.041	-652.81	1	681.899	-73.2044	3.30605E-006	-0.391898	9
	61	126	89.1164	205.337	-726.649	1	755.104	-74.2207	3.21311E-006	-0.391897	9
	62	128	79.4083	214.788	-809.047	1	837.072	-75.132	3.15149E-006	-0.391904	9
	63	130	70.788	225.274	-900.339	1	928.094	-75.9524	3.15943E-006	-0.391897	9
	64	132	63.0971	237.397	-1002.46	1	1030.19	-76.677	3.08356E-006	-0.391903	9
	65	134	54.5476	255.719	-1147.37	1	1175.52	-77.4357	2.51576E-006	-0.391907	8
	66	136	50.0083	266.627	-1244.86	1	1273.09	-77.9109	2.27519E-006	-0.391914	8
	67	138	46.1675	279.476	-1341.72	1	1370.52	-78.2337	2.26928E-006	-0.391911	8
	68	140	40.0059	303.525	-1533.78	1	1563.52	-78.8061	2.19729E-006	-0.391911	8
	69	142	35.3046	327.421	-1724.21	1	1755.03	-79.2478	2.29496E-006	-0.391917	8
	70	145	31.5793	352.746	-1913.88	1	1946.11	-79.557	2.16243E-006	-0.391912	8
	71	147	28.5748	383.78	-2101.55	1	2136.31	-79.6508	2.21165E-006	-0.39191	8
	72	149	24.9911	418.777	-2381.86	1	2418.39	-80.0282	2.15614E-006	-0.391916	8
	73	151	22.2195	457.085	-2659.54	1	2698.54	-80.2481	1.92553E-006	-0.391917	8
	74	153	20.0011	502.042	-2935.41	1	2978.03	-80.2946	2.01763E-006	-0.391911	8
	75	156	17.6486	554.802	-3297.9	1	3344.24	-80.4506	1.94346E-006	-0.391906	8
	76	158	15.7934	627.046	-3660.98	1	3714.29	-80.2808	2.03092E-006	-0.39191	8
	77	160	14.2828	674.219	-4021.78	1	4077.91	-80.4833	1.90997E-006	-0.39191	8
	78	162	12.5002	799.72	-4544.73	1	4614.56	-80.02	2.02519E-006	-0.391914	8
	79	165	11.323	894.56	-4991.29	1	5070.82	-79.8391	1.99928E-006	-0.391911	8
	80	168	9.9987	1045.27	-5599.07	1	5695.8	-79.4254	2.08802E-006	-0.391911	8
