EXPLAIN
TAG	EISPOT
TITLE	LABEL	Tomato_open	Test &Identifier
DATE	LABEL	5/15/2006	Date
TIME	LABEL	14:57:36	Time
NOTES	NOTES	1	&Notes...
	
PSTAT	PSTAT	300	Potentiostat
VDC	POTEN	1.00000E-001	T	DC &Voltage (V)
FREQINIT	QUANT	1.00000E+005	Initial Fre&q. (Hz)
FREQFINAL	QUANT	1.00000E+001	Final Fre&q. (Hz)
PTSPERDEC	QUANT	2.00000E+001	Points/&decade
VAC	QUANT	1.00000E+001	AC &Voltage (mV rms)
AREA	QUANT	1.00000E+000	&Area (cm²)
DENSITY	QUANT	7.87000E+000	&Density (gm/cm³)
EQUIV	QUANT	7.00000E+000	Equiv. &Wt
CONDIT	TWOPARAM	F	1.50000E+001	0.00000E+000	Conditionin&g	Time(s)	E(V)
DELAY	TWOPARAM	F	6.00000E+002	0.00000E+000	Init. De&lay	Time(s)	Stab.(mV/s)
SPEED	SELECTOR	1	&Optimize for:
ZGUESS	QUANT	1.00000E+002	E&stimated Z (ohms)
OCVCURVE	TABLE	39
	Pt	T	Vf	Vm	Ach	Over
	#	s	V vs. Ref.	V	V	bits
	0	0.258332	-4.95669E-001	4.40674E-006	3.36600E-004	......
	1	0.516663	-4.94819E-001	4.40674E-006	2.36600E-004	......
	2	0.774994	-4.95069E-001	4.40674E-006	2.36600E-004	......
	3	1.03333	-4.95819E-001	4.40674E-006	3.66000E-005	......
	4	1.29166	-4.96919E-001	4.40674E-006	2.36600E-004	......
	5	1.54999	-4.97969E-001	4.40674E-006	1.36600E-004	......
	6	1.80832	-4.98819E-001	4.40674E-006	2.36600E-004	......
	7	2.06665	-4.99569E-001	4.40674E-006	2.36600E-004	......
	8	2.32498	-5.00369E-001	4.40674E-006	1.36600E-004	......
	9	2.58332	-5.00969E-001	4.40674E-006	3.36600E-004	......
	10	2.84165	-5.01219E-001	4.40674E-006	2.36600E-004	......
	11	3.09998	-5.00619E-001	4.40674E-006	2.36600E-004	......
	12	3.35831	-5.00369E-001	4.40674E-006	1.36600E-004	......
	13	3.61664	-5.00769E-001	4.40674E-006	2.36600E-004	......
	14	3.87497	-5.00269E-001	4.40674E-006	2.36600E-004	......
	15	4.1333	-4.98969E-001	4.40674E-006	3.66000E-005	......
	16	4.39164	-4.98819E-001	4.40674E-006	2.36600E-004	......
	17	4.64997	-4.99469E-001	4.40674E-006	3.36600E-004	......
	18	4.9083	-5.00669E-001	4.40674E-006	2.36600E-004	......
	19	5.16663	-5.01920E-001	4.40674E-006	2.36600E-004	......
	20	5.42496	-5.02819E-001	4.40674E-006	3.36600E-004	......
	21	5.68329	-5.03869E-001	4.40674E-006	2.36600E-004	......
	22	5.94162	-5.04819E-001	4.40674E-006	2.36600E-004	......
	23	6.19996	-5.04219E-001	4.40674E-006	2.36600E-004	......
	24	6.45829	-5.01269E-001	4.40674E-006	3.66000E-005	......
	25	6.71662	-5.00219E-001	4.40674E-006	3.36600E-004	......
	26	6.97495	-4.99619E-001	4.40674E-006	2.36600E-004	......
	27	7.23328	-4.97570E-001	4.40674E-006	2.36600E-004	......
	28	7.49161	-4.92869E-001	4.40674E-006	2.36600E-004	......
	29	7.74995	-4.90669E-001	4.40674E-006	2.36600E-004	......
	30	8.00828	-4.90469E-001	4.40674E-006	3.36600E-004	......
	31	8.26661	-4.90969E-001	4.40674E-006	3.36600E-004	......
	32	8.52494	-4.91919E-001	4.40674E-006	2.36600E-004	......
	33	8.78327	-4.93419E-001	4.40674E-006	1.36600E-004	......
	34	9.0416	-4.95069E-001	4.40674E-006	2.36600E-004	......
	35	9.29993	-4.96969E-001	4.40674E-006	2.36600E-004	......
	36	9.5583	-4.98669E-001	4.40674E-006	2.36600E-004	......
	37	9.8166	-5.00019E-001	4.40674E-006	3.66000E-005	......
	38	10.0749	-5.01219E-001	4.40674E-006	2.36600E-004	......
EOC	QUANT	-0.501219	Open Circuit (V)
PSTATMODEL	IQUANT	32	Pstat Model
PSTATSECTION	LABEL	PStat0	Pstat Section
CTRLMODE	IQUANT	1	Control Mode
IESTAB	IQUANT	0	I/E Stability
CASPEED	IQUANT	1	Control Amp Speed
CONVENTION	IQUANT	1	Current Convention
ICHRANGE	IQUANT	2	Ich Range
ICHRANGEMODE	TOGGLE	F	Ich Auto Range
ICHOFFSETENABLE	TOGGLE	T	Ich Offset Enable
ICHOFFSET	QUANT	0	Ich Offset (V)
ICHFILTER	IQUANT	3	Ich Filter
VCHRANGE	IQUANT	2	Vch Range
VCHRANGEMODE	TOGGLE	F	Vch Auto Range
VCHOFFSETENABLE	TOGGLE	T	Vch Offset Enable
VCHOFFSET	QUANT	0	Vch Offset (V)
VCHFILTER	IQUANT	3	Vch Filter
ACHRANGE	IQUANT	0	Ach Range
IERANGELOWERLIMIT	IQUANT	3	I/E Range Lower Limit
IERANGEMODE	TOGGLE	F	I/E AutoRange
IERANGE	IQUANT	11	I/E Range
POSFEEDENABLE	TOGGLE	F	Positive Feedback IR Comp
POSFEEDRESISTANCE	QUANT	0	Positive Feedback Resistance (ohm)
FC350IDIVISOR	IQUANT	0	FC350 I Divisor
FC350VRANGE	IQUANT	0	FC350 V Range
FRAMEWORKVERSION	QUANT	4.35	Framework Version
ZCURVE	TABLE
	Pt	Time	Freq	Zreal	Zimag	Zsig	Zmod	Zphz	Idc	Vdc	IERange
	#	s	Hz	ohm	ohm	V	ohm	°	A	V	#
	0	4	100007	112.588	-0.676554	1	112.59	-0.344291	1.81824E-006	-0.401112	9
	1	6	89134.1	112.162	-0.893716	1	112.166	-0.456528	1.71518E-006	-0.401103	9
	2	8	79433.6	111.952	-1.23859	1	111.959	-0.633872	1.9294E-006	-0.401116	9
	3	10	70800.8	111.665	-1.49675	1	111.675	-0.767945	1.76715E-006	-0.401125	9
	4	12	63105.5	111.514	-1.87131	1	111.53	-0.96138	1.96393E-006	-0.401148	9
	5	14	56243.5	111.476	-2.19663	1	111.498	-1.12886	2.19284E-006	-0.401139	9
	6	16	50123.7	111.238	-2.68141	1	111.271	-1.38085	2.05946E-006	-0.401118	9
	7	18	44681	111.354	-3.06235	1	111.396	-1.5753	2.23252E-006	-0.401131	9
	8	20	39811.2	111.293	-3.39999	1	111.345	-1.74984	2.10046E-006	-0.401105	9
	9	22	35488.3	111.351	-3.72907	1	111.413	-1.91808	2.5701E-006	-0.401114	9
	10	24	31634.1	111.408	-4.19055	1	111.487	-2.15413	2.62177E-006	-0.401114	9
	11	25	28173.1	111.584	-4.71108	1	111.683	-2.41761	3.08478E-006	-0.401123	9
	12	27	25123.7	111.639	-5.18408	1	111.76	-2.65867	2.89543E-006	-0.401108	9
	13	29	22389.3	111.672	-5.70235	1	111.817	-2.92319	3.19845E-006	-0.401108	9
	14	31	19954.4	111.922	-6.30717	1	112.099	-3.2254	2.94192E-006	-0.401112	9
	15	33	17778.2	112.092	-6.98552	1	112.309	-3.56604	3.2429E-006	-0.401114	9
	16	35	15852.9	112.215	-7.60173	1	112.472	-3.87546	3.34829E-006	-0.401143	9
	17	37	14122.3	112.591	-8.68213	1	112.925	-4.40948	3.3241E-006	-0.401126	9
	18	39	12587.2	112.707	-9.33813	1	113.094	-4.7363	3.21282E-006	-0.401121	9
	19	41	11221.1	113.001	-10.449	1	113.483	-5.28304	3.10257E-006	-0.401122	9
	20	43	9998.2	113.22	-11.5153	1	113.804	-5.80742	2.9581E-006	-0.401125	9
	21	45	8912.76	113.45	-12.4862	1	114.136	-6.2806	2.61212E-006	-0.401109	9
	22	47	7942.6	113.719	-13.9719	1	114.574	-7.00447	2.73084E-006	-0.40112	9
	23	49	7078.05	113.961	-15.2419	1	114.976	-7.6179	2.90235E-006	-0.401126	9
	24	51	6311.1	114.772	-16.8419	1	116.001	-8.34811	3.05688E-006	-0.401121	9
	25	53	5622.14	114.889	-18.5092	1	116.37	-9.15201	3.20288E-006	-0.401126	9
	26	55	5011.18	115.261	-20.4948	1	117.069	-10.0825	2.87179E-006	-0.401128	9
	27	57	4465.21	115.755	-22.6269	1	117.945	-11.0603	2.5462E-006	-0.401102	9
	28	59	3980.93	116.321	-24.8332	1	118.942	-12.0511	2.78001E-006	-0.401123	9
	29	61	3548.18	116.827	-27.4571	1	120.01	-13.2259	2.66835E-006	-0.401117	9
	30	63	3162.67	117.571	-30.2768	1	121.407	-14.441	2.77565E-006	-0.401103	9
	31	65	2819.01	118.233	-33.2587	1	122.822	-15.7112	2.95198E-006	-0.40111	9
	32	67	2511.16	119.008	-36.8149	1	124.573	-17.1893	2.65532E-006	-0.401117	9
	33	69	2238.63	119.522	-40.6801	1	126.255	-18.7963	2.83818E-006	-0.401114	9
	34	71	1995.37	120.387	-44.8036	1	128.454	-20.4134	2.77159E-006	-0.401121	9
	35	73	1778.51	121.461	-49.401	1	131.123	-22.1328	2.91762E-006	-0.40111	9
	36	75	1584.49	122.198	-54.8019	1	133.924	-24.1547	2.8887E-006	-0.401115	9
	37	77	1412.76	123.493	-60.4085	1	137.476	-26.0662	2.67287E-006	-0.401115	9
	38	79	1259.04	124.502	-66.8445	1	141.312	-28.2311	2.63213E-006	-0.401109	9
	39	81	1121.63	125.789	-73.7441	1	145.811	-30.3811	2.78928E-006	-0.401126	9
	40	83	999.95	126.963	-81.3794	1	150.805	-32.6586	2.72743E-006	-0.401122	9
	41	85	891.184	128.124	-90.4706	1	156.846	-35.2266	2.63435E-006	-0.401136	9
	42	87	794.163	129.877	-99.738	1	163.755	-37.5223	2.5954E-006	-0.401125	9
	43	89	707.867	131.637	-110.447	1	171.833	-39.9977	2.37893E-006	-0.401133	9
	44	91	630.984	133.145	-122.586	1	180.983	-42.6356	2.25104E-006	-0.401136	9
	45	93	562.189	134.98	-135.38	1	191.173	-45.0847	2.11479E-006	-0.401119	9
	46	95	501.303	137.306	-150.154	1	203.467	-47.5592	2.33401E-006	-0.40113	9
	47	97	446.614	139.491	-166.521	1	217.225	-50.0478	2.5887E-006	-0.401126	9
	48	99	398.209	141.823	-184.648	1	232.827	-52.4732	2.69459E-006	-0.40113	9
	49	101	354.821	144.402	-204.901	1	250.672	-54.826	2.40137E-006	-0.401122	9
	50	103	316.113	147.224	-227.484	1	270.968	-57.0897	2.47354E-006	-0.401128	9
	51	105	281.926	150.27	-252.427	1	293.769	-59.2347	2.61612E-006	-0.401122	9
	52	107	251.185	153.639	-280.425	1	319.755	-61.2825	2.82943E-006	-0.401129	9
	53	109	223.946	157.283	-311.449	1	348.91	-63.206	2.70212E-006	-0.401126	9
	54	111	199.495	161.33	-346.289	1	382.026	-65.02	2.68515E-006	-0.401123	9
	55	113	177.836	165.637	-384.77	1	418.908	-66.7089	2.55493E-006	-0.401126	9
	56	115	158.533	170.5	-427.69	1	460.423	-68.2652	2.47799E-006	-0.401126	9
	57	117	141.263	175.842	-475.665	1	507.127	-69.7119	2.54573E-006	-0.401122	9
	58	119	125.911	181.737	-529.197	1	559.534	-71.0465	2.50172E-006	-0.401118	9
	59	121	112.198	188.614	-588.808	1	618.28	-72.2381	2.65023E-006	-0.401113	9
	60	123	100.009	195.687	-655.231	1	683.829	-73.3716	2.53411E-006	-0.401118	9
	61	125	89.1164	203.414	-729.366	1	757.2	-74.4166	2.45974E-006	-0.401117	9
	62	127	79.4083	212.294	-811.807	1	839.106	-75.3449	2.32699E-006	-0.401114	9
	63	129	70.788	222.677	-903.746	1	930.775	-76.1584	2.41879E-006	-0.401117	9
	64	131	63.0971	233.993	-1006.27	1	1033.12	-76.9094	2.42914E-006	-0.401121	9
	65	133	54.5476	249.303	-1152.12	1	1178.78	-77.7902	1.55066E-006	-0.401114	8
	66	135	50.0083	260.676	-1249.87	1	1276.77	-78.2192	1.5453E-006	-0.401124	8
	67	137	46.1675	272.283	-1347.03	1	1374.27	-78.5724	1.62444E-006	-0.401123	8
	68	140	40.0059	295.163	-1540.33	1	1568.36	-79.1523	1.58287E-006	-0.401108	8
	69	142	35.3046	320.637	-1730.36	1	1759.82	-79.5021	1.75162E-006	-0.401117	8
	70	144	31.5793	348.413	-1922.29	1	1953.61	-79.7267	2.2445E-006	-0.401114	8
	71	146	28.5748	373.394	-2110.09	1	2142.87	-79.965	1.87111E-006	-0.401123	8
	72	148	24.9911	406.09	-2394.34	1	2428.53	-80.374	1.79589E-006	-0.401111	8
	73	150	22.2195	437.99	-2674.48	1	2710.11	-80.6994	1.54807E-006	-0.401124	8
	74	153	20.0011	467.912	-2950.71	1	2987.58	-80.9893	1.38814E-006	-0.401119	8
	75	155	17.6486	531.597	-3319.1	1	3361.4	-80.9006	1.55458E-006	-0.401114	8
	76	157	15.7934	592.68	-3681.08	1	3728.48	-80.8535	1.62802E-006	-0.401114	8
	77	159	14.2828	658.511	-4042.94	1	4096.22	-80.7489	1.73069E-006	-0.401108	8
	78	162	12.5002	767.861	-4581.83	1	4645.73	-80.4863	1.90616E-006	-0.401115	8
	79	164	11.323	840.309	-5024.89	1	5094.67	-80.5063	1.81873E-006	-0.401124	8
	80	167	9.9987	972.52	-5650.37	1	5733.46	-80.2341	1.70131E-006	-0.401114	8
