EXPLAIN
TAG	EISPOT
TITLE	LABEL	Tomato_open	Test &Identifier
DATE	LABEL	5/12/2006	Date
TIME	LABEL	11:50:29	Time
NOTES	NOTES	1	&Notes...
	
PSTAT	PSTAT	300	Potentiostat
VDC	POTEN	1.00000E-001	T	DC &Voltage (V)
FREQINIT	QUANT	1.00000E+005	Initial Fre&q. (Hz)
FREQFINAL	QUANT	1.00000E+001	Final Fre&q. (Hz)
PTSPERDEC	QUANT	2.00000E+001	Points/&decade
VAC	QUANT	1.00000E+001	AC &Voltage (mV rms)
AREA	QUANT	1.00000E+000	&Area (cm²)
DENSITY	QUANT	7.87000E+000	&Density (gm/cm³)
EQUIV	QUANT	7.00000E+000	Equiv. &Wt
CONDIT	TWOPARAM	F	1.50000E+001	0.00000E+000	Conditionin&g	Time(s)	E(V)
DELAY	TWOPARAM	F	6.00000E+002	0.00000E+000	Init. De&lay	Time(s)	Stab.(mV/s)
SPEED	SELECTOR	1	&Optimize for:
ZGUESS	QUANT	1.00000E+002	E&stimated Z (ohms)
OCVCURVE	TABLE	39
	Pt	T	Vf	Vm	Ach	Over
	#	s	V vs. Ref.	V	V	bits
	0	0.258332	-5.78569E-001	3.99124E-006	-6.34000E-005	......
	1	0.516663	-5.79219E-001	3.99124E-006	-1.63400E-004	......
	2	0.774994	-5.80019E-001	3.99124E-006	-1.63400E-004	......
	3	1.03333	-5.78369E-001	3.99124E-006	3.66000E-005	......
	4	1.29166	-5.80019E-001	3.99124E-006	-1.63400E-004	......
	5	1.54999	-5.81519E-001	3.99124E-006	-1.63400E-004	......
	6	1.80832	-5.80619E-001	3.99124E-006	-1.63400E-004	......
	7	2.06665	-5.78369E-001	3.99124E-006	-1.63400E-004	......
	8	2.32498	-5.78119E-001	3.99124E-006	-6.34000E-005	......
	9	2.58332	-5.75319E-001	3.99124E-006	-1.63400E-004	......
	10	2.84165	-5.74619E-001	3.99124E-006	-1.63400E-004	......
	11	3.09998	-5.74969E-001	3.99124E-006	-1.63400E-004	......
	12	3.35831	-5.75919E-001	3.99124E-006	-1.63400E-004	......
	13	3.61664	-5.77370E-001	3.99124E-006	-1.63400E-004	......
	14	3.87497	-5.78719E-001	3.99124E-006	-6.34000E-005	......
	15	4.1333	-5.79569E-001	3.99124E-006	-1.63400E-004	......
	16	4.39164	-5.80269E-001	3.99124E-006	-6.34000E-005	......
	17	4.64997	-5.80819E-001	3.99124E-006	-6.34000E-005	......
	18	4.9083	-5.80769E-001	3.99124E-006	-1.63400E-004	......
	19	5.16663	-5.81019E-001	3.99124E-006	-1.63400E-004	......
	20	5.42496	-5.80819E-001	3.99124E-006	-6.34000E-005	......
	21	5.68329	-5.79269E-001	3.99124E-006	-1.63400E-004	......
	22	5.94162	-5.80169E-001	3.99124E-006	-1.63400E-004	......
	23	6.19996	-5.82119E-001	3.99124E-006	-1.63400E-004	......
	24	6.45829	-5.82319E-001	3.99124E-006	-1.63400E-004	......
	25	6.71662	-5.82619E-001	3.99124E-006	-1.63400E-004	......
	26	6.97495	-5.80970E-001	3.99124E-006	-6.34000E-005	......
	27	7.23328	-5.81019E-001	3.99124E-006	-2.63400E-004	......
	28	7.49161	-5.82869E-001	3.99124E-006	-1.63400E-004	......
	29	7.74995	-5.82969E-001	3.99124E-006	-1.63400E-004	......
	30	8.00828	-5.82919E-001	3.99124E-006	-6.34000E-005	......
	31	8.26661	-5.85019E-001	3.99124E-006	-6.34000E-005	......
	32	8.52494	-5.83869E-001	3.99124E-006	-1.63400E-004	......
	33	8.78327	-5.81919E-001	3.99124E-006	-6.34000E-005	......
	34	9.0416	-5.81069E-001	3.99124E-006	-1.63400E-004	......
	35	9.29993	-5.82169E-001	3.99124E-006	-1.63400E-004	......
	36	9.5583	-5.85119E-001	3.99124E-006	-6.34000E-005	......
	37	9.8166	-5.85419E-001	3.99124E-006	-1.63400E-004	......
	38	10.0749	-5.85669E-001	3.99124E-006	-1.63400E-004	......
EOC	QUANT	-0.585669	Open Circuit (V)
PSTATMODEL	IQUANT	32	Pstat Model
PSTATSECTION	LABEL	PStat0	Pstat Section
CTRLMODE	IQUANT	1	Control Mode
IESTAB	IQUANT	0	I/E Stability
CASPEED	IQUANT	1	Control Amp Speed
CONVENTION	IQUANT	1	Current Convention
ICHRANGE	IQUANT	2	Ich Range
ICHRANGEMODE	TOGGLE	F	Ich Auto Range
ICHOFFSETENABLE	TOGGLE	T	Ich Offset Enable
ICHOFFSET	QUANT	0	Ich Offset (V)
ICHFILTER	IQUANT	3	Ich Filter
VCHRANGE	IQUANT	2	Vch Range
VCHRANGEMODE	TOGGLE	F	Vch Auto Range
VCHOFFSETENABLE	TOGGLE	T	Vch Offset Enable
VCHOFFSET	QUANT	0	Vch Offset (V)
VCHFILTER	IQUANT	3	Vch Filter
ACHRANGE	IQUANT	0	Ach Range
IERANGELOWERLIMIT	IQUANT	3	I/E Range Lower Limit
IERANGEMODE	TOGGLE	F	I/E AutoRange
IERANGE	IQUANT	11	I/E Range
POSFEEDENABLE	TOGGLE	F	Positive Feedback IR Comp
POSFEEDRESISTANCE	QUANT	0	Positive Feedback Resistance (ohm)
FC350IDIVISOR	IQUANT	0	FC350 I Divisor
FC350VRANGE	IQUANT	0	FC350 V Range
FRAMEWORKVERSION	QUANT	4.35	Framework Version
ZCURVE	TABLE
	Pt	Time	Freq	Zreal	Zimag	Zsig	Zmod	Zphz	Idc	Vdc	IERange
	#	s	Hz	ohm	ohm	V	ohm	°	A	V	#
	0	4	100007	114.204	-0.476751	1	114.205	-0.239184	3.09409E-006	-0.485701	9
	1	6	89134.1	113.692	-0.934908	1	113.696	-0.471142	3.6039E-006	-0.485718	9
	2	8	79433.6	113.416	-1.30097	1	113.423	-0.657201	3.19443E-006	-0.4857	9
	3	10	70800.8	113.262	-1.71405	1	113.275	-0.867018	3.3242E-006	-0.485692	9
	4	12	63105.5	113.058	-1.72707	1	113.071	-0.875185	3.62588E-006	-0.485703	9
	5	14	56243.5	112.969	-2.0562	1	112.987	-1.04275	4.00392E-006	-0.485729	9
	6	16	50123.7	112.818	-2.58969	1	112.848	-1.31497	4.19049E-006	-0.48573	9
	7	18	44681	112.664	-2.97829	1	112.703	-1.51427	3.88034E-006	-0.485712	9
	8	20	39811.2	112.549	-3.38818	1	112.6	-1.72431	4.07974E-006	-0.485718	9
	9	22	35488.3	112.794	-3.77682	1	112.857	-1.91779	4.01571E-006	-0.485703	9
	10	24	31634.1	112.892	-4.22154	1	112.971	-2.14154	4.08573E-006	-0.485719	9
	11	26	28173.1	112.936	-4.52705	1	113.026	-2.29548	3.78432E-006	-0.485721	9
	12	28	25123.7	112.982	-5.18356	1	113.101	-2.62687	3.62292E-006	-0.485712	9
	13	30	22389.3	113.166	-5.59067	1	113.304	-2.82825	3.57103E-006	-0.485698	9
	14	32	19954.4	113.202	-6.40375	1	113.383	-3.23774	3.32912E-006	-0.485707	9
	15	34	17778.2	113.329	-7.06477	1	113.549	-3.56711	3.5237E-006	-0.485708	9
	16	36	15852.9	113.534	-7.71609	1	113.795	-3.88802	3.37181E-006	-0.485694	9
	17	38	14122.3	113.75	-8.66294	1	114.08	-4.35509	3.37579E-006	-0.485707	9
	18	40	12587.2	113.993	-9.43946	1	114.383	-4.73372	3.54778E-006	-0.485704	9
	19	42	11221.1	114.083	-10.4904	1	114.565	-5.25379	3.15593E-006	-0.485713	9
	20	44	9998.2	114.425	-11.5712	1	115.008	-5.7744	3.31262E-006	-0.485703	9
	21	46	8912.76	114.775	-12.847	1	115.491	-6.3867	3.33443E-006	-0.485695	9
	22	48	7942.6	114.769	-14.2652	1	115.652	-7.08525	3.5069E-006	-0.485692	9
	23	50	7078.05	115.336	-15.6118	1	116.388	-7.70865	3.4907E-006	-0.485706	9
	24	52	6311.1	115.633	-17.2605	1	116.914	-8.48987	3.29448E-006	-0.485709	9
	25	54	5622.14	115.861	-19.1264	1	117.43	-9.37385	3.31895E-006	-0.485693	9
	26	56	5011.18	116.409	-20.9917	1	118.286	-10.2221	3.15185E-006	-0.485707	9
	27	58	4465.21	116.645	-23.323	1	118.954	-11.3071	3.30671E-006	-0.4857	9
	28	60	3980.93	117.228	-25.6406	1	119.999	-12.3377	3.26929E-006	-0.485679	9
	29	62	3548.18	117.97	-28.4537	1	121.353	-13.5605	3.54187E-006	-0.48572	9
	30	64	3162.67	118.475	-31.3487	1	122.552	-14.8209	3.9397E-006	-0.485727	9
	31	66	2819.01	119.205	-34.6919	1	124.151	-16.2264	3.54173E-006	-0.485689	9
	32	68	2511.16	119.778	-38.3457	1	125.766	-17.752	3.65888E-006	-0.485703	9
	33	70	2238.63	120.452	-42.4507	1	127.714	-19.4138	3.59574E-006	-0.48571	9
	34	72	1995.37	121.49	-46.7221	1	130.165	-21.0355	3.59151E-006	-0.485702	9
	35	74	1778.51	122.586	-51.7328	1	133.055	-22.8803	3.29482E-006	-0.485709	9
	36	76	1584.49	123.182	-57.3184	1	135.865	-24.9532	3.25046E-006	-0.485713	9
	37	78	1412.76	124.547	-63.1254	1	139.631	-26.8777	3.22081E-006	-0.485699	9
	38	80	1259.04	125.825	-69.7376	1	143.859	-28.9971	3.33543E-006	-0.485722	9
	39	82	1121.63	126.776	-76.9641	1	148.309	-31.2615	3.44588E-006	-0.485709	9
	40	84	999.95	128.354	-85.2962	1	154.111	-33.6056	3.44388E-006	-0.485707	9
	41	86	891.184	130.115	-94.3834	1	160.742	-35.9566	3.50559E-006	-0.485709	9
	42	87	794.163	131.673	-104.463	1	168.078	-38.4269	3.18603E-006	-0.485711	9
	43	89	707.867	133.66	-115.172	1	176.436	-40.7509	3.63892E-006	-0.485728	9
	44	91	630.984	135.048	-128.028	1	186.089	-43.4716	3.37656E-006	-0.485709	9
	45	93	562.189	137.2	-142.123	1	197.542	-46.0096	3.10528E-006	-0.485723	9
	46	95	501.303	139.63	-157.211	1	210.266	-48.3895	3.18085E-006	-0.485702	9
	47	97	446.614	142.024	-174.389	1	224.905	-50.8405	3.16679E-006	-0.485701	9
	48	99	398.209	144.639	-193.377	1	241.485	-53.2048	3.18249E-006	-0.485701	9
	49	101	354.821	147.602	-214.619	1	260.476	-55.4821	3.3437E-006	-0.485702	9
	50	103	316.113	150.814	-238.309	1	282.022	-57.6723	3.43221E-006	-0.485706	9
	51	105	281.926	154.38	-264.456	1	306.219	-59.7253	3.40138E-006	-0.4857	9
	52	107	251.185	158.335	-293.753	1	333.708	-61.675	3.37648E-006	-0.485698	9
	53	109	223.946	162.776	-326.251	1	364.604	-63.4841	3.33107E-006	-0.485691	9
	54	111	199.495	167.565	-362.532	1	399.383	-65.1933	3.20021E-006	-0.485692	9
	55	113	177.836	173.001	-402.795	1	438.375	-66.7564	3.19579E-006	-0.485694	9
	56	115	158.533	179.139	-447.666	1	482.178	-68.1905	3.11392E-006	-0.485694	9
	57	117	141.263	186.143	-497.803	1	531.467	-69.4978	3.20007E-006	-0.485697	9
	58	119	125.911	193.983	-553.341	1	586.358	-70.681	3.2163E-006	-0.485691	9
	59	121	112.198	202.729	-615.256	1	647.795	-71.7628	3.12327E-006	-0.485697	9
	60	124	100.009	212.7	-684.199	1	716.498	-72.7309	3.17648E-006	-0.485697	9
	61	126	89.1164	223.889	-760.818	1	793.077	-73.6022	3.1266E-006	-0.4857	9
	62	128	79.4083	237.139	-846.585	1	879.171	-74.3518	3.17802E-006	-0.485697	9
	63	130	70.788	251.549	-941.104	1	974.14	-75.0352	3.10314E-006	-0.485695	9
	64	132	63.0971	268.644	-1046.87	1	1080.79	-75.6075	3.0978E-006	-0.485691	9
	65	134	54.5476	294.829	-1196.5	1	1232.29	-76.1575	2.55732E-006	-0.485691	8
	66	136	50.0083	312.843	-1296.22	1	1333.44	-76.4311	2.59625E-006	-0.485697	8
	67	138	46.1675	330.47	-1395.27	1	1433.87	-76.675	2.48944E-006	-0.485696	8
	68	140	40.0059	368.014	-1591.99	1	1633.97	-76.9838	2.4826E-006	-0.485699	8
	69	142	35.3046	406.347	-1786.15	1	1831.79	-77.1834	2.39756E-006	-0.485695	8
	70	145	31.5793	449.169	-1977.86	1	2028.22	-77.2052	2.53116E-006	-0.485698	8
	71	147	28.5748	491.538	-2167.51	1	2222.54	-77.2228	2.5754E-006	-0.485702	8
	72	149	24.9911	555.782	-2446.56	1	2508.89	-77.2014	2.4201E-006	-0.485701	8
	73	151	22.2195	622.716	-2729.13	1	2799.27	-77.1466	2.28612E-006	-0.485695	8
	74	153	20.0011	695.516	-3003.73	1	3083.2	-76.9629	2.22479E-006	-0.485698	8
	75	156	17.6486	807.105	-3358.02	1	3453.65	-76.4852	2.47474E-006	-0.485701	8
	76	158	15.7934	910.441	-3708.98	1	3819.09	-76.2083	2.42948E-006	-0.4857	8
	77	160	14.2828	1041.24	-4057.49	1	4188.96	-75.6073	2.45825E-006	-0.48571	8
	78	162	12.5002	1248.33	-4547.88	1	4716.09	-74.6511	2.57614E-006	-0.485717	8
	79	165	11.323	1413.66	-4960.92	1	5158.41	-74.0946	2.71379E-006	-0.485718	8
	80	168	9.9987	1668	-5522.03	1	5768.45	-73.1924	2.59362E-006	-0.485711	8
