EXPLAIN
TAG	EISPOT
TITLE	LABEL	Tomato_open	Test &Identifier
DATE	LABEL	5/12/2006	Date
TIME	LABEL	11:55:18	Time
NOTES	NOTES	1	&Notes...
	
PSTAT	PSTAT	300	Potentiostat
VDC	POTEN	1.00000E-001	T	DC &Voltage (V)
FREQINIT	QUANT	1.00000E+005	Initial Fre&q. (Hz)
FREQFINAL	QUANT	1.00000E+001	Final Fre&q. (Hz)
PTSPERDEC	QUANT	2.00000E+001	Points/&decade
VAC	QUANT	1.00000E+001	AC &Voltage (mV rms)
AREA	QUANT	1.00000E+000	&Area (cm²)
DENSITY	QUANT	7.87000E+000	&Density (gm/cm³)
EQUIV	QUANT	7.00000E+000	Equiv. &Wt
CONDIT	TWOPARAM	F	1.50000E+001	0.00000E+000	Conditionin&g	Time(s)	E(V)
DELAY	TWOPARAM	F	6.00000E+002	0.00000E+000	Init. De&lay	Time(s)	Stab.(mV/s)
SPEED	SELECTOR	1	&Optimize for:
ZGUESS	QUANT	1.00000E+002	E&stimated Z (ohms)
OCVCURVE	TABLE	39
	Pt	T	Vf	Vm	Ach	Over
	#	s	V vs. Ref.	V	V	bits
	0	0.258332	-5.57369E-001	4.86144E-006	-1.63400E-004	......
	1	0.516663	-5.57270E-001	4.86144E-006	-1.63400E-004	......
	2	0.774994	-5.58219E-001	4.86144E-006	-1.63400E-004	......
	3	1.03333	-5.58619E-001	4.86144E-006	-6.34000E-005	......
	4	1.29166	-5.59169E-001	4.86144E-006	-6.34000E-005	......
	5	1.54999	-5.58670E-001	4.86144E-006	-1.63400E-004	......
	6	1.80832	-5.60169E-001	4.86144E-006	-1.63400E-004	......
	7	2.06665	-5.57069E-001	4.86144E-006	-6.34000E-005	......
	8	2.32498	-5.55969E-001	4.86144E-006	-1.63400E-004	......
	9	2.58332	-5.57220E-001	4.86144E-006	-1.63400E-004	......
	10	2.84165	-5.58270E-001	4.86144E-006	-1.63400E-004	......
	11	3.09998	-5.62119E-001	4.86144E-006	-6.34000E-005	......
	12	3.35831	-5.66170E-001	4.86144E-006	-1.63400E-004	......
	13	3.61664	-5.68169E-001	4.86144E-006	-1.63400E-004	......
	14	3.87497	-5.69869E-001	4.86144E-006	-1.63400E-004	......
	15	4.1333	-5.71069E-001	4.86144E-006	-1.63400E-004	......
	16	4.39164	-5.73070E-001	4.86144E-006	-1.63400E-004	......
	17	4.64997	-5.74919E-001	4.86144E-006	-6.34000E-005	......
	18	4.9083	-5.75669E-001	4.86144E-006	-1.63400E-004	......
	19	5.16663	-5.77419E-001	4.86144E-006	-6.34000E-005	......
	20	5.42496	-5.78669E-001	4.86144E-006	-1.63400E-004	......
	21	5.68329	-5.77320E-001	4.86144E-006	-6.34000E-005	......
	22	5.94162	-5.74069E-001	4.86144E-006	-1.63400E-004	......
	23	6.19996	-5.70520E-001	4.86144E-006	-1.63400E-004	......
	24	6.45829	-5.70469E-001	4.86144E-006	-1.63400E-004	......
	25	6.71662	-5.70469E-001	4.86144E-006	-6.34000E-005	......
	26	6.97495	-5.67869E-001	4.86144E-006	-1.63400E-004	......
	27	7.23328	-5.70069E-001	4.86144E-006	-1.63400E-004	......
	28	7.49161	-5.68619E-001	4.86144E-006	3.66000E-005	......
	29	7.74995	-5.66419E-001	4.86144E-006	-2.63400E-004	......
	30	8.00828	-5.67620E-001	4.86144E-006	-1.63400E-004	......
	31	8.26661	-5.63119E-001	4.86144E-006	-6.34000E-005	......
	32	8.52494	-5.65120E-001	4.86144E-006	-6.34000E-005	......
	33	8.78327	-5.62270E-001	4.86144E-006	-6.34000E-005	......
	34	9.0416	-5.60619E-001	4.86144E-006	-1.63400E-004	......
	35	9.29993	-5.60669E-001	4.86144E-006	-1.63400E-004	......
	36	9.5583	-5.62620E-001	4.86144E-006	-6.34000E-005	......
	37	9.8166	-5.65470E-001	4.86144E-006	-6.34000E-005	......
	38	10.0749	-5.65769E-001	4.86144E-006	-2.63400E-004	......
EOC	QUANT	-0.565769	Open Circuit (V)
PSTATMODEL	IQUANT	32	Pstat Model
PSTATSECTION	LABEL	PStat0	Pstat Section
CTRLMODE	IQUANT	1	Control Mode
IESTAB	IQUANT	0	I/E Stability
CASPEED	IQUANT	1	Control Amp Speed
CONVENTION	IQUANT	1	Current Convention
ICHRANGE	IQUANT	2	Ich Range
ICHRANGEMODE	TOGGLE	F	Ich Auto Range
ICHOFFSETENABLE	TOGGLE	T	Ich Offset Enable
ICHOFFSET	QUANT	0	Ich Offset (V)
ICHFILTER	IQUANT	3	Ich Filter
VCHRANGE	IQUANT	2	Vch Range
VCHRANGEMODE	TOGGLE	F	Vch Auto Range
VCHOFFSETENABLE	TOGGLE	T	Vch Offset Enable
VCHOFFSET	QUANT	0	Vch Offset (V)
VCHFILTER	IQUANT	3	Vch Filter
ACHRANGE	IQUANT	0	Ach Range
IERANGELOWERLIMIT	IQUANT	3	I/E Range Lower Limit
IERANGEMODE	TOGGLE	F	I/E AutoRange
IERANGE	IQUANT	11	I/E Range
POSFEEDENABLE	TOGGLE	F	Positive Feedback IR Comp
POSFEEDRESISTANCE	QUANT	0	Positive Feedback Resistance (ohm)
FC350IDIVISOR	IQUANT	0	FC350 I Divisor
FC350VRANGE	IQUANT	0	FC350 V Range
FRAMEWORKVERSION	QUANT	4.35	Framework Version
ZCURVE	TABLE
	Pt	Time	Freq	Zreal	Zimag	Zsig	Zmod	Zphz	Idc	Vdc	IERange
	#	s	Hz	ohm	ohm	V	ohm	°	A	V	#
	0	4	100007	113.962	-0.758545	1	113.965	-0.381361	3.52709E-006	-0.465695	9
	1	6	89134.1	113.434	-1.01445	1	113.439	-0.512383	3.92481E-006	-0.465718	9
	2	8	79433.6	113.177	-1.31167	1	113.185	-0.664004	4.24895E-006	-0.465716	9
	3	10	70800.8	113.055	-1.64893	1	113.067	-0.835607	4.8072E-006	-0.465715	9
	4	12	63105.5	112.943	-1.85628	1	112.958	-0.941606	4.39687E-006	-0.465714	9
	5	14	56243.5	112.962	-2.23481	1	112.984	-1.13338	4.33888E-006	-0.465722	9
	6	16	50123.7	112.646	-2.55325	1	112.675	-1.29846	4.2649E-006	-0.465696	9
	7	18	44681	112.598	-2.87914	1	112.635	-1.46473	4.6184E-006	-0.465701	9
	8	20	39811.2	112.563	-3.35149	1	112.613	-1.70544	5.16303E-006	-0.465708	9
	9	22	35488.3	112.794	-3.72986	1	112.855	-1.89396	5.11227E-006	-0.465718	9
	10	24	31634.1	112.72	-4.23492	1	112.799	-2.15161	4.79538E-006	-0.465695	9
	11	26	28173.1	112.902	-4.71983	1	113	-2.39384	4.7287E-006	-0.465709	9
	12	28	25123.7	112.962	-5.14398	1	113.079	-2.60728	5.16017E-006	-0.465717	9
	13	30	22389.3	112.917	-5.63645	1	113.058	-2.85765	4.72709E-006	-0.465713	9
	14	32	19954.4	113.076	-6.2833	1	113.251	-3.18047	4.83734E-006	-0.465687	9
	15	34	17778.2	113.244	-7.04752	1	113.463	-3.56111	4.67937E-006	-0.465705	9
	16	36	15852.9	113.402	-7.79565	1	113.67	-3.93251	4.49813E-006	-0.465715	9
	17	38	14122.3	113.547	-8.74099	1	113.883	-4.40201	4.4397E-006	-0.46571	9
	18	40	12587.2	113.899	-9.49371	1	114.294	-4.76469	4.58807E-006	-0.465718	9
	19	42	11221.1	114.146	-10.5761	1	114.635	-5.29361	4.59949E-006	-0.465717	9
	20	44	9998.2	114.272	-11.5185	1	114.851	-5.75589	4.80145E-006	-0.465712	9
	21	46	8912.76	114.616	-12.7663	1	115.325	-6.35559	4.79704E-006	-0.46571	9
	22	48	7942.6	114.838	-14.2287	1	115.716	-7.06308	4.66626E-006	-0.465711	9
	23	50	7078.05	115.12	-15.7252	1	116.189	-7.77837	4.74445E-006	-0.46571	9
	24	52	6311.1	115.487	-17.3835	1	116.788	-8.56013	4.70409E-006	-0.465719	9
	25	54	5622.14	115.698	-19.1702	1	117.275	-9.40798	4.60554E-006	-0.465712	9
	26	56	5011.18	116.308	-21.0805	1	118.203	-10.2731	4.44084E-006	-0.465717	9
	27	57	4465.21	116.606	-23.3844	1	118.927	-11.3398	4.15073E-006	-0.465714	9
	28	59	3980.93	116.995	-25.9376	1	119.835	-12.5002	4.24579E-006	-0.465721	9
	29	61	3548.18	117.647	-28.6921	1	121.095	-13.7059	3.89838E-006	-0.465703	9
	30	63	3162.67	118.351	-31.6339	1	122.506	-14.9647	4.03424E-006	-0.465727	9
	31	65	2819.01	119.027	-34.7795	1	124.004	-16.2883	3.78293E-006	-0.46573	9
	32	67	2511.16	119.734	-38.4287	1	125.75	-17.794	3.9997E-006	-0.465715	9
	33	69	2238.63	120.719	-42.4879	1	127.977	-19.39	4.14474E-006	-0.465725	9
	34	71	1995.37	121.62	-47.1063	1	130.424	-21.1726	4.3842E-006	-0.465719	9
	35	73	1778.51	122.387	-52.0008	1	132.976	-23.0201	4.15873E-006	-0.465719	9
	36	75	1584.49	123.357	-57.6342	1	136.157	-25.0426	3.56887E-006	-0.465711	9
	37	77	1412.76	124.564	-63.5276	1	139.829	-27.0215	3.95304E-006	-0.46572	9
	38	79	1259.04	125.505	-70.2224	1	143.815	-29.2279	3.83756E-006	-0.46573	9
	39	81	1121.63	126.921	-77.659	1	148.795	-31.4611	4.01863E-006	-0.465722	9
	40	83	999.95	128.132	-85.9411	1	154.284	-33.8507	3.4899E-006	-0.465718	9
	41	85	891.184	129.85	-95.165	1	160.989	-36.237	3.46828E-006	-0.465723	9
	42	87	794.163	131.525	-105.173	1	168.405	-38.6471	3.68629E-006	-0.46572	9
	43	89	707.867	133.165	-116.799	1	177.13	-41.254	3.80278E-006	-0.465742	9
	44	91	630.984	135.029	-129.091	1	186.808	-43.712	3.65165E-006	-0.465736	9
	45	93	562.189	136.908	-142.86	1	197.871	-46.2188	3.46634E-006	-0.465748	9
	46	95	501.303	139.46	-158.398	1	211.042	-48.638	3.29215E-006	-0.465731	9
	47	97	446.614	141.861	-175.703	1	225.823	-51.0829	3.26282E-006	-0.46573	9
	48	99	398.209	144.472	-194.875	1	242.587	-53.4484	3.34596E-006	-0.465726	9
	49	101	354.821	147.365	-216.238	1	261.678	-55.7258	3.28129E-006	-0.465728	9
	50	103	316.113	150.587	-240.16	1	283.466	-57.9111	3.31626E-006	-0.465727	9
	51	105	281.926	154.053	-266.443	1	307.772	-59.9642	3.20049E-006	-0.465733	9
	52	107	251.185	157.976	-296.033	1	335.547	-61.9138	3.2587E-006	-0.465729	9
	53	109	223.946	162.271	-328.703	1	366.576	-63.7258	3.10807E-006	-0.465733	9
	54	111	199.495	167.05	-365.377	1	401.754	-65.4301	2.98557E-006	-0.465731	9
	55	113	177.836	172.385	-405.98	1	441.062	-66.9932	2.93184E-006	-0.465731	9
	56	115	158.533	178.31	-451.181	1	485.138	-68.4358	2.97998E-006	-0.46573	9
	57	117	141.263	185.159	-501.841	1	534.909	-69.748	2.97037E-006	-0.465726	9
	58	119	125.911	192.643	-557.897	1	590.221	-70.9501	3.00871E-006	-0.465722	9
	59	121	112.198	201.217	-620.612	1	652.417	-72.0361	3.00726E-006	-0.465718	9
	60	123	100.009	211.228	-690.069	1	721.673	-72.9808	3.16723E-006	-0.465723	9
	61	125	89.1164	222.892	-767.832	1	799.529	-73.8127	3.3699E-006	-0.465725	9
	62	127	79.4083	235.364	-854.038	1	885.877	-74.5923	3.28722E-006	-0.465725	9
	63	129	70.788	251.291	-950.01	1	982.69	-75.1839	3.51826E-006	-0.46572	9
	64	131	63.0971	268.346	-1056.95	1	1090.48	-75.7543	3.57407E-006	-0.465717	9
	65	134	54.5476	293.723	-1207.88	1	1243.08	-76.3325	2.87438E-006	-0.465716	8
	66	136	50.0083	311.918	-1308.52	1	1345.18	-76.5924	2.89735E-006	-0.465715	8
	67	138	46.1675	330.489	-1408.69	1	1446.93	-76.7967	2.85439E-006	-0.465716	8
	68	140	40.0059	368.454	-1608.67	1	1650.32	-77.0993	2.8113E-006	-0.465717	8
	69	142	35.3046	411.252	-1804.21	1	1850.48	-77.1593	3.0161E-006	-0.465717	8
	70	144	31.5793	448.829	-1999.45	1	2049.2	-77.3481	2.86979E-006	-0.465712	8
	71	146	28.5748	493.24	-2190.02	1	2244.87	-77.3075	2.82024E-006	-0.465719	8
	72	148	24.9911	562.482	-2477.93	1	2540.97	-77.2108	2.72235E-006	-0.465713	8
	73	151	22.2195	623.714	-2755.25	1	2824.96	-77.2448	2.61855E-006	-0.465718	8
	74	153	20.0011	713.395	-3030.68	1	3113.51	-76.7542	2.81122E-006	-0.465721	8
	75	156	17.6486	806.07	-3407.01	1	3501.06	-76.689	2.58865E-006	-0.465721	8
	76	158	15.7934	935.247	-3761.79	1	3876.31	-76.0384	2.7528E-006	-0.465716	8
	77	160	14.2828	1037.88	-4102.63	1	4231.87	-75.8032	2.61323E-006	-0.465716	8
	78	162	12.5002	1225.52	-4645.26	1	4804.2	-75.2208	2.55623E-006	-0.465717	8
	79	165	11.323	1375.31	-5055.28	1	5239.02	-74.7808	2.66657E-006	-0.465709	8
	80	167	9.9987	1665.23	-5600.83	1	5843.14	-73.4418	2.58366E-006	-0.46572	8
