EXPLAIN
TAG	EISPOT
TITLE	LABEL	Tomato_open	Test &Identifier
DATE	LABEL	5/15/2006	Date
TIME	LABEL	14:47:38	Time
NOTES	NOTES	1	&Notes...
	
PSTAT	PSTAT	300	Potentiostat
VDC	POTEN	1.00000E-001	T	DC &Voltage (V)
FREQINIT	QUANT	1.00000E+005	Initial Fre&q. (Hz)
FREQFINAL	QUANT	1.00000E+001	Final Fre&q. (Hz)
PTSPERDEC	QUANT	2.00000E+001	Points/&decade
VAC	QUANT	1.00000E+001	AC &Voltage (mV rms)
AREA	QUANT	1.00000E+000	&Area (cm²)
DENSITY	QUANT	7.87000E+000	&Density (gm/cm³)
EQUIV	QUANT	7.00000E+000	Equiv. &Wt
CONDIT	TWOPARAM	F	1.50000E+001	0.00000E+000	Conditionin&g	Time(s)	E(V)
DELAY	TWOPARAM	F	6.00000E+002	0.00000E+000	Init. De&lay	Time(s)	Stab.(mV/s)
SPEED	SELECTOR	1	&Optimize for:
ZGUESS	QUANT	1.00000E+002	E&stimated Z (ohms)
OCVCURVE	TABLE	39
	Pt	T	Vf	Vm	Ach	Over
	#	s	V vs. Ref.	V	V	bits
	0	0.258332	-4.98819E-001	3.19724E-006	-1.63400E-004	......
	1	0.516663	-4.98669E-001	3.19724E-006	3.66000E-005	......
	2	0.774994	-4.99419E-001	3.19724E-006	-6.34000E-005	......
	3	1.03333	-5.00419E-001	3.19724E-006	3.66000E-005	......
	4	1.29166	-5.02719E-001	3.19724E-006	-1.63400E-004	......
	5	1.54999	-5.06469E-001	3.19724E-006	1.36600E-004	......
	6	1.80832	-5.09669E-001	3.19724E-006	-2.63400E-004	......
	7	2.06665	-5.11819E-001	3.19724E-006	2.36600E-004	......
	8	2.32498	-5.13070E-001	3.19724E-006	-1.63400E-004	......
	9	2.58332	-5.14069E-001	3.19724E-006	3.66000E-005	......
	10	2.84165	-5.15619E-001	3.19724E-006	-6.34000E-005	......
	11	3.09998	-5.16869E-001	3.19724E-006	3.66000E-005	......
	12	3.35831	-5.18070E-001	3.19724E-006	-6.34000E-005	......
	13	3.61664	-5.19069E-001	3.19724E-006	3.66000E-005	......
	14	3.87497	-5.20069E-001	3.19724E-006	-1.63400E-004	......
	15	4.1333	-5.20669E-001	3.19724E-006	3.66000E-005	......
	16	4.39164	-5.21519E-001	3.19724E-006	-1.63400E-004	......
	17	4.64997	-5.22370E-001	3.19724E-006	-6.34000E-005	......
	18	4.9083	-5.23669E-001	3.19724E-006	-1.63400E-004	......
	19	5.16663	-5.24870E-001	3.19724E-006	1.36600E-004	......
	20	5.42496	-5.25769E-001	3.19724E-006	-6.34000E-005	......
	21	5.68329	-5.26419E-001	3.19724E-006	2.36600E-004	......
	22	5.94162	-5.26370E-001	3.19724E-006	-6.34000E-005	......
	23	6.19996	-5.25319E-001	3.19724E-006	3.66000E-005	......
	24	6.45829	-5.24319E-001	3.19724E-006	-6.34000E-005	......
	25	6.71662	-5.23619E-001	3.19724E-006	3.66000E-005	......
	26	6.97495	-5.23919E-001	3.19724E-006	3.66000E-005	......
	27	7.23328	-5.24419E-001	3.19724E-006	3.66000E-005	......
	28	7.49161	-5.25119E-001	3.19724E-006	-6.34000E-005	......
	29	7.74995	-5.26169E-001	3.19724E-006	1.36600E-004	......
	30	8.00828	-5.27269E-001	3.19724E-006	-1.63400E-004	......
	31	8.26661	-5.28619E-001	3.19724E-006	1.36600E-004	......
	32	8.52494	-5.29169E-001	3.19724E-006	-1.63400E-004	......
	33	8.78327	-5.29369E-001	3.19724E-006	3.66000E-005	......
	34	9.0416	-5.30419E-001	3.19724E-006	-2.63400E-004	......
	35	9.29993	-5.31119E-001	3.19724E-006	2.36600E-004	......
	36	9.5583	-5.23219E-001	3.19724E-006	-1.63400E-004	......
	37	9.8166	-5.18770E-001	3.19724E-006	1.36600E-004	......
	38	10.0749	-5.19819E-001	3.19724E-006	-1.63400E-004	......
EOC	QUANT	-0.519819	Open Circuit (V)
PSTATMODEL	IQUANT	32	Pstat Model
PSTATSECTION	LABEL	PStat0	Pstat Section
CTRLMODE	IQUANT	1	Control Mode
IESTAB	IQUANT	0	I/E Stability
CASPEED	IQUANT	1	Control Amp Speed
CONVENTION	IQUANT	1	Current Convention
ICHRANGE	IQUANT	2	Ich Range
ICHRANGEMODE	TOGGLE	F	Ich Auto Range
ICHOFFSETENABLE	TOGGLE	T	Ich Offset Enable
ICHOFFSET	QUANT	0	Ich Offset (V)
ICHFILTER	IQUANT	3	Ich Filter
VCHRANGE	IQUANT	2	Vch Range
VCHRANGEMODE	TOGGLE	F	Vch Auto Range
VCHOFFSETENABLE	TOGGLE	T	Vch Offset Enable
VCHOFFSET	QUANT	0	Vch Offset (V)
VCHFILTER	IQUANT	3	Vch Filter
ACHRANGE	IQUANT	0	Ach Range
IERANGELOWERLIMIT	IQUANT	3	I/E Range Lower Limit
IERANGEMODE	TOGGLE	F	I/E AutoRange
IERANGE	IQUANT	11	I/E Range
POSFEEDENABLE	TOGGLE	F	Positive Feedback IR Comp
POSFEEDRESISTANCE	QUANT	0	Positive Feedback Resistance (ohm)
FC350IDIVISOR	IQUANT	0	FC350 I Divisor
FC350VRANGE	IQUANT	0	FC350 V Range
FRAMEWORKVERSION	QUANT	4.35	Framework Version
ZCURVE	TABLE
	Pt	Time	Freq	Zreal	Zimag	Zsig	Zmod	Zphz	Idc	Vdc	IERange
	#	s	Hz	ohm	ohm	V	ohm	°	A	V	#
	0	4	100007	112.626	-0.721397	1	112.628	-0.366989	2.58131E-006	-0.419645	9
	1	6	89134.1	111.977	-0.933561	1	111.981	-0.477669	2.83634E-006	-0.419633	9
	2	8	79433.6	111.748	-1.10114	1	111.753	-0.564565	2.79904E-006	-0.419637	9
	3	10	70800.8	111.52	-1.49845	1	111.53	-0.769818	3.45553E-006	-0.419636	9
	4	12	63105.5	111.28	-1.91927	1	111.296	-0.9881	3.77518E-006	-0.419656	9
	5	14	56243.5	111.319	-1.95718	1	111.336	-1.00726	3.51017E-006	-0.419643	9
	6	16	50123.7	111.197	-2.53416	1	111.226	-1.30553	3.59288E-006	-0.419643	9
	7	18	44681	111.209	-2.92865	1	111.247	-1.50852	4.66092E-006	-0.419647	9
	8	20	39811.2	111.098	-3.25854	1	111.146	-1.68002	4.39904E-006	-0.419638	9
	9	21	35488.3	111.23	-3.63474	1	111.29	-1.87162	4.47971E-006	-0.419639	9
	10	23	31634.1	111.3	-4.19917	1	111.379	-2.16066	3.80863E-006	-0.419626	9
	11	25	28173.1	111.464	-4.52983	1	111.556	-2.32718	3.97313E-006	-0.419641	9
	12	27	25123.7	111.425	-5.26549	1	111.549	-2.70555	3.60935E-006	-0.419613	9
	13	29	22389.3	111.697	-5.71201	1	111.843	-2.92746	3.67406E-006	-0.419632	9
	14	31	19954.4	111.76	-6.29951	1	111.938	-3.22613	3.91035E-006	-0.419631	9
	15	33	17778.2	111.796	-6.97549	1	112.013	-3.57033	3.69809E-006	-0.419647	9
	16	35	15852.9	112.101	-7.77359	1	112.37	-3.96681	3.52356E-006	-0.419623	9
	17	37	14122.3	112.298	-8.48075	1	112.618	-4.31879	3.20799E-006	-0.419633	9
	18	39	12587.2	112.51	-9.26588	1	112.891	-4.70802	3.39995E-006	-0.419623	9
	19	41	11221.1	112.845	-10.1731	1	113.303	-5.15137	3.4884E-006	-0.419641	9
	20	43	9998.2	113.13	-11.4544	1	113.708	-5.78148	3.24395E-006	-0.419625	9
	21	45	8912.76	113.502	-12.5766	1	114.197	-6.32287	3.22615E-006	-0.419655	9
	22	47	7942.6	113.754	-13.7825	1	114.586	-6.90829	3.09196E-006	-0.41962	9
	23	49	7078.05	114.085	-15.0695	1	115.075	-7.5247	3.13748E-006	-0.419625	9
	24	51	6311.1	114.501	-16.7479	1	115.72	-8.32154	2.79656E-006	-0.419634	9
	25	53	5622.14	114.668	-18.5742	1	116.163	-9.201	3.0481E-006	-0.419629	9
	26	55	5011.18	115.272	-20.4897	1	117.079	-10.0792	2.79143E-006	-0.419631	9
	27	57	4465.21	115.708	-22.3691	1	117.85	-10.9416	2.61884E-006	-0.41961	9
	28	59	3980.93	116.063	-24.7933	1	118.682	-12.0582	2.88667E-006	-0.419612	9
	29	61	3548.18	116.743	-27.1837	1	119.866	-13.1079	2.67223E-006	-0.419636	9
	30	63	3162.67	117.342	-29.939	1	121.101	-14.3133	2.40567E-006	-0.419618	9
	31	65	2819.01	118.079	-33.1804	1	122.652	-15.6955	2.63053E-006	-0.41964	9
	32	67	2511.16	118.623	-36.5225	1	124.119	-17.1129	2.49687E-006	-0.41963	9
	33	69	2238.63	119.323	-40.2923	1	125.942	-18.6585	2.38798E-006	-0.419621	9
	34	71	1995.37	120.274	-44.4697	1	128.232	-20.2912	2.57004E-006	-0.41963	9
	35	73	1778.51	121.152	-49.2572	1	130.783	-22.1254	2.39452E-006	-0.419627	9
	36	75	1584.49	122.102	-54.4651	1	133.699	-24.0398	2.33615E-006	-0.419632	9
	37	77	1412.76	123.261	-59.9899	1	137.084	-25.9517	2.15856E-006	-0.419623	9
	38	79	1259.04	124.241	-66.1563	1	140.757	-28.0346	2.10345E-006	-0.419634	9
	39	81	1121.63	125.651	-73.1916	1	145.414	-30.2208	2.09107E-006	-0.419631	9
	40	83	999.95	127.013	-80.8855	1	150.582	-32.49	2.3011E-006	-0.419633	9
	41	85	891.184	128.261	-89.8497	1	156.601	-35.0121	2.48062E-006	-0.419632	9
	42	87	794.163	129.802	-99.054	1	163.28	-37.3479	2.36992E-006	-0.419632	9
	43	89	707.867	131.351	-109.905	1	171.266	-39.9201	2.15562E-006	-0.419615	9
	44	91	630.984	133.076	-121.424	1	180.147	-42.3788	2.40392E-006	-0.419636	9
	45	93	562.189	135.022	-134.491	1	190.575	-44.887	2.54285E-006	-0.41962	9
	46	95	501.303	137.026	-149.116	1	202.514	-47.4196	2.94706E-006	-0.41962	9
	47	97	446.614	139.207	-165.394	1	216.18	-49.9138	3.00234E-006	-0.41963	9
	48	99	398.209	141.51	-183.387	1	231.637	-52.3445	2.82117E-006	-0.419629	9
	49	101	354.821	144.109	-203.502	1	249.36	-54.696	2.81693E-006	-0.41963	9
	50	103	316.113	146.972	-225.951	1	269.545	-56.9577	3.01657E-006	-0.419632	9
	51	105	281.926	150.012	-250.712	1	292.165	-59.106	3.02223E-006	-0.419633	9
	52	107	251.185	153.48	-278.518	1	318.007	-61.1427	3.18796E-006	-0.419627	9
	53	109	223.946	157.107	-309.313	1	346.925	-63.073	3.0402E-006	-0.41962	9
	54	111	199.495	161.226	-343.893	1	379.811	-64.8816	3.05043E-006	-0.419627	9
	55	113	177.836	165.589	-382.089	1	416.427	-66.5691	2.85454E-006	-0.419631	9
	56	115	158.533	170.556	-424.781	1	457.743	-68.1238	2.78401E-006	-0.41963	9
	57	117	141.263	175.964	-472.532	1	504.232	-69.5754	2.79313E-006	-0.419635	9
	58	119	125.911	182.003	-525.608	1	556.227	-70.9005	2.81001E-006	-0.419629	9
	59	121	112.198	188.617	-584.86	1	614.522	-72.1255	2.72059E-006	-0.419628	9
	60	123	100.009	196.005	-650.639	1	679.521	-73.2351	2.58568E-006	-0.41963	9
	61	125	89.1164	204.408	-724.245	1	752.538	-74.239	2.60921E-006	-0.41963	9
	62	127	79.4083	213.286	-806.363	1	834.093	-75.1843	2.38281E-006	-0.41963	9
	63	129	70.788	223.787	-897.699	1	925.173	-76.0021	2.52366E-006	-0.419626	9
	64	131	63.0971	235.941	-999.44	1	1026.91	-76.7171	2.49457E-006	-0.419628	9
	65	133	54.5476	252.983	-1144.11	1	1171.75	-77.5315	1.8606E-006	-0.419626	8
	66	135	50.0083	264.123	-1241.04	1	1268.84	-77.9854	1.72263E-006	-0.41963	8
	67	137	46.1675	273.919	-1337.16	1	1364.92	-78.423	1.50201E-006	-0.41963	8
	68	140	40.0059	296.864	-1528.64	1	1557.2	-79.0099	1.58326E-006	-0.419631	8
	69	142	35.3046	321.784	-1718.45	1	1748.31	-79.394	1.59581E-006	-0.41962	8
	70	144	31.5793	344.131	-1908.39	1	1939.17	-79.778	1.60041E-006	-0.419618	8
	71	146	28.5748	369.302	-2096.86	1	2129.13	-80.0114	1.45636E-006	-0.419631	8
	72	148	24.9911	406.775	-2376.21	1	2410.78	-80.2859	1.54093E-006	-0.419618	8
	73	150	22.2195	446.752	-2652.13	1	2689.5	-80.4383	1.59068E-006	-0.419633	8
	74	153	20.0011	491.437	-2926.78	1	2967.75	-80.4683	1.64234E-006	-0.419639	8
	75	155	17.6486	565.82	-3290.26	1	3338.56	-80.2424	1.68002E-006	-0.419636	8
	76	157	15.7934	631.694	-3650.37	1	3704.62	-80.1822	1.73476E-006	-0.419628	8
	77	159	14.2828	679.409	-4011.15	1	4068.28	-80.3865	1.70326E-006	-0.419633	8
	78	162	12.5002	766.313	-4537.35	1	4601.61	-80.4138	1.60952E-006	-0.419631	8
	79	164	11.323	848.637	-4976.8	1	5048.63	-80.3231	1.60349E-006	-0.419642	8
	80	167	9.9987	1001.98	-5591.41	1	5680.48	-79.8405	1.67866E-006	-0.419629	8
