EXPLAIN
TAG	EISPOT
TITLE	LABEL	Tomato_open	Test &Identifier
DATE	LABEL	5/12/2006	Date
TIME	LABEL	12:05:21	Time
NOTES	NOTES	1	&Notes...
	
PSTAT	PSTAT	300	Potentiostat
VDC	POTEN	1.00000E-001	T	DC &Voltage (V)
FREQINIT	QUANT	1.00000E+005	Initial Fre&q. (Hz)
FREQFINAL	QUANT	1.00000E+001	Final Fre&q. (Hz)
PTSPERDEC	QUANT	2.00000E+001	Points/&decade
VAC	QUANT	1.00000E+001	AC &Voltage (mV rms)
AREA	QUANT	1.00000E+000	&Area (cm²)
DENSITY	QUANT	7.87000E+000	&Density (gm/cm³)
EQUIV	QUANT	7.00000E+000	Equiv. &Wt
CONDIT	TWOPARAM	F	1.50000E+001	0.00000E+000	Conditionin&g	Time(s)	E(V)
DELAY	TWOPARAM	F	6.00000E+002	0.00000E+000	Init. De&lay	Time(s)	Stab.(mV/s)
SPEED	SELECTOR	1	&Optimize for:
ZGUESS	QUANT	1.00000E+002	E&stimated Z (ohms)
OCVCURVE	TABLE	39
	Pt	T	Vf	Vm	Ach	Over
	#	s	V vs. Ref.	V	V	bits
	0	0.258332	-6.03669E-001	4.39184E-006	1.36600E-004	......
	1	0.516663	-6.01070E-001	4.39184E-006	3.36600E-004	......
	2	0.774994	-5.98819E-001	4.39184E-006	2.36600E-004	......
	3	1.03333	-5.97420E-001	4.39184E-006	2.36600E-004	......
	4	1.29166	-5.97470E-001	4.39184E-006	2.36600E-004	......
	5	1.54999	-5.98319E-001	4.39184E-006	4.36600E-004	......
	6	1.80832	-5.98469E-001	4.39184E-006	2.36600E-004	......
	7	2.06665	-5.98719E-001	4.39184E-006	3.36600E-004	......
	8	2.32498	-5.84169E-001	4.39184E-006	2.36600E-004	......
	9	2.58332	-5.77919E-001	4.39184E-006	4.36600E-004	......
	10	2.84165	-5.77969E-001	4.39184E-006	1.36600E-004	......
	11	3.09998	-5.78269E-001	4.39184E-006	3.36600E-004	......
	12	3.35831	-5.78269E-001	4.39184E-006	1.36600E-004	......
	13	3.61664	-5.79269E-001	4.39184E-006	2.36600E-004	......
	14	3.87497	-5.80819E-001	4.39184E-006	2.36600E-004	......
	15	4.1333	-5.82669E-001	4.39184E-006	3.36600E-004	......
	16	4.39164	-5.83369E-001	4.39184E-006	3.66000E-005	......
	17	4.64997	-5.83169E-001	4.39184E-006	3.36600E-004	......
	18	4.9083	-5.83969E-001	4.39184E-006	2.36600E-004	......
	19	5.16663	-5.85669E-001	4.39184E-006	3.36600E-004	......
	20	5.42496	-5.90270E-001	4.39184E-006	2.36600E-004	......
	21	5.68329	-5.90819E-001	4.39184E-006	2.36600E-004	......
	22	5.94162	-5.89520E-001	4.39184E-006	3.36600E-004	......
	23	6.19996	-5.88969E-001	4.39184E-006	3.36600E-004	......
	24	6.45829	-5.88669E-001	4.39184E-006	1.36600E-004	......
	25	6.71662	-5.88419E-001	4.39184E-006	3.36600E-004	......
	26	6.97495	-5.88169E-001	4.39184E-006	3.36600E-004	......
	27	7.23328	-5.87070E-001	4.39184E-006	3.66000E-005	......
	28	7.49161	-5.88870E-001	4.39184E-006	3.36600E-004	......
	29	7.74995	-5.89969E-001	4.39184E-006	4.36600E-004	......
	30	8.00828	-5.90119E-001	4.39184E-006	1.36600E-004	......
	31	8.26661	-5.90369E-001	4.39184E-006	2.36600E-004	......
	32	8.52494	-5.91069E-001	4.39184E-006	2.36600E-004	......
	33	8.78327	-5.93569E-001	4.39184E-006	2.36600E-004	......
	34	9.0416	-5.96070E-001	4.39184E-006	2.36600E-004	......
	35	9.29993	-5.94869E-001	4.39184E-006	3.36600E-004	......
	36	9.5583	-5.91619E-001	4.39184E-006	2.36600E-004	......
	37	9.8166	-5.90769E-001	4.39184E-006	2.36600E-004	......
	38	10.0749	-5.86769E-001	4.39184E-006	1.36600E-004	......
EOC	QUANT	-0.586769	Open Circuit (V)
PSTATMODEL	IQUANT	32	Pstat Model
PSTATSECTION	LABEL	PStat0	Pstat Section
CTRLMODE	IQUANT	1	Control Mode
IESTAB	IQUANT	0	I/E Stability
CASPEED	IQUANT	1	Control Amp Speed
CONVENTION	IQUANT	1	Current Convention
ICHRANGE	IQUANT	2	Ich Range
ICHRANGEMODE	TOGGLE	F	Ich Auto Range
ICHOFFSETENABLE	TOGGLE	T	Ich Offset Enable
ICHOFFSET	QUANT	0	Ich Offset (V)
ICHFILTER	IQUANT	3	Ich Filter
VCHRANGE	IQUANT	2	Vch Range
VCHRANGEMODE	TOGGLE	F	Vch Auto Range
VCHOFFSETENABLE	TOGGLE	T	Vch Offset Enable
VCHOFFSET	QUANT	0	Vch Offset (V)
VCHFILTER	IQUANT	3	Vch Filter
ACHRANGE	IQUANT	0	Ach Range
IERANGELOWERLIMIT	IQUANT	3	I/E Range Lower Limit
IERANGEMODE	TOGGLE	F	I/E AutoRange
IERANGE	IQUANT	11	I/E Range
POSFEEDENABLE	TOGGLE	F	Positive Feedback IR Comp
POSFEEDRESISTANCE	QUANT	0	Positive Feedback Resistance (ohm)
FC350IDIVISOR	IQUANT	0	FC350 I Divisor
FC350VRANGE	IQUANT	0	FC350 V Range
FRAMEWORKVERSION	QUANT	4.35	Framework Version
ZCURVE	TABLE
	Pt	Time	Freq	Zreal	Zimag	Zsig	Zmod	Zphz	Idc	Vdc	IERange
	#	s	Hz	ohm	ohm	V	ohm	°	A	V	#
	0	4	100007	113.668	-0.925687	1	113.671	-0.466595	3.24665E-006	-0.486724	9
	1	6	89134.1	113.372	-0.808277	1	113.375	-0.408478	3.68448E-006	-0.486724	9
	2	8	79433.6	113.261	-1.17459	1	113.267	-0.594172	3.45345E-006	-0.486719	9
	3	10	70800.8	112.911	-1.56753	1	112.922	-0.795379	3.78459E-006	-0.486736	9
	4	12	63105.5	112.717	-1.9903	1	112.735	-1.01159	3.49453E-006	-0.486734	9
	5	14	56243.5	112.646	-2.1026	1	112.665	-1.06934	3.49071E-006	-0.486725	9
	6	16	50123.7	112.463	-2.56028	1	112.492	-1.30414	3.82106E-006	-0.486741	9
	7	18	44681	112.541	-2.8313	1	112.577	-1.44114	3.80757E-006	-0.486725	9
	8	20	39811.2	112.644	-3.41734	1	112.695	-1.73768	3.45679E-006	-0.486708	9
	9	22	35488.3	112.547	-3.69329	1	112.608	-1.87951	3.81993E-006	-0.486734	9
	10	24	31634.1	112.527	-4.14151	1	112.603	-2.1078	3.69496E-006	-0.486741	9
	11	26	28173.1	112.691	-4.70036	1	112.789	-2.38843	3.71135E-006	-0.486713	9
	12	28	25123.7	112.797	-5.18057	1	112.916	-2.62964	3.66977E-006	-0.486721	9
	13	30	22389.3	112.83	-5.83989	1	112.981	-2.9629	3.82868E-006	-0.48674	9
	14	32	19954.4	113.03	-6.48356	1	113.216	-3.28296	3.60592E-006	-0.48673	9
	15	34	17778.2	113.077	-7.01563	1	113.294	-3.55026	3.79301E-006	-0.486729	9
	16	36	15852.9	113.314	-7.86925	1	113.587	-3.97261	3.59715E-006	-0.486731	9
	17	38	14122.3	113.48	-8.68568	1	113.812	-4.37685	3.60407E-006	-0.486717	9
	18	40	12587.2	113.839	-9.6098	1	114.244	-4.82521	3.64329E-006	-0.486723	9
	19	42	11221.1	113.961	-10.6575	1	114.458	-5.34267	3.56763E-006	-0.486722	9
	20	44	9998.2	114.212	-11.6485	1	114.804	-5.82349	3.41795E-006	-0.48672	9
	21	46	8912.76	114.35	-12.9218	1	115.078	-6.44717	3.2267E-006	-0.486718	9
	22	48	7942.6	114.67	-14.3138	1	115.56	-7.11516	3.24231E-006	-0.486727	9
	23	50	7078.05	114.911	-15.9396	1	116.011	-7.89725	3.0716E-006	-0.486723	9
	24	52	6311.1	115.342	-17.6043	1	116.678	-8.67787	3.31481E-006	-0.48673	9
	25	54	5622.14	115.749	-19.2775	1	117.343	-9.4556	3.06774E-006	-0.486726	9
	26	55	5011.18	116.262	-21.2967	1	118.196	-10.3803	3.1296E-006	-0.486725	9
	27	57	4465.21	116.559	-23.6415	1	118.932	-11.4657	2.94068E-006	-0.486741	9
	28	59	3980.93	117.245	-26.0413	1	120.102	-12.5227	3.39323E-006	-0.486735	9
	29	61	3548.18	117.694	-28.9624	1	121.205	-13.8248	3.04656E-006	-0.48671	9
	30	63	3162.67	118.357	-31.861	1	122.571	-15.0665	3.23588E-006	-0.486704	9
	31	65	2819.01	118.939	-35.2525	1	124.054	-16.5093	3.38313E-006	-0.486748	9
	32	67	2511.16	119.464	-38.8709	1	125.628	-18.0238	3.35104E-006	-0.486726	9
	33	69	2238.63	120.18	-43.1802	1	127.702	-19.7632	3.36171E-006	-0.486724	9
	34	71	1995.37	121.427	-47.5246	1	130.396	-21.3746	3.38332E-006	-0.486724	9
	35	73	1778.51	122.213	-52.5163	1	133.019	-23.2538	3.29071E-006	-0.486719	9
	36	75	1584.49	123.264	-57.9139	1	136.192	-25.1657	3.2049E-006	-0.48673	9
	37	77	1412.76	124.339	-64.083	1	139.882	-27.2661	3.39071E-006	-0.486751	9
	38	79	1259.04	125.651	-70.7451	1	144.198	-29.3807	3.29317E-006	-0.486735	9
	39	81	1121.63	126.941	-78.3832	1	149.191	-31.6944	3.37499E-006	-0.48673	9
	40	83	999.95	128.376	-86.7134	1	154.918	-34.0377	3.20903E-006	-0.486735	9
	41	85	891.184	129.787	-95.899	1	161.373	-36.4604	3.29556E-006	-0.486745	9
	42	87	794.163	131.502	-106.528	1	169.237	-39.0103	3.2231E-006	-0.486734	9
	43	89	707.867	133.136	-117.478	1	177.556	-41.425	3.25715E-006	-0.486743	9
	44	91	630.984	135.161	-130.433	1	187.834	-43.9801	3.31157E-006	-0.486725	9
	45	93	562.189	137.177	-144.633	1	199.339	-46.5154	3.50932E-006	-0.486746	9
	46	95	501.303	139.434	-160.067	1	212.281	-48.941	3.38718E-006	-0.486728	9
	47	97	446.614	141.843	-177.56	1	227.26	-51.3805	3.14092E-006	-0.486731	9
	48	99	398.209	144.47	-196.889	1	244.206	-53.7301	3.00542E-006	-0.486728	9
	49	101	354.821	147.37	-218.507	1	263.559	-56.0027	3.06624E-006	-0.486722	9
	50	103	316.113	150.541	-242.612	1	285.522	-58.1804	3.21001E-006	-0.486722	9
	51	105	281.926	154.076	-269.225	1	310.196	-60.2177	3.17617E-006	-0.486723	9
	52	107	251.185	157.941	-299.059	1	338.203	-62.1602	3.17737E-006	-0.486721	9
	53	109	223.946	162.226	-332.121	1	369.624	-63.9666	3.19318E-006	-0.486718	9
	54	111	199.495	167.049	-369.201	1	405.234	-65.6551	3.15728E-006	-0.486725	9
	55	113	177.836	172.352	-410.297	1	445.027	-67.2143	3.16277E-006	-0.486726	9
	56	115	158.533	178.237	-456.006	1	489.601	-68.6512	3.06667E-006	-0.486724	9
	57	117	141.263	185.085	-507.131	1	539.85	-69.9496	3.15648E-006	-0.486732	9
	58	119	125.911	192.698	-563.964	1	595.977	-71.1355	3.23849E-006	-0.486724	9
	59	121	112.198	201.103	-627.358	1	658.802	-72.2265	3.09421E-006	-0.486725	9
	60	123	100.009	210.971	-697.869	1	729.061	-73.1795	3.26919E-006	-0.486727	9
	61	125	89.1164	222.186	-776.411	1	807.577	-74.0304	3.32247E-006	-0.486729	9
	62	127	79.4083	234.36	-864.135	1	895.351	-74.826	3.12625E-006	-0.486723	9
	63	129	70.788	249.58	-961.2	1	993.08	-75.4444	3.26507E-006	-0.486724	9
	64	131	63.0971	265.178	-1069.21	1	1101.61	-76.071	2.95679E-006	-0.486727	9
	65	133	54.5476	289.948	-1222.79	1	1256.69	-76.6604	2.37479E-006	-0.486728	8
	66	136	50.0083	305.875	-1325.76	1	1360.58	-77.0082	2.18482E-006	-0.486729	8
	67	138	46.1675	324.666	-1427.19	1	1463.66	-77.1841	2.36824E-006	-0.486726	8
	68	140	40.0059	361.237	-1630.48	1	1670.01	-77.5077	2.36192E-006	-0.48673	8
	69	142	35.3046	394.665	-1828.87	1	1870.97	-77.8224	2.11355E-006	-0.48673	8
	70	144	31.5793	433.874	-2026.66	1	2072.59	-77.9164	2.11103E-006	-0.486726	8
	71	146	28.5748	478.179	-2221.79	1	2272.66	-77.8539	2.20541E-006	-0.486729	8
	72	148	24.9911	541.402	-2516.92	1	2574.49	-77.8604	2.27904E-006	-0.48672	8
	73	151	22.2195	612.962	-2799.4	1	2865.72	-77.6493	2.26167E-006	-0.486724	8
	74	153	20.0011	684.032	-3084.09	1	3159.04	-77.4946	2.28647E-006	-0.48672	8
	75	156	17.6486	770.85	-3455.74	1	3540.67	-77.4252	2.22014E-006	-0.486723	8
	76	158	15.7934	878.889	-3822.63	1	3922.36	-77.0517	2.19686E-006	-0.486727	8
	77	160	14.2828	989.88	-4175.79	1	4291.51	-76.664	2.18009E-006	-0.48673	8
	78	162	12.5002	1173.46	-4688.62	1	4833.23	-75.9487	2.29881E-006	-0.486737	8
	79	165	11.323	1348.89	-5124.55	1	5299.1	-75.2531	2.26631E-006	-0.486732	8
	80	167	9.9987	1557.07	-5736.66	1	5944.22	-74.8143	2.32982E-006	-0.486732	8
