EXPLAIN
TAG	EISPOT
TITLE	LABEL	Tomato_open	Test &Identifier
DATE	LABEL	5/12/2006	Date
TIME	LABEL	11:45:18	Time
NOTES	NOTES	1	&Notes...
	
PSTAT	PSTAT	300	Potentiostat
VDC	POTEN	1.00000E-001	T	DC &Voltage (V)
FREQINIT	QUANT	1.00000E+005	Initial Fre&q. (Hz)
FREQFINAL	QUANT	1.00000E+001	Final Fre&q. (Hz)
PTSPERDEC	QUANT	2.00000E+001	Points/&decade
VAC	QUANT	1.00000E+001	AC &Voltage (mV rms)
AREA	QUANT	1.00000E+000	&Area (cm²)
DENSITY	QUANT	7.87000E+000	&Density (gm/cm³)
EQUIV	QUANT	7.00000E+000	Equiv. &Wt
CONDIT	TWOPARAM	F	1.50000E+001	0.00000E+000	Conditionin&g	Time(s)	E(V)
DELAY	TWOPARAM	F	6.00000E+002	0.00000E+000	Init. De&lay	Time(s)	Stab.(mV/s)
SPEED	SELECTOR	1	&Optimize for:
ZGUESS	QUANT	1.00000E+002	E&stimated Z (ohms)
OCVCURVE	TABLE	39
	Pt	T	Vf	Vm	Ach	Over
	#	s	V vs. Ref.	V	V	bits
	0	0.258332	-4.69269E-001	5.49624E-006	-1.63400E-004	......
	1	0.516663	-4.78019E-001	5.49624E-006	-6.34000E-005	......
	2	0.774994	-4.80870E-001	5.49624E-006	-1.63400E-004	......
	3	1.03333	-4.87619E-001	5.49624E-006	-1.63400E-004	......
	4	1.29166	-4.99469E-001	5.49624E-006	-1.63400E-004	......
	5	1.54999	-5.11270E-001	5.49624E-006	-6.34000E-005	......
	6	1.80832	-5.19669E-001	5.49624E-006	-6.34000E-005	......
	7	2.06665	-5.24520E-001	5.49624E-006	3.66000E-005	......
	8	2.32498	-5.29970E-001	5.49624E-006	-1.63400E-004	......
	9	2.58332	-5.36119E-001	5.49624E-006	-1.63400E-004	......
	10	2.84165	-5.49819E-001	5.49624E-006	-1.63400E-004	......
	11	3.09998	-5.65619E-001	5.49624E-006	-6.34000E-005	......
	12	3.35831	-5.88169E-001	5.49624E-006	-6.34000E-005	......
	13	3.61664	-5.97619E-001	5.49624E-006	-1.63400E-004	......
	14	3.87497	-5.98319E-001	5.49624E-006	-1.63400E-004	......
	15	4.1333	-5.98019E-001	5.49624E-006	-1.63400E-004	......
	16	4.39164	-5.99320E-001	5.49624E-006	-1.63400E-004	......
	17	4.64997	-5.99469E-001	5.49624E-006	-1.63400E-004	......
	18	4.9083	-5.98969E-001	5.49624E-006	-2.63400E-004	......
	19	5.16663	-5.98769E-001	5.49624E-006	-6.34000E-005	......
	20	5.42496	-6.00420E-001	5.49624E-006	-3.63400E-004	......
	21	5.68329	-6.01719E-001	5.49624E-006	-2.63400E-004	......
	22	5.94162	-6.02820E-001	5.49624E-006	-1.63400E-004	......
	23	6.19996	-6.03519E-001	5.49624E-006	-6.34000E-005	......
	24	6.45829	-6.00269E-001	5.49624E-006	-1.63400E-004	......
	25	6.71662	-5.96020E-001	5.49624E-006	-1.63400E-004	......
	26	6.97495	-5.94620E-001	5.49624E-006	-2.63400E-004	......
	27	7.23328	-5.94469E-001	5.49624E-006	-6.34000E-005	......
	28	7.49161	-5.96770E-001	5.49624E-006	-1.63400E-004	......
	29	7.74995	-5.97420E-001	5.49624E-006	-6.34000E-005	......
	30	8.00828	-5.96669E-001	5.49624E-006	-1.63400E-004	......
	31	8.26661	-5.95619E-001	5.49624E-006	-1.63400E-004	......
	32	8.52494	-5.97169E-001	5.49624E-006	-1.63400E-004	......
	33	8.78327	-5.97569E-001	5.49624E-006	-1.63400E-004	......
	34	9.0416	-5.98369E-001	5.49624E-006	-1.63400E-004	......
	35	9.29993	-5.99119E-001	5.49624E-006	-1.63400E-004	......
	36	9.5583	-6.01020E-001	5.49624E-006	-6.34000E-005	......
	37	9.8166	-6.02419E-001	5.49624E-006	-1.63400E-004	......
	38	10.0749	-6.04469E-001	5.49624E-006	3.66000E-005	......
EOC	QUANT	-0.604469	Open Circuit (V)
PSTATMODEL	IQUANT	32	Pstat Model
PSTATSECTION	LABEL	PStat0	Pstat Section
CTRLMODE	IQUANT	1	Control Mode
IESTAB	IQUANT	0	I/E Stability
CASPEED	IQUANT	1	Control Amp Speed
CONVENTION	IQUANT	1	Current Convention
ICHRANGE	IQUANT	2	Ich Range
ICHRANGEMODE	TOGGLE	F	Ich Auto Range
ICHOFFSETENABLE	TOGGLE	T	Ich Offset Enable
ICHOFFSET	QUANT	0	Ich Offset (V)
ICHFILTER	IQUANT	3	Ich Filter
VCHRANGE	IQUANT	2	Vch Range
VCHRANGEMODE	TOGGLE	F	Vch Auto Range
VCHOFFSETENABLE	TOGGLE	T	Vch Offset Enable
VCHOFFSET	QUANT	0	Vch Offset (V)
VCHFILTER	IQUANT	3	Vch Filter
ACHRANGE	IQUANT	0	Ach Range
IERANGELOWERLIMIT	IQUANT	3	I/E Range Lower Limit
IERANGEMODE	TOGGLE	F	I/E AutoRange
IERANGE	IQUANT	11	I/E Range
POSFEEDENABLE	TOGGLE	F	Positive Feedback IR Comp
POSFEEDRESISTANCE	QUANT	0	Positive Feedback Resistance (ohm)
FC350IDIVISOR	IQUANT	0	FC350 I Divisor
FC350VRANGE	IQUANT	0	FC350 V Range
FRAMEWORKVERSION	QUANT	4.35	Framework Version
ZCURVE	TABLE
	Pt	Time	Freq	Zreal	Zimag	Zsig	Zmod	Zphz	Idc	Vdc	IERange
	#	s	Hz	ohm	ohm	V	ohm	°	A	V	#
	0	5	100007	113.931	-0.795878	1	113.934	-0.40024	4.18554E-006	-0.504479	9
	1	7	89134.1	113.592	-0.899609	1	113.595	-0.453754	5.27567E-006	-0.504484	9
	2	9	79433.6	113.196	-1.18898	1	113.202	-0.601799	5.64154E-006	-0.504512	9
	3	11	70800.8	113.151	-1.55151	1	113.162	-0.78558	5.72653E-006	-0.504513	9
	4	12	63105.5	112.886	-1.98036	1	112.903	-1.00504	4.80788E-006	-0.504488	9
	5	14	56243.5	112.691	-2.00444	1	112.709	-1.01901	5.08349E-006	-0.504516	9
	6	16	50123.7	112.558	-2.54113	1	112.587	-1.29329	4.29323E-006	-0.50448	9
	7	18	44681	112.839	-2.85119	1	112.875	-1.44743	4.57442E-006	-0.504508	9
	8	20	39811.2	112.658	-3.1774	1	112.703	-1.61554	3.96518E-006	-0.504505	9
	9	22	35488.3	112.737	-3.68852	1	112.797	-1.87393	4.10156E-006	-0.504494	9
	10	24	31634.1	112.73	-4.121	1	112.805	-2.0936	3.89459E-006	-0.504486	9
	11	26	28173.1	112.826	-4.60218	1	112.92	-2.33581	3.96609E-006	-0.504493	9
	12	28	25123.7	112.874	-5.14229	1	112.991	-2.60845	3.78098E-006	-0.504477	9
	13	30	22389.3	113.149	-5.74054	1	113.294	-2.90438	3.5369E-006	-0.504486	9
	14	32	19954.4	113.12	-6.17827	1	113.289	-3.12621	3.69992E-006	-0.504497	9
	15	34	17778.2	113.33	-6.75692	1	113.531	-3.41204	3.33359E-006	-0.504492	9
	16	36	15852.9	113.522	-7.64714	1	113.779	-3.85376	2.97682E-006	-0.504496	9
	17	38	14122.3	113.627	-8.49049	1	113.944	-4.27334	3.01749E-006	-0.504495	9
	18	40	12587.2	113.935	-9.5001	1	114.33	-4.76642	2.87542E-006	-0.504486	9
	19	42	11221.1	114.227	-10.4975	1	114.709	-5.25076	2.92865E-006	-0.50449	9
	20	44	9998.2	114.371	-11.4372	1	114.941	-5.71068	2.89701E-006	-0.504488	9
	21	46	8912.76	114.708	-12.707	1	115.409	-6.32129	2.76032E-006	-0.504463	9
	22	48	7942.6	114.894	-13.9437	1	115.737	-6.91966	2.69709E-006	-0.504489	9
	23	50	7078.05	115.237	-15.5667	1	116.283	-7.69322	2.80517E-006	-0.504481	9
	24	52	6311.1	115.466	-16.8797	1	116.693	-8.31702	2.54885E-006	-0.504495	9
	25	54	5622.14	115.909	-18.756	1	117.416	-9.19178	2.63926E-006	-0.504485	9
	26	56	5011.18	116.381	-20.8274	1	118.23	-10.1461	2.63601E-006	-0.504485	9
	27	58	4465.21	116.72	-22.8435	1	118.934	-11.0735	2.56487E-006	-0.504493	9
	28	60	3980.93	117.416	-25.4874	1	120.151	-12.2471	2.40154E-006	-0.504483	9
	29	62	3548.18	117.72	-28.0943	1	121.026	-13.4228	2.66914E-006	-0.504502	9
	30	64	3162.67	118.535	-31.0552	1	122.535	-14.6811	3.00353E-006	-0.504504	9
	31	66	2819.01	119.314	-34.3654	1	124.165	-16.0677	3.32246E-006	-0.504509	9
	32	67	2511.16	120.128	-37.8956	1	125.964	-17.5084	2.87524E-006	-0.504486	9
	33	69	2238.63	120.641	-41.886	1	127.705	-19.1468	2.62388E-006	-0.504483	9
	34	71	1995.37	121.759	-46.0223	1	130.167	-20.7054	2.8814E-006	-0.504478	9
	35	73	1778.51	122.448	-51.1504	1	132.703	-22.6718	2.85178E-006	-0.504488	9
	36	75	1584.49	123.799	-56.5235	1	136.092	-24.5403	2.95562E-006	-0.504488	9
	37	77	1412.76	124.809	-62.1842	1	139.442	-26.4842	2.70215E-006	-0.504483	9
	38	79	1259.04	125.99	-68.9362	1	143.617	-28.6855	2.72926E-006	-0.50449	9
	39	81	1121.63	127.334	-76.2822	1	148.435	-30.9246	2.73342E-006	-0.504484	9
	40	83	999.95	128.698	-84.2497	1	153.822	-33.21	2.5401E-006	-0.504476	9
	41	85	891.184	130.448	-92.9856	1	160.197	-35.4819	2.63467E-006	-0.504486	9
	42	87	794.163	131.856	-102.613	1	167.079	-37.8907	2.70184E-006	-0.504471	9
	43	89	707.867	133.757	-113.957	1	175.719	-40.4301	3.00342E-006	-0.504488	9
	44	91	630.984	135.637	-126.02	1	185.145	-42.8951	2.85299E-006	-0.504474	9
	45	93	562.189	138.031	-140.04	1	196.631	-45.4138	2.64567E-006	-0.504469	9
	46	95	501.303	140.129	-154.833	1	208.828	-47.8539	2.91827E-006	-0.504481	9
	47	97	446.614	142.617	-171.709	1	223.212	-50.2878	3.03779E-006	-0.504476	9
	48	99	398.209	145.328	-190.352	1	239.487	-52.6394	3.12702E-006	-0.504471	9
	49	101	354.821	148.346	-211.168	1	258.067	-54.9119	3.03502E-006	-0.504477	9
	50	103	316.113	151.666	-234.356	1	279.151	-57.0906	2.9622E-006	-0.504476	9
	51	105	281.926	155.308	-259.998	1	302.852	-59.1483	2.99045E-006	-0.504471	9
	52	107	251.185	159.356	-288.694	1	329.755	-61.1017	2.83218E-006	-0.504471	9
	53	109	223.946	163.828	-320.464	1	359.912	-62.9229	2.78021E-006	-0.504477	9
	54	111	199.495	169.023	-356.122	1	394.197	-64.6099	3.00649E-006	-0.50448	9
	55	113	177.836	174.717	-395.563	1	432.43	-66.1693	3.10109E-006	-0.504474	9
	56	115	158.533	181.089	-439.317	1	475.176	-67.5983	3.19724E-006	-0.504474	9
	57	117	141.263	188.299	-488.424	1	523.464	-68.9172	3.00215E-006	-0.504474	9
	58	119	125.911	196.377	-542.679	1	577.118	-70.1066	3.05681E-006	-0.504472	9
	59	121	112.198	205.627	-603.424	1	637.497	-71.1826	2.83434E-006	-0.50448	9
	60	123	100.009	216.07	-670.631	1	704.58	-72.1417	3.04856E-006	-0.504481	9
	61	125	89.1164	227.131	-745.564	1	779.393	-73.057	2.71294E-006	-0.504478	9
	62	127	79.4083	239.246	-829.273	1	863.094	-73.9071	2.42695E-006	-0.504482	9
	63	129	70.788	253.474	-921.751	1	955.97	-74.6242	2.42507E-006	-0.504486	9
	64	131	63.0971	270.995	-1024.66	1	1059.89	-75.1859	2.5153E-006	-0.50449	9
	65	133	54.5476	297.254	-1170.07	1	1207.24	-75.7457	1.98966E-006	-0.504488	8
	66	135	50.0083	316.992	-1267.62	1	1306.66	-75.9601	2.05988E-006	-0.504494	8
	67	137	46.1675	335.128	-1363.11	1	1403.7	-76.1874	2.09817E-006	-0.504492	8
	68	140	40.0059	370.493	-1555.1	1	1598.63	-76.5995	1.86616E-006	-0.504488	8
	69	142	35.3046	405.883	-1745.36	1	1791.93	-76.9085	1.71498E-006	-0.504489	8
	70	144	31.5793	440.857	-1933.03	1	1982.67	-77.1526	1.5883E-006	-0.504487	8
	71	146	28.5748	479.143	-2117.25	1	2170.79	-77.2485	1.50507E-006	-0.504492	8
	72	148	24.9911	549.188	-2391.59	1	2453.84	-77.0672	1.68843E-006	-0.504491	8
	73	150	22.2195	614.74	-2664.63	1	2734.63	-77.009	1.79787E-006	-0.504497	8
	74	153	20.0011	681.75	-2928.67	1	3006.97	-76.8958	1.56512E-006	-0.504485	8
	75	155	17.6486	792.541	-3280.89	1	3375.26	-76.4196	1.73399E-006	-0.504492	8
	76	157	15.7934	902.654	-3613.42	1	3724.45	-75.9742	1.88464E-006	-0.504496	8
	77	159	14.2828	1010.32	-3957.69	1	4084.61	-75.6794	1.83009E-006	-0.504488	8
	78	162	12.5002	1166.47	-4456.68	1	4606.81	-75.3327	1.60932E-006	-0.504489	8
	79	164	11.323	1295.25	-4886.28	1	5055.04	-75.1535	1.73308E-006	-0.504485	8
	80	167	9.9987	1556.37	-5434.29	1	5652.77	-74.0184	1.60976E-006	-0.504479	8
