EXPLAIN
TAG	EISPOT
TITLE	LABEL	Tomato_open	Test &Identifier
DATE	LABEL	5/15/2006	Date
TIME	LABEL	14:37:35	Time
NOTES	NOTES	1	&Notes...
	
PSTAT	PSTAT	300	Potentiostat
VDC	POTEN	1.00000E-001	T	DC &Voltage (V)
FREQINIT	QUANT	1.00000E+005	Initial Fre&q. (Hz)
FREQFINAL	QUANT	1.00000E+001	Final Fre&q. (Hz)
PTSPERDEC	QUANT	2.00000E+001	Points/&decade
VAC	QUANT	1.00000E+001	AC &Voltage (mV rms)
AREA	QUANT	1.00000E+000	&Area (cm²)
DENSITY	QUANT	7.87000E+000	&Density (gm/cm³)
EQUIV	QUANT	7.00000E+000	Equiv. &Wt
CONDIT	TWOPARAM	F	1.50000E+001	0.00000E+000	Conditionin&g	Time(s)	E(V)
DELAY	TWOPARAM	F	6.00000E+002	0.00000E+000	Init. De&lay	Time(s)	Stab.(mV/s)
SPEED	SELECTOR	1	&Optimize for:
ZGUESS	QUANT	1.00000E+002	E&stimated Z (ohms)
OCVCURVE	TABLE	39
	Pt	T	Vf	Vm	Ach	Over
	#	s	V vs. Ref.	V	V	bits
	0	0.258332	-5.90469E-001	5.20276E-006	2.36600E-004	......
	1	0.516663	-5.91020E-001	5.20276E-006	2.36600E-004	......
	2	0.774994	-5.92219E-001	5.20276E-006	1.36600E-004	......
	3	1.03333	-5.93569E-001	5.20276E-006	2.36600E-004	......
	4	1.29166	-5.94519E-001	5.20276E-006	1.36600E-004	......
	5	1.54999	-5.95670E-001	5.20276E-006	2.36600E-004	......
	6	1.80832	-5.96619E-001	5.20276E-006	2.36600E-004	......
	7	2.06665	-5.96370E-001	5.20276E-006	3.36600E-004	......
	8	2.32498	-5.94819E-001	5.20276E-006	2.36600E-004	......
	9	2.58332	-5.93769E-001	5.20276E-006	2.36600E-004	......
	10	2.84165	-5.93669E-001	5.20276E-006	1.36600E-004	......
	11	3.09998	-5.94119E-001	5.20276E-006	3.36600E-004	......
	12	3.35831	-5.94469E-001	5.20276E-006	3.36600E-004	......
	13	3.61664	-5.94169E-001	5.20276E-006	2.36600E-004	......
	14	3.87497	-5.93419E-001	5.20276E-006	3.66000E-005	......
	15	4.1333	-5.92169E-001	5.20276E-006	2.36600E-004	......
	16	4.39164	-5.91219E-001	5.20276E-006	1.36600E-004	......
	17	4.64997	-5.89969E-001	5.20276E-006	3.36600E-004	......
	18	4.9083	-5.88269E-001	5.20276E-006	3.36600E-004	......
	19	5.16663	-5.89920E-001	5.20276E-006	2.36600E-004	......
	20	5.42496	-5.90620E-001	5.20276E-006	3.66000E-005	......
	21	5.68329	-5.90620E-001	5.20276E-006	3.66000E-005	......
	22	5.94162	-5.91320E-001	5.20276E-006	3.36600E-004	......
	23	6.19996	-5.88969E-001	5.20276E-006	2.36600E-004	......
	24	6.45829	-5.83269E-001	5.20276E-006	1.36600E-004	......
	25	6.71662	-5.79369E-001	5.20276E-006	3.36600E-004	......
	26	6.97495	-5.76119E-001	5.20276E-006	2.36600E-004	......
	27	7.23328	-5.74419E-001	5.20276E-006	3.36600E-004	......
	28	7.49161	-5.72069E-001	5.20276E-006	2.36600E-004	......
	29	7.74995	-5.69470E-001	5.20276E-006	1.36600E-004	......
	30	8.00828	-5.67219E-001	5.20276E-006	2.36600E-004	......
	31	8.26661	-5.65569E-001	5.20276E-006	3.36600E-004	......
	32	8.52494	-5.64719E-001	5.20276E-006	2.36600E-004	......
	33	8.78327	-5.63819E-001	5.20276E-006	2.36600E-004	......
	34	9.0416	-5.63019E-001	5.20276E-006	2.36600E-004	......
	35	9.29993	-5.62019E-001	5.20276E-006	2.36600E-004	......
	36	9.5583	-5.61619E-001	5.20276E-006	2.36600E-004	......
	37	9.8166	-5.61870E-001	5.20276E-006	2.36600E-004	......
	38	10.0749	-5.65719E-001	5.20276E-006	1.36600E-004	......
EOC	QUANT	-0.565719	Open Circuit (V)
PSTATMODEL	IQUANT	32	Pstat Model
PSTATSECTION	LABEL	PStat0	Pstat Section
CTRLMODE	IQUANT	1	Control Mode
IESTAB	IQUANT	0	I/E Stability
CASPEED	IQUANT	1	Control Amp Speed
CONVENTION	IQUANT	1	Current Convention
ICHRANGE	IQUANT	2	Ich Range
ICHRANGEMODE	TOGGLE	F	Ich Auto Range
ICHOFFSETENABLE	TOGGLE	T	Ich Offset Enable
ICHOFFSET	QUANT	0	Ich Offset (V)
ICHFILTER	IQUANT	3	Ich Filter
VCHRANGE	IQUANT	2	Vch Range
VCHRANGEMODE	TOGGLE	F	Vch Auto Range
VCHOFFSETENABLE	TOGGLE	T	Vch Offset Enable
VCHOFFSET	QUANT	0	Vch Offset (V)
VCHFILTER	IQUANT	3	Vch Filter
ACHRANGE	IQUANT	0	Ach Range
IERANGELOWERLIMIT	IQUANT	3	I/E Range Lower Limit
IERANGEMODE	TOGGLE	F	I/E AutoRange
IERANGE	IQUANT	11	I/E Range
POSFEEDENABLE	TOGGLE	F	Positive Feedback IR Comp
POSFEEDRESISTANCE	QUANT	0	Positive Feedback Resistance (ohm)
FC350IDIVISOR	IQUANT	0	FC350 I Divisor
FC350VRANGE	IQUANT	0	FC350 V Range
FRAMEWORKVERSION	QUANT	4.35	Framework Version
ZCURVE	TABLE
	Pt	Time	Freq	Zreal	Zimag	Zsig	Zmod	Zphz	Idc	Vdc	IERange
	#	s	Hz	ohm	ohm	V	ohm	°	A	V	#
	0	4	100007	114.034	-0.7736	1	114.037	-0.388685	4.54642E-006	-0.465532	9
	1	6	89134.1	113.474	-1.03901	1	113.478	-0.524609	6.83445E-006	-0.465528	9
	2	8	79433.6	113.375	-1.28766	1	113.383	-0.650705	7.77698E-006	-0.465548	9
	3	10	70800.8	113.043	-1.45623	1	113.052	-0.73805	7.50685E-006	-0.465563	9
	4	12	63105.5	112.857	-2.10779	1	112.877	-1.06996	6.31199E-006	-0.465537	9
	5	14	56243.5	112.727	-2.19578	1	112.748	-1.11591	4.96464E-006	-0.465564	9
	6	16	50123.7	112.545	-2.5539	1	112.574	-1.29995	3.46759E-006	-0.465573	9
	7	18	44681	112.601	-2.78873	1	112.636	-1.41872	3.34959E-006	-0.465548	9
	8	20	39811.2	112.566	-3.07955	1	112.608	-1.56709	3.26032E-006	-0.465551	9
	9	22	35488.3	112.636	-3.59477	1	112.693	-1.82797	2.75171E-006	-0.465546	9
	10	24	31634.1	112.433	-4.04892	1	112.506	-2.06243	2.97967E-006	-0.465577	9
	11	26	28173.1	112.598	-4.57965	1	112.691	-2.32909	2.66323E-006	-0.465558	9
	12	28	25123.7	112.777	-5.1474	1	112.895	-2.61329	2.37565E-006	-0.46555	9
	13	30	22389.3	112.856	-5.56414	1	112.993	-2.82257	2.15238E-006	-0.465565	9
	14	32	19954.4	112.873	-6.25051	1	113.046	-3.16961	1.98295E-006	-0.46558	9
	15	34	17778.2	113.02	-6.97192	1	113.235	-3.52996	1.91185E-006	-0.465563	9
	16	36	15852.9	113.374	-7.60109	1	113.628	-3.83562	1.91923E-006	-0.465543	9
	17	38	14122.3	113.619	-8.31814	1	113.923	-4.1872	1.83918E-006	-0.465543	9
	18	40	12587.2	113.638	-9.28644	1	114.017	-4.67179	2.10087E-006	-0.465546	9
	19	42	11221.1	113.92	-10.2384	1	114.379	-5.13556	2.0681E-006	-0.465541	9
	20	44	9998.2	114.273	-11.2421	1	114.824	-5.61865	2.11739E-006	-0.465551	9
	21	46	8912.76	114.463	-12.4729	1	115.141	-6.21893	2.30617E-006	-0.46557	9
	22	48	7942.6	114.927	-13.6248	1	115.732	-6.76096	2.40578E-006	-0.465549	9
	23	50	7078.05	115.093	-15.1158	1	116.082	-7.48216	2.45399E-006	-0.465547	9
	24	52	6311.1	115.294	-16.7318	1	116.502	-8.25729	2.25999E-006	-0.465538	9
	25	54	5622.14	115.592	-18.1856	1	117.014	-8.9408	2.43824E-006	-0.465539	9
	26	56	5011.18	116.27	-20.207	1	118.013	-9.8591	2.32352E-006	-0.465539	9
	27	58	4465.21	116.824	-22.3688	1	118.946	-10.8395	2.30392E-006	-0.465538	9
	28	60	3980.93	117.256	-24.601	1	119.809	-11.8492	2.5379E-006	-0.465544	9
	29	62	3548.18	117.757	-26.9042	1	120.791	-12.8696	2.38376E-006	-0.465549	9
	30	64	3162.67	118.378	-29.6873	1	122.044	-14.0785	2.42518E-006	-0.465545	9
	31	66	2819.01	119.087	-32.9224	1	123.554	-15.4539	2.56035E-006	-0.465534	9
	32	68	2511.16	119.781	-36.2115	1	125.135	-16.8207	2.45065E-006	-0.465538	9
	33	70	2238.63	120.438	-39.8714	1	126.866	-18.3173	2.35854E-006	-0.465546	9
	34	72	1995.37	121.337	-44.1262	1	129.112	-19.9846	2.40829E-006	-0.465546	9
	35	74	1778.51	122.347	-48.704	1	131.685	-21.7065	2.49626E-006	-0.465542	9
	36	76	1584.49	123.132	-53.6485	1	134.312	-23.5427	2.48321E-006	-0.465548	9
	37	78	1412.76	124.112	-59.2772	1	137.541	-25.5297	2.56604E-006	-0.465556	9
	38	80	1259.04	125.42	-65.7173	1	141.595	-27.6535	2.40073E-006	-0.465548	9
	39	82	1121.63	126.621	-72.8182	1	146.066	-29.9026	2.36088E-006	-0.465555	9
	40	84	999.95	127.726	-80.1352	1	150.784	-32.104	2.30893E-006	-0.465549	9
	41	86	891.184	129.065	-88.5814	1	156.539	-34.463	2.27423E-006	-0.465556	9
	42	87	794.163	130.806	-97.922	1	163.398	-36.8185	2.33588E-006	-0.465547	9
	43	89	707.867	132.46	-108.364	1	171.138	-39.2861	2.34607E-006	-0.465544	9
	44	91	630.984	133.842	-120.054	1	179.796	-41.8915	2.20073E-006	-0.465548	9
	45	93	562.189	135.543	-132.654	1	189.655	-44.383	2.05367E-006	-0.465568	9
	46	95	501.303	138.019	-147.066	1	201.687	-46.8176	2.08695E-006	-0.465548	9
	47	97	446.614	140.179	-163.104	1	215.065	-49.3228	1.86829E-006	-0.465558	9
	48	99	398.209	142.529	-180.825	1	230.244	-51.7541	1.90698E-006	-0.465553	9
	49	101	354.821	145.105	-200.645	1	247.616	-54.1258	1.74009E-006	-0.465562	9
	50	103	316.113	147.909	-222.783	1	267.412	-56.4192	1.72226E-006	-0.465557	9
	51	105	281.926	150.996	-247.159	1	289.633	-58.5781	1.75037E-006	-0.465553	9
	52	107	251.185	154.443	-274.589	1	315.043	-60.6444	1.86079E-006	-0.465553	9
	53	109	223.946	158.142	-304.95	1	343.516	-62.5895	1.7992E-006	-0.465545	9
	54	111	199.495	162.25	-338.961	1	375.793	-64.421	1.79717E-006	-0.465544	9
	55	113	177.836	166.767	-376.623	1	411.894	-66.1165	1.72751E-006	-0.465551	9
	56	115	158.533	171.844	-418.661	1	452.556	-67.6838	1.86501E-006	-0.465548	9
	57	117	141.263	177.394	-465.594	1	498.243	-69.1429	1.73563E-006	-0.465542	9
	58	119	125.911	183.715	-517.877	1	549.497	-70.4681	1.8236E-006	-0.465544	9
	59	121	112.198	190.54	-576.152	1	606.841	-71.7003	1.6969E-006	-0.465551	9
	60	124	100.009	198.213	-640.921	1	670.871	-72.8151	1.78722E-006	-0.465545	9
	61	126	89.1164	206.894	-713.33	1	742.728	-73.8258	1.81672E-006	-0.465544	9
	62	128	79.4083	216.511	-793.958	1	822.95	-74.7465	1.62049E-006	-0.465554	9
	63	130	70.788	227.041	-883.39	1	912.099	-75.5863	1.65961E-006	-0.465547	9
	64	132	63.0971	239.36	-983.27	1	1011.98	-76.3184	1.69245E-006	-0.465555	9
	65	134	54.5476	256.591	-1125.25	1	1154.13	-77.1544	1.10188E-006	-0.465557	8
	66	136	50.0083	267.244	-1220.29	1	1249.21	-77.6473	9.5282E-007	-0.46555	8
	67	138	46.1675	278.36	-1314.8	1	1343.94	-78.0463	8.71115E-007	-0.465549	8
	68	140	40.0059	300.699	-1502.79	1	1532.58	-78.6849	7.96904E-007	-0.465558	8
	69	142	35.3046	326.243	-1688.85	1	1720.08	-79.0666	8.63712E-007	-0.465554	8
	70	145	31.5793	352.07	-1874.53	1	1907.31	-79.3628	1.00029E-006	-0.465549	8
	71	147	28.5748	380.091	-2058.05	1	2092.85	-79.5362	1.04424E-006	-0.465554	8
	72	149	24.9911	420.272	-2331.48	1	2369.06	-79.7816	1.05823E-006	-0.465556	8
	73	151	22.2195	462.423	-2602.06	1	2642.83	-79.9229	1.06525E-006	-0.465554	8
	74	153	20.0011	503.551	-2869.24	1	2913.09	-80.046	9.83898E-007	-0.465557	8
	75	156	17.6486	556.423	-3224.72	1	3272.38	-80.2101	9.60201E-007	-0.465554	8
	76	158	15.7934	605.103	-3573.76	1	3624.62	-80.3899	9.72521E-007	-0.465549	8
	77	160	14.2828	668.975	-3923.44	1	3980.06	-80.3237	9.82218E-007	-0.465553	8
	78	163	12.5002	754.131	-4449.2	1	4512.66	-80.3799	8.1422E-007	-0.465558	8
	79	165	11.323	820.102	-4880.85	1	4949.27	-80.462	7.31612E-007	-0.465564	8
	80	168	9.9987	935.283	-5471.22	1	5550.58	-80.2993	7.56526E-007	-0.465557	8
