EXPLAIN
TAG	EISPOT
TITLE	LABEL	Tomato_open	Test &Identifier
DATE	LABEL	5/12/2006	Date
TIME	LABEL	12:00:20	Time
NOTES	NOTES	1	&Notes...
	
PSTAT	PSTAT	300	Potentiostat
VDC	POTEN	1.00000E-001	T	DC &Voltage (V)
FREQINIT	QUANT	1.00000E+005	Initial Fre&q. (Hz)
FREQFINAL	QUANT	1.00000E+001	Final Fre&q. (Hz)
PTSPERDEC	QUANT	2.00000E+001	Points/&decade
VAC	QUANT	1.00000E+001	AC &Voltage (mV rms)
AREA	QUANT	1.00000E+000	&Area (cm²)
DENSITY	QUANT	7.87000E+000	&Density (gm/cm³)
EQUIV	QUANT	7.00000E+000	Equiv. &Wt
CONDIT	TWOPARAM	F	1.50000E+001	0.00000E+000	Conditionin&g	Time(s)	E(V)
DELAY	TWOPARAM	F	6.00000E+002	0.00000E+000	Init. De&lay	Time(s)	Stab.(mV/s)
SPEED	SELECTOR	1	&Optimize for:
ZGUESS	QUANT	1.00000E+002	E&stimated Z (ohms)
OCVCURVE	TABLE	39
	Pt	T	Vf	Vm	Ach	Over
	#	s	V vs. Ref.	V	V	bits
	0	0.258332	-5.66920E-001	4.69214E-006	3.36600E-004	......
	1	0.516663	-5.69719E-001	4.69214E-006	3.66000E-005	......
	2	0.774994	-5.70870E-001	4.69214E-006	2.36600E-004	......
	3	1.03333	-5.69420E-001	4.69214E-006	3.66000E-005	......
	4	1.29166	-5.70120E-001	4.69214E-006	2.36600E-004	......
	5	1.54999	-5.71920E-001	4.69214E-006	-1.63400E-004	......
	6	1.80832	-5.70069E-001	4.69214E-006	2.36600E-004	......
	7	2.06665	-5.72569E-001	4.69214E-006	-6.34000E-005	......
	8	2.32498	-5.72169E-001	4.69214E-006	2.36600E-004	......
	9	2.58332	-5.72619E-001	4.69214E-006	-6.34000E-005	......
	10	2.84165	-5.75219E-001	4.69214E-006	3.36600E-004	......
	11	3.09998	-5.76670E-001	4.69214E-006	3.66000E-005	......
	12	3.35831	-5.76119E-001	4.69214E-006	3.36600E-004	......
	13	3.61664	-5.76819E-001	4.69214E-006	-6.34000E-005	......
	14	3.87497	-5.78519E-001	4.69214E-006	2.36600E-004	......
	15	4.1333	-5.78519E-001	4.69214E-006	3.66000E-005	......
	16	4.39164	-5.77269E-001	4.69214E-006	2.36600E-004	......
	17	4.64997	-5.73869E-001	4.69214E-006	-6.34000E-005	......
	18	4.9083	-5.74219E-001	4.69214E-006	4.36600E-004	......
	19	5.16663	-5.70870E-001	4.69214E-006	3.66000E-005	......
	20	5.42496	-5.71819E-001	4.69214E-006	2.36600E-004	......
	21	5.68329	-5.75369E-001	4.69214E-006	-6.34000E-005	......
	22	5.94162	-5.79920E-001	4.69214E-006	3.36600E-004	......
	23	6.19996	-5.82919E-001	4.69214E-006	3.66000E-005	......
	24	6.45829	-5.84570E-001	4.69214E-006	2.36600E-004	......
	25	6.71662	-5.87020E-001	4.69214E-006	-6.34000E-005	......
	26	6.97495	-5.86819E-001	4.69214E-006	2.36600E-004	......
	27	7.23328	-5.87219E-001	4.69214E-006	3.66000E-005	......
	28	7.49161	-5.89819E-001	4.69214E-006	3.36600E-004	......
	29	7.74995	-5.89719E-001	4.69214E-006	-6.34000E-005	......
	30	8.00828	-5.91219E-001	4.69214E-006	1.36600E-004	......
	31	8.26661	-5.92420E-001	4.69214E-006	-6.34000E-005	......
	32	8.52494	-5.91019E-001	4.69214E-006	2.36600E-004	......
	33	8.78327	-5.89819E-001	4.69214E-006	3.66000E-005	......
	34	9.0416	-5.88419E-001	4.69214E-006	2.36600E-004	......
	35	9.29993	-5.87619E-001	4.69214E-006	3.66000E-005	......
	36	9.5583	-5.88969E-001	4.69214E-006	3.36600E-004	......
	37	9.8166	-5.88769E-001	4.69214E-006	3.66000E-005	......
	38	10.0749	-5.91969E-001	4.69214E-006	1.36600E-004	......
EOC	QUANT	-0.591969	Open Circuit (V)
PSTATMODEL	IQUANT	32	Pstat Model
PSTATSECTION	LABEL	PStat0	Pstat Section
CTRLMODE	IQUANT	1	Control Mode
IESTAB	IQUANT	0	I/E Stability
CASPEED	IQUANT	1	Control Amp Speed
CONVENTION	IQUANT	1	Current Convention
ICHRANGE	IQUANT	2	Ich Range
ICHRANGEMODE	TOGGLE	F	Ich Auto Range
ICHOFFSETENABLE	TOGGLE	T	Ich Offset Enable
ICHOFFSET	QUANT	0	Ich Offset (V)
ICHFILTER	IQUANT	3	Ich Filter
VCHRANGE	IQUANT	2	Vch Range
VCHRANGEMODE	TOGGLE	F	Vch Auto Range
VCHOFFSETENABLE	TOGGLE	T	Vch Offset Enable
VCHOFFSET	QUANT	0	Vch Offset (V)
VCHFILTER	IQUANT	3	Vch Filter
ACHRANGE	IQUANT	0	Ach Range
IERANGELOWERLIMIT	IQUANT	3	I/E Range Lower Limit
IERANGEMODE	TOGGLE	F	I/E AutoRange
IERANGE	IQUANT	11	I/E Range
POSFEEDENABLE	TOGGLE	F	Positive Feedback IR Comp
POSFEEDRESISTANCE	QUANT	0	Positive Feedback Resistance (ohm)
FC350IDIVISOR	IQUANT	0	FC350 I Divisor
FC350VRANGE	IQUANT	0	FC350 V Range
FRAMEWORKVERSION	QUANT	4.35	Framework Version
ZCURVE	TABLE
	Pt	Time	Freq	Zreal	Zimag	Zsig	Zmod	Zphz	Idc	Vdc	IERange
	#	s	Hz	ohm	ohm	V	ohm	°	A	V	#
	0	4	100007	113.931	-0.722254	1	113.933	-0.363216	3.09564E-006	-0.491961	9
	1	6	89134.1	113.459	-0.97513	1	113.463	-0.492421	3.17423E-006	-0.491964	9
	2	8	79433.6	113.208	-1.38249	1	113.217	-0.699657	3.21999E-006	-0.491963	9
	3	10	70800.8	112.958	-1.56807	1	112.969	-0.795319	3.44806E-006	-0.491941	9
	4	12	63105.5	112.668	-1.89114	1	112.684	-0.96162	3.57331E-006	-0.491966	9
	5	14	56243.5	112.625	-2.17035	1	112.646	-1.10398	3.76907E-006	-0.491974	9
	6	16	50123.7	112.59	-2.52269	1	112.618	-1.28356	3.89892E-006	-0.491958	9
	7	18	44681	112.572	-2.87697	1	112.609	-1.46397	3.83238E-006	-0.491981	9
	8	20	39811.2	112.578	-3.24287	1	112.625	-1.64998	3.62881E-006	-0.491971	9
	9	22	35488.3	112.545	-3.72239	1	112.606	-1.89436	3.31204E-006	-0.491955	9
	10	24	31634.1	112.637	-4.21351	1	112.715	-2.14232	3.61981E-006	-0.491968	9
	11	26	28173.1	112.715	-4.60074	1	112.808	-2.33738	3.51967E-006	-0.491969	9
	12	28	25123.7	112.771	-5.1522	1	112.888	-2.61588	3.52554E-006	-0.491958	9
	13	30	22389.3	112.893	-5.81219	1	113.043	-2.94721	3.52935E-006	-0.491956	9
	14	32	19954.4	113.09	-6.42555	1	113.273	-3.25193	3.51935E-006	-0.491977	9
	15	34	17778.2	113.212	-7.05391	1	113.431	-3.56533	3.4329E-006	-0.491969	9
	16	36	15852.9	113.358	-7.76389	1	113.624	-3.91806	3.18242E-006	-0.491953	9
	17	38	14122.3	113.439	-8.5628	1	113.762	-4.3167	3.59687E-006	-0.491963	9
	18	40	12587.2	113.599	-9.6038	1	114.004	-4.83237	3.4591E-006	-0.491965	9
	19	42	11221.1	114.045	-10.551	1	114.532	-5.28575	3.52015E-006	-0.49195	9
	20	44	9998.2	114.107	-11.662	1	114.702	-5.83551	3.28318E-006	-0.491962	9
	21	46	8912.76	114.523	-12.9551	1	115.253	-6.45398	3.3616E-006	-0.491958	9
	22	48	7942.6	114.812	-14.2563	1	115.694	-7.07823	2.96684E-006	-0.491963	9
	23	50	7078.05	115.121	-15.7788	1	116.197	-7.80446	3.19504E-006	-0.491956	9
	24	52	6311.1	115.39	-17.4304	1	116.699	-8.58998	3.27332E-006	-0.491959	9
	25	54	5622.14	115.732	-19.2466	1	117.321	-9.44204	3.31345E-006	-0.491964	9
	26	56	5011.18	116.119	-21.411	1	118.077	-10.4473	3.28463E-006	-0.491966	9
	27	57	4465.21	116.695	-23.4884	1	119.035	-11.3805	3.09074E-006	-0.491961	9
	28	59	3980.93	117.09	-26.1132	1	119.966	-12.5723	3.33585E-006	-0.491973	9
	29	61	3548.18	117.595	-28.7513	1	121.059	-13.739	3.05628E-006	-0.491958	9
	30	63	3162.67	118.274	-31.777	1	122.468	-15.0387	2.8991E-006	-0.491969	9
	31	65	2819.01	118.881	-35.0425	1	123.938	-16.4239	3.17145E-006	-0.491972	9
	32	67	2511.16	119.598	-38.7325	1	125.713	-17.9449	2.93078E-006	-0.491957	9
	33	69	2238.63	120.373	-42.9879	1	127.819	-19.6527	2.93754E-006	-0.491969	9
	34	71	1995.37	121.284	-47.5279	1	130.264	-21.3988	3.07027E-006	-0.491958	9
	35	73	1778.51	122.274	-52.302	1	132.99	-23.1586	2.81895E-006	-0.491957	9
	36	75	1584.49	123.378	-57.7081	1	136.207	-25.0671	3.01359E-006	-0.491971	9
	37	77	1412.76	124.294	-63.776	1	139.701	-27.1626	2.84988E-006	-0.491956	9
	38	79	1259.04	125.624	-70.5842	1	144.095	-29.3303	3.18779E-006	-0.491956	9
	39	81	1121.63	127.186	-78.2724	1	149.341	-31.6089	2.82706E-006	-0.491956	9
	40	83	999.95	128.299	-86.57	1	154.774	-34.0096	2.84196E-006	-0.491967	9
	41	85	891.184	129.719	-95.522	1	161.094	-36.3669	2.82932E-006	-0.491968	9
	42	87	794.163	131.025	-106.057	1	168.569	-38.9881	2.79949E-006	-0.491969	9
	43	89	707.867	133.018	-117.265	1	177.327	-41.3985	3.01413E-006	-0.491974	9
	44	91	630.984	135.005	-130.093	1	187.485	-43.9385	2.69193E-006	-0.491971	9
	45	93	562.189	136.964	-143.771	1	198.568	-46.3889	3.19251E-006	-0.491993	9
	46	95	501.303	139.428	-159.425	1	211.793	-48.8282	3.00729E-006	-0.491967	9
	47	97	446.614	141.808	-176.833	1	226.671	-51.2727	2.6199E-006	-0.491969	9
	48	99	398.209	144.42	-196.088	1	243.532	-53.6282	2.69901E-006	-0.49197	9
	49	101	354.821	147.338	-217.617	1	262.803	-55.8999	2.95345E-006	-0.491963	9
	50	103	316.113	150.527	-241.638	1	284.688	-58.0794	3.00209E-006	-0.491962	9
	51	105	281.926	154.015	-268.104	1	309.193	-60.1244	2.66381E-006	-0.491961	9
	52	107	251.185	157.892	-297.841	1	337.104	-62.071	2.71078E-006	-0.491958	9
	53	109	223.946	162.134	-330.761	1	368.362	-63.8866	2.6581E-006	-0.491961	9
	54	111	199.495	166.919	-367.648	1	403.766	-65.5811	2.73313E-006	-0.491958	9
	55	113	177.836	172.261	-408.583	1	443.412	-67.1394	2.84037E-006	-0.491964	9
	56	115	158.533	178.185	-454.079	1	487.789	-68.5745	2.65851E-006	-0.491967	9
	57	117	141.263	185.032	-505.094	1	537.918	-69.8806	2.98786E-006	-0.491967	9
	58	119	125.911	192.714	-561.672	1	593.813	-71.0625	2.88751E-006	-0.49197	9
	59	121	112.198	201.199	-624.805	1	656.401	-72.1504	2.88865E-006	-0.49197	9
	60	123	100.009	210.906	-694.932	1	726.231	-73.1174	2.84111E-006	-0.491972	9
	61	125	89.1164	221.882	-773.09	1	804.301	-73.9862	2.90006E-006	-0.491973	9
	62	127	79.4083	234.806	-860.398	1	891.862	-74.7354	2.95882E-006	-0.491966	9
	63	129	70.788	249.185	-956.98	1	988.89	-75.4051	2.78247E-006	-0.491969	9
	64	131	63.0971	265.267	-1064.33	1	1096.89	-76.0051	2.8517E-006	-0.49197	9
	65	134	54.5476	289.07	-1216.74	1	1250.61	-76.6356	2.08058E-006	-0.491955	8
	66	136	50.0083	305.644	-1318.39	1	1353.35	-76.9476	1.97273E-006	-0.491963	8
	67	138	46.1675	323.478	-1420.33	1	1456.7	-77.1699	1.97244E-006	-0.491961	8
	68	140	40.0059	360.931	-1621.41	1	1661.09	-77.4504	2.09482E-006	-0.491958	8
	69	142	35.3046	398.227	-1821.15	1	1864.18	-77.6654	2.11311E-006	-0.491961	8
	70	144	31.5793	433.233	-2015.5	1	2061.54	-77.8688	2.1521E-006	-0.491966	8
	71	146	28.5748	482.573	-2211.58	1	2263.62	-77.6909	2.19512E-006	-0.491966	8
	72	148	24.9911	542.743	-2499.19	1	2557.44	-77.7475	2.2572E-006	-0.491973	8
	73	151	22.2195	612.381	-2788.95	1	2855.39	-77.6159	2.01409E-006	-0.491967	8
	74	153	20.0011	680.784	-3065.74	1	3140.41	-77.4799	1.99242E-006	-0.491962	8
	75	156	17.6486	783.16	-3442.54	1	3530.5	-77.1836	2.0874E-006	-0.49197	8
	76	158	15.7934	857.916	-3795.73	1	3891.47	-77.2639	2.02478E-006	-0.491968	8
	77	160	14.2828	1007.67	-4160.59	1	4280.87	-76.3855	2.02144E-006	-0.49197	8
	78	162	12.5002	1196.21	-4695.87	1	4845.83	-75.7086	2.17219E-006	-0.491965	8
	79	165	11.323	1319.34	-5111.72	1	5279.23	-75.5277	2.20468E-006	-0.491969	8
	80	167	9.9987	1604.65	-5718.67	1	5939.54	-74.326	2.10401E-006	-0.491964	8
