EXPLAIN
TAG	EISPOT
TITLE	LABEL	Tomato_open	Test &Identifier
DATE	LABEL	5/15/2006	Date
TIME	LABEL	14:42:36	Time
NOTES	NOTES	1	&Notes...
	
PSTAT	PSTAT	300	Potentiostat
VDC	POTEN	1.00000E-001	T	DC &Voltage (V)
FREQINIT	QUANT	1.00000E+005	Initial Fre&q. (Hz)
FREQFINAL	QUANT	1.00000E+001	Final Fre&q. (Hz)
PTSPERDEC	QUANT	2.00000E+001	Points/&decade
VAC	QUANT	1.00000E+001	AC &Voltage (mV rms)
AREA	QUANT	1.00000E+000	&Area (cm²)
DENSITY	QUANT	7.87000E+000	&Density (gm/cm³)
EQUIV	QUANT	7.00000E+000	Equiv. &Wt
CONDIT	TWOPARAM	F	1.50000E+001	0.00000E+000	Conditionin&g	Time(s)	E(V)
DELAY	TWOPARAM	F	6.00000E+002	0.00000E+000	Init. De&lay	Time(s)	Stab.(mV/s)
SPEED	SELECTOR	1	&Optimize for:
ZGUESS	QUANT	1.00000E+002	E&stimated Z (ohms)
OCVCURVE	TABLE	39
	Pt	T	Vf	Vm	Ach	Over
	#	s	V vs. Ref.	V	V	bits
	0	0.258332	-5.29419E-001	3.19044E-006	3.66000E-005	......
	1	0.516663	-5.29719E-001	3.19044E-006	-6.34000E-005	......
	2	0.774994	-5.29719E-001	3.19044E-006	1.36600E-004	......
	3	1.03333	-5.29219E-001	3.19044E-006	-1.63400E-004	......
	4	1.29166	-5.24520E-001	3.19044E-006	3.66000E-005	......
	5	1.54999	-5.20619E-001	3.19044E-006	-1.63400E-004	......
	6	1.80832	-5.17619E-001	3.19044E-006	2.36600E-004	......
	7	2.06665	-5.15869E-001	3.19044E-006	-6.34000E-005	......
	8	2.32498	-5.14820E-001	3.19044E-006	1.36600E-004	......
	9	2.58332	-5.14569E-001	3.19044E-006	-6.34000E-005	......
	10	2.84165	-5.15019E-001	3.19044E-006	3.66000E-005	......
	11	3.09998	-5.16219E-001	3.19044E-006	-6.34000E-005	......
	12	3.35831	-5.16620E-001	3.19044E-006	3.66000E-005	......
	13	3.61664	-5.17219E-001	3.19044E-006	3.66000E-005	......
	14	3.87497	-5.18470E-001	3.19044E-006	3.66000E-005	......
	15	4.1333	-5.20169E-001	3.19044E-006	-1.63400E-004	......
	16	4.39164	-5.21919E-001	3.19044E-006	2.36600E-004	......
	17	4.64997	-5.23369E-001	3.19044E-006	-6.34000E-005	......
	18	4.9083	-5.24870E-001	3.19044E-006	1.36600E-004	......
	19	5.16663	-5.26619E-001	3.19044E-006	-1.63400E-004	......
	20	5.42496	-5.27969E-001	3.19044E-006	3.66000E-005	......
	21	5.68329	-5.28820E-001	3.19044E-006	-1.63400E-004	......
	22	5.94162	-5.29469E-001	3.19044E-006	3.66000E-005	......
	23	6.19996	-5.30119E-001	3.19044E-006	-1.63400E-004	......
	24	6.45829	-5.30620E-001	3.19044E-006	3.66000E-005	......
	25	6.71662	-5.31169E-001	3.19044E-006	-6.34000E-005	......
	26	6.97495	-5.31419E-001	3.19044E-006	1.36600E-004	......
	27	7.23328	-5.31669E-001	3.19044E-006	-6.34000E-005	......
	28	7.49161	-5.32369E-001	3.19044E-006	3.66000E-005	......
	29	7.74995	-5.32869E-001	3.19044E-006	-6.34000E-005	......
	30	8.00828	-5.33419E-001	3.19044E-006	3.36600E-004	......
	31	8.26661	-5.34419E-001	3.19044E-006	-6.34000E-005	......
	32	8.52494	-5.35169E-001	3.19044E-006	3.66000E-005	......
	33	8.78327	-5.35919E-001	3.19044E-006	-1.63400E-004	......
	34	9.0416	-5.36370E-001	3.19044E-006	3.66000E-005	......
	35	9.29993	-5.36219E-001	3.19044E-006	-1.63400E-004	......
	36	9.5583	-5.36819E-001	3.19044E-006	3.66000E-005	......
	37	9.8166	-5.37470E-001	3.19044E-006	-6.34000E-005	......
	38	10.0749	-5.37870E-001	3.19044E-006	3.66000E-005	......
EOC	QUANT	-0.53787	Open Circuit (V)
PSTATMODEL	IQUANT	32	Pstat Model
PSTATSECTION	LABEL	PStat0	Pstat Section
CTRLMODE	IQUANT	1	Control Mode
IESTAB	IQUANT	0	I/E Stability
CASPEED	IQUANT	1	Control Amp Speed
CONVENTION	IQUANT	1	Current Convention
ICHRANGE	IQUANT	2	Ich Range
ICHRANGEMODE	TOGGLE	F	Ich Auto Range
ICHOFFSETENABLE	TOGGLE	T	Ich Offset Enable
ICHOFFSET	QUANT	0	Ich Offset (V)
ICHFILTER	IQUANT	3	Ich Filter
VCHRANGE	IQUANT	2	Vch Range
VCHRANGEMODE	TOGGLE	F	Vch Auto Range
VCHOFFSETENABLE	TOGGLE	T	Vch Offset Enable
VCHOFFSET	QUANT	0	Vch Offset (V)
VCHFILTER	IQUANT	3	Vch Filter
ACHRANGE	IQUANT	0	Ach Range
IERANGELOWERLIMIT	IQUANT	3	I/E Range Lower Limit
IERANGEMODE	TOGGLE	F	I/E AutoRange
IERANGE	IQUANT	11	I/E Range
POSFEEDENABLE	TOGGLE	F	Positive Feedback IR Comp
POSFEEDRESISTANCE	QUANT	0	Positive Feedback Resistance (ohm)
FC350IDIVISOR	IQUANT	0	FC350 I Divisor
FC350VRANGE	IQUANT	0	FC350 V Range
FRAMEWORKVERSION	QUANT	4.35	Framework Version
ZCURVE	TABLE
	Pt	Time	Freq	Zreal	Zimag	Zsig	Zmod	Zphz	Idc	Vdc	IERange
	#	s	Hz	ohm	ohm	V	ohm	°	A	V	#
	0	4	100007	112.765	-0.390543	1	112.765	-0.198434	1.46484E-006	-0.437549	9
	1	6	89134.1	112.289	-1.00824	1	112.293	-0.514445	1.76984E-006	-0.437567	9
	2	8	79433.6	111.995	-1.24682	1	112.002	-0.637839	1.75082E-006	-0.437555	9
	3	10	70800.8	111.784	-1.52688	1	111.794	-0.78257	1.68531E-006	-0.437547	9
	4	12	63105.5	111.63	-1.82513	1	111.645	-0.936693	2.25307E-006	-0.437572	9
	5	14	56243.5	111.672	-2.20859	1	111.693	-1.13302	2.56782E-006	-0.43755	9
	6	16	50123.7	111.374	-2.58569	1	111.404	-1.32995	2.83482E-006	-0.437581	9
	7	18	44681	111.436	-2.90989	1	111.474	-1.49581	3.12798E-006	-0.437581	9
	8	20	39811.2	111.361	-3.40628	1	111.413	-1.752	3.00821E-006	-0.437549	9
	9	22	35488.3	111.472	-3.83815	1	111.538	-1.97201	3.02307E-006	-0.437567	9
	10	24	31634.1	111.646	-4.21579	1	111.725	-2.16248	3.00698E-006	-0.437556	9
	11	26	28173.1	111.461	-4.59954	1	111.555	-2.36303	2.99379E-006	-0.437562	9
	12	28	25123.7	111.602	-5.10287	1	111.719	-2.61795	3.51285E-006	-0.437577	9
	13	30	22389.3	111.883	-5.66036	1	112.026	-2.89622	3.4977E-006	-0.437562	9
	14	32	19954.4	111.981	-6.46309	1	112.167	-3.30323	3.30021E-006	-0.437551	9
	15	34	17778.2	112.259	-7.02714	1	112.479	-3.58191	3.54513E-006	-0.437577	9
	16	36	15852.9	112.333	-7.62835	1	112.591	-3.88492	3.56676E-006	-0.437558	9
	17	38	14122.3	112.456	-8.41959	1	112.771	-4.28174	3.4169E-006	-0.437568	9
	18	40	12587.2	112.664	-9.38616	1	113.055	-4.76236	3.26132E-006	-0.437566	9
	19	42	11221.1	112.977	-10.322	1	113.447	-5.22027	3.30164E-006	-0.437568	9
	20	44	9998.2	113.303	-11.5218	1	113.887	-5.80649	3.36951E-006	-0.437565	9
	21	46	8912.76	113.499	-12.525	1	114.188	-6.29731	3.19698E-006	-0.437544	9
	22	47	7942.6	113.768	-13.7748	1	114.599	-6.90365	2.79549E-006	-0.437572	9
	23	49	7078.05	114.136	-15.0991	1	115.13	-7.53595	2.74748E-006	-0.43756	9
	24	51	6311.1	114.671	-16.7792	1	115.892	-8.32471	2.87246E-006	-0.437559	9
	25	53	5622.14	115.152	-18.4511	1	116.621	-9.10328	2.28859E-006	-0.437575	9
	26	55	5011.18	115.364	-20.0781	1	117.098	-9.873	2.31095E-006	-0.43756	9
	27	57	4465.21	115.891	-22.4113	1	118.039	-10.9449	2.25142E-006	-0.437571	9
	28	59	3980.93	116.423	-24.4808	1	118.969	-11.8749	2.33296E-006	-0.437569	9
	29	61	3548.18	117.045	-27.2298	1	120.17	-13.0966	2.22877E-006	-0.43756	9
	30	63	3162.67	117.49	-29.9228	1	121.24	-14.2886	1.88848E-006	-0.437552	9
	31	65	2819.01	118.32	-32.9289	1	122.816	-15.5521	1.86592E-006	-0.437541	9
	32	67	2511.16	118.774	-36.5305	1	124.265	-17.096	1.8509E-006	-0.437557	9
	33	69	2238.63	119.707	-40.1204	1	126.252	-18.5288	1.62799E-006	-0.437565	9
	34	71	1995.37	120.511	-44.2685	1	128.385	-20.1703	1.72537E-006	-0.437569	9
	35	73	1778.51	121.405	-48.9696	1	130.909	-21.9671	1.76963E-006	-0.437564	9
	36	75	1584.49	122.297	-54.0576	1	133.712	-23.8463	1.7982E-006	-0.437566	9
	37	77	1412.76	123.386	-59.5838	1	137.02	-25.7761	1.64498E-006	-0.437569	9
	38	79	1259.04	124.411	-66.16	1	140.908	-28.0035	1.81681E-006	-0.437571	9
	39	81	1121.63	125.645	-72.9137	1	145.269	-30.1273	1.83767E-006	-0.437572	9
	40	83	999.95	127.026	-80.6279	1	150.454	-32.4048	1.60071E-006	-0.437566	9
	41	85	891.184	128.384	-89.0471	1	156.243	-34.7453	1.63646E-006	-0.437578	9
	42	87	794.163	129.977	-98.597	1	163.143	-37.1829	1.67931E-006	-0.437579	9
	43	89	707.867	131.782	-109.23	1	171.166	-39.6543	1.79051E-006	-0.437597	9
	44	91	630.984	133.191	-121.003	1	179.949	-42.255	1.64488E-006	-0.437567	9
	45	93	562.189	134.998	-134.28	1	190.409	-44.8473	1.49606E-006	-0.437547	9
	46	95	501.303	137.104	-148.389	1	202.032	-47.2638	1.64592E-006	-0.437566	9
	47	97	446.614	139.258	-164.595	1	215.602	-49.7666	1.66302E-006	-0.43757	9
	48	99	398.209	141.561	-182.517	1	230.981	-52.2026	1.74606E-006	-0.437569	9
	49	101	354.821	144.112	-202.545	1	248.581	-54.5678	1.8157E-006	-0.437566	9
	50	103	316.113	146.952	-224.874	1	268.632	-56.8359	1.94951E-006	-0.437567	9
	51	105	281.926	149.937	-249.543	1	291.123	-59.0006	1.74056E-006	-0.437567	9
	52	107	251.185	153.229	-277.23	1	316.758	-61.0699	1.73154E-006	-0.437564	9
	53	109	223.946	156.8	-307.867	1	345.497	-63.0098	1.51509E-006	-0.437568	9
	54	111	199.495	160.817	-342.328	1	378.22	-64.8371	1.58842E-006	-0.437572	9
	55	113	177.836	165.19	-380.429	1	414.745	-66.5286	1.59632E-006	-0.43756	9
	56	115	158.533	169.936	-422.889	1	455.756	-68.1075	1.55754E-006	-0.437562	9
	57	117	141.263	175.239	-470.389	1	501.97	-69.5676	1.47856E-006	-0.437565	9
	58	119	125.911	181.216	-523.321	1	553.809	-70.9	1.4921E-006	-0.437561	9
	59	121	112.198	187.62	-582.232	1	611.715	-72.1388	1.46202E-006	-0.437555	9
	60	123	100.009	194.901	-647.918	1	676.598	-73.2581	1.53314E-006	-0.437554	9
	61	125	89.1164	203.144	-721.119	1	749.187	-74.2672	1.60766E-006	-0.437566	9
	62	127	79.4083	212.348	-802.716	1	830.328	-75.1825	1.60964E-006	-0.437567	9
	63	129	70.788	222.749	-893.624	1	920.967	-76.0034	1.66617E-006	-0.437559	9
	64	131	63.0971	234.189	-994.54	1	1021.74	-76.7497	1.69195E-006	-0.437566	9
	65	133	54.5476	250.991	-1138.6	1	1165.94	-77.5686	1.21872E-006	-0.43756	8
	66	135	50.0083	260.983	-1235.01	1	1262.29	-78.0678	1.07424E-006	-0.437565	8
	67	138	46.1675	271.535	-1330.57	1	1357.99	-78.4658	1.0061E-006	-0.437567	8
	68	140	40.0059	293.867	-1521.59	1	1549.71	-79.069	9.00523E-007	-0.437568	8
	69	142	35.3046	316.382	-1710.46	1	1739.48	-79.5205	9.2379E-007	-0.437562	8
	70	144	31.5793	339.499	-1899.03	1	1929.14	-79.864	1.00097E-006	-0.437569	8
	71	146	28.5748	363.306	-2085.25	1	2116.66	-80.1168	1.00737E-006	-0.437576	8
	72	148	24.9911	398.042	-2363.92	1	2397.19	-80.442	9.58388E-007	-0.437571	8
	73	151	22.2195	432.162	-2638.3	1	2673.46	-80.6974	8.81801E-007	-0.437574	8
	74	153	20.0011	466.9	-2912.27	1	2949.46	-80.8917	8.80487E-007	-0.437574	8
	75	155	17.6486	517.827	-3273.12	1	3313.83	-81.01	9.47316E-007	-0.437568	8
	76	158	15.7934	566.085	-3632.32	1	3676.17	-81.1419	8.45127E-007	-0.437567	8
	77	160	14.2828	615.221	-3991.7	1	4038.83	-81.2382	8.38345E-007	-0.437571	8
	78	162	12.5002	697.182	-4522.18	1	4575.6	-81.2357	8.08237E-007	-0.437574	8
	79	165	11.323	756.294	-4959.45	1	5016.78	-81.3294	7.77051E-007	-0.437569	8
	80	167	9.9987	844.919	-5573.65	1	5637.33	-81.3801	7.83505E-007	-0.437563	8
