EXPLAIN
TAG	EISPOT
TITLE	LABEL	Tomato_open	Test &Identifier
DATE	LABEL	5/10/2006	Date
TIME	LABEL	17:28:25	Time
NOTES	NOTES	1	&Notes...
	
PSTAT	PSTAT	300	Potentiostat
VDC	POTEN	1.00000E-001	T	DC &Voltage (V)
FREQINIT	QUANT	1.00000E+005	Initial Fre&q. (Hz)
FREQFINAL	QUANT	1.00000E+001	Final Fre&q. (Hz)
PTSPERDEC	QUANT	2.00000E+001	Points/&decade
VAC	QUANT	1.00000E+001	AC &Voltage (mV rms)
AREA	QUANT	1.00000E+000	&Area (cm²)
DENSITY	QUANT	7.87000E+000	&Density (gm/cm³)
EQUIV	QUANT	7.00000E+000	Equiv. &Wt
CONDIT	TWOPARAM	F	1.50000E+001	0.00000E+000	Conditionin&g	Time(s)	E(V)
DELAY	TWOPARAM	F	6.00000E+002	0.00000E+000	Init. De&lay	Time(s)	Stab.(mV/s)
SPEED	SELECTOR	1	&Optimize for:
ZGUESS	QUANT	1.00000E+002	E&stimated Z (ohms)
OCVCURVE	TABLE	39
	Pt	T	Vf	Vm	Ach	Over
	#	s	V vs. Ref.	V	V	bits
	0	0.258332	-6.18643E-001	6.48244E-006	2.15400E-004	......
	1	0.516663	-6.18544E-001	6.48244E-006	3.15400E-004	......
	2	0.774994	-6.19193E-001	6.48244E-006	2.15400E-004	......
	3	1.03333	-6.19793E-001	6.48244E-006	3.15400E-004	......
	4	1.29166	-6.20643E-001	6.48244E-006	3.15400E-004	......
	5	1.54999	-6.22643E-001	6.48244E-006	2.15400E-004	......
	6	1.80832	-6.22844E-001	6.48244E-006	2.15400E-004	......
	7	2.06665	-6.23843E-001	6.48244E-006	1.15400E-004	......
	8	2.32498	-6.24593E-001	6.48244E-006	2.15400E-004	......
	9	2.58332	-6.24843E-001	6.48244E-006	3.15400E-004	......
	10	2.84165	-6.25443E-001	6.48244E-006	3.15400E-004	......
	11	3.09998	-6.25593E-001	6.48244E-006	4.15400E-004	......
	12	3.35831	-6.25443E-001	6.48244E-006	1.54000E-005	......
	13	3.61664	-6.22743E-001	6.48244E-006	2.15400E-004	......
	14	3.87497	-6.23093E-001	6.48244E-006	1.15400E-004	......
	15	4.1333	-6.23843E-001	6.48244E-006	3.15400E-004	......
	16	4.39164	-6.23793E-001	6.48244E-006	2.15400E-004	......
	17	4.64997	-6.24243E-001	6.48244E-006	3.15400E-004	......
	18	4.9083	-6.23643E-001	6.48244E-006	2.15400E-004	......
	19	5.16663	-6.24143E-001	6.48244E-006	3.15400E-004	......
	20	5.42496	-6.25193E-001	6.48244E-006	2.15400E-004	......
	21	5.68329	-6.26393E-001	6.48244E-006	2.15400E-004	......
	22	5.94162	-6.27443E-001	6.48244E-006	3.15400E-004	......
	23	6.19996	-6.28293E-001	6.48244E-006	3.15400E-004	......
	24	6.45829	-6.28443E-001	6.48244E-006	2.15400E-004	......
	25	6.71662	-6.27243E-001	6.48244E-006	2.15400E-004	......
	26	6.97495	-6.27194E-001	6.48244E-006	3.15400E-004	......
	27	7.23328	-6.27043E-001	6.48244E-006	3.15400E-004	......
	28	7.49161	-6.26543E-001	6.48244E-006	2.15400E-004	......
	29	7.74995	-6.26943E-001	6.48244E-006	2.15400E-004	......
	30	8.00828	-6.27393E-001	6.48244E-006	2.15400E-004	......
	31	8.26661	-6.28893E-001	6.48244E-006	2.15400E-004	......
	32	8.52494	-6.28393E-001	6.48244E-006	1.54000E-005	......
	33	8.78327	-6.28193E-001	6.48244E-006	3.15400E-004	......
	34	9.0416	-6.26643E-001	6.48244E-006	2.15400E-004	......
	35	9.29993	-6.18493E-001	6.48244E-006	3.15400E-004	......
	36	9.5583	-6.15644E-001	6.48244E-006	3.15400E-004	......
	37	9.8166	-6.19343E-001	6.48244E-006	3.15400E-004	......
	38	10.0749	-6.23194E-001	6.48244E-006	1.54000E-005	......
EOC	QUANT	-0.623194	Open Circuit (V)
PSTATMODEL	IQUANT	32	Pstat Model
PSTATSECTION	LABEL	PStat0	Pstat Section
CTRLMODE	IQUANT	1	Control Mode
IESTAB	IQUANT	0	I/E Stability
CASPEED	IQUANT	1	Control Amp Speed
CONVENTION	IQUANT	1	Current Convention
ICHRANGE	IQUANT	2	Ich Range
ICHRANGEMODE	TOGGLE	F	Ich Auto Range
ICHOFFSETENABLE	TOGGLE	T	Ich Offset Enable
ICHOFFSET	QUANT	0	Ich Offset (V)
ICHFILTER	IQUANT	3	Ich Filter
VCHRANGE	IQUANT	2	Vch Range
VCHRANGEMODE	TOGGLE	F	Vch Auto Range
VCHOFFSETENABLE	TOGGLE	T	Vch Offset Enable
VCHOFFSET	QUANT	0	Vch Offset (V)
VCHFILTER	IQUANT	3	Vch Filter
ACHRANGE	IQUANT	0	Ach Range
IERANGELOWERLIMIT	IQUANT	3	I/E Range Lower Limit
IERANGEMODE	TOGGLE	F	I/E AutoRange
IERANGE	IQUANT	11	I/E Range
POSFEEDENABLE	TOGGLE	F	Positive Feedback IR Comp
POSFEEDRESISTANCE	QUANT	0	Positive Feedback Resistance (ohm)
FC350IDIVISOR	IQUANT	0	FC350 I Divisor
FC350VRANGE	IQUANT	0	FC350 V Range
FRAMEWORKVERSION	QUANT	4.35	Framework Version
ZCURVE	TABLE
	Pt	Time	Freq	Zreal	Zimag	Zsig	Zmod	Zphz	Idc	Vdc	IERange
	#	s	Hz	ohm	ohm	V	ohm	°	A	V	#
	0	4	100007	36.3351	-0.676248	1	36.3414	-1.06623	8.62344E-006	-0.523252	10
	1	6	89134.1	36.2323	-0.839236	1	36.242	-1.32689	9.06656E-006	-0.523282	10
	2	8	79433.6	36.1799	-1.11259	1	36.197	-1.76139	1.12377E-005	-0.523287	10
	3	10	70800.8	36.1264	-1.3172	1	36.1504	-2.08813	1.13848E-005	-0.523296	10
	4	12	63105.5	36.0936	-1.49619	1	36.1246	-2.37372	1.32684E-005	-0.523283	10
	5	14	56243.5	36.1287	-1.80623	1	36.1738	-2.86208	1.2367E-005	-0.52327	10
	6	16	50123.7	36.0678	-2.03363	1	36.125	-3.22712	1.29591E-005	-0.523298	10
	7	18	44681	36.098	-2.31024	1	36.1718	-3.66188	1.31728E-005	-0.523284	10
	8	20	39811.2	36.1418	-2.59376	1	36.2348	-4.10487	1.02334E-005	-0.523271	10
	9	22	35488.3	36.1746	-2.89749	1	36.2905	-4.57946	1.17592E-005	-0.523273	10
	10	24	31634.1	36.2353	-3.32154	1	36.3872	-5.23744	1.26137E-005	-0.523297	10
	11	26	28173.1	36.2968	-3.71789	1	36.4867	-5.84842	1.14566E-005	-0.52328	10
	12	28	25123.7	36.3595	-4.1155	1	36.5916	-6.45778	1.02139E-005	-0.523267	10
	13	30	22389.3	36.4903	-4.61142	1	36.7805	-7.20251	1.08727E-005	-0.523285	10
	14	32	19954.4	36.5699	-5.09902	1	36.9237	-7.93769	1.21786E-005	-0.523294	10
	15	33	17778.2	36.6647	-5.70056	1	37.1052	-8.83747	1.12716E-005	-0.523276	10
	16	35	15852.9	36.7867	-6.31798	1	37.3253	-9.7453	1.04933E-005	-0.523298	10
	17	37	14122.3	36.8982	-7.03801	1	37.5634	-10.799	1.05455E-005	-0.523281	10
	18	39	12587.2	37.0295	-7.74824	1	37.8315	-11.8183	1.07591E-005	-0.523275	10
	19	41	11221.1	37.2511	-8.56334	1	38.2227	-12.9463	1.04652E-005	-0.523277	10
	20	43	9998.2	37.4088	-9.5431	1	38.6068	-14.311	1.03786E-005	-0.523268	10
	21	45	8912.76	37.5531	-10.4511	1	38.9803	-15.5521	1.01983E-005	-0.523286	10
	22	47	7942.6	37.7882	-11.6384	1	39.5399	-17.1183	1.02605E-005	-0.523268	10
	23	49	7078.05	38.0674	-12.8414	1	40.175	-18.6409	1.0488E-005	-0.523272	10
	24	51	6311.1	38.2663	-14.1757	1	40.8076	-20.327	1.03386E-005	-0.523266	10
	25	53	5622.14	38.5041	-15.6913	1	41.5786	-22.1721	1.03831E-005	-0.52327	10
	26	55	5011.18	38.8307	-17.3528	1	42.5317	-24.0791	1.0438E-005	-0.523267	10
	27	57	4465.21	39.092	-19.1466	1	43.529	-26.0948	1.01728E-005	-0.523256	10
	28	59	3980.93	39.456	-21.2235	1	44.802	-28.2759	1.14539E-005	-0.52327	10
	29	61	3548.18	39.8905	-23.5422	1	46.3194	-30.5479	9.44015E-006	-0.523248	10
	30	63	3162.67	40.1734	-26.0968	1	47.9055	-33.0079	7.21717E-006	-0.523272	11
	31	65	2819.01	40.6607	-28.8667	1	49.8656	-35.3726	9.42016E-006	-0.523248	10
	32	67	2511.16	41.0212	-31.9705	1	52.0082	-37.9316	9.73433E-006	-0.523258	10
	33	69	2238.63	41.5353	-35.4455	1	54.6037	-40.4768	1.00057E-005	-0.523256	10
	34	71	1995.37	41.9571	-39.2225	1	57.4352	-43.0707	9.82269E-006	-0.523273	10
	35	73	1778.51	42.5281	-43.5469	1	60.8685	-45.6782	1.02005E-005	-0.523257	10
	36	75	1584.49	43.2002	-48.4154	1	64.8869	-48.258	1.04239E-005	-0.523256	10
	37	77	1412.76	43.5929	-53.715	1	69.1784	-50.9386	9.7881E-006	-0.523268	10
	38	79	1259.04	44.4287	-59.6425	1	74.3716	-53.317	9.62003E-006	-0.523247	10
	39	81	1121.63	45.2573	-66.2399	1	80.2244	-55.6578	9.75814E-006	-0.52326	10
	40	83	999.95	46.0605	-73.75	1	86.9519	-58.0132	9.89191E-006	-0.523256	10
	41	85	891.184	47.1083	-81.6628	1	94.2762	-60.0209	1.0201E-005	-0.523265	10
	42	87	794.163	47.8976	-90.7141	1	102.583	-62.1656	1.03028E-005	-0.523261	10
	43	89	707.867	49.2874	-100.946	1	112.336	-63.9759	5.57083E-006	-0.523261	9
	44	91	630.984	50.8023	-112.456	1	123.399	-65.6889	6.37144E-006	-0.523263	9
	45	93	562.189	52.0279	-125.322	1	135.693	-67.454	6.50327E-006	-0.523259	9
	46	95	501.303	53.5279	-139.158	1	149.098	-68.9605	6.25638E-006	-0.523268	9
	47	97	446.614	55.2682	-154.939	1	164.502	-70.3682	6.70236E-006	-0.523269	9
	48	99	398.209	57.1938	-172.415	1	181.653	-71.6482	6.84375E-006	-0.523263	9
	49	101	354.821	59.3843	-191.965	1	200.94	-72.8105	6.64486E-006	-0.523265	9
	50	103	316.113	61.7755	-213.73	1	222.478	-73.8788	6.23005E-006	-0.523264	9
	51	105	281.926	64.4893	-237.84	1	246.428	-74.8293	6.15456E-006	-0.523267	9
	52	107	251.185	67.5579	-264.906	1	273.385	-75.6931	5.99813E-006	-0.523268	9
	53	109	223.946	70.947	-294.883	1	303.297	-76.4721	5.78694E-006	-0.523257	9
	54	111	199.495	74.9033	-328.627	1	337.055	-77.1601	5.91967E-006	-0.523264	9
	55	113	177.836	79.5309	-365.899	1	374.443	-77.7371	6.14564E-006	-0.523265	9
	56	115	158.533	84.5835	-407.509	1	416.195	-78.2741	6.09605E-006	-0.523258	9
	57	117	141.263	90.4748	-454.114	1	463.039	-78.7323	5.87714E-006	-0.523261	9
	58	119	125.911	97.235	-505.737	1	515	-79.1169	5.8282E-006	-0.523266	9
	59	121	112.198	104.898	-563.572	1	573.251	-79.4562	5.71988E-006	-0.52327	9
	60	123	100.009	114.139	-627.721	1	638.014	-79.6944	5.96043E-006	-0.523271	9
	61	125	89.1164	123.862	-699.653	1	710.533	-79.9607	5.67685E-006	-0.523269	9
	62	127	79.4083	135.309	-779.412	1	791.07	-80.1514	5.48863E-006	-0.523267	9
	63	129	70.788	148.624	-868.001	1	880.633	-80.2837	5.56538E-006	-0.523267	9
	64	131	63.0971	164.978	-966.98	1	980.95	-80.3179	5.34286E-006	-0.523274	9
	65	133	54.5476	191.259	-1108.81	1	1125.18	-80.2133	5.52346E-006	-0.52327	9
	66	135	50.0083	211.769	-1200.88	1	1219.41	-79.999	5.06408E-006	-0.523274	8
	67	137	46.1675	231.289	-1294.35	1	1314.85	-79.8687	5.19239E-006	-0.523274	8
	68	140	40.0059	272.428	-1478.2	1	1503.09	-79.5577	5.10119E-006	-0.523277	8
	69	142	35.3046	315.138	-1659.56	1	1689.21	-79.248	5.16969E-006	-0.523279	8
	70	144	31.5793	361.593	-1840.7	1	1875.88	-78.8861	5.19808E-006	-0.523278	8
	71	146	28.5748	402.189	-2014.78	1	2054.53	-78.711	5.06036E-006	-0.523276	8
	72	148	24.9911	467.186	-2282.5	1	2329.82	-78.4324	4.52756E-006	-0.52328	8
	73	150	22.2195	538.898	-2543.68	1	2600.14	-78.0383	4.30128E-006	-0.523276	8
	74	153	20.0011	633.345	-2794.83	1	2865.7	-77.2317	4.6302E-006	-0.523273	8
	75	155	17.6486	746.314	-3124.68	1	3212.57	-76.5668	4.45329E-006	-0.523274	8
	76	157	15.7934	895.485	-3453.97	1	3568.17	-75.4654	4.60349E-006	-0.523284	8
	77	160	14.2828	1003	-3771.46	1	3902.56	-75.1072	4.44115E-006	-0.523279	8
	78	162	12.5002	1218.73	-4235.73	1	4407.58	-73.9481	4.56762E-006	-0.523274	8
	79	164	11.323	1437.79	-4586.05	1	4806.15	-72.5931	4.74122E-006	-0.523274	8
	80	167	9.9987	1757.02	-5096.16	1	5390.54	-70.9771	4.81265E-006	-0.523279	8
