EXPLAIN
TAG	EISPOT
TITLE	LABEL	Tomato_open	Test &Identifier
DATE	LABEL	5/10/2006	Date
TIME	LABEL	17:18:24	Time
NOTES	NOTES	1	&Notes...
	
PSTAT	PSTAT	300	Potentiostat
VDC	POTEN	1.00000E-001	T	DC &Voltage (V)
FREQINIT	QUANT	1.00000E+005	Initial Fre&q. (Hz)
FREQFINAL	QUANT	1.00000E+001	Final Fre&q. (Hz)
PTSPERDEC	QUANT	2.00000E+001	Points/&decade
VAC	QUANT	1.00000E+001	AC &Voltage (mV rms)
AREA	QUANT	1.00000E+000	&Area (cm²)
DENSITY	QUANT	7.87000E+000	&Density (gm/cm³)
EQUIV	QUANT	7.00000E+000	Equiv. &Wt
CONDIT	TWOPARAM	F	1.50000E+001	0.00000E+000	Conditionin&g	Time(s)	E(V)
DELAY	TWOPARAM	F	6.00000E+002	0.00000E+000	Init. De&lay	Time(s)	Stab.(mV/s)
SPEED	SELECTOR	1	&Optimize for:
ZGUESS	QUANT	1.00000E+002	E&stimated Z (ohms)
OCVCURVE	TABLE	39
	Pt	T	Vf	Vm	Ach	Over
	#	s	V vs. Ref.	V	V	bits
	0	0.258332	-6.30744E-001	7.19507E-006	1.54000E-005	......
	1	0.516663	-6.30193E-001	7.19507E-006	3.15400E-004	......
	2	0.774994	-6.30444E-001	7.19507E-006	2.15400E-004	......
	3	1.03333	-6.30044E-001	7.19507E-006	3.15400E-004	......
	4	1.29166	-6.29593E-001	7.19507E-006	1.15400E-004	......
	5	1.54999	-6.28093E-001	7.19507E-006	2.15400E-004	......
	6	1.80832	-6.29443E-001	7.19507E-006	1.54000E-005	......
	7	2.06665	-6.28843E-001	7.19507E-006	2.15400E-004	......
	8	2.32498	-6.29294E-001	7.19507E-006	2.15400E-004	......
	9	2.58332	-6.28244E-001	7.19507E-006	3.15400E-004	......
	10	2.84165	-6.25093E-001	7.19507E-006	2.15400E-004	......
	11	3.09998	-6.26794E-001	7.19507E-006	2.15400E-004	......
	12	3.35831	-6.28994E-001	7.19507E-006	2.15400E-004	......
	13	3.61664	-6.31793E-001	7.19507E-006	2.15400E-004	......
	14	3.87497	-6.33143E-001	7.19507E-006	1.15400E-004	......
	15	4.1333	-6.34843E-001	7.19507E-006	2.15400E-004	......
	16	4.39164	-6.34843E-001	7.19507E-006	3.15400E-004	......
	17	4.64997	-6.35093E-001	7.19507E-006	3.15400E-004	......
	18	4.9083	-6.36443E-001	7.19507E-006	2.15400E-004	......
	19	5.16663	-6.36243E-001	7.19507E-006	2.15400E-004	......
	20	5.42496	-6.37143E-001	7.19507E-006	2.15400E-004	......
	21	5.68329	-6.37543E-001	7.19507E-006	3.15400E-004	......
	22	5.94162	-6.36693E-001	7.19507E-006	2.15400E-004	......
	23	6.19996	-6.34293E-001	7.19507E-006	2.15400E-004	......
	24	6.45829	-6.27443E-001	7.19507E-006	3.15400E-004	......
	25	6.71662	-6.25843E-001	7.19507E-006	3.15400E-004	......
	26	6.97495	-6.27144E-001	7.19507E-006	2.15400E-004	......
	27	7.23328	-6.27443E-001	7.19507E-006	2.15400E-004	......
	28	7.49161	-6.29294E-001	7.19507E-006	3.15400E-004	......
	29	7.74995	-6.29843E-001	7.19507E-006	2.15400E-004	......
	30	8.00828	-6.29643E-001	7.19507E-006	2.15400E-004	......
	31	8.26661	-6.29743E-001	7.19507E-006	2.15400E-004	......
	32	8.52494	-6.29993E-001	7.19507E-006	2.15400E-004	......
	33	8.78327	-6.30943E-001	7.19507E-006	3.15400E-004	......
	34	9.0416	-6.32093E-001	7.19507E-006	3.15400E-004	......
	35	9.29993	-6.34043E-001	7.19507E-006	2.15400E-004	......
	36	9.5583	-6.34993E-001	7.19507E-006	1.54000E-005	......
	37	9.8166	-6.37693E-001	7.19507E-006	3.15400E-004	......
	38	10.0749	-6.35593E-001	7.19507E-006	2.15400E-004	......
EOC	QUANT	-0.635593	Open Circuit (V)
PSTATMODEL	IQUANT	32	Pstat Model
PSTATSECTION	LABEL	PStat0	Pstat Section
CTRLMODE	IQUANT	1	Control Mode
IESTAB	IQUANT	0	I/E Stability
CASPEED	IQUANT	1	Control Amp Speed
CONVENTION	IQUANT	1	Current Convention
ICHRANGE	IQUANT	2	Ich Range
ICHRANGEMODE	TOGGLE	F	Ich Auto Range
ICHOFFSETENABLE	TOGGLE	T	Ich Offset Enable
ICHOFFSET	QUANT	0	Ich Offset (V)
ICHFILTER	IQUANT	3	Ich Filter
VCHRANGE	IQUANT	2	Vch Range
VCHRANGEMODE	TOGGLE	F	Vch Auto Range
VCHOFFSETENABLE	TOGGLE	T	Vch Offset Enable
VCHOFFSET	QUANT	0	Vch Offset (V)
VCHFILTER	IQUANT	3	Vch Filter
ACHRANGE	IQUANT	0	Ach Range
IERANGELOWERLIMIT	IQUANT	3	I/E Range Lower Limit
IERANGEMODE	TOGGLE	F	I/E AutoRange
IERANGE	IQUANT	11	I/E Range
POSFEEDENABLE	TOGGLE	F	Positive Feedback IR Comp
POSFEEDRESISTANCE	QUANT	0	Positive Feedback Resistance (ohm)
FC350IDIVISOR	IQUANT	0	FC350 I Divisor
FC350VRANGE	IQUANT	0	FC350 V Range
FRAMEWORKVERSION	QUANT	4.35	Framework Version
ZCURVE	TABLE
	Pt	Time	Freq	Zreal	Zimag	Zsig	Zmod	Zphz	Idc	Vdc	IERange
	#	s	Hz	ohm	ohm	V	ohm	°	A	V	#
	0	4	100007	36.2326	-0.71381	1	36.2397	-1.12862	1.21491E-005	-0.535387	10
	1	6	89134.1	36.1396	-0.871487	1	36.1501	-1.38139	1.27122E-005	-0.535374	10
	2	8	79433.6	36.1233	-1.05108	1	36.1386	-1.66666	1.18812E-005	-0.535365	10
	3	10	70800.8	36.0819	-1.35283	1	36.1072	-2.14721	1.42948E-005	-0.535391	10
	4	12	63105.5	36.0614	-1.48412	1	36.0919	-2.3567	1.37203E-005	-0.535389	10
	5	14	56243.5	36.0354	-1.72747	1	36.0768	-2.74456	1.24602E-005	-0.535376	10
	6	16	50123.7	36.042	-2.01337	1	36.0982	-3.19731	1.48975E-005	-0.535379	10
	7	18	44681	36.0281	-2.32086	1	36.1028	-3.6858	1.39222E-005	-0.535389	10
	8	20	39811.2	36.0605	-2.59228	1	36.1535	-4.11175	1.34256E-005	-0.535387	10
	9	22	35488.3	36.1137	-2.93207	1	36.2325	-4.64166	1.0978E-005	-0.535373	10
	10	24	31634.1	36.1564	-3.30102	1	36.3067	-5.21655	1.04278E-005	-0.535371	10
	11	26	28173.1	36.2365	-3.64173	1	36.4191	-5.7389	1.17259E-005	-0.535372	10
	12	27	25123.7	36.2586	-4.08943	1	36.4885	-6.43492	1.13548E-005	-0.535376	10
	13	29	22389.3	36.3709	-4.60189	1	36.6609	-7.21113	1.14314E-005	-0.535382	10
	14	31	19954.4	36.485	-5.06019	1	36.8343	-7.89611	1.1267E-005	-0.535386	10
	15	33	17778.2	36.583	-5.64599	1	37.0161	-8.77345	1.13672E-005	-0.535378	10
	16	35	15852.9	36.7017	-6.29941	1	37.2384	-9.7392	1.26225E-005	-0.535377	10
	17	37	14122.3	36.8359	-6.99061	1	37.4934	-10.7456	1.09342E-005	-0.535368	10
	18	39	12587.2	36.984	-7.72204	1	37.7816	-11.7936	1.11358E-005	-0.535379	10
	19	41	11221.1	37.1766	-8.55699	1	38.1487	-12.9621	1.08175E-005	-0.535378	10
	20	43	9998.2	37.3567	-9.39631	1	38.5203	-14.1187	1.02689E-005	-0.535369	10
	21	45	8912.76	37.5442	-10.384	1	38.9538	-15.4604	1.04319E-005	-0.535374	10
	22	47	7942.6	37.7828	-11.498	1	39.4936	-16.926	9.94765E-006	-0.535387	10
	23	49	7078.05	37.9633	-12.741	1	40.0443	-18.5524	1.05152E-005	-0.53538	10
	24	51	6311.1	38.2408	-13.9908	1	40.7198	-20.0955	1.04658E-005	-0.535384	10
	25	53	5622.14	38.5522	-15.5453	1	41.5684	-21.9607	1.06037E-005	-0.535391	10
	26	55	5011.18	38.8008	-17.2451	1	42.4605	-23.9629	1.04497E-005	-0.535376	10
	27	57	4465.21	39.1256	-19.0374	1	43.5113	-25.9463	9.86234E-006	-0.53539	10
	28	59	3980.93	39.3957	-21.0279	1	44.6563	-28.0916	1.02023E-005	-0.535388	10
	29	61	3548.18	39.7404	-23.245	1	46.0395	-30.3242	1.04125E-005	-0.535399	10
	30	63	3162.67	40.1097	-25.7503	1	47.6642	-32.7003	9.58922E-006	-0.53536	10
	31	65	2819.01	40.5685	-28.4976	1	49.5774	-35.0864	9.42639E-006	-0.535368	10
	32	67	2511.16	41.0222	-31.6096	1	51.7879	-37.616	9.94902E-006	-0.535382	10
	33	69	2238.63	41.4816	-35.0509	1	54.3074	-40.197	1.04418E-005	-0.535375	10
	34	71	1995.37	41.9461	-38.8038	1	57.142	-42.7715	1.06323E-005	-0.535374	10
	35	73	1778.51	42.536	-43.1595	1	60.5974	-45.4169	9.99546E-006	-0.53538	10
	36	75	1584.49	43.1644	-47.8671	1	64.4548	-47.9573	1.04501E-005	-0.535373	10
	37	77	1412.76	43.8378	-53.1438	1	68.8913	-50.4811	9.87594E-006	-0.535377	10
	38	79	1259.04	44.4427	-58.8833	1	73.7726	-52.956	9.68616E-006	-0.535387	10
	39	81	1121.63	45.2673	-65.6656	1	79.7565	-55.4191	9.52899E-006	-0.535373	10
	40	83	999.95	46.0203	-72.7358	1	86.0719	-57.6782	9.84086E-006	-0.53538	10
	41	85	891.184	46.986	-81.2471	1	93.8551	-59.9588	9.40691E-006	-0.535376	10
	42	87	794.163	48.2017	-90.0541	1	102.143	-61.8419	9.44122E-006	-0.53537	10
	43	89	707.867	49.1069	-99.703	1	111.14	-63.7782	6.28808E-006	-0.535378	9
	44	91	630.984	50.3328	-111.343	1	122.191	-65.6746	5.65609E-006	-0.535383	9
	45	93	562.189	52.0826	-124.017	1	134.51	-67.2195	5.70794E-006	-0.535378	9
	46	95	501.303	53.3181	-137.76	1	147.718	-68.8417	5.82963E-006	-0.535379	9
	47	97	446.614	55.0261	-153.375	1	162.947	-70.2636	5.60698E-006	-0.535388	9
	48	99	398.209	56.9016	-170.683	1	179.918	-71.5628	5.84098E-006	-0.535397	9
	49	101	354.821	59.0357	-190.041	1	198.999	-72.7427	5.39064E-006	-0.535393	9
	50	103	316.113	61.4694	-211.682	1	220.426	-73.8074	5.62648E-006	-0.535391	9
	51	105	281.926	64.1742	-235.616	1	244.199	-74.764	5.55023E-006	-0.535389	9
	52	107	251.185	67.3166	-262.464	1	270.959	-75.6149	5.64089E-006	-0.53539	9
	53	109	223.946	70.7527	-292.213	1	300.657	-76.3891	5.55892E-006	-0.535387	9
	54	111	199.495	74.7939	-325.637	1	334.116	-77.0644	5.83958E-006	-0.535381	9
	55	113	177.836	78.9956	-362.61	1	371.115	-77.71	5.41773E-006	-0.535383	9
	56	115	158.533	83.9928	-403.735	1	412.379	-78.2479	5.24539E-006	-0.535383	9
	57	117	141.263	89.8121	-449.905	1	458.782	-78.7108	5.34027E-006	-0.535383	9
	58	119	125.911	96.831	-501.202	1	510.47	-79.0654	5.54188E-006	-0.53538	9
	59	121	112.198	104.529	-558.552	1	568.249	-79.4002	5.47098E-006	-0.535383	9
	60	123	100.009	112.982	-622.172	1	632.347	-79.7077	5.16842E-006	-0.535384	9
	61	125	89.1164	123.566	-693.488	1	704.411	-79.897	5.16883E-006	-0.535384	9
	62	127	79.4083	136.769	-772.137	1	784.156	-79.9553	5.53875E-006	-0.535388	9
	63	129	70.788	151.721	-860.528	1	873.8	-80.0009	5.66044E-006	-0.53539	9
	64	131	63.0971	169.267	-957.87	1	972.71	-79.9786	5.69715E-006	-0.535387	9
	65	133	54.5476	195.117	-1098.06	1	1115.26	-79.9241	5.65198E-006	-0.535381	9
	66	135	50.0083	212.551	-1189.45	1	1208.29	-79.8683	4.76963E-006	-0.535384	8
	67	137	46.1675	232.922	-1280.72	1	1301.73	-79.6924	4.96636E-006	-0.535389	8
	68	139	40.0059	271.332	-1463.37	1	1488.32	-79.4958	4.77515E-006	-0.535389	8
	69	142	35.3046	312.759	-1644.93	1	1674.4	-79.2346	4.73055E-006	-0.535384	8
	70	144	31.5793	358.346	-1821.56	1	1856.47	-78.8706	4.6769E-006	-0.535388	8
	71	146	28.5748	407.551	-2000.02	1	2041.12	-78.4823	4.60309E-006	-0.535391	8
	72	148	24.9911	479.172	-2259.14	1	2309.4	-78.0248	4.5836E-006	-0.535391	8
	73	150	22.2195	567.874	-2515.54	1	2578.84	-77.2789	4.47678E-006	-0.535399	8
	74	153	20.0011	648.352	-2761.7	1	2836.78	-76.7882	4.39329E-006	-0.535392	8
	75	155	17.6486	792.839	-3083.97	1	3184.26	-75.5824	4.53042E-006	-0.535399	8
	76	157	15.7934	942.723	-3396.77	1	3525.16	-74.4888	4.76665E-006	-0.535395	8
	77	159	14.2828	1085.06	-3710.96	1	3866.34	-73.7014	4.81755E-006	-0.535387	8
	78	162	12.5002	1304.81	-4147.39	1	4347.8	-72.5359	4.41079E-006	-0.535398	8
	79	164	11.323	1539.24	-4514.88	1	4770.06	-71.1744	4.60853E-006	-0.535394	8
	80	167	9.9987	1816.3	-4983.81	1	5304.46	-69.9762	4.72273E-006	-0.535393	8
