EXPLAIN
TAG	EISPOT
TITLE	LABEL	Tomato_open	Test &Identifier
DATE	LABEL	5/10/2006	Date
TIME	LABEL	17:08:19	Time
NOTES	NOTES	1	&Notes...
	
PSTAT	PSTAT	300	Potentiostat
VDC	POTEN	1.00000E-001	T	DC &Voltage (V)
FREQINIT	QUANT	1.00000E+005	Initial Fre&q. (Hz)
FREQFINAL	QUANT	1.00000E+001	Final Fre&q. (Hz)
PTSPERDEC	QUANT	2.00000E+001	Points/&decade
VAC	QUANT	1.00000E+001	AC &Voltage (mV rms)
AREA	QUANT	1.00000E+000	&Area (cm²)
DENSITY	QUANT	7.87000E+000	&Density (gm/cm³)
EQUIV	QUANT	7.00000E+000	Equiv. &Wt
CONDIT	TWOPARAM	F	1.50000E+001	0.00000E+000	Conditionin&g	Time(s)	E(V)
DELAY	TWOPARAM	F	6.00000E+002	0.00000E+000	Init. De&lay	Time(s)	Stab.(mV/s)
SPEED	SELECTOR	1	&Optimize for:
ZGUESS	QUANT	1.00000E+002	E&stimated Z (ohms)
OCVCURVE	TABLE	39
	Pt	T	Vf	Vm	Ach	Over
	#	s	V vs. Ref.	V	V	bits
	0	0.258332	-6.10943E-001	7.29354E-006	3.15400E-004	......
	1	0.516663	-6.11344E-001	7.29354E-006	3.15400E-004	......
	2	0.774994	-6.12193E-001	7.29354E-006	2.15400E-004	......
	3	1.03333	-6.14244E-001	7.29354E-006	3.15400E-004	......
	4	1.29166	-6.17893E-001	7.29354E-006	3.15400E-004	......
	5	1.54999	-6.18793E-001	7.29354E-006	2.15400E-004	......
	6	1.80832	-6.21044E-001	7.29354E-006	2.15400E-004	......
	7	2.06665	-6.20993E-001	7.29354E-006	2.15400E-004	......
	8	2.32498	-6.20394E-001	7.29354E-006	2.15400E-004	......
	9	2.58332	-6.22043E-001	7.29354E-006	3.15400E-004	......
	10	2.84165	-6.20643E-001	7.29354E-006	1.54000E-005	......
	11	3.09998	-6.23893E-001	7.29354E-006	2.15400E-004	......
	12	3.35831	-6.23143E-001	7.29354E-006	1.54000E-005	......
	13	3.61664	-6.22643E-001	7.29354E-006	2.15400E-004	......
	14	3.87497	-6.20293E-001	7.29354E-006	2.15400E-004	......
	15	4.1333	-6.19743E-001	7.29354E-006	3.15400E-004	......
	16	4.39164	-6.20744E-001	7.29354E-006	3.15400E-004	......
	17	4.64997	-6.19644E-001	7.29354E-006	3.15400E-004	......
	18	4.9083	-6.20744E-001	7.29354E-006	2.15400E-004	......
	19	5.16663	-6.22193E-001	7.29354E-006	3.15400E-004	......
	20	5.42496	-6.21243E-001	7.29354E-006	2.15400E-004	......
	21	5.68329	-6.22893E-001	7.29354E-006	3.15400E-004	......
	22	5.94162	-6.20543E-001	7.29354E-006	2.15400E-004	......
	23	6.19996	-6.17844E-001	7.29354E-006	3.15400E-004	......
	24	6.45829	-6.20443E-001	7.29354E-006	2.15400E-004	......
	25	6.71662	-6.23893E-001	7.29354E-006	4.15400E-004	......
	26	6.97495	-6.22943E-001	7.29354E-006	2.15400E-004	......
	27	7.23328	-6.22293E-001	7.29354E-006	2.15400E-004	......
	28	7.49161	-6.21593E-001	7.29354E-006	1.15400E-004	......
	29	7.74995	-6.17844E-001	7.29354E-006	3.15400E-004	......
	30	8.00828	-6.17193E-001	7.29354E-006	3.15400E-004	......
	31	8.26661	-6.15543E-001	7.29354E-006	2.15400E-004	......
	32	8.52494	-6.14393E-001	7.29354E-006	2.15400E-004	......
	33	8.78327	-6.15443E-001	7.29354E-006	3.15400E-004	......
	34	9.0416	-6.14944E-001	7.29354E-006	2.15400E-004	......
	35	9.29993	-6.13093E-001	7.29354E-006	3.15400E-004	......
	36	9.5583	-6.15393E-001	7.29354E-006	2.15400E-004	......
	37	9.8166	-6.16193E-001	7.29354E-006	3.15400E-004	......
	38	10.0749	-6.16744E-001	7.29354E-006	2.15400E-004	......
EOC	QUANT	-0.616744	Open Circuit (V)
PSTATMODEL	IQUANT	32	Pstat Model
PSTATSECTION	LABEL	PStat0	Pstat Section
CTRLMODE	IQUANT	1	Control Mode
IESTAB	IQUANT	0	I/E Stability
CASPEED	IQUANT	1	Control Amp Speed
CONVENTION	IQUANT	1	Current Convention
ICHRANGE	IQUANT	2	Ich Range
ICHRANGEMODE	TOGGLE	F	Ich Auto Range
ICHOFFSETENABLE	TOGGLE	T	Ich Offset Enable
ICHOFFSET	QUANT	0	Ich Offset (V)
ICHFILTER	IQUANT	3	Ich Filter
VCHRANGE	IQUANT	2	Vch Range
VCHRANGEMODE	TOGGLE	F	Vch Auto Range
VCHOFFSETENABLE	TOGGLE	T	Vch Offset Enable
VCHOFFSET	QUANT	0	Vch Offset (V)
VCHFILTER	IQUANT	3	Vch Filter
ACHRANGE	IQUANT	0	Ach Range
IERANGELOWERLIMIT	IQUANT	3	I/E Range Lower Limit
IERANGEMODE	TOGGLE	F	I/E AutoRange
IERANGE	IQUANT	11	I/E Range
POSFEEDENABLE	TOGGLE	F	Positive Feedback IR Comp
POSFEEDRESISTANCE	QUANT	0	Positive Feedback Resistance (ohm)
FC350IDIVISOR	IQUANT	0	FC350 I Divisor
FC350VRANGE	IQUANT	0	FC350 V Range
FRAMEWORKVERSION	QUANT	4.35	Framework Version
ZCURVE	TABLE
	Pt	Time	Freq	Zreal	Zimag	Zsig	Zmod	Zphz	Idc	Vdc	IERange
	#	s	Hz	ohm	ohm	V	ohm	°	A	V	#
	0	8	100007	36.4665	-0.677751	1	36.4728	-1.06475	1.98408E-005	-0.516658	10
	1	10	89134.1	36.3011	-0.853224	1	36.3112	-1.34644	1.67267E-005	-0.516698	10
	2	12	79433.6	36.2403	-1.01404	1	36.2545	-1.60277	1.63814E-005	-0.516693	10
	3	14	70800.8	36.2538	-1.25001	1	36.2754	-1.97474	1.54141E-005	-0.516671	10
	4	16	63105.5	36.1543	-1.52338	1	36.1863	-2.41276	1.56661E-005	-0.516685	10
	5	18	56243.5	36.1517	-1.72507	1	36.1928	-2.73194	1.60438E-005	-0.516673	10
	6	20	50123.7	36.1835	-1.95648	1	36.2364	-3.09502	1.56698E-005	-0.516691	10
	7	22	44681	36.1976	-2.30101	1	36.2706	-3.63729	1.32325E-005	-0.516671	10
	8	24	39811.2	36.1917	-2.51185	1	36.2788	-3.97019	1.61377E-005	-0.516677	10
	9	26	35488.3	36.1903	-2.8519	1	36.3025	-4.50575	1.51806E-005	-0.516671	10
	10	28	31634.1	36.299	-3.22119	1	36.4416	-5.07117	1.38155E-005	-0.516694	10
	11	30	28173.1	36.3554	-3.61536	1	36.5347	-5.6791	1.38806E-005	-0.516675	10
	12	32	25123.7	36.3912	-4.05414	1	36.6163	-6.3568	1.26525E-005	-0.516661	10
	13	34	22389.3	36.4923	-4.50082	1	36.7688	-7.03113	1.30495E-005	-0.516663	10
	14	36	19954.4	36.5881	-4.96582	1	36.9235	-7.72909	1.47256E-005	-0.516682	10
	15	38	17778.2	36.6995	-5.58124	1	37.1214	-8.64725	1.27297E-005	-0.516673	10
	16	40	15852.9	36.7869	-6.13168	1	37.2944	-9.46313	1.22066E-005	-0.516671	10
	17	42	14122.3	36.957	-6.82383	1	37.5817	-10.4614	1.28534E-005	-0.516677	10
	18	44	12587.2	37.1378	-7.59901	1	37.9073	-11.564	1.2713E-005	-0.516677	10
	19	46	11221.1	37.2724	-8.3497	1	38.1962	-12.6268	1.26317E-005	-0.51668	10
	20	48	9998.2	37.4317	-9.25457	1	38.5588	-13.8872	1.24353E-005	-0.516679	10
	21	50	8912.76	37.6529	-10.2034	1	39.0109	-15.1621	1.15833E-005	-0.516668	10
	22	52	7942.6	37.8782	-11.2862	1	39.5238	-16.5919	1.23334E-005	-0.516676	10
	23	54	7078.05	38.1243	-12.4558	1	40.1075	-18.093	1.22967E-005	-0.516682	10
	24	56	6311.1	38.3852	-13.8094	1	40.7937	-19.7866	1.29411E-005	-0.516686	10
	25	58	5622.14	38.6606	-15.2796	1	41.5705	-21.5651	1.28762E-005	-0.516676	10
	26	60	5011.18	38.9675	-16.8017	1	42.4355	-23.3244	1.29959E-005	-0.516668	10
	27	62	4465.21	39.22	-18.6663	1	43.4355	-25.4516	1.23941E-005	-0.516672	10
	28	64	3980.93	39.5913	-20.5825	1	44.6219	-27.4688	1.18459E-005	-0.516682	10
	29	66	3548.18	39.9253	-22.729	1	45.9417	-29.6524	1.19142E-005	-0.516688	10
	30	68	3162.67	40.3337	-25.1947	1	47.5561	-31.9912	1.33608E-005	-0.51668	10
	31	70	2819.01	40.7191	-27.7375	1	49.2688	-34.2623	1.17356E-005	-0.516684	10
	32	72	2511.16	41.1397	-30.8065	1	51.3957	-36.8269	1.20491E-005	-0.51668	10
	33	73	2238.63	41.6217	-34.2745	1	53.9176	-39.4706	1.25379E-005	-0.516679	10
	34	75	1995.37	42.131	-37.8848	1	56.6593	-41.9624	1.25517E-005	-0.516676	10
	35	77	1778.51	42.6078	-42.0177	1	59.8407	-44.6004	1.23555E-005	-0.516681	10
	36	79	1584.49	43.2448	-46.6512	1	63.6117	-47.1701	1.23298E-005	-0.516682	10
	37	81	1412.76	43.8099	-51.7086	1	67.7723	-49.7272	1.13347E-005	-0.516674	10
	38	83	1259.04	44.552	-57.3085	1	72.5889	-52.1383	1.23582E-005	-0.516676	10
	39	85	1121.63	45.0785	-63.8489	1	78.1585	-54.7772	1.20465E-005	-0.516674	10
	40	87	999.95	45.9864	-70.9082	1	84.5146	-57.0352	1.18479E-005	-0.516671	10
	41	89	891.184	46.8703	-78.9386	1	91.8048	-59.3	1.16659E-005	-0.516685	10
	42	91	794.163	47.9964	-88.0157	1	100.252	-61.3956	1.14894E-005	-0.516681	10
	43	93	707.867	49.0736	-97.975	1	109.578	-63.3948	8.51256E-006	-0.516698	9
	44	95	630.984	50.4458	-108.685	1	119.821	-65.1017	7.83711E-006	-0.516678	9
	45	97	562.189	52.0017	-120.947	1	131.653	-66.7346	8.0468E-006	-0.516684	9
	46	99	501.303	53.206	-134.525	1	144.664	-68.4207	8.02613E-006	-0.516686	9
	47	101	446.614	54.8805	-149.813	1	159.549	-69.8809	7.85414E-006	-0.516693	9
	48	103	398.209	56.8213	-166.771	1	176.186	-71.1853	8.23013E-006	-0.516693	9
	49	105	354.821	58.9268	-185.716	1	194.841	-72.3961	7.75692E-006	-0.516694	9
	50	107	316.113	61.354	-206.919	1	215.824	-73.4843	7.72377E-006	-0.516688	9
	51	109	281.926	64.2354	-230.312	1	239.102	-74.4159	8.11239E-006	-0.516686	9
	52	111	251.185	67.4111	-256.633	1	265.339	-75.2823	7.74309E-006	-0.516691	9
	53	113	223.946	70.9811	-285.815	1	294.497	-76.053	7.76566E-006	-0.516693	9
	54	115	199.495	75.1352	-318.569	1	327.31	-76.7292	7.80853E-006	-0.516686	9
	55	117	177.836	79.9748	-354.772	1	363.675	-77.2964	7.72986E-006	-0.516688	9
	56	119	158.533	85.4218	-395.089	1	404.218	-77.7999	7.8647E-006	-0.516689	9
	57	121	141.263	92.0329	-440.357	1	449.871	-78.1953	8.00245E-006	-0.516694	9
	58	123	125.911	99.161	-490.458	1	500.382	-78.57	7.66105E-006	-0.516698	9
	59	125	112.198	107.699	-546.731	1	557.237	-78.8561	7.63714E-006	-0.516694	9
	60	127	100.009	117.951	-608.952	1	620.27	-79.0379	7.89795E-006	-0.516697	9
	61	129	89.1164	128.998	-678.332	1	690.489	-79.2327	7.55631E-006	-0.516701	9
	62	131	79.4083	143.933	-755.768	1	769.352	-79.2174	7.9403E-006	-0.516696	9
	63	133	70.788	160.755	-841.188	1	856.411	-79.1809	7.86753E-006	-0.516691	9
	64	135	63.0971	179.872	-937.025	1	954.13	-79.1336	7.89928E-006	-0.516695	9
	65	138	54.5476	208.18	-1072.47	1	1092.49	-79.0148	7.74133E-006	-0.516695	9
	66	140	50.0083	234.347	-1160.63	1	1184.05	-78.5847	7.69917E-006	-0.5167	8
	67	142	46.1675	254.987	-1251.01	1	1276.73	-78.4795	7.31247E-006	-0.516695	8
	68	144	40.0059	307.631	-1425.39	1	1458.21	-77.8211	7.8916E-006	-0.516696	8
	69	146	35.3046	373.146	-1596.15	1	1639.19	-76.8418	8.36214E-006	-0.516696	8
	70	148	31.5793	428.683	-1764.39	1	1815.72	-76.3438	8.07512E-006	-0.516695	8
	71	150	28.5748	488.14	-1928.46	1	1989.28	-75.7954	7.9914E-006	-0.516697	8
	72	152	24.9911	611.869	-2161.57	1	2246.5	-74.1949	8.4037E-006	-0.516702	8
	73	155	22.2195	683.815	-2412.11	1	2507.17	-74.1724	8.04042E-006	-0.516692	8
	74	157	20.0011	805.064	-2637.18	1	2757.33	-73.0239	8.01962E-006	-0.516702	8
	75	160	17.6486	958.7	-2924.83	1	3077.94	-71.852	8.02831E-006	-0.516698	8
	76	162	15.7934	1177.4	-3188.17	1	3398.64	-69.7307	8.47012E-006	-0.5167	8
	77	164	14.2828	1374.21	-3441.94	1	3706.13	-68.2354	8.74169E-006	-0.516693	8
	78	166	12.5002	1649.95	-3845.8	1	4184.79	-66.7794	8.52621E-006	-0.516705	8
	79	169	11.323	1898.66	-4133.53	1	4548.73	-65.3292	8.18834E-006	-0.516693	8
	80	171	9.9987	2340.25	-4397.71	1	4981.63	-61.9803	8.56155E-006	-0.516705	8
