EXPLAIN
TAG	EISPOT
TITLE	LABEL	Tomato_open	Test &Identifier
DATE	LABEL	5/10/2006	Date
TIME	LABEL	17:23:23	Time
NOTES	NOTES	1	&Notes...
	
PSTAT	PSTAT	300	Potentiostat
VDC	POTEN	1.00000E-001	T	DC &Voltage (V)
FREQINIT	QUANT	1.00000E+005	Initial Fre&q. (Hz)
FREQFINAL	QUANT	1.00000E+001	Final Fre&q. (Hz)
PTSPERDEC	QUANT	2.00000E+001	Points/&decade
VAC	QUANT	1.00000E+001	AC &Voltage (mV rms)
AREA	QUANT	1.00000E+000	&Area (cm²)
DENSITY	QUANT	7.87000E+000	&Density (gm/cm³)
EQUIV	QUANT	7.00000E+000	Equiv. &Wt
CONDIT	TWOPARAM	F	1.50000E+001	0.00000E+000	Conditionin&g	Time(s)	E(V)
DELAY	TWOPARAM	F	6.00000E+002	0.00000E+000	Init. De&lay	Time(s)	Stab.(mV/s)
SPEED	SELECTOR	1	&Optimize for:
ZGUESS	QUANT	1.00000E+002	E&stimated Z (ohms)
OCVCURVE	TABLE	39
	Pt	T	Vf	Vm	Ach	Over
	#	s	V vs. Ref.	V	V	bits
	0	0.258332	-6.31243E-001	7.36784E-006	1.15400E-004	......
	1	0.516663	-6.32393E-001	7.36784E-006	2.15400E-004	......
	2	0.774994	-6.33343E-001	7.36784E-006	1.54000E-005	......
	3	1.03333	-6.32993E-001	7.36784E-006	1.15400E-004	......
	4	1.29166	-6.30543E-001	7.36784E-006	1.15400E-004	......
	5	1.54999	-6.30643E-001	7.36784E-006	3.15400E-004	......
	6	1.80832	-6.32643E-001	7.36784E-006	1.15400E-004	......
	7	2.06665	-6.34193E-001	7.36784E-006	3.15400E-004	......
	8	2.32498	-6.35143E-001	7.36784E-006	1.54000E-005	......
	9	2.58332	-6.33093E-001	7.36784E-006	3.15400E-004	......
	10	2.84165	-6.34143E-001	7.36784E-006	1.54000E-005	......
	11	3.09998	-6.34943E-001	7.36784E-006	2.15400E-004	......
	12	3.35831	-6.35593E-001	7.36784E-006	1.54000E-005	......
	13	3.61664	-6.36544E-001	7.36784E-006	3.15400E-004	......
	14	3.87497	-6.34943E-001	7.36784E-006	1.54000E-005	......
	15	4.1333	-6.34893E-001	7.36784E-006	1.54000E-005	......
	16	4.39164	-6.38093E-001	7.36784E-006	1.54000E-005	......
	17	4.64997	-6.40094E-001	7.36784E-006	1.54000E-005	......
	18	4.9083	-6.39993E-001	7.36784E-006	1.54000E-005	......
	19	5.16663	-6.40494E-001	7.36784E-006	3.15400E-004	......
	20	5.42496	-6.40794E-001	7.36784E-006	1.54000E-005	......
	21	5.68329	-6.42343E-001	7.36784E-006	1.15400E-004	......
	22	5.94162	-6.43593E-001	7.36784E-006	1.54000E-005	......
	23	6.19996	-6.44343E-001	7.36784E-006	2.15400E-004	......
	24	6.45829	-6.44843E-001	7.36784E-006	1.54000E-005	......
	25	6.71662	-6.45043E-001	7.36784E-006	3.15400E-004	......
	26	6.97495	-6.46293E-001	7.36784E-006	1.54000E-005	......
	27	7.23328	-6.46693E-001	7.36784E-006	1.15400E-004	......
	28	7.49161	-6.45343E-001	7.36784E-006	1.54000E-005	......
	29	7.74995	-6.45793E-001	7.36784E-006	3.15400E-004	......
	30	8.00828	-6.45243E-001	7.36784E-006	2.15400E-004	......
	31	8.26661	-6.44044E-001	7.36784E-006	2.15400E-004	......
	32	8.52494	-6.43943E-001	7.36784E-006	1.54000E-005	......
	33	8.78327	-6.37443E-001	7.36784E-006	2.15400E-004	......
	34	9.0416	-6.36844E-001	7.36784E-006	1.15400E-004	......
	35	9.29993	-6.40844E-001	7.36784E-006	2.15400E-004	......
	36	9.5583	-6.41343E-001	7.36784E-006	1.54000E-005	......
	37	9.8166	-6.41144E-001	7.36784E-006	1.15400E-004	......
	38	10.0749	-6.39093E-001	7.36784E-006	1.54000E-005	......
EOC	QUANT	-0.639093	Open Circuit (V)
PSTATMODEL	IQUANT	32	Pstat Model
PSTATSECTION	LABEL	PStat0	Pstat Section
CTRLMODE	IQUANT	1	Control Mode
IESTAB	IQUANT	0	I/E Stability
CASPEED	IQUANT	1	Control Amp Speed
CONVENTION	IQUANT	1	Current Convention
ICHRANGE	IQUANT	2	Ich Range
ICHRANGEMODE	TOGGLE	F	Ich Auto Range
ICHOFFSETENABLE	TOGGLE	T	Ich Offset Enable
ICHOFFSET	QUANT	0	Ich Offset (V)
ICHFILTER	IQUANT	3	Ich Filter
VCHRANGE	IQUANT	2	Vch Range
VCHRANGEMODE	TOGGLE	F	Vch Auto Range
VCHOFFSETENABLE	TOGGLE	T	Vch Offset Enable
VCHOFFSET	QUANT	0	Vch Offset (V)
VCHFILTER	IQUANT	3	Vch Filter
ACHRANGE	IQUANT	0	Ach Range
IERANGELOWERLIMIT	IQUANT	3	I/E Range Lower Limit
IERANGEMODE	TOGGLE	F	I/E AutoRange
IERANGE	IQUANT	11	I/E Range
POSFEEDENABLE	TOGGLE	F	Positive Feedback IR Comp
POSFEEDRESISTANCE	QUANT	0	Positive Feedback Resistance (ohm)
FC350IDIVISOR	IQUANT	0	FC350 I Divisor
FC350VRANGE	IQUANT	0	FC350 V Range
FRAMEWORKVERSION	QUANT	4.35	Framework Version
ZCURVE	TABLE
	Pt	Time	Freq	Zreal	Zimag	Zsig	Zmod	Zphz	Idc	Vdc	IERange
	#	s	Hz	ohm	ohm	V	ohm	°	A	V	#
	0	4	100007	36.1983	-0.625353	1	36.2037	-0.98973	1.08402E-005	-0.538952	10
	1	6	89134.1	36.1901	-0.872126	1	36.2007	-1.38047	1.08931E-005	-0.538928	10
	2	8	79433.6	36.0888	-1.1064	1	36.1058	-1.75601	1.31547E-005	-0.538929	10
	3	10	70800.8	36.0644	-1.27314	1	36.0868	-2.02181	1.28644E-005	-0.53893	10
	4	12	63105.5	36.0523	-1.54627	1	36.0854	-2.45589	1.13031E-005	-0.538912	10
	5	14	56243.5	36.0834	-1.77223	1	36.1269	-2.81181	1.37E-005	-0.538927	10
	6	16	50123.7	36.0302	-1.98875	1	36.085	-3.15935	1.04048E-005	-0.538923	10
	7	18	44681	36.0257	-2.26745	1	36.097	-3.60142	1.14905E-005	-0.538923	10
	8	20	39811.2	36.0959	-2.58203	1	36.1881	-4.09154	1.26361E-005	-0.53893	10
	9	22	35488.3	36.1384	-2.92748	1	36.2568	-4.63127	9.79969E-006	-0.538922	10
	10	24	31634.1	36.1815	-3.28393	1	36.3302	-5.18611	1.20636E-005	-0.538935	10
	11	26	28173.1	36.2207	-3.70535	1	36.4097	-5.841	1.07164E-005	-0.538928	10
	12	28	25123.7	36.3174	-4.12309	1	36.5507	-6.47702	9.84734E-006	-0.538914	10
	13	30	22389.3	36.418	-4.56154	1	36.7025	-7.13942	1.06522E-005	-0.538955	10
	14	32	19954.4	36.5378	-5.10387	1	36.8925	-7.95204	1.08339E-005	-0.53891	10
	15	34	17778.2	36.5742	-5.62552	1	37.0043	-8.7442	1.07928E-005	-0.538932	10
	16	36	15852.9	36.7684	-6.21854	1	37.2906	-9.5994	1.07677E-005	-0.538923	10
	17	38	14122.3	36.8975	-6.90662	1	37.5384	-10.6021	1.05186E-005	-0.538926	10
	18	40	12587.2	37.0674	-7.72692	1	37.8642	-11.775	1.05414E-005	-0.538929	10
	19	42	11221.1	37.2267	-8.51857	1	38.189	-12.889	1.06412E-005	-0.53892	10
	20	44	9998.2	37.4013	-9.42757	1	38.5712	-14.1476	1.04958E-005	-0.538928	10
	21	46	8912.76	37.5204	-10.4176	1	38.9397	-15.5175	1.11977E-005	-0.538943	10
	22	48	7942.6	37.7943	-11.5627	1	39.5234	-17.0108	1.04591E-005	-0.538925	10
	23	50	7078.05	37.9907	-12.7743	1	40.0808	-18.5851	9.98422E-006	-0.538925	10
	24	51	6311.1	38.2953	-14.1226	1	40.8164	-20.243	1.00891E-005	-0.538927	10
	25	53	5622.14	38.4807	-15.6521	1	41.5421	-22.1341	1.01464E-005	-0.538935	10
	26	55	5011.18	38.7901	-17.3065	1	42.4757	-24.0445	9.98234E-006	-0.538936	10
	27	57	4465.21	39.1576	-19.1547	1	43.5915	-26.0664	9.99234E-006	-0.538929	10
	28	59	3980.93	39.4594	-21.1899	1	44.789	-28.236	1.08066E-005	-0.53893	10
	29	61	3548.18	39.8645	-23.3668	1	46.208	-30.377	9.51859E-006	-0.538935	10
	30	63	3162.67	40.2337	-25.8645	1	47.8301	-32.7353	1.08725E-005	-0.538929	10
	31	65	2819.01	40.6415	-28.6557	1	49.7281	-35.1871	8.47635E-006	-0.538913	10
	32	67	2511.16	40.9838	-31.8405	1	51.8988	-37.8439	9.70595E-006	-0.538925	10
	33	69	2238.63	41.5126	-35.214	1	54.4364	-40.307	9.75055E-006	-0.538924	10
	34	71	1995.37	42.0489	-38.974	1	57.3331	-42.8267	9.48416E-006	-0.538919	10
	35	73	1778.51	42.5313	-43.276	1	60.6772	-45.4972	9.35941E-006	-0.538915	10
	36	75	1584.49	43.1697	-48.2259	1	64.7253	-48.1665	9.23547E-006	-0.538915	10
	37	77	1412.76	43.7537	-53.4345	1	69.0625	-50.6884	8.0105E-006	-0.53891	10
	38	79	1259.04	44.3616	-59.1626	1	73.947	-53.1365	8.80575E-006	-0.538912	10
	39	81	1121.63	45.2667	-65.803	1	79.8693	-55.4754	9.20494E-006	-0.538911	10
	40	83	999.95	46.0009	-73.2966	1	86.536	-57.8877	9.31864E-006	-0.538921	10
	41	85	891.184	46.8945	-81.3937	1	93.9363	-60.0519	9.30191E-006	-0.538915	10
	42	87	794.163	48.09	-90.5106	1	102.493	-62.0174	9.36839E-006	-0.538924	10
	43	89	707.867	49.3902	-100.851	1	112.296	-63.9074	6.12156E-006	-0.538918	9
	44	91	630.984	50.2548	-111.823	1	122.597	-65.8002	5.07736E-006	-0.538918	9
	45	93	562.189	51.8591	-124.474	1	134.845	-67.3821	5.69417E-006	-0.538924	9
	46	95	501.303	53.3804	-138.516	1	148.446	-68.9247	5.2785E-006	-0.538921	9
	47	97	446.614	55.0646	-154.213	1	163.749	-70.35	5.02539E-006	-0.538932	9
	48	99	398.209	56.9531	-171.612	1	180.816	-71.6405	5.10462E-006	-0.538928	9
	49	101	354.821	59.1223	-191.114	1	200.05	-72.8102	5.34812E-006	-0.538936	9
	50	103	316.113	61.4737	-212.817	1	221.518	-73.8883	5.08981E-006	-0.538935	9
	51	105	281.926	64.1863	-236.841	1	245.385	-74.8365	5.2863E-006	-0.538933	9
	52	107	251.185	67.1408	-263.748	1	272.16	-75.7179	4.73086E-006	-0.538935	9
	53	109	223.946	70.6083	-293.686	1	302.055	-76.4815	5.04447E-006	-0.538934	9
	54	111	199.495	74.5999	-327.227	1	335.623	-77.1574	5.2237E-006	-0.538937	9
	55	113	177.836	78.9776	-364.395	1	372.855	-77.7711	5.38606E-006	-0.538938	9
	56	115	158.533	84.0596	-405.843	1	414.457	-78.2982	5.37017E-006	-0.538934	9
	57	117	141.263	89.6191	-452.093	1	460.89	-78.7875	5.19306E-006	-0.538931	9
	58	119	125.911	96.503	-503.738	1	512.898	-79.155	5.15975E-006	-0.538932	9
	59	121	112.198	103.408	-561.057	1	570.507	-79.557	5.01766E-006	-0.538922	9
	60	123	100.009	112.742	-625.183	1	635.267	-79.7775	5.26098E-006	-0.538931	9
	61	125	89.1164	123.204	-696.68	1	707.49	-79.9713	5.24995E-006	-0.538928	9
	62	127	79.4083	135.16	-776.269	1	787.948	-80.1229	5.27693E-006	-0.538927	9
	63	129	70.788	148.621	-864.554	1	877.235	-80.2459	5.1795E-006	-0.538929	9
	64	131	63.0971	164.054	-962.55	1	976.43	-80.3276	4.91719E-006	-0.538928	9
	65	133	54.5476	188.992	-1104.13	1	1120.19	-80.2869	5.14388E-006	-0.53893	9
	66	135	50.0083	207.66	-1195.81	1	1213.71	-80.1485	4.47177E-006	-0.538935	8
	67	137	46.1675	224.814	-1287.64	1	1307.12	-80.0963	4.50185E-006	-0.538934	8
	68	140	40.0059	264.885	-1471.75	1	1495.4	-79.7972	4.55995E-006	-0.538931	8
	69	142	35.3046	299.037	-1655.79	1	1682.58	-79.7627	3.93906E-006	-0.538931	8
	70	144	31.5793	344.112	-1835.73	1	1867.7	-79.383	4.26626E-006	-0.538934	8
	71	146	28.5748	383.024	-2012.87	1	2048.99	-79.2262	4.14279E-006	-0.538931	8
	72	148	24.9911	454.093	-2274.02	1	2318.91	-78.7073	4.17498E-006	-0.538936	8
	73	150	22.2195	536.097	-2530.41	1	2586.57	-78.0381	4.36947E-006	-0.53893	8
	74	153	20.0011	600.792	-2786.82	1	2850.84	-77.8342	3.7646E-006	-0.538937	8
	75	155	17.6486	708.788	-3133.52	1	3212.69	-77.2545	3.74268E-006	-0.538932	8
	76	157	15.7934	848.501	-3447.4	1	3550.29	-76.1728	3.97306E-006	-0.538935	8
	77	160	14.2828	970.95	-3767.68	1	3890.77	-75.549	3.96343E-006	-0.538934	8
	78	162	12.5002	1168.98	-4222.49	1	4381.32	-74.5254	4.0872E-006	-0.538936	8
	79	164	11.323	1368.95	-4592.32	1	4792.02	-73.4009	4.17973E-006	-0.538926	8
	80	167	9.9987	1648.32	-5107.51	1	5366.9	-72.1138	4.11458E-006	-0.538929	8
