EXPLAIN
TAG	EISPOT
TITLE	LABEL	Tomato_open	Test &Identifier
DATE	LABEL	5/10/2006	Date
TIME	LABEL	17:13:26	Time
NOTES	NOTES	1	&Notes...
	
PSTAT	PSTAT	300	Potentiostat
VDC	POTEN	1.00000E-001	T	DC &Voltage (V)
FREQINIT	QUANT	1.00000E+005	Initial Fre&q. (Hz)
FREQFINAL	QUANT	1.00000E+001	Final Fre&q. (Hz)
PTSPERDEC	QUANT	2.00000E+001	Points/&decade
VAC	QUANT	1.00000E+001	AC &Voltage (mV rms)
AREA	QUANT	1.00000E+000	&Area (cm²)
DENSITY	QUANT	7.87000E+000	&Density (gm/cm³)
EQUIV	QUANT	7.00000E+000	Equiv. &Wt
CONDIT	TWOPARAM	F	1.50000E+001	0.00000E+000	Conditionin&g	Time(s)	E(V)
DELAY	TWOPARAM	F	6.00000E+002	0.00000E+000	Init. De&lay	Time(s)	Stab.(mV/s)
SPEED	SELECTOR	1	&Optimize for:
ZGUESS	QUANT	1.00000E+002	E&stimated Z (ohms)
OCVCURVE	TABLE	39
	Pt	T	Vf	Vm	Ach	Over
	#	s	V vs. Ref.	V	V	bits
	0	0.258332	-6.35443E-001	1.11541E-005	-8.46000E-005	......
	1	0.516663	-6.35593E-001	1.11541E-005	-1.84600E-004	......
	2	0.774994	-6.33244E-001	1.11541E-005	-8.46000E-005	......
	3	1.03333	-6.30843E-001	1.11541E-005	-1.84600E-004	......
	4	1.29166	-6.29893E-001	1.11541E-005	-1.84600E-004	......
	5	1.54999	-6.30643E-001	1.11541E-005	-1.84600E-004	......
	6	1.80832	-6.32043E-001	1.11541E-005	-8.46000E-005	......
	7	2.06665	-6.33244E-001	1.11541E-005	-1.84600E-004	......
	8	2.32498	-6.32743E-001	1.11541E-005	-1.84600E-004	......
	9	2.58332	-6.30643E-001	1.11541E-005	-1.84600E-004	......
	10	2.84165	-6.30843E-001	1.11541E-005	-1.84600E-004	......
	11	3.09998	-6.32343E-001	1.11541E-005	-1.84600E-004	......
	12	3.35831	-6.32843E-001	1.11541E-005	-8.46000E-005	......
	13	3.61664	-6.32944E-001	1.11541E-005	-8.46000E-005	......
	14	3.87497	-6.34694E-001	1.11541E-005	-1.84600E-004	......
	15	4.1333	-6.34493E-001	1.11541E-005	-1.84600E-004	......
	16	4.39164	-6.36243E-001	1.11541E-005	-1.84600E-004	......
	17	4.64997	-6.36593E-001	1.11541E-005	-8.46000E-005	......
	18	4.9083	-6.35243E-001	1.11541E-005	-1.84600E-004	......
	19	5.16663	-6.34694E-001	1.11541E-005	-1.84600E-004	......
	20	5.42496	-6.34793E-001	1.11541E-005	-1.84600E-004	......
	21	5.68329	-6.32894E-001	1.11541E-005	-1.84600E-004	......
	22	5.94162	-6.33244E-001	1.11541E-005	-8.46000E-005	......
	23	6.19996	-6.34443E-001	1.11541E-005	-1.84600E-004	......
	24	6.45829	-6.33693E-001	1.11541E-005	-8.46000E-005	......
	25	6.71662	-6.33644E-001	1.11541E-005	-8.46000E-005	......
	26	6.97495	-6.32544E-001	1.11541E-005	-1.84600E-004	......
	27	7.23328	-6.33743E-001	1.11541E-005	-2.84600E-004	......
	28	7.49161	-6.35343E-001	1.11541E-005	-1.84600E-004	......
	29	7.74995	-6.35593E-001	1.11541E-005	-1.84600E-004	......
	30	8.00828	-6.34893E-001	1.11541E-005	1.54000E-005	......
	31	8.26661	-6.35044E-001	1.11541E-005	-1.84600E-004	......
	32	8.52494	-6.36193E-001	1.11541E-005	-1.84600E-004	......
	33	8.78327	-6.36594E-001	1.11541E-005	-1.84600E-004	......
	34	9.0416	-6.37793E-001	1.11541E-005	-1.84600E-004	......
	35	9.29993	-6.38344E-001	1.11541E-005	-1.84600E-004	......
	36	9.5583	-6.37543E-001	1.11541E-005	-8.46000E-005	......
	37	9.8166	-6.35044E-001	1.11541E-005	-1.84600E-004	......
	38	10.0749	-6.36293E-001	1.11541E-005	-1.84600E-004	......
EOC	QUANT	-0.636293	Open Circuit (V)
PSTATMODEL	IQUANT	32	Pstat Model
PSTATSECTION	LABEL	PStat0	Pstat Section
CTRLMODE	IQUANT	1	Control Mode
IESTAB	IQUANT	0	I/E Stability
CASPEED	IQUANT	1	Control Amp Speed
CONVENTION	IQUANT	1	Current Convention
ICHRANGE	IQUANT	2	Ich Range
ICHRANGEMODE	TOGGLE	F	Ich Auto Range
ICHOFFSETENABLE	TOGGLE	T	Ich Offset Enable
ICHOFFSET	QUANT	0	Ich Offset (V)
ICHFILTER	IQUANT	3	Ich Filter
VCHRANGE	IQUANT	2	Vch Range
VCHRANGEMODE	TOGGLE	F	Vch Auto Range
VCHOFFSETENABLE	TOGGLE	T	Vch Offset Enable
VCHOFFSET	QUANT	0	Vch Offset (V)
VCHFILTER	IQUANT	3	Vch Filter
ACHRANGE	IQUANT	0	Ach Range
IERANGELOWERLIMIT	IQUANT	3	I/E Range Lower Limit
IERANGEMODE	TOGGLE	F	I/E AutoRange
IERANGE	IQUANT	11	I/E Range
POSFEEDENABLE	TOGGLE	F	Positive Feedback IR Comp
POSFEEDRESISTANCE	QUANT	0	Positive Feedback Resistance (ohm)
FC350IDIVISOR	IQUANT	0	FC350 I Divisor
FC350VRANGE	IQUANT	0	FC350 V Range
FRAMEWORKVERSION	QUANT	4.35	Framework Version
ZCURVE	TABLE
	Pt	Time	Freq	Zreal	Zimag	Zsig	Zmod	Zphz	Idc	Vdc	IERange
	#	s	Hz	ohm	ohm	V	ohm	°	A	V	#
	0	5	100007	36.2989	-0.573085	1	36.3034	-0.904507	1.28462E-005	-0.536134	10
	1	7	89134.1	36.1882	-0.832219	1	36.1978	-1.3174	1.29612E-005	-0.536125	10
	2	8	79433.6	36.0717	-1.06529	1	36.0875	-1.6916	1.45562E-005	-0.536132	10
	3	10	70800.8	36.0469	-1.26648	1	36.0692	-2.01222	1.38583E-005	-0.536115	10
	4	12	63105.5	35.9977	-1.50128	1	36.029	-2.38814	1.34022E-005	-0.536126	10
	5	14	56243.5	36.0714	-1.72619	1	36.1127	-2.73979	1.38706E-005	-0.536149	10
	6	16	50123.7	35.9988	-1.9619	1	36.0522	-3.11948	1.26414E-005	-0.536127	10
	7	18	44681	36.0464	-2.29108	1	36.1191	-3.63678	1.37792E-005	-0.536148	10
	8	20	39811.2	36.0497	-2.57067	1	36.1412	-4.07881	1.24812E-005	-0.536132	10
	9	22	35488.3	36.074	-2.88345	1	36.189	-4.57003	1.42745E-005	-0.536142	10
	10	24	31634.1	36.1595	-3.27252	1	36.3073	-5.17131	1.28448E-005	-0.536152	10
	11	26	28173.1	36.1895	-3.62624	1	36.3708	-5.72202	1.2832E-005	-0.536132	10
	12	28	25123.7	36.3093	-4.07221	1	36.537	-6.39916	1.32139E-005	-0.53614	10
	13	30	22389.3	36.3992	-4.56349	1	36.6842	-7.14608	1.04406E-005	-0.536134	10
	14	32	19954.4	36.4978	-5.05322	1	36.8459	-7.88265	1.31145E-005	-0.536133	10
	15	34	17778.2	36.5393	-5.56192	1	36.9602	-8.65497	1.21087E-005	-0.536111	10
	16	36	15852.9	36.7385	-6.1844	1	37.2554	-9.5553	1.27762E-005	-0.536119	10
	17	38	14122.3	36.8383	-6.9293	1	37.4844	-10.6529	1.1517E-005	-0.536101	10
	18	40	12587.2	36.962	-7.67188	1	37.7498	-11.7259	1.12734E-005	-0.536116	10
	19	42	11221.1	37.1305	-8.45512	1	38.0811	-12.8283	1.04787E-005	-0.53611	10
	20	44	9998.2	37.3245	-9.38341	1	38.486	-14.1117	1.09494E-005	-0.536108	10
	21	46	8912.76	37.5685	-10.3548	1	38.9694	-15.4096	1.08495E-005	-0.53613	10
	22	48	7942.6	37.7741	-11.4141	1	39.4609	-16.8132	1.12016E-005	-0.536117	10
	23	50	7078.05	37.9537	-12.5561	1	39.9768	-18.3056	1.07589E-005	-0.536119	10
	24	52	6311.1	38.2218	-13.9173	1	40.6767	-20.0075	1.10964E-005	-0.536134	10
	25	54	5622.14	38.4644	-15.4637	1	41.4565	-21.9014	1.02758E-005	-0.536123	10
	26	56	5011.18	38.8522	-17.1364	1	42.4635	-23.8006	1.04634E-005	-0.536121	10
	27	58	4465.21	39.115	-18.9122	1	43.4472	-25.8039	9.92656E-006	-0.536117	10
	28	60	3980.93	39.4633	-20.8556	1	44.6353	-27.8556	8.32859E-006	-0.536108	10
	29	62	3548.18	39.7861	-23.1024	1	46.0071	-30.1423	9.82625E-006	-0.536139	10
	30	64	3162.67	40.1905	-25.5154	1	47.6058	-32.4099	8.52515E-006	-0.536129	10
	31	66	2819.01	40.5724	-28.2236	1	49.4236	-34.8239	1.10394E-005	-0.536137	10
	32	68	2511.16	41.0263	-31.3357	1	51.6244	-37.3724	9.46517E-006	-0.536123	10
	33	70	2238.63	41.4506	-34.78	1	54.1092	-39.999	9.16621E-006	-0.536121	10
	34	72	1995.37	41.8629	-38.5421	1	56.9034	-42.635	9.10896E-006	-0.536121	10
	35	74	1778.51	42.4324	-42.7265	1	60.2168	-45.1978	9.53206E-006	-0.536113	10
	36	76	1584.49	43.1311	-47.4389	1	64.1151	-47.7231	9.72675E-006	-0.536122	10
	37	78	1412.76	43.6002	-52.4824	1	68.2303	-50.2816	9.49758E-006	-0.536135	10
	38	80	1259.04	44.4392	-58.5346	1	73.4925	-52.7944	9.83789E-006	-0.536124	10
	39	82	1121.63	45.0131	-64.7782	1	78.8821	-55.2053	9.84227E-006	-0.536112	10
	40	84	999.95	46.049	-72.1111	1	85.5601	-57.4384	9.40141E-006	-0.536116	10
	41	86	891.184	47.0579	-80.0911	1	92.8926	-59.5634	9.84771E-006	-0.536127	10
	42	88	794.163	48.0156	-89.0541	1	101.174	-61.6676	1.00676E-005	-0.536116	10
	43	89	707.867	49.4862	-99.204	1	110.861	-63.4884	6.10936E-006	-0.536129	9
	44	91	630.984	49.9949	-110.196	1	121.007	-65.5966	6.09117E-006	-0.53612	9
	45	93	562.189	51.7327	-122.656	1	133.12	-67.1314	5.9842E-006	-0.536105	9
	46	95	501.303	53.159	-136.588	1	146.568	-68.7344	5.74441E-006	-0.536119	9
	47	97	446.614	54.8163	-152.116	1	161.691	-70.1829	5.76594E-006	-0.53613	9
	48	99	398.209	56.6798	-169.256	1	178.494	-71.4855	5.84753E-006	-0.536126	9
	49	101	354.821	58.7693	-188.498	1	197.447	-72.6838	5.72914E-006	-0.536127	9
	50	103	316.113	61.1824	-210	1	218.731	-73.7568	5.78363E-006	-0.536127	9
	51	105	281.926	63.7704	-233.701	1	242.245	-74.7371	5.49547E-006	-0.53613	9
	52	107	251.185	66.8208	-260.373	1	268.811	-75.6066	5.55508E-006	-0.536125	9
	53	109	223.946	70.2516	-289.915	1	298.305	-76.3788	5.48588E-006	-0.536119	9
	54	111	199.495	74.3222	-323.229	1	331.663	-77.0507	5.76017E-006	-0.536126	9
	55	113	177.836	78.828	-359.941	1	368.472	-77.6471	5.73705E-006	-0.536124	9
	56	115	158.533	83.9283	-400.87	1	409.561	-78.175	5.62417E-006	-0.536127	9
	57	117	141.263	89.7464	-446.681	1	455.608	-78.6395	5.61022E-006	-0.536131	9
	58	119	125.911	96.232	-497.649	1	506.868	-79.0556	5.52617E-006	-0.536127	9
	59	121	112.198	104.128	-554.583	1	564.274	-79.366	5.48385E-006	-0.536131	9
	60	124	100.009	113.102	-618.003	1	628.267	-79.6289	5.44997E-006	-0.53613	9
	61	126	89.1164	123.057	-688.487	1	699.398	-79.8662	5.34835E-006	-0.53613	9
	62	128	79.4083	135.227	-767.194	1	779.021	-80.0036	5.21867E-006	-0.536126	9
	63	130	70.788	150.706	-854.689	1	867.874	-79.9999	5.50617E-006	-0.53612	9
	64	132	63.0971	169.567	-951.4	1	966.39	-79.8944	5.63704E-006	-0.536121	9
	65	134	54.5476	196.676	-1090.35	1	1107.95	-79.775	5.73968E-006	-0.536126	9
	66	136	50.0083	211.943	-1181.19	1	1200.06	-79.8276	4.58575E-006	-0.536131	8
	67	138	46.1675	233.08	-1272.79	1	1293.96	-79.6227	4.67901E-006	-0.536135	8
	68	140	40.0059	271.879	-1454.6	1	1479.79	-79.413	4.66701E-006	-0.536126	8
	69	142	35.3046	316.395	-1629.92	1	1660.34	-79.0145	4.86809E-006	-0.536131	8
	70	145	31.5793	366.51	-1807.74	1	1844.52	-78.5389	5.09269E-006	-0.536127	8
	71	147	28.5748	416.687	-1978.73	1	2022.12	-78.1082	4.83395E-006	-0.536137	8
	72	149	24.9911	488.714	-2238.57	1	2291.29	-77.6847	4.73879E-006	-0.536129	8
	73	151	22.2195	574.863	-2492.27	1	2557.71	-77.0114	4.38542E-006	-0.536129	8
	74	153	20.0011	649.405	-2740.02	1	2815.93	-76.6665	4.31212E-006	-0.536131	8
	75	156	17.6486	776.444	-3057.82	1	3154.86	-75.7525	4.45691E-006	-0.536124	8
	76	158	15.7934	913.23	-3369.62	1	3491.18	-74.8361	4.57345E-006	-0.536126	8
	77	160	14.2828	1054.08	-3678.9	1	3826.93	-74.012	4.54476E-006	-0.536121	8
	78	162	12.5002	1257.37	-4101.94	1	4290.33	-72.9581	4.63203E-006	-0.536129	8
	79	165	11.323	1527.79	-4426.37	1	4682.61	-70.9576	4.753E-006	-0.53614	8
	80	168	9.9987	1825.84	-4928.31	1	5255.66	-69.6713	4.79154E-006	-0.536139	8
