EXPLAIN
TAG	EISPOT
TITLE	LABEL	Tomato_open	Test &Identifier
DATE	LABEL	5/10/2006	Date
TIME	LABEL	17:00:21	Time
NOTES	NOTES	1	&Notes...
	
PSTAT	PSTAT	300	Potentiostat
VDC	POTEN	1.00000E-001	T	DC &Voltage (V)
FREQINIT	QUANT	1.00000E+005	Initial Fre&q. (Hz)
FREQFINAL	QUANT	1.00000E+001	Final Fre&q. (Hz)
PTSPERDEC	QUANT	2.00000E+001	Points/&decade
VAC	QUANT	1.00000E+001	AC &Voltage (mV rms)
AREA	QUANT	1.00000E+000	&Area (cm²)
DENSITY	QUANT	7.87000E+000	&Density (gm/cm³)
EQUIV	QUANT	7.00000E+000	Equiv. &Wt
CONDIT	TWOPARAM	F	1.50000E+001	0.00000E+000	Conditionin&g	Time(s)	E(V)
DELAY	TWOPARAM	F	6.00000E+002	0.00000E+000	Init. De&lay	Time(s)	Stab.(mV/s)
SPEED	SELECTOR	1	&Optimize for:
ZGUESS	QUANT	1.00000E+002	E&stimated Z (ohms)
OCVCURVE	TABLE	39
	Pt	T	Vf	Vm	Ach	Over
	#	s	V vs. Ref.	V	V	bits
	0	0.258332	-6.23493E-001	7.57454E-006	2.15400E-004	......
	1	0.516663	-6.20643E-001	7.57454E-006	1.15400E-004	......
	2	0.774994	-6.24943E-001	7.57454E-006	3.15400E-004	......
	3	1.03333	-6.23643E-001	7.57454E-006	2.15400E-004	......
	4	1.29166	-6.24393E-001	7.57454E-006	3.15400E-004	......
	5	1.54999	-6.26643E-001	7.57454E-006	3.15400E-004	......
	6	1.80832	-6.25993E-001	7.57454E-006	4.15400E-004	......
	7	2.06665	-6.27993E-001	7.57454E-006	2.15400E-004	......
	8	2.32498	-6.27643E-001	7.57454E-006	3.15400E-004	......
	9	2.58332	-6.32693E-001	7.57454E-006	2.15400E-004	......
	10	2.84165	-6.30643E-001	7.57454E-006	3.15400E-004	......
	11	3.09998	-6.30744E-001	7.57454E-006	2.15400E-004	......
	12	3.35831	-6.30643E-001	7.57454E-006	2.15400E-004	......
	13	3.61664	-6.29443E-001	7.57454E-006	2.15400E-004	......
	14	3.87497	-6.30093E-001	7.57454E-006	3.15400E-004	......
	15	4.1333	-6.31043E-001	7.57454E-006	2.15400E-004	......
	16	4.39164	-6.30993E-001	7.57454E-006	3.15400E-004	......
	17	4.64997	-6.33893E-001	7.57454E-006	2.15400E-004	......
	18	4.9083	-6.32894E-001	7.57454E-006	2.15400E-004	......
	19	5.16663	-6.34943E-001	7.57454E-006	2.15400E-004	......
	20	5.42496	-6.33893E-001	7.57454E-006	3.15400E-004	......
	21	5.68329	-6.34793E-001	7.57454E-006	2.15400E-004	......
	22	5.94162	-6.25293E-001	7.57454E-006	2.15400E-004	......
	23	6.19996	-6.18243E-001	7.57454E-006	2.15400E-004	......
	24	6.45829	-6.19143E-001	7.57454E-006	2.15400E-004	......
	25	6.71662	-6.20043E-001	7.57454E-006	2.15400E-004	......
	26	6.97495	-6.14393E-001	7.57454E-006	3.15400E-004	......
	27	7.23328	-6.18043E-001	7.57454E-006	2.15400E-004	......
	28	7.49161	-6.12844E-001	7.57454E-006	2.15400E-004	......
	29	7.74995	-6.17943E-001	7.57454E-006	2.15400E-004	......
	30	8.00828	-6.15344E-001	7.57454E-006	2.15400E-004	......
	31	8.26661	-6.16793E-001	7.57454E-006	2.15400E-004	......
	32	8.52494	-6.19443E-001	7.57454E-006	2.15400E-004	......
	33	8.78327	-6.18043E-001	7.57454E-006	2.15400E-004	......
	34	9.0416	-6.21193E-001	7.57454E-006	2.15400E-004	......
	35	9.29993	-6.18793E-001	7.57454E-006	3.15400E-004	......
	36	9.5583	-6.20993E-001	7.57454E-006	2.15400E-004	......
	37	9.8166	-6.23143E-001	7.57454E-006	2.15400E-004	......
	38	10.0749	-6.26593E-001	7.57454E-006	3.15400E-004	......
EOC	QUANT	-0.626593	Open Circuit (V)
PSTATMODEL	IQUANT	32	Pstat Model
PSTATSECTION	LABEL	PStat0	Pstat Section
CTRLMODE	IQUANT	1	Control Mode
IESTAB	IQUANT	0	I/E Stability
CASPEED	IQUANT	1	Control Amp Speed
CONVENTION	IQUANT	1	Current Convention
ICHRANGE	IQUANT	2	Ich Range
ICHRANGEMODE	TOGGLE	F	Ich Auto Range
ICHOFFSETENABLE	TOGGLE	T	Ich Offset Enable
ICHOFFSET	QUANT	0	Ich Offset (V)
ICHFILTER	IQUANT	3	Ich Filter
VCHRANGE	IQUANT	2	Vch Range
VCHRANGEMODE	TOGGLE	F	Vch Auto Range
VCHOFFSETENABLE	TOGGLE	T	Vch Offset Enable
VCHOFFSET	QUANT	0	Vch Offset (V)
VCHFILTER	IQUANT	3	Vch Filter
ACHRANGE	IQUANT	0	Ach Range
IERANGELOWERLIMIT	IQUANT	3	I/E Range Lower Limit
IERANGEMODE	TOGGLE	F	I/E AutoRange
IERANGE	IQUANT	11	I/E Range
POSFEEDENABLE	TOGGLE	F	Positive Feedback IR Comp
POSFEEDRESISTANCE	QUANT	0	Positive Feedback Resistance (ohm)
FC350IDIVISOR	IQUANT	0	FC350 I Divisor
FC350VRANGE	IQUANT	0	FC350 V Range
FRAMEWORKVERSION	QUANT	4.35	Framework Version
ZCURVE	TABLE
	Pt	Time	Freq	Zreal	Zimag	Zsig	Zmod	Zphz	Idc	Vdc	IERange
	#	s	Hz	ohm	ohm	V	ohm	°	A	V	#
	0	4	100007	34.9386	-0.937679	1	34.9512	-1.53733	1.03302E-005	-0.526488	10
	1	6	89134.1	34.7962	-1.20994	1	34.8172	-1.9915	1.10345E-005	-0.52651	10
	2	8	79433.6	34.7825	-1.44077	1	34.8123	-2.37197	1.19775E-005	-0.526533	10
	3	10	70800.8	34.6969	-1.70223	1	34.7387	-2.80868	1.27984E-005	-0.526534	10
	4	12	63105.5	34.6686	-2.00333	1	34.7265	-3.30716	1.15194E-005	-0.526517	10
	5	14	56243.5	34.6776	-2.24516	1	34.7502	-3.70438	1.07495E-005	-0.5265	10
	6	16	50123.7	34.6602	-2.64145	1	34.7607	-4.35807	1.13109E-005	-0.5265	10
	7	18	44681	34.7111	-2.96022	1	34.8371	-4.87448	1.08267E-005	-0.526525	10
	8	20	39811.2	34.7038	-3.32418	1	34.8626	-5.47151	1.14923E-005	-0.526502	10
	9	22	35488.3	34.8028	-3.68826	1	34.9977	-6.04939	9.7514E-006	-0.526516	10
	10	24	31634.1	34.8786	-4.16153	1	35.126	-6.80407	1.04298E-005	-0.526507	10
	11	26	28173.1	34.9536	-4.64859	1	35.2614	-7.57549	1.15244E-005	-0.5265	10
	12	28	25123.7	35.0386	-5.19904	1	35.4222	-8.43998	1.12158E-005	-0.526497	10
	13	30	22389.3	35.1566	-5.84045	1	35.6384	-9.43222	1.22483E-005	-0.526508	10
	14	32	19954.4	35.2706	-6.44444	1	35.8545	-10.3545	1.22562E-005	-0.52652	10
	15	34	17778.2	35.409	-7.1927	1	36.1321	-11.4824	1.2362E-005	-0.526513	10
	16	36	15852.9	35.5499	-7.95102	1	36.4282	-12.6072	1.10628E-005	-0.526509	10
	17	38	14122.3	35.6934	-8.86365	1	36.7775	-13.946	1.22075E-005	-0.526521	10
	18	40	12587.2	35.8613	-9.7567	1	37.1648	-15.2199	1.30036E-005	-0.526516	10
	19	42	11221.1	36.0394	-10.8453	1	37.6359	-16.7481	1.19058E-005	-0.526516	10
	20	44	9998.2	36.2652	-11.9296	1	38.177	-18.2089	1.18286E-005	-0.526505	10
	21	46	8912.76	36.4494	-13.3478	1	38.8165	-20.1128	1.10539E-005	-0.526483	10
	22	48	7942.6	36.6667	-14.7278	1	39.514	-21.8837	1.1943E-005	-0.526502	10
	23	50	7078.05	36.931	-16.2622	1	40.3529	-23.7658	1.136E-005	-0.526492	10
	24	52	6311.1	37.2184	-18.0256	1	41.3537	-25.8418	1.03666E-005	-0.526501	10
	25	53	5622.14	37.4969	-19.9751	1	42.4856	-28.0448	9.73437E-006	-0.5265	10
	26	55	5011.18	37.8614	-22.1074	1	43.8432	-30.2808	1.02795E-005	-0.526495	10
	27	57	4465.21	38.148	-24.5467	1	45.363	-32.7596	9.90937E-006	-0.526499	10
	28	59	3980.93	38.5681	-27.2097	1	47.2003	-35.2028	1.0057E-005	-0.526522	10
	29	61	3548.18	38.894	-30.2669	1	49.2831	-37.8897	8.50153E-006	-0.526489	10
	30	63	3162.67	39.3907	-33.5723	1	51.7564	-40.4406	9.25035E-006	-0.526513	10
	31	65	2819.01	39.7695	-37.2031	1	54.4581	-43.0904	1.03643E-005	-0.526497	10
	32	67	2511.16	40.3572	-41.3071	1	57.7493	-45.6665	1.00689E-005	-0.526489	10
	33	69	2238.63	40.8458	-45.8952	1	61.439	-48.3316	1.03801E-005	-0.526503	10
	34	71	1995.37	41.4056	-50.9578	1	65.6591	-50.9045	9.4137E-006	-0.526496	10
	35	73	1778.51	42.0687	-56.7144	1	70.6137	-53.4333	1.00401E-005	-0.5265	10
	36	75	1584.49	42.7816	-62.9453	1	76.1076	-55.7975	9.65858E-006	-0.526489	10
	37	77	1412.76	43.7394	-70.1455	1	82.6652	-58.0543	1.1138E-005	-0.526509	10
	38	79	1259.04	44.4983	-77.9951	1	89.796	-60.2941	1.01818E-005	-0.526511	10
	39	81	1121.63	45.8292	-86.9883	1	98.322	-62.2178	1.00535E-005	-0.526503	10
	40	83	999.95	46.9057	-96.351	1	107.162	-64.0421	9.44028E-006	-0.526495	10
	41	85	891.184	48.2789	-107.253	1	117.619	-65.7656	5.61144E-006	-0.526501	9
	42	87	794.163	50.1551	-119.526	1	129.622	-67.2362	6.24706E-006	-0.526492	9
	43	89	707.867	51.4123	-133.027	1	142.616	-68.8694	5.92025E-006	-0.526499	9
	44	91	630.984	53.2751	-148.066	1	157.359	-70.2109	5.48247E-006	-0.526496	9
	45	93	562.189	54.8305	-165.114	1	173.98	-71.6299	4.39608E-006	-0.526497	9
	46	95	501.303	57.6553	-182.916	1	191.787	-72.5051	5.55197E-006	-0.526504	9
	47	97	446.614	60.3275	-203.604	1	212.353	-73.4955	6.20903E-006	-0.526503	9
	48	99	398.209	63.2829	-226.314	1	234.995	-74.3777	5.25883E-006	-0.526503	9
	49	101	354.821	66.675	-251.824	1	260.501	-75.1702	5.22813E-006	-0.526506	9
	50	103	316.113	70.4521	-280.217	1	288.938	-75.8872	5.3252E-006	-0.526505	9
	51	105	281.926	74.6943	-311.434	1	320.266	-76.5129	5.22759E-006	-0.526507	9
	52	107	251.185	79.5723	-346.498	1	355.518	-77.0664	5.74905E-006	-0.526508	9
	53	109	223.946	84.8589	-385.266	1	394.501	-77.5783	5.80262E-006	-0.526501	9
	54	111	199.495	91.2635	-428.661	1	438.269	-77.981	6.26831E-006	-0.526506	9
	55	113	177.836	98.114	-476.679	1	486.671	-78.3694	6.20678E-006	-0.526513	9
	56	115	158.533	105.818	-529.677	1	540.144	-78.7023	6.02045E-006	-0.526513	9
	57	117	141.263	115.079	-589.548	1	600.675	-78.9548	6.08109E-006	-0.526503	9
	58	119	125.911	125.572	-655.885	1	667.798	-79.1616	6.23017E-006	-0.526507	9
	59	121	112.198	134.47	-728.625	1	740.929	-79.5436	5.04263E-006	-0.526511	9
	60	123	100.009	149.12	-810.082	1	823.692	-79.5698	5.61586E-006	-0.526516	9
	61	125	89.1164	164.547	-900.798	1	915.704	-79.648	5.37923E-006	-0.526519	9
	62	127	79.4083	179.771	-1002.9	1	1018.88	-79.8376	5.18614E-006	-0.526521	9
	63	130	70.788	202.769	-1114.38	1	1132.68	-79.6875	4.95186E-006	-0.526528	8
	64	132	63.0971	223.389	-1238.19	1	1258.18	-79.773	4.69695E-006	-0.526527	8
	65	134	54.5476	264.061	-1417.5	1	1441.89	-79.4476	5.39273E-006	-0.52653	8
	66	136	50.0083	300.088	-1535.3	1	1564.35	-78.9405	5.85685E-006	-0.526531	8
	67	138	46.1675	329.154	-1646.97	1	1679.54	-78.6981	6.02983E-006	-0.526533	8
	68	140	40.0059	413.817	-1879.14	1	1924.17	-77.5808	6.5615E-006	-0.526531	8
	69	142	35.3046	476.715	-2105.03	1	2158.34	-77.2398	6.04919E-006	-0.526537	8
	70	145	31.5793	548.622	-2321.19	1	2385.15	-76.702	6.1978E-006	-0.52653	8
	71	147	28.5748	639.091	-2536.68	1	2615.94	-75.8592	6.47979E-006	-0.526529	8
	72	149	24.9911	774.769	-2844.58	1	2948.2	-74.7641	6.36776E-006	-0.526529	8
	73	151	22.2195	918.624	-3156.94	1	3287.87	-73.7757	6.6755E-006	-0.526525	8
	74	153	20.0011	992.36	-3458.69	1	3598.23	-73.9909	5.66719E-006	-0.526526	8
	75	157	17.6486	1226.03	-3896.3	1	4084.64	-72.5331	5.83632E-006	-0.526528	8
	76	159	15.7934	1503.15	-4189.15	1	4450.66	-70.261	5.67241E-006	-0.526527	8
	77	161	14.2828	1751.6	-4497.52	1	4826.57	-68.721	5.9556E-006	-0.526527	8
	78	164	12.5002	1917.91	-5128.24	1	5475.15	-69.4948	5.15225E-006	-0.526528	8
	79	167	11.323	2252.48	-5445.61	1	5893.07	-67.5284	5.53205E-006	-0.526525	8
	80	170	9.9987	2747.05	-6048.46	1	6643.05	-65.5737	5.22719E-006	-0.526525	8
