EXPLAIN
TAG	EISPOT
TITLE	LABEL	Tomato_open	Test &Identifier
DATE	LABEL	5/10/2006	Date
TIME	LABEL	16:45:30	Time
NOTES	NOTES	1	&Notes...
	
PSTAT	PSTAT	300	Potentiostat
VDC	POTEN	1.00000E-001	T	DC &Voltage (V)
FREQINIT	QUANT	1.00000E+005	Initial Fre&q. (Hz)
FREQFINAL	QUANT	1.00000E+001	Final Fre&q. (Hz)
PTSPERDEC	QUANT	2.00000E+001	Points/&decade
VAC	QUANT	1.00000E+001	AC &Voltage (mV rms)
AREA	QUANT	1.00000E+000	&Area (cm²)
DENSITY	QUANT	7.87000E+000	&Density (gm/cm³)
EQUIV	QUANT	7.00000E+000	Equiv. &Wt
CONDIT	TWOPARAM	F	1.50000E+001	0.00000E+000	Conditionin&g	Time(s)	E(V)
DELAY	TWOPARAM	F	6.00000E+002	0.00000E+000	Init. De&lay	Time(s)	Stab.(mV/s)
SPEED	SELECTOR	1	&Optimize for:
ZGUESS	QUANT	1.00000E+002	E&stimated Z (ohms)
OCVCURVE	TABLE	39
	Pt	T	Vf	Vm	Ach	Over
	#	s	V vs. Ref.	V	V	bits
	0	0.258332	-6.33843E-001	9.22807E-006	2.15400E-004	......
	1	0.516663	-6.32443E-001	9.22807E-006	3.15400E-004	......
	2	0.774994	-6.39493E-001	9.22807E-006	2.15400E-004	......
	3	1.03333	-6.37643E-001	9.22807E-006	3.15400E-004	......
	4	1.29166	-6.38743E-001	9.22807E-006	2.15400E-004	......
	5	1.54999	-6.37093E-001	9.22807E-006	2.15400E-004	......
	6	1.80832	-6.33593E-001	9.22807E-006	2.15400E-004	......
	7	2.06665	-6.32544E-001	9.22807E-006	2.15400E-004	......
	8	2.32498	-6.33893E-001	9.22807E-006	2.15400E-004	......
	9	2.58332	-6.31743E-001	9.22807E-006	2.15400E-004	......
	10	2.84165	-6.38843E-001	9.22807E-006	2.15400E-004	......
	11	3.09998	-6.39393E-001	9.22807E-006	3.15400E-004	......
	12	3.35831	-6.37693E-001	9.22807E-006	1.15400E-004	......
	13	3.61664	-6.37843E-001	9.22807E-006	3.15400E-004	......
	14	3.87497	-6.34843E-001	9.22807E-006	3.15400E-004	......
	15	4.1333	-6.36343E-001	9.22807E-006	3.15400E-004	......
	16	4.39164	-6.38143E-001	9.22807E-006	2.15400E-004	......
	17	4.64997	-6.36743E-001	9.22807E-006	3.15400E-004	......
	18	4.9083	-6.39793E-001	9.22807E-006	1.15400E-004	......
	19	5.16663	-6.40794E-001	9.22807E-006	3.15400E-004	......
	20	5.42496	-6.38994E-001	9.22807E-006	2.15400E-004	......
	21	5.68329	-6.39044E-001	9.22807E-006	2.15400E-004	......
	22	5.94162	-6.41544E-001	9.22807E-006	3.15400E-004	......
	23	6.19996	-6.40643E-001	9.22807E-006	2.15400E-004	......
	24	6.45829	-6.39993E-001	9.22807E-006	2.15400E-004	......
	25	6.71662	-6.35493E-001	9.22807E-006	3.15400E-004	......
	26	6.97495	-6.27843E-001	9.22807E-006	2.15400E-004	......
	27	7.23328	-6.33893E-001	9.22807E-006	3.15400E-004	......
	28	7.49161	-6.30643E-001	9.22807E-006	2.15400E-004	......
	29	7.74995	-6.32894E-001	9.22807E-006	3.15400E-004	......
	30	8.00828	-6.32944E-001	9.22807E-006	2.15400E-004	......
	31	8.26661	-6.31993E-001	9.22807E-006	2.15400E-004	......
	32	8.52494	-6.34193E-001	9.22807E-006	2.15400E-004	......
	33	8.78327	-6.30243E-001	9.22807E-006	2.15400E-004	......
	34	9.0416	-6.31343E-001	9.22807E-006	4.15400E-004	......
	35	9.29993	-6.33043E-001	9.22807E-006	2.15400E-004	......
	36	9.5583	-6.27593E-001	9.22807E-006	2.15400E-004	......
	37	9.8166	-6.30693E-001	9.22807E-006	2.15400E-004	......
	38	10.0749	-6.33793E-001	9.22807E-006	2.15400E-004	......
EOC	QUANT	-0.633793	Open Circuit (V)
PSTATMODEL	IQUANT	32	Pstat Model
PSTATSECTION	LABEL	PStat0	Pstat Section
CTRLMODE	IQUANT	1	Control Mode
IESTAB	IQUANT	0	I/E Stability
CASPEED	IQUANT	1	Control Amp Speed
CONVENTION	IQUANT	1	Current Convention
ICHRANGE	IQUANT	2	Ich Range
ICHRANGEMODE	TOGGLE	F	Ich Auto Range
ICHOFFSETENABLE	TOGGLE	T	Ich Offset Enable
ICHOFFSET	QUANT	0	Ich Offset (V)
ICHFILTER	IQUANT	3	Ich Filter
VCHRANGE	IQUANT	2	Vch Range
VCHRANGEMODE	TOGGLE	F	Vch Auto Range
VCHOFFSETENABLE	TOGGLE	T	Vch Offset Enable
VCHOFFSET	QUANT	0	Vch Offset (V)
VCHFILTER	IQUANT	3	Vch Filter
ACHRANGE	IQUANT	0	Ach Range
IERANGELOWERLIMIT	IQUANT	3	I/E Range Lower Limit
IERANGEMODE	TOGGLE	F	I/E AutoRange
IERANGE	IQUANT	11	I/E Range
POSFEEDENABLE	TOGGLE	F	Positive Feedback IR Comp
POSFEEDRESISTANCE	QUANT	0	Positive Feedback Resistance (ohm)
FC350IDIVISOR	IQUANT	0	FC350 I Divisor
FC350VRANGE	IQUANT	0	FC350 V Range
FRAMEWORKVERSION	QUANT	4.35	Framework Version
ZCURVE	TABLE
	Pt	Time	Freq	Zreal	Zimag	Zsig	Zmod	Zphz	Idc	Vdc	IERange
	#	s	Hz	ohm	ohm	V	ohm	°	A	V	#
	0	5	100007	35.0259	-0.98908	1	35.0399	-1.61752	1.62622E-005	-0.533599	10
	1	7	89134.1	34.8574	-1.16486	1	34.8769	-1.91399	1.38075E-005	-0.533604	10
	2	9	79433.6	34.8366	-1.41012	1	34.8651	-2.31796	1.61598E-005	-0.533629	10
	3	11	70800.8	34.8058	-1.69112	1	34.8469	-2.78166	1.3647E-005	-0.533646	10
	4	13	63105.5	34.8022	-1.93801	1	34.8561	-3.1873	1.275E-005	-0.533611	10
	5	15	56243.5	34.8117	-2.24318	1	34.8839	-3.6869	1.19602E-005	-0.533617	10
	6	17	50123.7	34.7811	-2.57433	1	34.8763	-4.23304	1.1963E-005	-0.533622	10
	7	19	44681	34.8758	-2.9472	1	35.0001	-4.83034	1.401E-005	-0.533632	10
	8	21	39811.2	34.8809	-3.28539	1	35.0352	-5.38075	1.1285E-005	-0.533604	10
	9	23	35488.3	34.9064	-3.70457	1	35.1024	-6.05804	1.05997E-005	-0.533618	10
	10	25	31634.1	34.9767	-4.1472	1	35.2217	-6.76201	1.00714E-005	-0.533613	10
	11	27	28173.1	35.0667	-4.64173	1	35.3726	-7.54033	1.16153E-005	-0.533623	10
	12	29	25123.7	35.1457	-5.16627	1	35.5234	-8.36234	1.12948E-005	-0.533626	10
	13	31	22389.3	35.2408	-5.6874	1	35.6967	-9.16775	1.10406E-005	-0.533611	10
	14	33	19954.4	35.3659	-6.38923	1	35.9384	-10.2406	1.12452E-005	-0.533607	10
	15	35	17778.2	35.5129	-7.09665	1	36.215	-11.3007	1.17002E-005	-0.533619	10
	16	37	15852.9	35.6665	-7.80862	1	36.5113	-12.3492	1.33675E-005	-0.533641	10
	17	39	14122.3	35.8163	-8.73182	1	36.8653	-13.7011	1.12367E-005	-0.533627	10
	18	41	12587.2	35.9819	-9.6314	1	37.2487	-14.9852	1.10555E-005	-0.533628	10
	19	43	11221.1	36.2107	-10.6972	1	37.7578	-16.458	1.10745E-005	-0.533646	10
	20	45	9998.2	36.4042	-11.8692	1	38.2902	-18.058	1.09095E-005	-0.533622	10
	21	47	8912.76	36.59	-13.1229	1	38.8721	-19.7302	1.02094E-005	-0.53362	10
	22	48	7942.6	36.83	-14.4553	1	39.5652	-21.4293	1.05037E-005	-0.533627	10
	23	50	7078.05	37.1884	-16.105	1	40.5259	-23.4158	9.97062E-006	-0.533612	10
	24	52	6311.1	37.3731	-17.8171	1	41.4028	-25.4888	1.06106E-005	-0.533625	10
	25	54	5622.14	37.7179	-19.683	1	42.5448	-27.5577	1.09514E-005	-0.533624	10
	26	56	5011.18	37.9997	-21.8944	1	43.8559	-29.9493	1.08292E-005	-0.533627	10
	27	58	4465.21	38.3026	-24.2653	1	45.342	-32.3548	1.03645E-005	-0.533632	10
	28	60	3980.93	38.6832	-26.7809	1	47.049	-34.6953	1.15816E-005	-0.533632	10
	29	62	3548.18	39.2442	-29.699	1	49.2153	-37.1175	8.7465E-006	-0.533602	10
	30	64	3162.67	39.6247	-32.8845	1	51.4928	-39.6892	9.71062E-006	-0.533641	10
	31	67	2819.01	39.9577	-36.5454	1	54.1497	-42.4461	1.1652E-005	-0.533638	10
	32	69	2511.16	40.5821	-40.5943	1	57.4004	-45.0087	9.14208E-006	-0.533626	10
	33	71	2238.63	41.0017	-45.0388	1	60.9068	-47.6864	1.00394E-005	-0.533629	10
	34	72	1995.37	41.8043	-50.0777	1	65.2332	-50.1453	1.04073E-005	-0.533631	10
	35	74	1778.51	42.4285	-55.4794	1	69.8437	-52.5927	1.01646E-005	-0.533619	10
	36	76	1584.49	43.2088	-61.7346	1	75.3535	-55.0114	1.03734E-005	-0.533635	10
	37	78	1412.76	43.938	-68.6807	1	81.5328	-57.3912	1.11971E-005	-0.533652	10
	38	80	1259.04	44.833	-76.4371	1	88.6151	-59.6069	1.00821E-005	-0.533637	10
	39	82	1121.63	45.8108	-84.6508	1	96.252	-61.5789	1.01357E-005	-0.533629	10
	40	84	999.95	47.3459	-94.3351	1	105.55	-63.3483	1.0192E-005	-0.533641	10
	41	86	891.184	48.3934	-105.142	1	115.744	-65.285	6.25524E-006	-0.533621	9
	42	88	794.163	49.0864	-117.388	1	127.238	-67.3075	6.41595E-006	-0.533632	9
	43	90	707.867	51.5404	-129.82	1	139.677	-68.3462	6.68211E-006	-0.533616	9
	44	92	630.984	53.1779	-144.752	1	154.211	-69.8281	5.97778E-006	-0.533622	9
	45	94	562.189	55.0795	-160.627	1	169.808	-71.073	6.24611E-006	-0.533639	9
	46	96	501.303	57.2683	-178.744	1	187.694	-72.2349	5.83867E-006	-0.533639	9
	47	98	446.614	59.824	-199.021	1	207.818	-73.2697	6.35675E-006	-0.53364	9
	48	100	398.209	62.6211	-221.378	1	230.064	-74.2054	6.69859E-006	-0.533633	9
	49	102	354.821	65.6876	-246.361	1	254.968	-75.0705	6.03105E-006	-0.533635	9
	50	104	316.113	69.1653	-274.279	1	282.866	-75.8468	5.29169E-006	-0.533634	9
	51	106	281.926	73.2275	-305.077	1	313.742	-76.5026	5.49042E-006	-0.533638	9
	52	108	251.185	77.9113	-339.605	1	348.428	-77.0789	5.77155E-006	-0.533639	9
	53	110	223.946	82.9369	-377.741	1	386.738	-77.6166	5.81225E-006	-0.53363	9
	54	112	199.495	89.526	-421.013	1	430.426	-77.9952	6.06233E-006	-0.533639	9
	55	114	177.836	96.317	-468.158	1	477.964	-78.3744	5.83264E-006	-0.53363	9
	56	116	158.533	104.034	-521.035	1	531.319	-78.7084	6.00529E-006	-0.533627	9
	57	118	141.263	113.09	-580.006	1	590.929	-78.9669	6.19986E-006	-0.533636	9
	58	120	125.911	122.499	-645.074	1	656.602	-79.2476	5.37104E-006	-0.533639	9
	59	122	112.198	135.225	-717.333	1	729.968	-79.3244	5.83374E-006	-0.533638	9
	60	124	100.009	149.59	-797.89	1	811.792	-79.3813	6.09672E-006	-0.533638	9
	61	126	89.1164	163.685	-887.832	1	902.794	-79.554	5.78246E-006	-0.533637	9
	62	128	79.4083	181.934	-987.01	1	1003.63	-79.556	5.8998E-006	-0.533635	9
	63	130	70.788	202.067	-1097.07	1	1115.52	-79.5638	4.56947E-006	-0.533641	8
	64	132	63.0971	220.809	-1221.02	1	1240.82	-79.7494	3.94777E-006	-0.53364	8
	65	135	54.5476	270.657	-1396.14	1	1422.13	-79.0286	5.04138E-006	-0.53364	8
	66	137	50.0083	291.944	-1509.43	1	1537.41	-79.0534	5.01319E-006	-0.533639	8
	67	139	46.1675	317.046	-1624.6	1	1655.25	-78.9574	4.8828E-006	-0.533635	8
	68	141	40.0059	370.138	-1853.48	1	1890.08	-78.7067	4.6042E-006	-0.533636	8
	69	143	35.3046	429.982	-2081.94	1	2125.88	-78.3308	4.59831E-006	-0.533638	8
	70	145	31.5793	495.551	-2289.05	1	2342.08	-77.7847	4.27866E-006	-0.533633	8
	71	147	28.5748	535.146	-2518.64	1	2574.86	-78.0045	4.29171E-006	-0.53364	8
	72	149	24.9911	659.057	-2834.16	1	2909.78	-76.9091	4.22449E-006	-0.533637	8
	73	152	22.2195	816.813	-3159.08	1	3262.97	-75.5031	4.85625E-006	-0.533635	8
	74	154	20.0011	1003.07	-3396.19	1	3541.22	-73.5454	5.35741E-006	-0.533635	8
	75	157	17.6486	1192.85	-3852	1	4032.46	-72.7938	4.85722E-006	-0.533634	8
	76	160	15.7934	1420.6	-4182.02	1	4416.72	-71.2378	5.36399E-006	-0.533634	8
	77	162	14.2828	1625.93	-4611.68	1	4889.91	-70.579	5.42326E-006	-0.53364	8
	78	164	12.5002	2030.55	-5022.71	1	5417.64	-67.9878	5.37181E-006	-0.533635	8
	79	168	11.323	2341.21	-5344.03	1	5834.37	-66.3419	5.90217E-006	-0.53364	8
	80	171	9.9987	2722.43	-5860.43	1	6461.9	-65.083	5.52953E-006	-0.533638	8
