EXPLAIN
TAG	EISPOT
TITLE	LABEL	Tomato_open	Test &Identifier
DATE	LABEL	5/10/2006	Date
TIME	LABEL	16:40:19	Time
NOTES	NOTES	1	&Notes...
	
PSTAT	PSTAT	300	Potentiostat
VDC	POTEN	1.00000E-001	T	DC &Voltage (V)
FREQINIT	QUANT	1.00000E+005	Initial Fre&q. (Hz)
FREQFINAL	QUANT	1.00000E+001	Final Fre&q. (Hz)
PTSPERDEC	QUANT	2.00000E+001	Points/&decade
VAC	QUANT	1.00000E+001	AC &Voltage (mV rms)
AREA	QUANT	1.00000E+000	&Area (cm²)
DENSITY	QUANT	7.87000E+000	&Density (gm/cm³)
EQUIV	QUANT	7.00000E+000	Equiv. &Wt
CONDIT	TWOPARAM	F	1.50000E+001	0.00000E+000	Conditionin&g	Time(s)	E(V)
DELAY	TWOPARAM	F	6.00000E+002	0.00000E+000	Init. De&lay	Time(s)	Stab.(mV/s)
SPEED	SELECTOR	1	&Optimize for:
ZGUESS	QUANT	1.00000E+002	E&stimated Z (ohms)
OCVCURVE	TABLE	39
	Pt	T	Vf	Vm	Ach	Over
	#	s	V vs. Ref.	V	V	bits
	0	0.258332	-5.99194E-001	5.03234E-006	3.15400E-004	......
	1	0.516663	-6.03844E-001	5.03234E-006	3.15400E-004	......
	2	0.774994	-6.04293E-001	5.03234E-006	3.15400E-004	......
	3	1.03333	-6.01143E-001	5.03234E-006	1.15400E-004	......
	4	1.29166	-5.99643E-001	5.03234E-006	3.15400E-004	......
	5	1.54999	-6.01043E-001	5.03234E-006	3.15400E-004	......
	6	1.80832	-5.86043E-001	5.03234E-006	2.15400E-004	......
	7	2.06665	-5.82143E-001	5.03234E-006	2.15400E-004	......
	8	2.32498	-5.82793E-001	5.03234E-006	3.15400E-004	......
	9	2.58332	-5.84044E-001	5.03234E-006	2.15400E-004	......
	10	2.84165	-5.84394E-001	5.03234E-006	2.15400E-004	......
	11	3.09998	-5.83943E-001	5.03234E-006	3.15400E-004	......
	12	3.35831	-5.81493E-001	5.03234E-006	2.15400E-004	......
	13	3.61664	-5.88193E-001	5.03234E-006	1.15400E-004	......
	14	3.87497	-5.94743E-001	5.03234E-006	2.15400E-004	......
	15	4.1333	-5.95544E-001	5.03234E-006	2.15400E-004	......
	16	4.39164	-5.98993E-001	5.03234E-006	2.15400E-004	......
	17	4.64997	-6.00293E-001	5.03234E-006	3.15400E-004	......
	18	4.9083	-5.93293E-001	5.03234E-006	2.15400E-004	......
	19	5.16663	-5.85243E-001	5.03234E-006	2.15400E-004	......
	20	5.42496	-5.90993E-001	5.03234E-006	2.15400E-004	......
	21	5.68329	-5.97643E-001	5.03234E-006	3.15400E-004	......
	22	5.94162	-5.96493E-001	5.03234E-006	1.15400E-004	......
	23	6.19996	-5.95043E-001	5.03234E-006	3.15400E-004	......
	24	6.45829	-5.94094E-001	5.03234E-006	1.15400E-004	......
	25	6.71662	-5.94343E-001	5.03234E-006	1.15400E-004	......
	26	6.97495	-5.95643E-001	5.03234E-006	2.15400E-004	......
	27	7.23328	-5.99593E-001	5.03234E-006	2.15400E-004	......
	28	7.49161	-6.05193E-001	5.03234E-006	3.15400E-004	......
	29	7.74995	-6.04093E-001	5.03234E-006	4.15400E-004	......
	30	8.00828	-6.05793E-001	5.03234E-006	2.15400E-004	......
	31	8.26661	-6.07843E-001	5.03234E-006	3.15400E-004	......
	32	8.52494	-6.05493E-001	5.03234E-006	2.15400E-004	......
	33	8.78327	-6.04894E-001	5.03234E-006	3.15400E-004	......
	34	9.0416	-6.06443E-001	5.03234E-006	2.15400E-004	......
	35	9.29993	-6.06043E-001	5.03234E-006	2.15400E-004	......
	36	9.5583	-6.07543E-001	5.03234E-006	2.15400E-004	......
	37	9.8166	-6.06643E-001	5.03234E-006	3.15400E-004	......
	38	10.0749	-6.07093E-001	5.03234E-006	2.15400E-004	......
EOC	QUANT	-0.607093	Open Circuit (V)
PSTATMODEL	IQUANT	32	Pstat Model
PSTATSECTION	LABEL	PStat0	Pstat Section
CTRLMODE	IQUANT	1	Control Mode
IESTAB	IQUANT	0	I/E Stability
CASPEED	IQUANT	1	Control Amp Speed
CONVENTION	IQUANT	1	Current Convention
ICHRANGE	IQUANT	2	Ich Range
ICHRANGEMODE	TOGGLE	F	Ich Auto Range
ICHOFFSETENABLE	TOGGLE	T	Ich Offset Enable
ICHOFFSET	QUANT	0	Ich Offset (V)
ICHFILTER	IQUANT	3	Ich Filter
VCHRANGE	IQUANT	2	Vch Range
VCHRANGEMODE	TOGGLE	F	Vch Auto Range
VCHOFFSETENABLE	TOGGLE	T	Vch Offset Enable
VCHOFFSET	QUANT	0	Vch Offset (V)
VCHFILTER	IQUANT	3	Vch Filter
ACHRANGE	IQUANT	0	Ach Range
IERANGELOWERLIMIT	IQUANT	3	I/E Range Lower Limit
IERANGEMODE	TOGGLE	F	I/E AutoRange
IERANGE	IQUANT	11	I/E Range
POSFEEDENABLE	TOGGLE	F	Positive Feedback IR Comp
POSFEEDRESISTANCE	QUANT	0	Positive Feedback Resistance (ohm)
FC350IDIVISOR	IQUANT	0	FC350 I Divisor
FC350VRANGE	IQUANT	0	FC350 V Range
FRAMEWORKVERSION	QUANT	4.35	Framework Version
ZCURVE	TABLE
	Pt	Time	Freq	Zreal	Zimag	Zsig	Zmod	Zphz	Idc	Vdc	IERange
	#	s	Hz	ohm	ohm	V	ohm	°	A	V	#
	0	4	100007	34.9873	-0.917628	1	34.9993	-1.50238	2.18791E-005	-0.506822	10
	1	6	89134.1	34.9047	-1.14368	1	34.9235	-1.87667	2.26691E-005	-0.506862	10
	2	9	79433.6	34.8126	-1.43059	1	34.842	-2.35319	1.8772E-005	-0.506854	10
	3	11	70800.8	34.8296	-1.69792	1	34.871	-2.79092	1.38936E-005	-0.50684	10
	4	12	63105.5	34.7443	-1.91291	1	34.7969	-3.15134	1.68852E-005	-0.50685	10
	5	14	56243.5	34.8303	-2.209	1	34.9003	-3.62894	1.48573E-005	-0.506841	10
	6	16	50123.7	34.7918	-2.54684	1	34.8849	-4.18672	1.27591E-005	-0.506846	10
	7	18	44681	34.7988	-2.90842	1	34.9201	-4.77757	1.41117E-005	-0.506855	10
	8	20	39811.2	34.8853	-3.25358	1	35.0367	-5.32828	1.32441E-005	-0.506841	10
	9	22	35488.3	34.9393	-3.65424	1	35.1299	-5.97076	1.26348E-005	-0.506841	10
	10	24	31634.1	34.9521	-4.05301	1	35.1863	-6.61442	1.27203E-005	-0.506839	10
	11	26	28173.1	35.0631	-4.56709	1	35.3593	-7.42119	1.37752E-005	-0.506865	10
	12	28	25123.7	35.1524	-5.10522	1	35.5212	-8.26334	1.32795E-005	-0.506873	10
	13	30	22389.3	35.2773	-5.71221	1	35.7368	-9.19768	1.19492E-005	-0.506849	10
	14	32	19954.4	35.3694	-6.3403	1	35.9332	-10.1629	1.2525E-005	-0.506875	10
	15	34	17778.2	35.508	-7.02689	1	36.1967	-11.194	1.27112E-005	-0.506854	10
	16	36	15852.9	35.6531	-7.85677	1	36.5085	-12.4275	1.52142E-005	-0.506877	10
	17	38	14122.3	35.8139	-8.58204	1	36.8278	-13.4756	1.36303E-005	-0.506858	10
	18	40	12587.2	36.0169	-9.5936	1	37.2727	-14.9152	1.25944E-005	-0.506865	10
	19	42	11221.1	36.2155	-10.5559	1	37.7225	-16.2501	1.21833E-005	-0.506857	10
	20	44	9998.2	36.4122	-11.7479	1	38.2604	-17.8817	1.23867E-005	-0.50684	10
	21	46	8912.76	36.673	-12.9781	1	38.9017	-19.4882	9.37453E-006	-0.506843	10
	22	48	7942.6	36.9037	-14.3653	1	39.6011	-21.2693	8.91375E-006	-0.506854	10
	23	50	7078.05	37.1304	-15.8935	1	40.389	-23.1732	9.14406E-006	-0.506852	10
	24	52	6311.1	37.43	-17.5012	1	41.3195	-25.0595	1.02406E-005	-0.506848	10
	25	54	5622.14	37.7344	-19.3664	1	42.4139	-27.1683	1.32952E-005	-0.506857	10
	26	56	5011.18	38.104	-21.5066	1	43.7544	-29.4412	1.33612E-005	-0.506841	10
	27	58	4465.21	38.4278	-23.7685	1	45.1845	-31.7378	1.12377E-005	-0.506845	10
	28	60	3980.93	38.8046	-26.4229	1	46.9464	-34.2518	1.00234E-005	-0.50684	10
	29	62	3548.18	39.2253	-29.2445	1	48.9271	-36.7064	1.36044E-005	-0.506859	10
	30	64	3162.67	39.7246	-32.4746	1	51.3093	-39.2657	1.1862E-005	-0.506835	10
	31	66	2819.01	40.2112	-35.9287	1	53.9241	-41.7808	1.09403E-005	-0.506839	10
	32	68	2511.16	40.6068	-39.8759	1	56.9122	-44.4797	1.18005E-005	-0.506853	10
	33	70	2238.63	41.1908	-44.3517	1	60.5289	-47.1162	1.13312E-005	-0.506853	10
	34	72	1995.37	41.9562	-49.1406	1	64.6152	-49.5093	1.17443E-005	-0.506865	10
	35	74	1778.51	42.5763	-54.8418	1	69.4288	-52.1761	1.41048E-005	-0.50685	10
	36	76	1584.49	43.1733	-60.7062	1	74.4928	-54.5802	1.40714E-005	-0.506858	10
	37	78	1412.76	43.8649	-67.5991	1	80.5839	-57.0205	1.45993E-005	-0.506843	10
	38	80	1259.04	45.1107	-74.7607	1	87.3162	-58.8932	1.19318E-005	-0.50686	10
	39	82	1121.63	45.8758	-83.4481	1	95.227	-61.2001	1.14623E-005	-0.50685	10
	40	84	999.95	46.5304	-92.7164	1	103.737	-63.3499	8.0425E-006	-0.506856	10
	41	86	891.184	48.1061	-102.778	1	113.48	-64.9177	4.33733E-006	-0.50686	9
	42	88	794.163	49.3494	-115.056	1	125.192	-66.7846	4.97472E-006	-0.506849	9
	43	90	707.867	51.0098	-127.931	1	137.726	-68.2614	3.90197E-006	-0.506833	9
	44	92	630.984	52.8155	-141.996	1	151.5	-69.5973	6.73775E-006	-0.50685	9
	45	94	562.189	55.3417	-157.639	1	167.071	-70.6556	1.05258E-005	-0.50686	9
	46	96	501.303	57.6428	-175.888	1	185.092	-71.8547	1.05632E-005	-0.506855	9
	47	98	446.614	60.2583	-195.815	1	204.877	-72.8953	1.0085E-005	-0.506852	9
	48	100	398.209	63.018	-217.86	1	226.791	-73.867	9.14472E-006	-0.506851	9
	49	102	354.821	66.3204	-242.511	1	251.416	-74.7051	9.28998E-006	-0.506861	9
	50	104	316.113	69.8381	-270.039	1	278.924	-75.4998	8.47959E-006	-0.506864	9
	51	106	281.926	74.0703	-300.467	1	309.462	-76.1517	8.11747E-006	-0.506866	9
	52	108	251.185	78.3226	-334.595	1	343.64	-76.8253	7.53159E-006	-0.506863	9
	53	110	223.946	83.1186	-372.177	1	381.346	-77.4107	6.24316E-006	-0.506857	9
	54	112	199.495	87.8364	-414.65	1	423.852	-78.0397	4.73286E-006	-0.506858	9
	55	114	177.836	94.3545	-461.76	1	471.302	-78.4514	4.45895E-006	-0.506856	9
	56	116	158.533	103.228	-513.711	1	523.98	-78.638	5.50934E-006	-0.506855	9
	57	118	141.263	112.613	-572.071	1	583.05	-78.8636	5.67129E-006	-0.506852	9
	58	120	125.911	125.92	-637.052	1	649.377	-78.819	6.77363E-006	-0.506859	9
	59	122	112.198	143.952	-708.042	1	722.528	-78.5078	8.92624E-006	-0.50686	9
	60	124	100.009	158.861	-787.337	1	803.204	-78.5926	9.00745E-006	-0.506855	9
	61	126	89.1164	177.208	-875.874	1	893.62	-78.5622	8.69088E-006	-0.506857	9
	62	128	79.4083	189.571	-975.53	1	993.78	-79.003	6.62863E-006	-0.506852	9
	63	130	70.788	214.805	-1087.22	1	1108.23	-78.8238	6.03042E-006	-0.506852	9
	64	132	63.0971	237.882	-1207.79	1	1230.99	-78.8578	4.77411E-006	-0.506859	8
	65	134	54.5476	286.671	-1376.85	1	1406.38	-78.2386	5.43742E-006	-0.506864	8
	66	136	50.0083	329.184	-1488.25	1	1524.22	-77.5276	6.03195E-006	-0.506862	8
	67	138	46.1675	367.052	-1600.07	1	1641.63	-77.0801	6.3535E-006	-0.506862	8
	68	140	40.0059	427.522	-1816	1	1865.64	-76.7527	5.94362E-006	-0.506867	8
	69	142	35.3046	495.026	-2042.67	1	2101.8	-76.3774	5.83817E-006	-0.506864	8
	70	145	31.5793	600.828	-2238.42	1	2317.65	-74.975	7.56566E-006	-0.506862	8
	71	147	28.5748	766.767	-2405.83	1	2525.06	-72.3223	1.08552E-005	-0.506864	8
	72	149	24.9911	1071.37	-2561.27	1	2776.31	-67.3006	1.57954E-005	-0.506869	8
	73	152	22.2195	1235.02	-2831.99	1	3089.57	-66.4382	1.55307E-005	-0.506878	8
	74	157	20.0011	1408.16	-3079.35	1	3386.05	-65.4258	1.61022E-005	-0.506876	8
	75	163	17.6486	1557.49	-3404.19	1	3743.56	-65.4149	1.41706E-005	-0.506872	8
	76	166	15.7934	1788.59	-3754.62	1	4158.88	-64.5282	1.13948E-005	-0.506871	8
	77	171	14.2828	2121.72	-4030.14	1	4554.53	-62.2348	1.04015E-005	-0.506872	8
	78	176	12.5002	2392.69	-4434.4	1	5038.74	-61.6499	9.33941E-006	-0.506874	8
	79	181	11.323	2730.59	-4813.85	1	5534.37	-60.4365	8.08266E-006	-0.506869	8
	80	187	9.9987	3040.06	-5444.34	1	6235.61	-60.8215	6.83208E-006	-0.506877	8
