EXPLAIN
TAG	EISPOT
TITLE	LABEL	Tomato_open	Test &Identifier
DATE	LABEL	5/10/2006	Date
TIME	LABEL	16:55:16	Time
NOTES	NOTES	1	&Notes...
	
PSTAT	PSTAT	300	Potentiostat
VDC	POTEN	1.00000E-001	T	DC &Voltage (V)
FREQINIT	QUANT	1.00000E+005	Initial Fre&q. (Hz)
FREQFINAL	QUANT	1.00000E+001	Final Fre&q. (Hz)
PTSPERDEC	QUANT	2.00000E+001	Points/&decade
VAC	QUANT	1.00000E+001	AC &Voltage (mV rms)
AREA	QUANT	1.00000E+000	&Area (cm²)
DENSITY	QUANT	7.87000E+000	&Density (gm/cm³)
EQUIV	QUANT	7.00000E+000	Equiv. &Wt
CONDIT	TWOPARAM	F	1.50000E+001	0.00000E+000	Conditionin&g	Time(s)	E(V)
DELAY	TWOPARAM	F	6.00000E+002	0.00000E+000	Init. De&lay	Time(s)	Stab.(mV/s)
SPEED	SELECTOR	1	&Optimize for:
ZGUESS	QUANT	1.00000E+002	E&stimated Z (ohms)
OCVCURVE	TABLE	39
	Pt	T	Vf	Vm	Ach	Over
	#	s	V vs. Ref.	V	V	bits
	0	0.258332	-6.27643E-001	7.20854E-006	2.15400E-004	......
	1	0.516663	-6.29393E-001	7.20854E-006	1.15400E-004	......
	2	0.774994	-6.33294E-001	7.20854E-006	3.15400E-004	......
	3	1.03333	-6.32743E-001	7.20854E-006	1.54000E-005	......
	4	1.29166	-6.32293E-001	7.20854E-006	3.15400E-004	......
	5	1.54999	-6.32443E-001	7.20854E-006	1.54000E-005	......
	6	1.80832	-6.34243E-001	7.20854E-006	2.15400E-004	......
	7	2.06665	-6.19644E-001	7.20854E-006	1.54000E-005	......
	8	2.32498	-6.24843E-001	7.20854E-006	3.15400E-004	......
	9	2.58332	-6.16893E-001	7.20854E-006	1.15400E-004	......
	10	2.84165	-6.24644E-001	7.20854E-006	2.15400E-004	......
	11	3.09998	-6.24644E-001	7.20854E-006	1.54000E-005	......
	12	3.35831	-6.25243E-001	7.20854E-006	3.15400E-004	......
	13	3.61664	-6.29243E-001	7.20854E-006	1.15400E-004	......
	14	3.87497	-6.26844E-001	7.20854E-006	2.15400E-004	......
	15	4.1333	-6.32393E-001	7.20854E-006	2.15400E-004	......
	16	4.39164	-6.24843E-001	7.20854E-006	3.15400E-004	......
	17	4.64997	-6.34243E-001	7.20854E-006	1.54000E-005	......
	18	4.9083	-6.30943E-001	7.20854E-006	2.15400E-004	......
	19	5.16663	-6.35343E-001	7.20854E-006	1.54000E-005	......
	20	5.42496	-6.34943E-001	7.20854E-006	3.15400E-004	......
	21	5.68329	-6.33693E-001	7.20854E-006	1.54000E-005	......
	22	5.94162	-6.37643E-001	7.20854E-006	2.15400E-004	......
	23	6.19996	-6.33693E-001	7.20854E-006	2.15400E-004	......
	24	6.45829	-6.39293E-001	7.20854E-006	2.15400E-004	......
	25	6.71662	-6.39943E-001	7.20854E-006	1.54000E-005	......
	26	6.97495	-6.39693E-001	7.20854E-006	2.15400E-004	......
	27	7.23328	-6.41293E-001	7.20854E-006	-8.46000E-005	......
	28	7.49161	-6.35293E-001	7.20854E-006	3.15400E-004	......
	29	7.74995	-6.39793E-001	7.20854E-006	1.54000E-005	......
	30	8.00828	-6.40943E-001	7.20854E-006	2.15400E-004	......
	31	8.26661	-6.40593E-001	7.20854E-006	1.54000E-005	......
	32	8.52494	-6.37743E-001	7.20854E-006	2.15400E-004	......
	33	8.78327	-6.35793E-001	7.20854E-006	1.54000E-005	......
	34	9.0416	-6.39693E-001	7.20854E-006	2.15400E-004	......
	35	9.29993	-6.40444E-001	7.20854E-006	1.54000E-005	......
	36	9.5583	-6.35293E-001	7.20854E-006	2.15400E-004	......
	37	9.8166	-6.40794E-001	7.20854E-006	1.54000E-005	......
	38	10.0749	-6.41243E-001	7.20854E-006	2.15400E-004	......
EOC	QUANT	-0.641243	Open Circuit (V)
PSTATMODEL	IQUANT	32	Pstat Model
PSTATSECTION	LABEL	PStat0	Pstat Section
CTRLMODE	IQUANT	1	Control Mode
IESTAB	IQUANT	0	I/E Stability
CASPEED	IQUANT	1	Control Amp Speed
CONVENTION	IQUANT	1	Current Convention
ICHRANGE	IQUANT	2	Ich Range
ICHRANGEMODE	TOGGLE	F	Ich Auto Range
ICHOFFSETENABLE	TOGGLE	T	Ich Offset Enable
ICHOFFSET	QUANT	0	Ich Offset (V)
ICHFILTER	IQUANT	3	Ich Filter
VCHRANGE	IQUANT	2	Vch Range
VCHRANGEMODE	TOGGLE	F	Vch Auto Range
VCHOFFSETENABLE	TOGGLE	T	Vch Offset Enable
VCHOFFSET	QUANT	0	Vch Offset (V)
VCHFILTER	IQUANT	3	Vch Filter
ACHRANGE	IQUANT	0	Ach Range
IERANGELOWERLIMIT	IQUANT	3	I/E Range Lower Limit
IERANGEMODE	TOGGLE	F	I/E AutoRange
IERANGE	IQUANT	11	I/E Range
POSFEEDENABLE	TOGGLE	F	Positive Feedback IR Comp
POSFEEDRESISTANCE	QUANT	0	Positive Feedback Resistance (ohm)
FC350IDIVISOR	IQUANT	0	FC350 I Divisor
FC350VRANGE	IQUANT	0	FC350 V Range
FRAMEWORKVERSION	QUANT	4.35	Framework Version
ZCURVE	TABLE
	Pt	Time	Freq	Zreal	Zimag	Zsig	Zmod	Zphz	Idc	Vdc	IERange
	#	s	Hz	ohm	ohm	V	ohm	°	A	V	#
	0	4	100007	34.9655	-0.96285	1	34.9787	-1.57736	1.40787E-005	-0.541087	10
	1	6	89134.1	34.8504	-1.21239	1	34.8714	-1.99242	1.20222E-005	-0.541069	10
	2	8	79433.6	34.74	-1.41676	1	34.7689	-2.33532	1.35827E-005	-0.541102	10
	3	10	70800.8	34.7013	-1.68996	1	34.7424	-2.78812	1.12939E-005	-0.541082	10
	4	12	63105.5	34.696	-1.99803	1	34.7534	-3.29583	1.15358E-005	-0.541096	10
	5	14	56243.5	34.7318	-2.21194	1	34.8021	-3.64403	1.07225E-005	-0.541082	10
	6	16	50123.7	34.7175	-2.57874	1	34.8132	-4.24799	1.19583E-005	-0.541111	10
	7	18	44681	34.7486	-2.92061	1	34.8711	-4.8044	1.16692E-005	-0.541076	10
	8	20	39811.2	34.7819	-3.33424	1	34.9413	-5.47572	1.22584E-005	-0.541091	10
	9	22	35488.3	34.8255	-3.72461	1	35.0241	-6.10462	9.50859E-006	-0.541078	10
	10	24	31634.1	34.866	-4.16377	1	35.1138	-6.81012	1.21266E-005	-0.541102	10
	11	26	28173.1	34.9544	-4.68685	1	35.2673	-7.63693	1.10478E-005	-0.541095	10
	12	28	25123.7	35.027	-5.19244	1	35.4098	-8.43218	1.22136E-005	-0.541097	10
	13	30	22389.3	35.135	-5.77227	1	35.606	-9.3297	9.41E-006	-0.541085	10
	14	32	19954.4	35.262	-6.41069	1	35.84	-10.3039	1.16169E-005	-0.541098	10
	15	34	17778.2	35.4293	-7.14484	1	36.1426	-11.4016	1.06842E-005	-0.541088	10
	16	35	15852.9	35.4686	-7.94848	1	36.3483	-12.6313	1.06587E-005	-0.541096	10
	17	37	14122.3	35.6664	-8.82095	1	36.741	-13.8916	1.07803E-005	-0.541088	10
	18	39	12587.2	35.8503	-9.7084	1	37.1416	-15.1525	1.03867E-005	-0.541097	10
	19	41	11221.1	36.0742	-10.7605	1	37.6449	-16.6092	1.01283E-005	-0.541097	10
	20	43	9998.2	36.2496	-12.029	1	38.1933	-18.3578	9.82265E-006	-0.541091	10
	21	45	8912.76	36.517	-13.2427	1	38.844	-19.9329	8.41969E-006	-0.541076	10
	22	47	7942.6	36.7166	-14.7202	1	39.5575	-21.8466	9.95812E-006	-0.541086	10
	23	49	7078.05	36.9709	-16.2863	1	40.3991	-23.7743	9.74609E-006	-0.541078	10
	24	51	6311.1	37.225	-17.9587	1	41.3305	-25.7544	9.60187E-006	-0.541084	10
	25	53	5622.14	37.5414	-19.8887	1	42.4843	-27.9138	9.64031E-006	-0.54108	10
	26	55	5011.18	37.8937	-22.1132	1	43.8739	-30.266	9.45328E-006	-0.541076	10
	27	57	4465.21	38.1082	-24.4149	1	45.2584	-32.6466	9.71328E-006	-0.541063	10
	28	59	3980.93	38.553	-27.0429	1	47.092	-35.0476	1.02509E-005	-0.541082	10
	29	61	3548.18	38.9263	-30.0622	1	49.1833	-37.6784	7.50618E-006	-0.541066	10
	30	63	3162.67	39.3279	-33.434	1	51.6189	-40.369	9.57594E-006	-0.541063	10
	31	65	2819.01	39.8403	-37.0822	1	54.4274	-42.9466	1.05982E-005	-0.541082	10
	32	67	2511.16	40.3097	-41.1712	1	57.6189	-45.6058	9.42261E-006	-0.541076	10
	33	69	2238.63	40.991	-45.787	1	61.455	-48.1634	9.74574E-006	-0.541083	10
	34	71	1995.37	41.615	-50.7436	1	65.6256	-50.6447	9.7855E-006	-0.541079	10
	35	73	1778.51	42.2615	-56.5137	1	70.5679	-53.2105	9.44389E-006	-0.541077	10
	36	75	1584.49	43.0259	-62.8608	1	76.1755	-55.6098	9.65771E-006	-0.54108	10
	37	77	1412.76	43.906	-69.8008	1	82.4615	-57.8293	9.30358E-006	-0.541085	10
	38	79	1259.04	44.8949	-77.2171	1	89.3198	-59.8258	9.46419E-006	-0.541074	10
	39	81	1121.63	45.6222	-86.1428	1	97.478	-62.0938	9.36708E-006	-0.541081	10
	40	83	999.95	47.1318	-95.985	1	106.932	-63.8474	9.16228E-006	-0.54108	10
	41	85	891.184	48.0974	-106.839	1	117.166	-65.7634	5.96205E-006	-0.541081	9
	42	87	794.163	49.6544	-118.631	1	128.604	-67.2878	6.06748E-006	-0.541069	9
	43	89	707.867	51.6664	-131.875	1	141.635	-68.6057	5.76452E-006	-0.541078	9
	44	91	630.984	53.1671	-147.255	1	156.559	-70.1476	6.33823E-006	-0.541076	9
	45	93	562.189	55.761	-163.099	1	172.367	-71.1252	6.26805E-006	-0.541085	9
	46	95	501.303	57.6788	-181.879	1	190.805	-72.4047	5.90644E-006	-0.541083	9
	47	97	446.614	60.2788	-202.436	1	211.22	-73.4182	5.84684E-006	-0.541083	9
	48	99	398.209	63.2067	-225.162	1	233.865	-74.3197	6.16481E-006	-0.541092	9
	49	101	354.821	66.5608	-250.483	1	259.176	-75.1187	5.90636E-006	-0.541089	9
	50	103	316.113	70.3417	-278.723	1	287.462	-75.8359	5.65997E-006	-0.541088	9
	51	105	281.926	74.6174	-309.859	1	318.717	-76.4604	5.80925E-006	-0.541089	9
	52	107	251.185	79.6999	-344.869	1	353.959	-76.9873	6.30331E-006	-0.541091	9
	53	109	223.946	85.2915	-383.429	1	392.801	-77.4591	6.28375E-006	-0.541091	9
	54	111	199.495	91.5791	-426.526	1	436.246	-77.882	6.03931E-006	-0.541092	9
	55	113	177.836	98.133	-474.119	1	484.168	-78.3061	5.8645E-006	-0.541096	9
	56	115	158.533	106.378	-527.389	1	538.011	-78.596	5.92615E-006	-0.541097	9
	57	117	141.263	115.59	-586.509	1	597.791	-78.851	5.85872E-006	-0.541099	9
	58	119	125.911	126.132	-651.561	1	663.657	-79.044	5.95703E-006	-0.541091	9
	59	121	112.198	136.266	-724.7	1	737.4	-79.351	5.36243E-006	-0.541086	9
	60	123	100.009	151.36	-806.263	1	820.347	-79.3676	5.70552E-006	-0.54109	9
	61	125	89.1164	166.197	-896.48	1	911.756	-79.4973	5.73569E-006	-0.541093	9
	62	127	79.4083	183.231	-997.15	1	1013.85	-79.5878	5.70059E-006	-0.541087	9
	63	129	70.788	202.005	-1107.94	1	1126.21	-79.667	4.41369E-006	-0.541094	8
	64	131	63.0971	228.785	-1231.25	1	1252.33	-79.4736	4.84905E-006	-0.541102	8
	65	133	54.5476	269.072	-1410.43	1	1435.86	-79.1993	5.2349E-006	-0.541101	8
	66	135	50.0083	295.351	-1528.47	1	1556.75	-79.0634	5.01879E-006	-0.541102	8
	67	138	46.1675	333.837	-1644.23	1	1677.78	-78.5229	5.64976E-006	-0.54111	8
	68	140	40.0059	393.307	-1873.83	1	1914.66	-78.146	4.95293E-006	-0.541112	8
	69	142	35.3046	457.536	-2099.13	1	2148.41	-77.7039	5.30476E-006	-0.541115	8
	70	144	31.5793	546.312	-2329.25	1	2392.46	-76.8002	5.26782E-006	-0.541105	8
	71	146	28.5748	612.163	-2545.42	1	2618	-76.4774	4.9959E-006	-0.541107	8
	72	148	24.9911	739.772	-2845.55	1	2940.14	-75.4271	5.13494E-006	-0.541118	8
	73	150	22.2195	888.668	-3173.5	1	3295.58	-74.3563	5.51737E-006	-0.541106	8
	74	153	20.0011	966.03	-3471.99	1	3603.88	-74.4516	5.2396E-006	-0.54111	8
	75	157	17.6486	1159.25	-3818.88	1	3990.95	-73.114	5.27978E-006	-0.541119	8
	76	159	15.7934	1430.66	-4258.71	1	4492.59	-71.4309	5.44174E-006	-0.541114	8
	77	161	14.2828	1543.96	-4609.58	1	4861.28	-71.4819	5.46206E-006	-0.541114	8
	78	164	12.5002	2031.86	-4989.27	1	5387.14	-67.8416	5.97639E-006	-0.541118	8
	79	168	11.323	2502.98	-5365.39	1	5920.5	-64.9907	5.74207E-006	-0.541118	8
	80	173	9.9987	2826.51	-5827.87	1	6477.13	-64.1267	5.82215E-006	-0.541121	8
