EXPLAIN
TAG	EISPOT
TITLE	LABEL	Tomato_open	Test &Identifier
DATE	LABEL	5/10/2006	Date
TIME	LABEL	16:50:10	Time
NOTES	NOTES	1	&Notes...
	
PSTAT	PSTAT	300	Potentiostat
VDC	POTEN	1.00000E-001	T	DC &Voltage (V)
FREQINIT	QUANT	1.00000E+005	Initial Fre&q. (Hz)
FREQFINAL	QUANT	1.00000E+001	Final Fre&q. (Hz)
PTSPERDEC	QUANT	2.00000E+001	Points/&decade
VAC	QUANT	1.00000E+001	AC &Voltage (mV rms)
AREA	QUANT	1.00000E+000	&Area (cm²)
DENSITY	QUANT	7.87000E+000	&Density (gm/cm³)
EQUIV	QUANT	7.00000E+000	Equiv. &Wt
CONDIT	TWOPARAM	F	1.50000E+001	0.00000E+000	Conditionin&g	Time(s)	E(V)
DELAY	TWOPARAM	F	6.00000E+002	0.00000E+000	Init. De&lay	Time(s)	Stab.(mV/s)
SPEED	SELECTOR	1	&Optimize for:
ZGUESS	QUANT	1.00000E+002	E&stimated Z (ohms)
OCVCURVE	TABLE	39
	Pt	T	Vf	Vm	Ach	Over
	#	s	V vs. Ref.	V	V	bits
	0	0.258332	-6.35444E-001	7.41274E-006	3.15400E-004	......
	1	0.516663	-6.35193E-001	7.41274E-006	1.54000E-005	......
	2	0.774994	-6.36844E-001	7.41274E-006	3.15400E-004	......
	3	1.03333	-6.37093E-001	7.41274E-006	1.54000E-005	......
	4	1.29166	-6.32843E-001	7.41274E-006	1.54000E-005	......
	5	1.54999	-6.23043E-001	7.41274E-006	1.54000E-005	......
	6	1.80832	-6.07793E-001	7.41274E-006	2.15400E-004	......
	7	2.06665	-6.12393E-001	7.41274E-006	1.15400E-004	......
	8	2.32498	-6.14244E-001	7.41274E-006	3.15400E-004	......
	9	2.58332	-6.16293E-001	7.41274E-006	1.54000E-005	......
	10	2.84165	-6.21093E-001	7.41274E-006	2.15400E-004	......
	11	3.09998	-6.23393E-001	7.41274E-006	1.54000E-005	......
	12	3.35831	-6.25993E-001	7.41274E-006	2.15400E-004	......
	13	3.61664	-6.22243E-001	7.41274E-006	1.54000E-005	......
	14	3.87497	-6.22743E-001	7.41274E-006	2.15400E-004	......
	15	4.1333	-6.26143E-001	7.41274E-006	-8.46000E-005	......
	16	4.39164	-6.25893E-001	7.41274E-006	2.15400E-004	......
	17	4.64997	-6.24543E-001	7.41274E-006	1.54000E-005	......
	18	4.9083	-6.20443E-001	7.41274E-006	1.54000E-005	......
	19	5.16663	-6.21394E-001	7.41274E-006	1.54000E-005	......
	20	5.42496	-6.22243E-001	7.41274E-006	2.15400E-004	......
	21	5.68329	-6.23643E-001	7.41274E-006	1.54000E-005	......
	22	5.94162	-6.29344E-001	7.41274E-006	1.15400E-004	......
	23	6.19996	-6.28343E-001	7.41274E-006	1.15400E-004	......
	24	6.45829	-6.27443E-001	7.41274E-006	3.15400E-004	......
	25	6.71662	-6.29993E-001	7.41274E-006	1.54000E-005	......
	26	6.97495	-6.29443E-001	7.41274E-006	2.15400E-004	......
	27	7.23328	-6.30593E-001	7.41274E-006	1.54000E-005	......
	28	7.49161	-6.29343E-001	7.41274E-006	2.15400E-004	......
	29	7.74995	-6.26593E-001	7.41274E-006	1.54000E-005	......
	30	8.00828	-6.30943E-001	7.41274E-006	3.15400E-004	......
	31	8.26661	-6.35843E-001	7.41274E-006	-8.46000E-005	......
	32	8.52494	-6.34993E-001	7.41274E-006	2.15400E-004	......
	33	8.78327	-6.34694E-001	7.41274E-006	1.54000E-005	......
	34	9.0416	-6.38143E-001	7.41274E-006	2.15400E-004	......
	35	9.29993	-6.36043E-001	7.41274E-006	1.54000E-005	......
	36	9.5583	-6.38493E-001	7.41274E-006	2.15400E-004	......
	37	9.8166	-6.38443E-001	7.41274E-006	1.54000E-005	......
	38	10.0749	-6.36943E-001	7.41274E-006	2.15400E-004	......
EOC	QUANT	-0.636943	Open Circuit (V)
PSTATMODEL	IQUANT	32	Pstat Model
PSTATSECTION	LABEL	PStat0	Pstat Section
CTRLMODE	IQUANT	1	Control Mode
IESTAB	IQUANT	0	I/E Stability
CASPEED	IQUANT	1	Control Amp Speed
CONVENTION	IQUANT	1	Current Convention
ICHRANGE	IQUANT	2	Ich Range
ICHRANGEMODE	TOGGLE	F	Ich Auto Range
ICHOFFSETENABLE	TOGGLE	T	Ich Offset Enable
ICHOFFSET	QUANT	0	Ich Offset (V)
ICHFILTER	IQUANT	3	Ich Filter
VCHRANGE	IQUANT	2	Vch Range
VCHRANGEMODE	TOGGLE	F	Vch Auto Range
VCHOFFSETENABLE	TOGGLE	T	Vch Offset Enable
VCHOFFSET	QUANT	0	Vch Offset (V)
VCHFILTER	IQUANT	3	Vch Filter
ACHRANGE	IQUANT	0	Ach Range
IERANGELOWERLIMIT	IQUANT	3	I/E Range Lower Limit
IERANGEMODE	TOGGLE	F	I/E AutoRange
IERANGE	IQUANT	11	I/E Range
POSFEEDENABLE	TOGGLE	F	Positive Feedback IR Comp
POSFEEDRESISTANCE	QUANT	0	Positive Feedback Resistance (ohm)
FC350IDIVISOR	IQUANT	0	FC350 I Divisor
FC350VRANGE	IQUANT	0	FC350 V Range
FRAMEWORKVERSION	QUANT	4.35	Framework Version
ZCURVE	TABLE
	Pt	Time	Freq	Zreal	Zimag	Zsig	Zmod	Zphz	Idc	Vdc	IERange
	#	s	Hz	ohm	ohm	V	ohm	°	A	V	#
	0	4	100007	34.9666	-1.01048	1	34.9812	-1.6553	1.2263E-005	-0.536832	10
	1	6	89134.1	34.785	-1.16334	1	34.8044	-1.91546	1.3967E-005	-0.536862	10
	2	8	79433.6	34.7595	-1.45297	1	34.7898	-2.3936	1.17047E-005	-0.536851	10
	3	10	70800.8	34.7745	-1.67737	1	34.8149	-2.76157	1.1512E-005	-0.536849	10
	4	12	63105.5	34.7446	-1.99614	1	34.8019	-3.28814	1.28792E-005	-0.536878	10
	5	14	56243.5	34.7417	-2.23261	1	34.8133	-3.67696	1.256E-005	-0.536855	10
	6	16	50123.7	34.7515	-2.58645	1	34.8476	-4.2565	1.17378E-005	-0.53685	10
	7	18	44681	34.7834	-2.90212	1	34.9042	-4.76939	1.29747E-005	-0.536868	10
	8	20	39811.2	34.8083	-3.27089	1	34.9616	-5.36824	1.08609E-005	-0.536842	10
	9	22	35488.3	34.8795	-3.69034	1	35.0742	-6.03958	1.28798E-005	-0.53687	10
	10	24	31634.1	34.9456	-4.18311	1	35.1951	-6.82601	1.06466E-005	-0.536876	10
	11	26	28173.1	34.9799	-4.6702	1	35.2902	-7.60466	1.08231E-005	-0.536861	10
	12	28	25123.7	35.1036	-5.21126	1	35.4883	-8.44411	9.30391E-006	-0.536858	10
	13	30	22389.3	35.1735	-5.77622	1	35.6446	-9.32593	1.12436E-005	-0.536881	10
	14	32	19954.4	35.315	-6.44795	1	35.8988	-10.3473	1.06975E-005	-0.536852	10
	15	34	17778.2	35.4421	-7.08735	1	36.1438	-11.3083	1.1017E-005	-0.536863	10
	16	36	15852.9	35.5097	-7.90857	1	36.3798	-12.5557	1.01456E-005	-0.536884	10
	17	38	14122.3	35.8031	-8.76661	1	36.8608	-13.7585	1.03723E-005	-0.536868	10
	18	40	12587.2	35.8863	-9.6979	1	37.1736	-15.1223	1.0158E-005	-0.536862	10
	19	42	11221.1	36.0901	-10.7435	1	37.6553	-16.5775	1.03905E-005	-0.536868	10
	20	44	9998.2	36.2817	-11.9227	1	38.1905	-18.1913	1.01059E-005	-0.536878	10
	21	46	8912.76	36.5513	-13.1873	1	38.8575	-19.8389	9.25781E-006	-0.536859	10
	22	48	7942.6	36.7427	-14.5603	1	39.5225	-21.6173	1.00802E-005	-0.536866	10
	23	49	7078.05	37.0161	-16.1881	1	40.401	-23.621	9.92766E-006	-0.536873	10
	24	51	6311.1	37.299	-17.9246	1	41.3824	-25.6673	1.01808E-005	-0.536869	10
	25	53	5622.14	37.5856	-19.8463	1	42.5035	-27.8353	1.03094E-005	-0.53688	10
	26	55	5011.18	37.9091	-21.9403	1	43.8004	-30.0606	9.99641E-006	-0.536874	10
	27	57	4465.21	38.3154	-24.3431	1	45.3945	-32.4291	1.02308E-005	-0.53687	10
	28	59	3980.93	38.6366	-26.9674	1	47.1172	-34.9141	1.15084E-005	-0.536871	10
	29	61	3548.18	39.0019	-29.874	1	49.1284	-37.4508	1.02681E-005	-0.536871	10
	30	63	3162.67	39.4067	-33.2169	1	51.5389	-40.1284	9.28667E-006	-0.536882	10
	31	65	2819.01	39.8722	-36.7996	1	54.2586	-42.7051	1.1797E-005	-0.536875	10
	32	67	2511.16	40.4027	-40.8854	1	57.4804	-45.3402	1.02752E-005	-0.536876	10
	33	69	2238.63	40.8365	-45.4057	1	61.068	-48.0327	1.03928E-005	-0.536882	10
	34	71	1995.37	41.54	-50.4005	1	65.3129	-50.5047	1.0642E-005	-0.536877	10
	35	73	1778.51	42.3757	-55.9159	1	70.159	-52.8434	1.09455E-005	-0.536867	10
	36	75	1584.49	43.1762	-62.1759	1	75.6969	-55.2231	1.15233E-005	-0.536884	10
	37	77	1412.76	43.9532	-69.1243	1	81.9149	-57.5494	1.07764E-005	-0.53689	10
	38	79	1259.04	44.8171	-77.1499	1	89.2227	-59.8473	1.06919E-005	-0.536873	10
	39	81	1121.63	45.9471	-85.5498	1	97.108	-61.7607	1.01856E-005	-0.536891	10
	40	83	999.95	47.0191	-95.113	1	106.101	-63.6946	1.07367E-005	-0.536874	10
	41	85	891.184	48.2267	-105.567	1	116.061	-65.4474	6.76788E-006	-0.536874	9
	42	87	794.163	49.6895	-117.771	1	127.824	-67.1243	6.42431E-006	-0.536861	9
	43	89	707.867	51.7496	-130.558	1	140.44	-68.378	5.31647E-006	-0.536859	9
	44	91	630.984	53.37	-146.111	1	155.553	-69.9342	5.36725E-006	-0.536867	9
	45	93	562.189	55.5732	-161.951	1	171.221	-71.0605	6.03489E-006	-0.536875	9
	46	95	501.303	57.482	-180.297	1	189.239	-72.3168	5.43864E-006	-0.53688	9
	47	97	446.614	60.0447	-200.682	1	209.473	-73.3427	5.51241E-006	-0.536878	9
	48	99	398.209	62.9812	-223.211	1	231.926	-74.243	5.80856E-006	-0.536877	9
	49	101	354.821	66.2574	-248.432	1	257.115	-75.0667	6.01325E-006	-0.536884	9
	50	103	316.113	70.0828	-276.444	1	285.189	-75.7744	6.36356E-006	-0.536882	9
	51	105	281.926	74.3062	-307.346	1	316.2	-76.4085	6.36316E-006	-0.536884	9
	52	107	251.185	78.938	-342.117	1	351.105	-77.0073	5.79588E-006	-0.536876	9
	53	109	223.946	85.0042	-380.603	1	389.98	-77.4101	6.63911E-006	-0.536869	9
	54	111	199.495	91.2684	-423.516	1	433.239	-77.8387	6.28428E-006	-0.536878	9
	55	113	177.836	98.233	-470.789	1	480.928	-78.214	6.58403E-006	-0.53688	9
	56	115	158.533	106.924	-523.64	1	534.445	-78.4592	6.70775E-006	-0.536879	9
	57	117	141.263	116.141	-582.469	1	593.935	-78.7235	6.71569E-006	-0.536884	9
	58	119	125.911	125.247	-647.897	1	659.892	-79.0589	5.99887E-006	-0.53689	9
	59	121	112.198	138.849	-720.12	1	733.384	-79.0865	6.09193E-006	-0.536887	9
	60	123	100.009	151.941	-801.385	1	815.662	-79.2643	5.93963E-006	-0.536886	9
	61	125	89.1164	170.371	-890.527	1	906.677	-79.1693	6.56082E-006	-0.536884	9
	62	127	79.4083	190.424	-990.88	1	1009.01	-79.1217	6.32637E-006	-0.536884	9
	63	129	70.788	215.87	-1100.35	1	1121.33	-78.9005	5.66427E-006	-0.536884	8
	64	131	63.0971	243.487	-1225.09	1	1249.05	-78.7589	5.61226E-006	-0.536885	8
	65	133	54.5476	271.53	-1397.45	1	1423.59	-79.0042	4.62266E-006	-0.536882	8
	66	135	50.0083	289.749	-1517.52	1	1544.94	-79.1903	4.20644E-006	-0.536878	8
	67	137	46.1675	309.532	-1637.56	1	1666.56	-79.2962	3.38734E-006	-0.536886	8
	68	140	40.0059	368.958	-1863.71	1	1899.88	-78.802	3.81709E-006	-0.536884	8
	69	142	35.3046	420.273	-2091.18	1	2132.99	-78.6364	3.8954E-006	-0.536885	8
	70	144	31.5793	521.614	-2307.7	1	2365.92	-77.2634	4.8014E-006	-0.536886	8
	71	146	28.5748	613.372	-2516.23	1	2589.91	-76.3004	4.98932E-006	-0.536885	8
	72	148	24.9911	733.851	-2838.11	1	2931.45	-75.5025	5.24966E-006	-0.536892	8
	73	150	22.2195	886.425	-3150.71	1	3273.03	-74.2865	5.46225E-006	-0.536888	8
	74	156	20.0011	1030.91	-3443.13	1	3594.15	-73.3317	4.99697E-006	-0.536885	8
	75	159	17.6486	1201.42	-3837.14	1	4020.83	-72.6144	4.52997E-006	-0.536889	8
	76	161	15.7934	1388.34	-4184.15	1	4408.47	-71.6437	4.59742E-006	-0.53689	8
	77	164	14.2828	1619.91	-4544.75	1	4824.81	-70.3822	4.7553E-006	-0.536887	8
	78	166	12.5002	1985.59	-5073.82	1	5448.5	-68.6276	4.78695E-006	-0.536893	8
	79	172	11.323	2232.67	-5478.7	1	5916.16	-67.8283	5.471E-006	-0.536886	8
	80	177	9.9987	2576.66	-6006.48	1	6535.82	-66.7817	5.2865E-006	-0.536882	8
