EXPLAIN
TAG	EISPOT
TITLE	LABEL	Tomato_open	Test &Identifier
DATE	LABEL	5/12/2006	Date
TIME	LABEL	17:39:26	Time
NOTES	NOTES	1	&Notes...
	
PSTAT	PSTAT	300	Potentiostat
VDC	POTEN	1.00000E-001	T	DC &Voltage (V)
FREQINIT	QUANT	1.00000E+005	Initial Fre&q. (Hz)
FREQFINAL	QUANT	1.00000E+001	Final Fre&q. (Hz)
PTSPERDEC	QUANT	2.00000E+001	Points/&decade
VAC	QUANT	1.00000E+001	AC &Voltage (mV rms)
AREA	QUANT	1.00000E+000	&Area (cm²)
DENSITY	QUANT	7.87000E+000	&Density (gm/cm³)
EQUIV	QUANT	7.00000E+000	Equiv. &Wt
CONDIT	TWOPARAM	F	1.50000E+001	0.00000E+000	Conditionin&g	Time(s)	E(V)
DELAY	TWOPARAM	F	6.00000E+002	0.00000E+000	Init. De&lay	Time(s)	Stab.(mV/s)
SPEED	SELECTOR	1	&Optimize for:
ZGUESS	QUANT	1.00000E+002	E&stimated Z (ohms)
OCVCURVE	TABLE	39
	Pt	T	Vf	Vm	Ach	Over
	#	s	V vs. Ref.	V	V	bits
	0	0.258332	-5.64719E-001	4.99576E-006	2.36600E-004	......
	1	0.516663	-5.64420E-001	4.99576E-006	1.36600E-004	......
	2	0.774994	-5.64569E-001	4.99576E-006	3.36600E-004	......
	3	1.03333	-5.64669E-001	4.99576E-006	3.66000E-005	......
	4	1.29166	-5.64419E-001	4.99576E-006	3.36600E-004	......
	5	1.54999	-5.64169E-001	4.99576E-006	2.36600E-004	......
	6	1.80832	-5.63819E-001	4.99576E-006	2.36600E-004	......
	7	2.06665	-5.63469E-001	4.99576E-006	3.36600E-004	......
	8	2.32498	-5.62769E-001	4.99576E-006	2.36600E-004	......
	9	2.58332	-5.62119E-001	4.99576E-006	2.36600E-004	......
	10	2.84165	-5.61919E-001	4.99576E-006	3.36600E-004	......
	11	3.09998	-5.63119E-001	4.99576E-006	2.36600E-004	......
	12	3.35831	-5.63469E-001	4.99576E-006	2.36600E-004	......
	13	3.61664	-5.64669E-001	4.99576E-006	2.36600E-004	......
	14	3.87497	-5.65669E-001	4.99576E-006	2.36600E-004	......
	15	4.1333	-5.67119E-001	4.99576E-006	3.66000E-005	......
	16	4.39164	-5.66719E-001	4.99576E-006	3.36600E-004	......
	17	4.64997	-5.67569E-001	4.99576E-006	1.36600E-004	......
	18	4.9083	-5.67369E-001	4.99576E-006	2.36600E-004	......
	19	5.16663	-5.66269E-001	4.99576E-006	3.66000E-005	......
	20	5.42496	-5.65769E-001	4.99576E-006	2.36600E-004	......
	21	5.68329	-5.66170E-001	4.99576E-006	2.36600E-004	......
	22	5.94162	-5.66869E-001	4.99576E-006	2.36600E-004	......
	23	6.19996	-5.66219E-001	4.99576E-006	2.36600E-004	......
	24	6.45829	-5.66170E-001	4.99576E-006	4.36600E-004	......
	25	6.71662	-5.66419E-001	4.99576E-006	2.36600E-004	......
	26	6.97495	-5.67119E-001	4.99576E-006	2.36600E-004	......
	27	7.23328	-5.67469E-001	4.99576E-006	3.36600E-004	......
	28	7.49161	-5.68019E-001	4.99576E-006	2.36600E-004	......
	29	7.74995	-5.67919E-001	4.99576E-006	2.36600E-004	......
	30	8.00828	-5.67620E-001	4.99576E-006	2.36600E-004	......
	31	8.26661	-5.68269E-001	4.99576E-006	3.36600E-004	......
	32	8.52494	-5.66619E-001	4.99576E-006	3.36600E-004	......
	33	8.78327	-5.66869E-001	4.99576E-006	3.66000E-005	......
	34	9.0416	-5.67819E-001	4.99576E-006	3.36600E-004	......
	35	9.29993	-5.68819E-001	4.99576E-006	2.36600E-004	......
	36	9.5583	-5.70719E-001	4.99576E-006	2.36600E-004	......
	37	9.8166	-5.71019E-001	4.99576E-006	3.66000E-005	......
	38	10.0749	-5.70870E-001	4.99576E-006	2.36600E-004	......
EOC	QUANT	-0.57087	Open Circuit (V)
PSTATMODEL	IQUANT	32	Pstat Model
PSTATSECTION	LABEL	PStat0	Pstat Section
CTRLMODE	IQUANT	1	Control Mode
IESTAB	IQUANT	0	I/E Stability
CASPEED	IQUANT	1	Control Amp Speed
CONVENTION	IQUANT	1	Current Convention
ICHRANGE	IQUANT	2	Ich Range
ICHRANGEMODE	TOGGLE	F	Ich Auto Range
ICHOFFSETENABLE	TOGGLE	T	Ich Offset Enable
ICHOFFSET	QUANT	0	Ich Offset (V)
ICHFILTER	IQUANT	3	Ich Filter
VCHRANGE	IQUANT	2	Vch Range
VCHRANGEMODE	TOGGLE	F	Vch Auto Range
VCHOFFSETENABLE	TOGGLE	T	Vch Offset Enable
VCHOFFSET	QUANT	0	Vch Offset (V)
VCHFILTER	IQUANT	3	Vch Filter
ACHRANGE	IQUANT	0	Ach Range
IERANGELOWERLIMIT	IQUANT	3	I/E Range Lower Limit
IERANGEMODE	TOGGLE	F	I/E AutoRange
IERANGE	IQUANT	11	I/E Range
POSFEEDENABLE	TOGGLE	F	Positive Feedback IR Comp
POSFEEDRESISTANCE	QUANT	0	Positive Feedback Resistance (ohm)
FC350IDIVISOR	IQUANT	0	FC350 I Divisor
FC350VRANGE	IQUANT	0	FC350 V Range
FRAMEWORKVERSION	QUANT	4.35	Framework Version
ZCURVE	TABLE
	Pt	Time	Freq	Zreal	Zimag	Zsig	Zmod	Zphz	Idc	Vdc	IERange
	#	s	Hz	ohm	ohm	V	ohm	°	A	V	#
	0	4	100007	121.155	-0.427793	1	121.155	-0.202308	4.18729E-006	-0.470564	9
	1	6	89134.1	120.532	-0.493932	1	120.533	-0.234793	4.36418E-006	-0.470547	9
	2	8	79433.6	120.322	-0.87481	1	120.325	-0.416565	4.69812E-006	-0.470543	9
	3	10	70800.8	119.908	-1.2298	1	119.914	-0.587615	4.95857E-006	-0.470548	9
	4	12	63105.5	119.955	-1.42412	1	119.964	-0.680187	5.06856E-006	-0.470572	9
	5	14	56243.5	119.667	-1.70124	1	119.679	-0.814485	5.0896E-006	-0.470561	9
	6	16	50123.7	119.649	-2.06806	1	119.667	-0.99022	5.13715E-006	-0.470572	9
	7	18	44681	119.493	-2.46406	1	119.519	-1.18132	4.86509E-006	-0.470578	9
	8	20	39811.2	119.535	-2.62388	1	119.564	-1.25748	4.68095E-006	-0.470564	9
	9	22	35488.3	119.419	-3.0914	1	119.459	-1.48289	4.55038E-006	-0.470553	9
	10	24	31634.1	119.499	-3.50968	1	119.551	-1.68228	4.41106E-006	-0.470537	9
	11	26	28173.1	119.616	-3.82177	1	119.677	-1.83	4.49151E-006	-0.470561	9
	12	28	25123.7	119.719	-4.28088	1	119.796	-2.04789	4.13348E-006	-0.470564	9
	13	30	22389.3	119.67	-4.6338	1	119.76	-2.21746	4.0437E-006	-0.470567	9
	14	32	19954.4	119.86	-5.19927	1	119.972	-2.48381	3.71321E-006	-0.470549	9
	15	34	17778.2	120.027	-5.78472	1	120.166	-2.75924	3.65213E-006	-0.47056	9
	16	36	15852.9	119.936	-6.35028	1	120.104	-3.03083	3.67265E-006	-0.470554	9
	17	38	14122.3	120.087	-7.1586	1	120.3	-3.41147	3.33465E-006	-0.470535	9
	18	40	12587.2	120.412	-7.7607	1	120.662	-3.68768	3.36467E-006	-0.470546	9
	19	42	11221.1	120.755	-8.51124	1	121.055	-4.03174	3.47176E-006	-0.470537	9
	20	44	9998.2	120.747	-9.5758	1	121.126	-4.53434	3.6099E-006	-0.470536	9
	21	45	8912.76	120.94	-10.5596	1	121.4	-4.99	3.32981E-006	-0.470525	9
	22	47	7942.6	121.372	-11.5987	1	121.925	-5.45879	3.48862E-006	-0.470524	9
	23	49	7078.05	121.67	-12.9057	1	122.353	-6.05482	3.29215E-006	-0.470535	9
	24	51	6311.1	121.858	-13.9821	1	122.658	-6.54554	3.52728E-006	-0.470523	9
	25	53	5622.14	122.076	-15.8017	1	123.094	-7.37546	3.56421E-006	-0.470529	9
	26	55	5011.18	122.552	-17.335	1	123.771	-8.05114	3.6277E-006	-0.470537	9
	27	57	4465.21	122.741	-19.072	1	124.214	-8.83225	3.37434E-006	-0.470548	9
	28	59	3980.93	123.132	-21.029	1	124.915	-9.6917	3.49093E-006	-0.470555	9
	29	61	3548.18	123.671	-23.3946	1	125.865	-10.7119	3.28431E-006	-0.470541	9
	30	63	3162.67	124.062	-25.6088	1	126.678	-11.6631	3.54476E-006	-0.470554	9
	31	65	2819.01	124.653	-28.4576	1	127.861	-12.8599	3.40642E-006	-0.470526	9
	32	67	2511.16	125.274	-31.5949	1	129.197	-14.1551	3.38776E-006	-0.470547	9
	33	69	2238.63	125.715	-34.6255	1	130.397	-15.3991	3.24334E-006	-0.470548	9
	34	71	1995.37	126.436	-38.4157	1	132.143	-16.9006	3.19817E-006	-0.470545	9
	35	73	1778.51	127.436	-42.4925	1	134.334	-18.4405	3.40545E-006	-0.470542	9
	36	75	1584.49	128.311	-46.8777	1	136.606	-20.0695	3.08357E-006	-0.470528	9
	37	77	1412.76	129.094	-51.5971	1	139.023	-21.7859	3.37692E-006	-0.470538	9
	38	79	1259.04	130.305	-57.1822	1	142.3	-23.6935	3.45895E-006	-0.47054	9
	39	81	1121.63	131.188	-63.2481	1	145.639	-25.7395	3.45956E-006	-0.470545	9
	40	83	999.95	132.432	-69.905	1	149.75	-27.8276	3.25062E-006	-0.470545	9
	41	85	891.184	133.841	-77.3274	1	154.573	-30.0175	3.19326E-006	-0.470545	9
	42	87	794.163	134.998	-85.2769	1	159.677	-32.2801	2.95912E-006	-0.47055	9
	43	89	707.867	136.667	-94.6361	1	166.234	-34.701	2.77767E-006	-0.470534	9
	44	91	630.984	138.312	-104.773	1	173.516	-37.1444	2.94879E-006	-0.470553	9
	45	93	562.189	139.813	-115.981	1	181.657	-39.6772	2.85106E-006	-0.470521	9
	46	95	501.303	141.672	-128.428	1	191.219	-42.1929	3.28238E-006	-0.470538	9
	47	97	446.614	143.667	-142.392	1	202.276	-44.7446	3.55331E-006	-0.470542	9
	48	99	398.209	145.789	-157.819	1	214.852	-47.2689	3.50942E-006	-0.47054	9
	49	101	354.821	148.17	-175.041	1	229.333	-49.7524	3.40399E-006	-0.470545	9
	50	103	316.113	150.751	-194.259	1	245.891	-52.1874	3.30257E-006	-0.470541	9
	51	105	281.926	153.562	-215.473	1	264.594	-54.5235	3.1634E-006	-0.47054	9
	52	107	251.185	156.698	-239.308	1	286.047	-56.7834	3.14417E-006	-0.47054	9
	53	109	223.946	160.144	-265.683	1	310.215	-58.92	3.17518E-006	-0.470544	9
	54	111	199.495	163.999	-295.26	1	337.749	-60.9506	2.99887E-006	-0.470534	9
	55	113	177.836	168.285	-328.141	1	368.777	-62.8493	3.02759E-006	-0.470541	9
	56	115	158.533	173.037	-364.651	1	403.623	-64.6143	2.8414E-006	-0.470543	9
	57	117	141.263	178.313	-405.408	1	442.89	-66.2584	2.82868E-006	-0.470544	9
	58	119	125.911	184.083	-450.738	1	486.879	-67.7847	2.79926E-006	-0.470545	9
	59	121	112.198	190.97	-501.46	1	536.593	-69.1518	2.89675E-006	-0.47055	9
	60	123	100.009	198.234	-557.709	1	591.892	-70.4326	2.4707E-006	-0.470549	9
	61	125	89.1164	206.834	-620.386	1	653.956	-71.5619	2.60972E-006	-0.470546	9
	62	127	79.4083	216.95	-690.578	1	723.854	-72.5595	2.76972E-006	-0.470553	9
	63	129	70.788	228.357	-768.306	1	801.524	-73.4469	2.75333E-006	-0.470542	9
	64	131	63.0971	241.037	-854.634	1	887.974	-74.2497	2.7171E-006	-0.470543	9
	65	133	54.5476	262.212	-978.32	1	1012.85	-74.996	3.06704E-006	-0.470549	9
	66	135	50.0083	273.955	-1059.44	1	1094.29	-75.5018	2.05807E-006	-0.470553	8
	67	137	46.1675	288.069	-1140.6	1	1176.42	-75.8259	2.1175E-006	-0.470553	8
	68	139	40.0059	316.167	-1301.87	1	1339.71	-76.3497	2.17727E-006	-0.470557	8
	69	142	35.3046	346.219	-1461.95	1	1502.39	-76.6767	2.21415E-006	-0.470556	8
	70	144	31.5793	375.993	-1620.48	1	1663.53	-76.9371	2.17954E-006	-0.470545	8
	71	146	28.5748	406.052	-1777.03	1	1822.83	-77.1289	2.0101E-006	-0.470553	8
	72	148	24.9911	457.953	-2011.18	1	2062.66	-77.1723	2.10157E-006	-0.47056	8
	73	150	22.2195	512.546	-2239.89	1	2297.79	-77.1111	2.17836E-006	-0.470559	8
	74	152	20.0011	570.64	-2466.53	1	2531.68	-76.9736	2.08639E-006	-0.470564	8
	75	155	17.6486	658.449	-2765.35	1	2842.66	-76.6069	2.25642E-006	-0.470563	8
	76	157	15.7934	752.052	-3051.22	1	3142.54	-76.154	2.36922E-006	-0.470571	8
	77	159	14.2828	837.021	-3344.8	1	3447.94	-75.9505	2.14291E-006	-0.470565	8
	78	162	12.5002	979.81	-3767.56	1	3892.88	-75.4223	2.11212E-006	-0.470568	8
	79	164	11.323	1088.97	-4124.66	1	4265.99	-75.2106	2.1717E-006	-0.470568	8
	80	167	9.9987	1309.33	-4587.13	1	4770.34	-74.0693	2.18471E-006	-0.470565	8
