EXPLAIN
TAG	EISPOT
TITLE	LABEL	Tomato_open	Test &Identifier
DATE	LABEL	5/12/2006	Date
TIME	LABEL	17:54:26	Time
NOTES	NOTES	1	&Notes...
	
PSTAT	PSTAT	300	Potentiostat
VDC	POTEN	1.00000E-001	T	DC &Voltage (V)
FREQINIT	QUANT	1.00000E+005	Initial Fre&q. (Hz)
FREQFINAL	QUANT	1.00000E+001	Final Fre&q. (Hz)
PTSPERDEC	QUANT	2.00000E+001	Points/&decade
VAC	QUANT	1.00000E+001	AC &Voltage (mV rms)
AREA	QUANT	1.00000E+000	&Area (cm²)
DENSITY	QUANT	7.87000E+000	&Density (gm/cm³)
EQUIV	QUANT	7.00000E+000	Equiv. &Wt
CONDIT	TWOPARAM	F	1.50000E+001	0.00000E+000	Conditionin&g	Time(s)	E(V)
DELAY	TWOPARAM	F	6.00000E+002	0.00000E+000	Init. De&lay	Time(s)	Stab.(mV/s)
SPEED	SELECTOR	1	&Optimize for:
ZGUESS	QUANT	1.00000E+002	E&stimated Z (ohms)
OCVCURVE	TABLE	39
	Pt	T	Vf	Vm	Ach	Over
	#	s	V vs. Ref.	V	V	bits
	0	0.258332	-5.78319E-001	4.82176E-006	3.66000E-005	......
	1	0.516663	-5.79419E-001	4.82176E-006	3.66000E-005	......
	2	0.774994	-5.79569E-001	4.82176E-006	3.66000E-005	......
	3	1.03333	-5.79719E-001	4.82176E-006	3.36600E-004	......
	4	1.29166	-5.79820E-001	4.82176E-006	-6.34000E-005	......
	5	1.54999	-5.74619E-001	4.82176E-006	2.36600E-004	......
	6	1.80832	-5.64519E-001	4.82176E-006	3.66000E-005	......
	7	2.06665	-5.63519E-001	4.82176E-006	1.36600E-004	......
	8	2.32498	-5.65470E-001	4.82176E-006	3.66000E-005	......
	9	2.58332	-5.65870E-001	4.82176E-006	2.36600E-004	......
	10	2.84165	-5.66719E-001	4.82176E-006	3.66000E-005	......
	11	3.09998	-5.68519E-001	4.82176E-006	3.66000E-005	......
	12	3.35831	-5.69919E-001	4.82176E-006	3.66000E-005	......
	13	3.61664	-5.70419E-001	4.82176E-006	3.36600E-004	......
	14	3.87497	-5.71519E-001	4.82176E-006	-1.63400E-004	......
	15	4.1333	-5.72369E-001	4.82176E-006	2.36600E-004	......
	16	4.39164	-5.67670E-001	4.82176E-006	3.66000E-005	......
	17	4.64997	-5.67620E-001	4.82176E-006	2.36600E-004	......
	18	4.9083	-5.68569E-001	4.82176E-006	-6.34000E-005	......
	19	5.16663	-5.69119E-001	4.82176E-006	2.36600E-004	......
	20	5.42496	-5.69619E-001	4.82176E-006	3.66000E-005	......
	21	5.68329	-5.70669E-001	4.82176E-006	3.66000E-005	......
	22	5.94162	-5.71119E-001	4.82176E-006	3.66000E-005	......
	23	6.19996	-5.70170E-001	4.82176E-006	2.36600E-004	......
	24	6.45829	-5.69719E-001	4.82176E-006	-1.63400E-004	......
	25	6.71662	-5.69869E-001	4.82176E-006	2.36600E-004	......
	26	6.97495	-5.70520E-001	4.82176E-006	3.66000E-005	......
	27	7.23328	-5.71270E-001	4.82176E-006	2.36600E-004	......
	28	7.49161	-5.72869E-001	4.82176E-006	-6.34000E-005	......
	29	7.74995	-5.72869E-001	4.82176E-006	2.36600E-004	......
	30	8.00828	-5.74669E-001	4.82176E-006	-6.34000E-005	......
	31	8.26661	-5.75870E-001	4.82176E-006	2.36600E-004	......
	32	8.52494	-5.76719E-001	4.82176E-006	-6.34000E-005	......
	33	8.78327	-5.76919E-001	4.82176E-006	1.36600E-004	......
	34	9.0416	-5.74669E-001	4.82176E-006	3.66000E-005	......
	35	9.29993	-5.72719E-001	4.82176E-006	2.36600E-004	......
	36	9.5583	-5.72569E-001	4.82176E-006	-6.34000E-005	......
	37	9.8166	-5.72819E-001	4.82176E-006	2.36600E-004	......
	38	10.0749	-5.73819E-001	4.82176E-006	3.66000E-005	......
EOC	QUANT	-0.573819	Open Circuit (V)
PSTATMODEL	IQUANT	32	Pstat Model
PSTATSECTION	LABEL	PStat0	Pstat Section
CTRLMODE	IQUANT	1	Control Mode
IESTAB	IQUANT	0	I/E Stability
CASPEED	IQUANT	1	Control Amp Speed
CONVENTION	IQUANT	1	Current Convention
ICHRANGE	IQUANT	2	Ich Range
ICHRANGEMODE	TOGGLE	F	Ich Auto Range
ICHOFFSETENABLE	TOGGLE	T	Ich Offset Enable
ICHOFFSET	QUANT	0	Ich Offset (V)
ICHFILTER	IQUANT	3	Ich Filter
VCHRANGE	IQUANT	2	Vch Range
VCHRANGEMODE	TOGGLE	F	Vch Auto Range
VCHOFFSETENABLE	TOGGLE	T	Vch Offset Enable
VCHOFFSET	QUANT	0	Vch Offset (V)
VCHFILTER	IQUANT	3	Vch Filter
ACHRANGE	IQUANT	0	Ach Range
IERANGELOWERLIMIT	IQUANT	3	I/E Range Lower Limit
IERANGEMODE	TOGGLE	F	I/E AutoRange
IERANGE	IQUANT	11	I/E Range
POSFEEDENABLE	TOGGLE	F	Positive Feedback IR Comp
POSFEEDRESISTANCE	QUANT	0	Positive Feedback Resistance (ohm)
FC350IDIVISOR	IQUANT	0	FC350 I Divisor
FC350VRANGE	IQUANT	0	FC350 V Range
FRAMEWORKVERSION	QUANT	4.35	Framework Version
ZCURVE	TABLE
	Pt	Time	Freq	Zreal	Zimag	Zsig	Zmod	Zphz	Idc	Vdc	IERange
	#	s	Hz	ohm	ohm	V	ohm	°	A	V	#
	0	4	100007	118.956	-0.557497	1	118.958	-0.268518	4.13331E-006	-0.473645	9
	1	6	89134.1	118.532	-0.645473	1	118.533	-0.312006	4.20531E-006	-0.473648	9
	2	8	79433.6	118.117	-0.814272	1	118.119	-0.39498	3.99676E-006	-0.473644	9
	3	10	70800.8	117.905	-1.08781	1	117.91	-0.528605	4.1177E-006	-0.47366	9
	4	12	63105.5	117.636	-1.41901	1	117.644	-0.691112	4.30106E-006	-0.47366	9
	5	14	56243.5	117.671	-1.77263	1	117.684	-0.863055	4.09382E-006	-0.473652	9
	6	16	50123.7	117.508	-1.85568	1	117.522	-0.904739	4.1341E-006	-0.473653	9
	7	18	44681	117.248	-2.44183	1	117.274	-1.19308	3.67835E-006	-0.473636	9
	8	20	39811.2	117.401	-2.70943	1	117.433	-1.32206	3.99473E-006	-0.473655	9
	9	22	35488.3	117.492	-3.06507	1	117.532	-1.49437	3.71676E-006	-0.473644	9
	10	24	31634.1	117.538	-3.48777	1	117.59	-1.69967	3.77779E-006	-0.473641	9
	11	26	28173.1	117.554	-3.77115	1	117.614	-1.83743	3.66776E-006	-0.473641	9
	12	28	25123.7	117.609	-4.35109	1	117.689	-2.11877	3.95474E-006	-0.47366	9
	13	30	22389.3	117.72	-4.79955	1	117.818	-2.33471	3.72242E-006	-0.47363	9
	14	32	19954.4	117.911	-5.18605	1	118.025	-2.5184	3.84032E-006	-0.473634	9
	15	34	17778.2	118.022	-5.81824	1	118.165	-2.82229	3.87807E-006	-0.473647	9
	16	36	15852.9	118.219	-6.41839	1	118.394	-3.10766	3.77442E-006	-0.473645	9
	17	38	14122.3	118.305	-7.1793	1	118.522	-3.47272	3.75635E-006	-0.473646	9
	18	40	12587.2	118.512	-8.15115	1	118.792	-3.93456	3.51453E-006	-0.473651	9
	19	42	11221.1	118.561	-8.64205	1	118.876	-4.16897	3.37538E-006	-0.47365	9
	20	44	9998.2	118.64	-9.6299	1	119.03	-4.64047	3.55067E-006	-0.473653	9
	21	46	8912.76	119.043	-10.5692	1	119.512	-5.07366	3.31884E-006	-0.47364	9
	22	48	7942.6	119.281	-11.7083	1	119.854	-5.60607	3.59849E-006	-0.47366	9
	23	49	7078.05	119.467	-12.9537	1	120.167	-6.18836	3.60868E-006	-0.473637	9
	24	51	6311.1	119.876	-14.3174	1	120.728	-6.81089	3.56163E-006	-0.473651	9
	25	53	5622.14	120.011	-15.9063	1	121.06	-7.55002	3.56492E-006	-0.473646	9
	26	55	5011.18	120.382	-17.395	1	121.632	-8.22226	3.56324E-006	-0.473638	9
	27	57	4465.21	120.833	-19.3477	1	122.372	-9.09699	3.50738E-006	-0.47364	9
	28	59	3980.93	121.108	-21.2344	1	122.956	-9.9448	3.4491E-006	-0.473652	9
	29	61	3548.18	121.678	-23.534	1	123.933	-10.9465	3.50481E-006	-0.473671	9
	30	63	3162.67	122.21	-26.0622	1	124.959	-12.0384	3.23859E-006	-0.473655	9
	31	65	2819.01	122.669	-28.7753	1	125.998	-13.2016	3.49845E-006	-0.473658	9
	32	67	2511.16	123.398	-31.8044	1	127.431	-14.4528	3.49012E-006	-0.473652	9
	33	69	2238.63	123.963	-35.2736	1	128.884	-15.8837	3.17542E-006	-0.473643	9
	34	71	1995.37	124.866	-39.0712	1	130.836	-17.3752	3.28187E-006	-0.473649	9
	35	73	1778.51	125.371	-43.0108	1	132.543	-18.9355	3.37335E-006	-0.473641	9
	36	75	1584.49	126.205	-47.3893	1	134.809	-20.5809	3.32953E-006	-0.473643	9
	37	77	1412.76	127.027	-52.5273	1	137.459	-22.4657	3.45585E-006	-0.473657	9
	38	79	1259.04	128.096	-58.0917	1	140.653	-24.3944	3.29804E-006	-0.473641	9
	39	81	1121.63	129.351	-64.1401	1	144.381	-26.3749	3.15334E-006	-0.473637	9
	40	83	999.95	130.742	-70.5886	1	148.581	-28.365	3.1471E-006	-0.473642	9
	41	85	891.184	131.899	-78.127	1	153.301	-30.6392	2.79912E-006	-0.473645	9
	42	87	794.163	133.089	-86.6949	1	158.835	-33.0804	2.97201E-006	-0.47364	9
	43	89	707.867	134.51	-96.095	1	165.309	-35.5422	2.87909E-006	-0.473648	9
	44	91	630.984	136.335	-106.383	1	172.93	-37.9651	2.84196E-006	-0.473652	9
	45	93	562.189	138.115	-117.644	1	181.427	-40.4238	3.15068E-006	-0.473656	9
	46	95	501.303	139.922	-130.326	1	191.214	-42.9664	3.16728E-006	-0.473636	9
	47	97	446.614	141.902	-144.487	1	202.516	-45.5172	2.82938E-006	-0.473639	9
	48	99	398.209	144.063	-160.132	1	215.398	-48.0238	2.73387E-006	-0.473639	9
	49	101	354.821	146.442	-177.606	1	230.193	-50.4933	2.63171E-006	-0.473637	9
	50	103	316.113	149.045	-197.144	1	247.144	-52.9099	2.8204E-006	-0.473635	9
	51	105	281.926	151.871	-218.625	1	266.198	-55.2137	2.7942E-006	-0.473642	9
	52	107	251.185	154.96	-242.771	1	288.011	-57.4501	2.87081E-006	-0.473639	9
	53	109	223.946	158.398	-269.566	1	312.659	-59.5613	3.09196E-006	-0.473642	9
	54	111	199.495	162.267	-299.6	1	340.721	-61.5596	3.10973E-006	-0.473642	9
	55	113	177.836	166.563	-332.877	1	372.224	-63.4178	3.31682E-006	-0.473643	9
	56	115	158.533	171.306	-369.928	1	407.668	-65.1521	3.46856E-006	-0.473645	9
	57	117	141.263	176.61	-411.387	1	447.695	-66.766	3.48999E-006	-0.473642	9
	58	119	125.911	182.896	-457.564	1	492.763	-68.2126	3.69517E-006	-0.473644	9
	59	121	112.198	189.489	-508.948	1	543.079	-69.5789	3.46098E-006	-0.473647	9
	60	123	100.009	196.723	-566.161	1	599.365	-70.8393	3.12707E-006	-0.473646	9
	61	125	89.1164	205.693	-630.071	1	662.797	-71.9202	3.31633E-006	-0.473647	9
	62	127	79.4083	216.145	-701.167	1	733.726	-72.8673	3.55303E-006	-0.473652	9
	63	129	70.788	227.343	-780.068	1	812.521	-73.7518	3.47909E-006	-0.473648	9
	64	131	63.0971	240.643	-868.486	1	901.209	-74.5128	3.30705E-006	-0.473651	9
	65	133	54.5476	259.867	-993.93	1	1027.34	-75.3478	3.3709E-006	-0.473644	9
	66	135	50.0083	272.653	-1076.99	1	1110.96	-75.7933	2.25417E-006	-0.473644	8
	67	137	46.1675	283.92	-1159.5	1	1193.76	-76.241	2.12279E-006	-0.473642	8
	68	139	40.0059	309.305	-1324.27	1	1359.91	-76.8533	2.00614E-006	-0.473643	8
	69	142	35.3046	337.953	-1487.93	1	1525.83	-77.2035	2.08784E-006	-0.473643	8
	70	144	31.5793	366.796	-1649.57	1	1689.86	-77.4638	2.0472E-006	-0.473648	8
	71	146	28.5748	402.646	-1809.71	1	1853.96	-77.4565	2.23728E-006	-0.473646	8
	72	148	24.9911	449.9	-2047.85	1	2096.69	-77.6093	2.21234E-006	-0.473646	8
	73	150	22.2195	507.422	-2280.44	1	2336.22	-77.4555	2.44646E-006	-0.473646	8
	74	152	20.0011	563.96	-2513.16	1	2575.66	-77.3522	2.45723E-006	-0.473642	8
	75	155	17.6486	650.342	-2816.87	1	2890.97	-76.9997	2.48491E-006	-0.473647	8
	76	157	15.7934	730.786	-3116.89	1	3201.41	-76.8048	2.38372E-006	-0.473644	8
	77	159	14.2828	814.711	-3413.9	1	3509.77	-76.5777	2.3974E-006	-0.473648	8
	78	162	12.5002	957.36	-3849.03	1	3966.3	-76.0324	2.47614E-006	-0.473648	8
	79	164	11.323	1085.84	-4201.95	1	4339.98	-75.5109	2.34292E-006	-0.473643	8
	80	167	9.9987	1256.93	-4697.89	1	4863.13	-75.0212	2.26174E-006	-0.473645	8
