EXPLAIN
TAG	EISPOT
TITLE	LABEL	Tomato_open	Test &Identifier
DATE	LABEL	5/12/2006	Date
TIME	LABEL	17:49:27	Time
NOTES	NOTES	1	&Notes...
	
PSTAT	PSTAT	300	Potentiostat
VDC	POTEN	1.00000E-001	T	DC &Voltage (V)
FREQINIT	QUANT	1.00000E+005	Initial Fre&q. (Hz)
FREQFINAL	QUANT	1.00000E+001	Final Fre&q. (Hz)
PTSPERDEC	QUANT	2.00000E+001	Points/&decade
VAC	QUANT	1.00000E+001	AC &Voltage (mV rms)
AREA	QUANT	1.00000E+000	&Area (cm²)
DENSITY	QUANT	7.87000E+000	&Density (gm/cm³)
EQUIV	QUANT	7.00000E+000	Equiv. &Wt
CONDIT	TWOPARAM	F	1.50000E+001	0.00000E+000	Conditionin&g	Time(s)	E(V)
DELAY	TWOPARAM	F	6.00000E+002	0.00000E+000	Init. De&lay	Time(s)	Stab.(mV/s)
SPEED	SELECTOR	1	&Optimize for:
ZGUESS	QUANT	1.00000E+002	E&stimated Z (ohms)
OCVCURVE	TABLE	39
	Pt	T	Vf	Vm	Ach	Over
	#	s	V vs. Ref.	V	V	bits
	0	0.258332	-5.64369E-001	5.34476E-006	2.36600E-004	......
	1	0.516663	-5.63869E-001	5.34476E-006	-6.34000E-005	......
	2	0.774994	-5.67069E-001	5.34476E-006	3.36600E-004	......
	3	1.03333	-5.68019E-001	5.34476E-006	3.66000E-005	......
	4	1.29166	-5.67670E-001	5.34476E-006	2.36600E-004	......
	5	1.54999	-5.66920E-001	5.34476E-006	-6.34000E-005	......
	6	1.80832	-5.67670E-001	5.34476E-006	2.36600E-004	......
	7	2.06665	-5.69770E-001	5.34476E-006	-6.34000E-005	......
	8	2.32498	-5.70870E-001	5.34476E-006	1.36600E-004	......
	9	2.58332	-5.72769E-001	5.34476E-006	3.66000E-005	......
	10	2.84165	-5.74269E-001	5.34476E-006	3.36600E-004	......
	11	3.09998	-5.74820E-001	5.34476E-006	3.66000E-005	......
	12	3.35831	-5.74969E-001	5.34476E-006	2.36600E-004	......
	13	3.61664	-5.75619E-001	5.34476E-006	-6.34000E-005	......
	14	3.87497	-5.72319E-001	5.34476E-006	2.36600E-004	......
	15	4.1333	-5.69919E-001	5.34476E-006	3.66000E-005	......
	16	4.39164	-5.65219E-001	5.34476E-006	2.36600E-004	......
	17	4.64997	-5.65569E-001	5.34476E-006	-6.34000E-005	......
	18	4.9083	-5.67620E-001	5.34476E-006	2.36600E-004	......
	19	5.16663	-5.68319E-001	5.34476E-006	3.66000E-005	......
	20	5.42496	-5.69070E-001	5.34476E-006	1.36600E-004	......
	21	5.68329	-5.69470E-001	5.34476E-006	3.66000E-005	......
	22	5.94162	-5.70769E-001	5.34476E-006	2.36600E-004	......
	23	6.19996	-5.70919E-001	5.34476E-006	-6.34000E-005	......
	24	6.45829	-5.71220E-001	5.34476E-006	2.36600E-004	......
	25	6.71662	-5.71669E-001	5.34476E-006	3.66000E-005	......
	26	6.97495	-5.71269E-001	5.34476E-006	2.36600E-004	......
	27	7.23328	-5.71270E-001	5.34476E-006	3.66000E-005	......
	28	7.49161	-5.71819E-001	5.34476E-006	2.36600E-004	......
	29	7.74995	-5.73020E-001	5.34476E-006	-6.34000E-005	......
	30	8.00828	-5.73469E-001	5.34476E-006	3.36600E-004	......
	31	8.26661	-5.72419E-001	5.34476E-006	-6.34000E-005	......
	32	8.52494	-5.71419E-001	5.34476E-006	2.36600E-004	......
	33	8.78327	-5.71869E-001	5.34476E-006	3.66000E-005	......
	34	9.0416	-5.72919E-001	5.34476E-006	2.36600E-004	......
	35	9.29993	-5.72919E-001	5.34476E-006	3.66000E-005	......
	36	9.5583	-5.71819E-001	5.34476E-006	1.36600E-004	......
	37	9.8166	-5.72119E-001	5.34476E-006	3.66000E-005	......
	38	10.0749	-5.72769E-001	5.34476E-006	2.36600E-004	......
EOC	QUANT	-0.572769	Open Circuit (V)
PSTATMODEL	IQUANT	32	Pstat Model
PSTATSECTION	LABEL	PStat0	Pstat Section
CTRLMODE	IQUANT	1	Control Mode
IESTAB	IQUANT	0	I/E Stability
CASPEED	IQUANT	1	Control Amp Speed
CONVENTION	IQUANT	1	Current Convention
ICHRANGE	IQUANT	2	Ich Range
ICHRANGEMODE	TOGGLE	F	Ich Auto Range
ICHOFFSETENABLE	TOGGLE	T	Ich Offset Enable
ICHOFFSET	QUANT	0	Ich Offset (V)
ICHFILTER	IQUANT	3	Ich Filter
VCHRANGE	IQUANT	2	Vch Range
VCHRANGEMODE	TOGGLE	F	Vch Auto Range
VCHOFFSETENABLE	TOGGLE	T	Vch Offset Enable
VCHOFFSET	QUANT	0	Vch Offset (V)
VCHFILTER	IQUANT	3	Vch Filter
ACHRANGE	IQUANT	0	Ach Range
IERANGELOWERLIMIT	IQUANT	3	I/E Range Lower Limit
IERANGEMODE	TOGGLE	F	I/E AutoRange
IERANGE	IQUANT	11	I/E Range
POSFEEDENABLE	TOGGLE	F	Positive Feedback IR Comp
POSFEEDRESISTANCE	QUANT	0	Positive Feedback Resistance (ohm)
FC350IDIVISOR	IQUANT	0	FC350 I Divisor
FC350VRANGE	IQUANT	0	FC350 V Range
FRAMEWORKVERSION	QUANT	4.35	Framework Version
ZCURVE	TABLE
	Pt	Time	Freq	Zreal	Zimag	Zsig	Zmod	Zphz	Idc	Vdc	IERange
	#	s	Hz	ohm	ohm	V	ohm	°	A	V	#
	0	5	100007	119.509	-0.13278	1	119.509	-0.063658	3.42443E-006	-0.472688	9
	1	7	89134.1	118.819	-0.591903	1	118.821	-0.28542	3.72629E-006	-0.472677	9
	2	9	79433.6	118.492	-0.92779	1	118.496	-0.448616	4.18382E-006	-0.472708	9
	3	10	70800.8	118.255	-1.12604	1	118.261	-0.545561	4.63224E-006	-0.472717	9
	4	12	63105.5	117.91	-1.45812	1	117.919	-0.708507	4.78013E-006	-0.472689	9
	5	14	56243.5	118.004	-1.69626	1	118.017	-0.823547	4.82271E-006	-0.472707	9
	6	16	50123.7	117.884	-1.99235	1	117.901	-0.96826	4.89801E-006	-0.472707	9
	7	18	44681	117.726	-2.34132	1	117.75	-1.13934	4.44887E-006	-0.472678	9
	8	20	39811.2	117.774	-2.72923	1	117.806	-1.3275	4.30267E-006	-0.47268	9
	9	22	35488.3	117.766	-3.17952	1	117.809	-1.54652	4.09943E-006	-0.472679	9
	10	24	31634.1	117.745	-3.59012	1	117.8	-1.74644	4.07024E-006	-0.472704	9
	11	26	28173.1	117.819	-3.87109	1	117.883	-1.88184	3.90235E-006	-0.472695	9
	12	28	25123.7	118.016	-4.41554	1	118.098	-2.14271	3.78876E-006	-0.472681	9
	13	30	22389.3	118.17	-4.70365	1	118.264	-2.27939	4.00835E-006	-0.472683	9
	14	32	19954.4	118.152	-5.4237	1	118.276	-2.62828	3.89029E-006	-0.472682	9
	15	34	17778.2	118.438	-5.96375	1	118.588	-2.88261	3.89973E-006	-0.472697	9
	16	36	15852.9	118.553	-6.52386	1	118.732	-3.14976	3.63345E-006	-0.472679	9
	17	38	14122.3	118.597	-7.22622	1	118.817	-3.48676	3.96793E-006	-0.472698	9
	18	40	12587.2	118.771	-7.85238	1	119.03	-3.78252	3.74154E-006	-0.472689	9
	19	42	11221.1	118.939	-8.7055	1	119.257	-4.18619	3.92188E-006	-0.472697	9
	20	44	9998.2	119.098	-9.6472	1	119.488	-4.63097	3.58676E-006	-0.472695	9
	21	46	8912.76	119.53	-10.6887	1	120.007	-5.10996	3.51767E-006	-0.472684	9
	22	48	7942.6	119.637	-11.6192	1	120.2	-5.54721	3.72593E-006	-0.472688	9
	23	50	7078.05	119.724	-12.9814	1	120.426	-6.18828	3.51692E-006	-0.472703	9
	24	52	6311.1	120.065	-14.2407	1	120.906	-6.76419	3.65481E-006	-0.472694	9
	25	54	5622.14	120.4	-15.745	1	121.425	-7.45042	3.74707E-006	-0.472697	9
	26	56	5011.18	120.815	-17.4881	1	122.074	-8.23643	3.51107E-006	-0.472694	9
	27	58	4465.21	121.219	-19.3357	1	122.752	-9.06292	3.34595E-006	-0.472693	9
	28	60	3980.93	121.708	-21.2637	1	123.551	-9.9102	3.37018E-006	-0.472676	9
	29	62	3548.18	122.036	-23.572	1	124.291	-10.9324	3.37221E-006	-0.472698	9
	30	64	3162.67	122.272	-25.8094	1	124.966	-11.9191	3.31151E-006	-0.472697	9
	31	66	2819.01	123.034	-28.6981	1	126.336	-13.1297	3.39777E-006	-0.472696	9
	32	68	2511.16	123.549	-31.7983	1	127.576	-14.4332	3.15801E-006	-0.472679	9
	33	70	2238.63	124.302	-34.8141	1	129.085	-15.6463	3.09454E-006	-0.47268	9
	34	72	1995.37	125.067	-38.8318	1	130.957	-17.249	3.05717E-006	-0.472683	9
	35	74	1778.51	125.878	-42.763	1	132.943	-18.7636	3.1159E-006	-0.472686	9
	36	76	1584.49	126.502	-47.2779	1	135.048	-20.4924	3.03529E-006	-0.472683	9
	37	78	1412.76	127.531	-52.1878	1	137.796	-22.2552	2.97899E-006	-0.472684	9
	38	79	1259.04	128.511	-57.7977	1	140.91	-24.2158	2.96468E-006	-0.472696	9
	39	81	1121.63	129.73	-63.8352	1	144.585	-26.2001	2.77435E-006	-0.4727	9
	40	83	999.95	130.621	-70.6751	1	148.515	-28.4166	2.51079E-006	-0.472689	9
	41	85	891.184	131.985	-78.2824	1	153.454	-30.6729	2.52767E-006	-0.472694	9
	42	87	794.163	133.454	-86.3426	1	158.949	-32.9023	2.66134E-006	-0.472703	9
	43	89	707.867	134.863	-95.697	1	165.366	-35.3592	2.64418E-006	-0.472688	9
	44	91	630.984	136.79	-105.793	1	172.927	-37.7183	2.55399E-006	-0.472706	9
	45	93	562.189	138.58	-117.584	1	181.743	-40.3144	2.71679E-006	-0.472708	9
	46	95	501.303	140.223	-129.848	1	191.11	-42.8	2.73667E-006	-0.472697	9
	47	97	446.614	142.211	-143.981	1	202.372	-45.3542	2.51207E-006	-0.472698	9
	48	99	398.209	144.347	-159.57	1	215.171	-47.8676	2.8964E-006	-0.472705	9
	49	101	354.821	146.744	-176.992	1	229.913	-50.3378	2.85204E-006	-0.472691	9
	50	103	316.113	149.296	-196.428	1	246.725	-52.7632	2.8106E-006	-0.472693	9
	51	105	281.926	152.136	-217.877	1	265.736	-55.0749	2.92435E-006	-0.472695	9
	52	107	251.185	155.248	-241.94	1	287.467	-57.3125	2.88887E-006	-0.472692	9
	53	109	223.946	158.676	-268.626	1	311.99	-59.4299	2.87607E-006	-0.472693	9
	54	111	199.495	162.517	-298.594	1	339.956	-61.4417	3.18295E-006	-0.472694	9
	55	113	177.836	166.683	-331.672	1	371.2	-63.318	2.88768E-006	-0.47269	9
	56	115	158.533	171.434	-368.61	1	406.526	-65.0577	2.98953E-006	-0.472688	9
	57	117	141.263	176.904	-410.028	1	446.562	-66.6626	3.33895E-006	-0.472693	9
	58	119	125.911	182.836	-455.931	1	491.225	-68.1484	3.32326E-006	-0.472697	9
	59	121	112.198	189.703	-507.284	1	541.594	-69.4963	3.35285E-006	-0.472694	9
	60	123	100.009	197.185	-564.252	1	597.714	-70.7374	3.24293E-006	-0.472693	9
	61	125	89.1164	205.791	-627.736	1	660.608	-71.8493	3.29598E-006	-0.472689	9
	62	127	79.4083	215.627	-698.843	1	731.353	-72.8524	3.07642E-006	-0.472696	9
	63	129	70.788	226.472	-777.258	1	809.58	-73.7553	3.17677E-006	-0.472688	9
	64	131	63.0971	239.28	-864.96	1	897.447	-74.5366	3.07993E-006	-0.47269	9
	65	134	54.5476	258.853	-990.3	1	1023.57	-75.3513	2.92264E-006	-0.472693	9
	66	136	50.0083	270.552	-1072.54	1	1106.14	-75.8423	2.09388E-006	-0.472695	8
	67	138	46.1675	285.349	-1155.2	1	1189.92	-76.125	2.29858E-006	-0.472694	8
	68	140	40.0059	313.106	-1320.06	1	1356.68	-76.6565	2.20179E-006	-0.472696	8
	69	142	35.3046	340.493	-1481.99	1	1520.6	-77.0606	2.06745E-006	-0.472694	8
	70	144	31.5793	369.576	-1644.1	1	1685.12	-77.3311	2.05301E-006	-0.472696	8
	71	146	28.5748	400.698	-1802.42	1	1846.42	-77.4663	2.00185E-006	-0.472699	8
	72	148	24.9911	454.475	-2040.4	1	2090.41	-77.443	2.21281E-006	-0.472706	8
	73	151	22.2195	509.817	-2270.62	1	2327.15	-77.3453	2.29114E-006	-0.472701	8
	74	153	20.0011	572.155	-2498.93	1	2563.6	-77.1039	2.48395E-006	-0.472699	8
	75	156	17.6486	652.554	-2805.15	1	2880.05	-76.9044	2.36128E-006	-0.472705	8
	76	158	15.7934	737.895	-3099.94	1	3186.55	-76.6107	2.23004E-006	-0.472702	8
	77	160	14.2828	821.831	-3404.49	1	3502.28	-76.4286	2.05518E-006	-0.472701	8
	78	162	12.5002	965.48	-3831.09	1	3950.87	-75.8554	2.07198E-006	-0.472701	8
	79	165	11.323	1082.07	-4192.32	1	4329.72	-75.5274	2.04341E-006	-0.472699	8
	80	167	9.9987	1257.23	-4694.14	1	4859.58	-75.0063	2.03761E-006	-0.472695	8
