EXPLAIN
TAG	EISPOT
TITLE	LABEL	Tomato_open	Test &Identifier
DATE	LABEL	5/12/2006	Date
TIME	LABEL	17:34:26	Time
NOTES	NOTES	1	&Notes...
	
PSTAT	PSTAT	300	Potentiostat
VDC	POTEN	1.00000E-001	T	DC &Voltage (V)
FREQINIT	QUANT	1.00000E+005	Initial Fre&q. (Hz)
FREQFINAL	QUANT	1.00000E+001	Final Fre&q. (Hz)
PTSPERDEC	QUANT	2.00000E+001	Points/&decade
VAC	QUANT	1.00000E+001	AC &Voltage (mV rms)
AREA	QUANT	1.00000E+000	&Area (cm²)
DENSITY	QUANT	7.87000E+000	&Density (gm/cm³)
EQUIV	QUANT	7.00000E+000	Equiv. &Wt
CONDIT	TWOPARAM	F	1.50000E+001	0.00000E+000	Conditionin&g	Time(s)	E(V)
DELAY	TWOPARAM	F	6.00000E+002	0.00000E+000	Init. De&lay	Time(s)	Stab.(mV/s)
SPEED	SELECTOR	1	&Optimize for:
ZGUESS	QUANT	1.00000E+002	E&stimated Z (ohms)
OCVCURVE	TABLE	39
	Pt	T	Vf	Vm	Ach	Over
	#	s	V vs. Ref.	V	V	bits
	0	0.258332	-5.58119E-001	4.15877E-006	-2.63400E-004	......
	1	0.516663	-5.58019E-001	4.15877E-006	-1.63400E-004	......
	2	0.774994	-5.57369E-001	4.15877E-006	-1.63400E-004	......
	3	1.03333	-5.57469E-001	4.15877E-006	-1.63400E-004	......
	4	1.29166	-5.57220E-001	4.15877E-006	-1.63400E-004	......
	5	1.54999	-5.57920E-001	4.15877E-006	-6.34000E-005	......
	6	1.80832	-5.56319E-001	4.15877E-006	-2.63400E-004	......
	7	2.06665	-5.55819E-001	4.15877E-006	-6.34000E-005	......
	8	2.32498	-5.56470E-001	4.15877E-006	-6.34000E-005	......
	9	2.58332	-5.57669E-001	4.15877E-006	-1.63400E-004	......
	10	2.84165	-5.58369E-001	4.15877E-006	-1.63400E-004	......
	11	3.09998	-5.57869E-001	4.15877E-006	-1.63400E-004	......
	12	3.35831	-5.58069E-001	4.15877E-006	-2.63400E-004	......
	13	3.61664	-5.59269E-001	4.15877E-006	-1.63400E-004	......
	14	3.87497	-5.59269E-001	4.15877E-006	-1.63400E-004	......
	15	4.1333	-5.63869E-001	4.15877E-006	-6.34000E-005	......
	16	4.39164	-5.70369E-001	4.15877E-006	-1.63400E-004	......
	17	4.64997	-5.76919E-001	4.15877E-006	-1.63400E-004	......
	18	4.9083	-5.73020E-001	4.15877E-006	-6.34000E-005	......
	19	5.16663	-5.74369E-001	4.15877E-006	-1.63400E-004	......
	20	5.42496	-5.69770E-001	4.15877E-006	-1.63400E-004	......
	21	5.68329	-5.65319E-001	4.15877E-006	-1.63400E-004	......
	22	5.94162	-5.63670E-001	4.15877E-006	-1.63400E-004	......
	23	6.19996	-5.63119E-001	4.15877E-006	-6.34000E-005	......
	24	6.45829	-5.64169E-001	4.15877E-006	-1.63400E-004	......
	25	6.71662	-5.63569E-001	4.15877E-006	-1.63400E-004	......
	26	6.97495	-5.64269E-001	4.15877E-006	-6.34000E-005	......
	27	7.23328	-5.63969E-001	4.15877E-006	-1.63400E-004	......
	28	7.49161	-5.66419E-001	4.15877E-006	-2.63400E-004	......
	29	7.74995	-5.67469E-001	4.15877E-006	3.66000E-005	......
	30	8.00828	-5.68519E-001	4.15877E-006	-1.63400E-004	......
	31	8.26661	-5.70019E-001	4.15877E-006	-2.63400E-004	......
	32	8.52494	-5.72619E-001	4.15877E-006	-1.63400E-004	......
	33	8.78327	-5.72369E-001	4.15877E-006	-1.63400E-004	......
	34	9.0416	-5.71469E-001	4.15877E-006	-2.63400E-004	......
	35	9.29993	-5.72619E-001	4.15877E-006	-6.34000E-005	......
	36	9.5583	-5.74919E-001	4.15877E-006	-6.34000E-005	......
	37	9.8166	-5.76819E-001	4.15877E-006	-1.63400E-004	......
	38	10.0749	-5.79069E-001	4.15877E-006	-1.63400E-004	......
EOC	QUANT	-0.579069	Open Circuit (V)
PSTATMODEL	IQUANT	32	Pstat Model
PSTATSECTION	LABEL	PStat0	Pstat Section
CTRLMODE	IQUANT	1	Control Mode
IESTAB	IQUANT	0	I/E Stability
CASPEED	IQUANT	1	Control Amp Speed
CONVENTION	IQUANT	1	Current Convention
ICHRANGE	IQUANT	2	Ich Range
ICHRANGEMODE	TOGGLE	F	Ich Auto Range
ICHOFFSETENABLE	TOGGLE	T	Ich Offset Enable
ICHOFFSET	QUANT	0	Ich Offset (V)
ICHFILTER	IQUANT	3	Ich Filter
VCHRANGE	IQUANT	2	Vch Range
VCHRANGEMODE	TOGGLE	F	Vch Auto Range
VCHOFFSETENABLE	TOGGLE	T	Vch Offset Enable
VCHOFFSET	QUANT	0	Vch Offset (V)
VCHFILTER	IQUANT	3	Vch Filter
ACHRANGE	IQUANT	0	Ach Range
IERANGELOWERLIMIT	IQUANT	3	I/E Range Lower Limit
IERANGEMODE	TOGGLE	F	I/E AutoRange
IERANGE	IQUANT	11	I/E Range
POSFEEDENABLE	TOGGLE	F	Positive Feedback IR Comp
POSFEEDRESISTANCE	QUANT	0	Positive Feedback Resistance (ohm)
FC350IDIVISOR	IQUANT	0	FC350 I Divisor
FC350VRANGE	IQUANT	0	FC350 V Range
FRAMEWORKVERSION	QUANT	4.35	Framework Version
ZCURVE	TABLE
	Pt	Time	Freq	Zreal	Zimag	Zsig	Zmod	Zphz	Idc	Vdc	IERange
	#	s	Hz	ohm	ohm	V	ohm	°	A	V	#
	0	5	100007	122.33	-0.570222	1	122.331	-0.267074	8.13768E-006	-0.47899	9
	1	7	89134.1	122.039	-0.375091	1	122.04	-0.1761	7.10037E-006	-0.478997	9
	2	9	79433.6	121.591	-0.668869	1	121.592	-0.31518	5.40899E-006	-0.478999	9
	3	10	70800.8	121.455	-0.99822	1	121.459	-0.470895	3.94399E-006	-0.478995	9
	4	12	63105.5	121.259	-1.5298	1	121.269	-0.722803	3.54431E-006	-0.478974	9
	5	14	56243.5	121.091	-1.65145	1	121.102	-0.78136	4.00267E-006	-0.478985	9
	6	16	50123.7	121.05	-2.07182	1	121.068	-0.98054	4.21606E-006	-0.478991	9
	7	18	44681	120.973	-2.27874	1	120.995	-1.07914	3.66799E-006	-0.478968	9
	8	20	39811.2	121.001	-2.7466	1	121.032	-1.30034	3.91107E-006	-0.47901	9
	9	22	35488.3	120.918	-2.9694	1	120.955	-1.40673	3.48642E-006	-0.479004	9
	10	24	31634.1	120.904	-3.41935	1	120.952	-1.61998	3.3639E-006	-0.47899	9
	11	26	28173.1	121.192	-3.72046	1	121.249	-1.75836	3.21324E-006	-0.478964	9
	12	28	25123.7	121.15	-4.16766	1	121.222	-1.97025	3.49343E-006	-0.478974	9
	13	30	22389.3	121.102	-4.70576	1	121.193	-2.22527	3.72331E-006	-0.47898	9
	14	32	19954.4	121.284	-5.11268	1	121.391	-2.41386	3.84348E-006	-0.478997	9
	15	34	17778.2	121.313	-5.8789	1	121.455	-2.77443	2.97432E-006	-0.478986	9
	16	36	15852.9	121.519	-6.48199	1	121.692	-3.05333	2.94026E-006	-0.478966	9
	17	38	14122.3	121.545	-7.07399	1	121.751	-3.33089	2.72313E-006	-0.478985	9
	18	40	12587.2	121.822	-7.93833	1	122.08	-3.72832	2.74837E-006	-0.478981	9
	19	42	11221.1	122.13	-8.40843	1	122.419	-3.9385	2.62582E-006	-0.478977	9
	20	44	9998.2	122.274	-9.49806	1	122.643	-4.44172	2.82782E-006	-0.478981	9
	21	46	8912.76	122.558	-10.5826	1	123.014	-4.93513	2.29032E-006	-0.478966	9
	22	48	7942.6	122.608	-11.6373	1	123.159	-5.42196	2.4984E-006	-0.478976	9
	23	50	7078.05	122.889	-12.7547	1	123.549	-5.92555	2.5252E-006	-0.47898	9
	24	52	6311.1	123.343	-14.0171	1	124.137	-6.48346	2.50977E-006	-0.47898	9
	25	54	5622.14	123.394	-15.628	1	124.379	-7.21817	2.58399E-006	-0.478982	9
	26	56	5011.18	123.825	-17.2517	1	125.021	-7.93157	2.52082E-006	-0.478975	9
	27	58	4465.21	124.168	-19.0517	1	125.621	-8.72313	2.58196E-006	-0.478973	9
	28	60	3980.93	124.578	-21.0962	1	126.352	-9.6113	2.50381E-006	-0.478989	9
	29	62	3548.18	124.981	-23.0728	1	127.092	-10.4597	2.53801E-006	-0.478982	9
	30	64	3162.67	125.269	-25.6435	1	127.867	-11.569	2.72987E-006	-0.478989	9
	31	66	2819.01	126.204	-28.21	1	129.319	-12.6	2.77254E-006	-0.478988	9
	32	68	2511.16	126.961	-31.3572	1	130.776	-13.8734	2.7846E-006	-0.479	9
	33	70	2238.63	127.309	-34.4298	1	131.882	-15.1333	2.75399E-006	-0.478994	9
	34	71	1995.37	128.015	-38.2451	1	133.606	-16.6337	2.78793E-006	-0.478985	9
	35	73	1778.51	128.808	-42.2199	1	135.551	-18.1478	2.77088E-006	-0.478984	9
	36	75	1584.49	129.783	-46.5293	1	137.871	-19.7236	2.46995E-006	-0.478987	9
	37	77	1412.76	130.877	-51.6295	1	140.693	-21.5286	2.57251E-006	-0.479001	9
	38	79	1259.04	131.621	-56.6591	1	143.298	-23.2905	2.35923E-006	-0.478983	9
	39	81	1121.63	132.777	-62.7932	1	146.876	-25.3106	2.30468E-006	-0.478985	9
	40	83	999.95	133.973	-69.4349	1	150.897	-27.3966	2.4569E-006	-0.478977	9
	41	85	891.184	135.17	-76.9265	1	155.527	-29.6447	2.5489E-006	-0.478987	9
	42	87	794.163	136.707	-84.3888	1	160.656	-31.687	2.68067E-006	-0.478977	9
	43	89	707.867	138.092	-93.842	1	166.96	-34.1986	2.66903E-006	-0.478981	9
	44	91	630.984	139.396	-103.663	1	173.716	-36.6368	2.82974E-006	-0.478985	9
	45	93	562.189	141.438	-115.261	1	182.456	-39.1774	2.71859E-006	-0.478977	9
	46	95	501.303	143.267	-127.169	1	191.566	-41.5934	3.17242E-006	-0.478971	9
	47	97	446.614	145.24	-140.949	1	202.389	-44.1411	3.03081E-006	-0.478975	9
	48	99	398.209	147.378	-156.196	1	214.749	-46.6638	2.86017E-006	-0.478974	9
	49	101	354.821	149.785	-173.222	1	229.002	-49.15	3.1847E-006	-0.47897	9
	50	103	316.113	152.382	-192.207	1	245.283	-51.5925	3.16598E-006	-0.47897	9
	51	105	281.926	155.219	-213.152	1	263.679	-53.9377	3.08582E-006	-0.478977	9
	52	107	251.185	158.377	-236.693	1	284.793	-56.2125	3.22167E-006	-0.47897	9
	53	109	223.946	161.873	-262.7	1	308.568	-58.3591	3.19201E-006	-0.478973	9
	54	111	199.495	165.706	-291.931	1	335.682	-60.4199	3.14259E-006	-0.478972	9
	55	113	177.836	169.99	-324.272	1	366.127	-62.3356	2.91848E-006	-0.478975	9
	56	115	158.533	174.614	-360.285	1	400.369	-64.1427	2.68856E-006	-0.478972	9
	57	117	141.263	180.013	-400.598	1	439.185	-65.8027	2.84517E-006	-0.478971	9
	58	119	125.911	186.144	-445.341	1	482.679	-67.316	2.99587E-006	-0.478972	9
	59	121	112.198	193.075	-495.188	1	531.497	-68.6991	3.04015E-006	-0.478979	9
	60	123	100.009	200.79	-550.73	1	586.191	-69.9687	2.91854E-006	-0.478974	9
	61	125	89.1164	209.387	-612.623	1	647.418	-71.1302	2.87626E-006	-0.478975	9
	62	127	79.4083	219.126	-681.509	1	715.87	-72.1758	2.75091E-006	-0.478974	9
	63	129	70.788	230.648	-757.938	1	792.255	-73.0745	2.86001E-006	-0.478975	9
	64	131	63.0971	242.908	-843.035	1	877.332	-73.9265	2.58254E-006	-0.47897	9
	65	133	54.5476	262.132	-964.7	1	999.68	-74.7985	2.6979E-006	-0.478973	9
	66	135	50.0083	275.221	-1045.37	1	1081	-75.2502	2.71284E-006	-0.478982	9
	67	138	46.1675	287.23	-1124.73	1	1160.83	-75.6742	1.79658E-006	-0.478979	8
	68	140	40.0059	313.353	-1284.09	1	1321.77	-76.2862	1.63895E-006	-0.478974	8
	69	142	35.3046	341.046	-1441.13	1	1480.94	-76.6858	1.58403E-006	-0.478976	8
	70	144	31.5793	368.894	-1598.09	1	1640.11	-77.0018	1.59626E-006	-0.478967	8
	71	146	28.5748	400.01	-1751.22	1	1796.33	-77.1334	1.73258E-006	-0.478967	8
	72	148	24.9911	448.144	-1981.74	1	2031.78	-77.2577	1.65289E-006	-0.478972	8
	73	150	22.2195	493.892	-2208.45	1	2263	-77.3939	1.60517E-006	-0.478976	8
	74	153	20.0011	543.892	-2431.42	1	2491.51	-77.3909	1.61014E-006	-0.478967	8
	75	155	17.6486	617.871	-2722.76	1	2791.98	-77.2145	1.80684E-006	-0.478968	8
	76	157	15.7934	704.422	-3008.49	1	3089.86	-76.8219	1.88451E-006	-0.478978	8
	77	160	14.2828	783.466	-3298.77	1	3390.53	-76.6397	1.73088E-006	-0.478973	8
	78	162	12.5002	921.69	-3721.41	1	3833.85	-76.0893	1.93992E-006	-0.478972	8
	79	164	11.323	1051.78	-4058.71	1	4192.78	-75.4718	2.10412E-006	-0.478976	8
	80	167	9.9987	1236.82	-4520.85	1	4686.98	-74.6994	2.19507E-006	-0.478976	8
