EXPLAIN
TAG	EISPOT
TITLE	LABEL	Tomato_open	Test &Identifier
DATE	LABEL	5/12/2006	Date
TIME	LABEL	17:44:27	Time
NOTES	NOTES	1	&Notes...
	
PSTAT	PSTAT	300	Potentiostat
VDC	POTEN	1.00000E-001	T	DC &Voltage (V)
FREQINIT	QUANT	1.00000E+005	Initial Fre&q. (Hz)
FREQFINAL	QUANT	1.00000E+001	Final Fre&q. (Hz)
PTSPERDEC	QUANT	2.00000E+001	Points/&decade
VAC	QUANT	1.00000E+001	AC &Voltage (mV rms)
AREA	QUANT	1.00000E+000	&Area (cm²)
DENSITY	QUANT	7.87000E+000	&Density (gm/cm³)
EQUIV	QUANT	7.00000E+000	Equiv. &Wt
CONDIT	TWOPARAM	F	1.50000E+001	0.00000E+000	Conditionin&g	Time(s)	E(V)
DELAY	TWOPARAM	F	6.00000E+002	0.00000E+000	Init. De&lay	Time(s)	Stab.(mV/s)
SPEED	SELECTOR	1	&Optimize for:
ZGUESS	QUANT	1.00000E+002	E&stimated Z (ohms)
OCVCURVE	TABLE	39
	Pt	T	Vf	Vm	Ach	Over
	#	s	V vs. Ref.	V	V	bits
	0	0.258332	-5.65820E-001	4.95676E-006	-1.63400E-004	......
	1	0.516663	-5.66719E-001	4.95676E-006	-6.34000E-005	......
	2	0.774994	-5.68169E-001	4.95676E-006	-6.34000E-005	......
	3	1.03333	-5.71019E-001	4.95676E-006	-6.34000E-005	......
	4	1.29166	-5.72269E-001	4.95676E-006	-6.34000E-005	......
	5	1.54999	-5.72869E-001	4.95676E-006	-1.63400E-004	......
	6	1.80832	-5.73219E-001	4.95676E-006	-1.63400E-004	......
	7	2.06665	-5.69770E-001	4.95676E-006	-1.63400E-004	......
	8	2.32498	-5.68419E-001	4.95676E-006	-1.63400E-004	......
	9	2.58332	-5.66220E-001	4.95676E-006	-6.34000E-005	......
	10	2.84165	-5.65319E-001	4.95676E-006	-1.63400E-004	......
	11	3.09998	-5.66319E-001	4.95676E-006	-1.63400E-004	......
	12	3.35831	-5.66269E-001	4.95676E-006	-1.63400E-004	......
	13	3.61664	-5.67819E-001	4.95676E-006	-1.63400E-004	......
	14	3.87497	-5.68169E-001	4.95676E-006	-1.63400E-004	......
	15	4.1333	-5.66869E-001	4.95676E-006	-6.34000E-005	......
	16	4.39164	-5.65470E-001	4.95676E-006	-6.34000E-005	......
	17	4.64997	-5.64219E-001	4.95676E-006	-1.63400E-004	......
	18	4.9083	-5.64469E-001	4.95676E-006	-1.63400E-004	......
	19	5.16663	-5.64169E-001	4.95676E-006	-1.63400E-004	......
	20	5.42496	-5.65569E-001	4.95676E-006	-2.63400E-004	......
	21	5.68329	-5.67319E-001	4.95676E-006	-1.63400E-004	......
	22	5.94162	-5.68219E-001	4.95676E-006	-2.63400E-004	......
	23	6.19996	-5.69070E-001	4.95676E-006	-1.63400E-004	......
	24	6.45829	-5.69819E-001	4.95676E-006	-1.63400E-004	......
	25	6.71662	-5.70319E-001	4.95676E-006	-1.63400E-004	......
	26	6.97495	-5.67769E-001	4.95676E-006	-6.34000E-005	......
	27	7.23328	-5.67069E-001	4.95676E-006	-1.63400E-004	......
	28	7.49161	-5.67720E-001	4.95676E-006	-2.63400E-004	......
	29	7.74995	-5.67869E-001	4.95676E-006	-6.34000E-005	......
	30	8.00828	-5.66220E-001	4.95676E-006	-1.63400E-004	......
	31	8.26661	-5.64770E-001	4.95676E-006	-1.63400E-004	......
	32	8.52494	-5.57669E-001	4.95676E-006	-1.63400E-004	......
	33	8.78327	-5.51319E-001	4.95676E-006	-6.34000E-005	......
	34	9.0416	-5.48570E-001	4.95676E-006	-1.63400E-004	......
	35	9.29993	-5.48369E-001	4.95676E-006	-2.63400E-004	......
	36	9.5583	-5.49119E-001	4.95676E-006	-1.63400E-004	......
	37	9.8166	-5.50519E-001	4.95676E-006	-1.63400E-004	......
	38	10.0749	-5.52170E-001	4.95676E-006	-1.63400E-004	......
EOC	QUANT	-0.55217	Open Circuit (V)
PSTATMODEL	IQUANT	32	Pstat Model
PSTATSECTION	LABEL	PStat0	Pstat Section
CTRLMODE	IQUANT	1	Control Mode
IESTAB	IQUANT	0	I/E Stability
CASPEED	IQUANT	1	Control Amp Speed
CONVENTION	IQUANT	1	Current Convention
ICHRANGE	IQUANT	2	Ich Range
ICHRANGEMODE	TOGGLE	F	Ich Auto Range
ICHOFFSETENABLE	TOGGLE	T	Ich Offset Enable
ICHOFFSET	QUANT	0	Ich Offset (V)
ICHFILTER	IQUANT	3	Ich Filter
VCHRANGE	IQUANT	2	Vch Range
VCHRANGEMODE	TOGGLE	F	Vch Auto Range
VCHOFFSETENABLE	TOGGLE	T	Vch Offset Enable
VCHOFFSET	QUANT	0	Vch Offset (V)
VCHFILTER	IQUANT	3	Vch Filter
ACHRANGE	IQUANT	0	Ach Range
IERANGELOWERLIMIT	IQUANT	3	I/E Range Lower Limit
IERANGEMODE	TOGGLE	F	I/E AutoRange
IERANGE	IQUANT	11	I/E Range
POSFEEDENABLE	TOGGLE	F	Positive Feedback IR Comp
POSFEEDRESISTANCE	QUANT	0	Positive Feedback Resistance (ohm)
FC350IDIVISOR	IQUANT	0	FC350 I Divisor
FC350VRANGE	IQUANT	0	FC350 V Range
FRAMEWORKVERSION	QUANT	4.35	Framework Version
ZCURVE	TABLE
	Pt	Time	Freq	Zreal	Zimag	Zsig	Zmod	Zphz	Idc	Vdc	IERange
	#	s	Hz	ohm	ohm	V	ohm	°	A	V	#
	0	4	100007	119.929	-0.356343	1	119.929	-0.170242	4.26043E-006	-0.452031	9
	1	6	89134.1	119.407	-0.600085	1	119.409	-0.28794	4.78721E-006	-0.452046	9
	2	8	79433.6	119.002	-0.726869	1	119.004	-0.349961	5.34284E-006	-0.452077	9
	3	10	70800.8	118.835	-1.18803	1	118.841	-0.572782	5.10353E-006	-0.452058	9
	4	12	63105.5	118.591	-1.53281	1	118.601	-0.740517	5.1506E-006	-0.452071	9
	5	14	56243.5	118.455	-1.6282	1	118.466	-0.7875	5.20737E-006	-0.452075	9
	6	16	50123.7	118.491	-2.10202	1	118.509	-1.01632	5.1902E-006	-0.452082	9
	7	18	44681	118.418	-2.40941	1	118.442	-1.16562	4.85242E-006	-0.452076	9
	8	20	39811.2	118.473	-2.67388	1	118.503	-1.29292	4.55439E-006	-0.452058	9
	9	22	35488.3	118.335	-3.0413	1	118.374	-1.47223	4.3594E-006	-0.45207	9
	10	24	31634.1	118.423	-3.39108	1	118.472	-1.64023	4.30774E-006	-0.452054	9
	11	26	28173.1	118.496	-3.82056	1	118.557	-1.8467	4.22501E-006	-0.452073	9
	12	28	25123.7	118.534	-4.25628	1	118.61	-2.05647	4.23113E-006	-0.45208	9
	13	30	22389.3	118.638	-4.67363	1	118.73	-2.25595	4.27634E-006	-0.452058	9
	14	32	19954.4	118.775	-5.25953	1	118.892	-2.53548	4.32554E-006	-0.452084	9
	15	34	17778.2	119.013	-5.89897	1	119.159	-2.83759	4.11403E-006	-0.452079	9
	16	36	15852.9	118.961	-6.47032	1	119.137	-3.11327	3.50852E-006	-0.452061	9
	17	38	14122.3	119.304	-7.15431	1	119.518	-3.43176	3.7946E-006	-0.45207	9
	18	40	12587.2	119.302	-7.77518	1	119.555	-3.72881	3.80937E-006	-0.452072	9
	19	42	11221.1	119.377	-8.76763	1	119.698	-4.20055	3.91582E-006	-0.452072	9
	20	44	9998.2	119.901	-9.6054	1	120.285	-4.58024	3.68013E-006	-0.452059	9
	21	46	8912.76	120.144	-10.5486	1	120.606	-5.01768	4.03567E-006	-0.452077	9
	22	48	7942.6	120.129	-11.7642	1	120.704	-5.5931	3.87585E-006	-0.452072	9
	23	50	7078.05	120.473	-12.8474	1	121.156	-6.08707	3.74377E-006	-0.45206	9
	24	52	6311.1	120.781	-14.1885	1	121.612	-6.69997	3.83706E-006	-0.45207	9
	25	54	5622.14	121.069	-15.6249	1	122.073	-7.35383	3.66351E-006	-0.452074	9
	26	56	5011.18	121.304	-17.4678	1	122.555	-8.19428	3.91834E-006	-0.452064	9
	27	58	4465.21	121.689	-19.2668	1	123.205	-8.99686	3.57632E-006	-0.452059	9
	28	60	3980.93	122.018	-21.1094	1	123.83	-9.8151	3.6909E-006	-0.452081	9
	29	61	3548.18	122.596	-23.4844	1	124.825	-10.8441	3.61317E-006	-0.45206	9
	30	63	3162.67	123.177	-25.6634	1	125.822	-11.7689	3.55031E-006	-0.452035	9
	31	65	2819.01	123.451	-28.4654	1	126.69	-12.9843	3.85915E-006	-0.452062	9
	32	67	2511.16	124.284	-31.528	1	128.221	-14.2343	3.51301E-006	-0.452048	9
	33	69	2238.63	124.83	-34.837	1	129.6	-15.5932	3.55021E-006	-0.452065	9
	34	71	1995.37	125.564	-38.6306	1	131.372	-17.1009	3.47302E-006	-0.452069	9
	35	73	1778.51	126.395	-42.4242	1	133.325	-18.5542	3.21751E-006	-0.452063	9
	36	75	1584.49	127.278	-47.0569	1	135.698	-20.2902	3.16831E-006	-0.452065	9
	37	77	1412.76	128.035	-51.9676	1	138.18	-22.0915	3.62885E-006	-0.45208	9
	38	79	1259.04	129.16	-57.5696	1	141.409	-24.0237	3.23245E-006	-0.452072	9
	39	81	1121.63	130.267	-63.7293	1	145.021	-26.0688	3.14156E-006	-0.452057	9
	40	83	999.95	131.257	-70.3342	1	148.914	-28.1847	3.32329E-006	-0.452073	9
	41	85	891.184	132.597	-77.8499	1	153.761	-30.418	3.25637E-006	-0.452069	9
	42	87	794.163	134.21	-86.0154	1	159.408	-32.6559	3.27778E-006	-0.452058	9
	43	89	707.867	135.357	-95.105	1	165.429	-35.0927	3.47056E-006	-0.452067	9
	44	91	630.984	136.979	-105.568	1	172.938	-37.6209	3.28374E-006	-0.452061	9
	45	93	562.189	138.758	-116.772	1	181.355	-40.0822	3.42184E-006	-0.45206	9
	46	95	501.303	140.697	-129.186	1	191.01	-42.5577	3.36057E-006	-0.452052	9
	47	97	446.614	142.672	-143.225	1	202.16	-45.1108	3.3344E-006	-0.452061	9
	48	99	398.209	144.804	-158.745	1	214.868	-47.6296	3.4211E-006	-0.452059	9
	49	101	354.821	147.183	-176.08	1	229.493	-50.1081	3.58907E-006	-0.452056	9
	50	103	316.113	149.77	-195.432	1	246.22	-52.5351	3.45659E-006	-0.452052	9
	51	105	281.926	152.572	-216.772	1	265.082	-54.8608	3.42237E-006	-0.452049	9
	52	107	251.185	155.706	-240.757	1	286.72	-57.1079	3.51343E-006	-0.452047	9
	53	109	223.946	159.158	-267.302	1	311.097	-59.2294	3.52918E-006	-0.452054	9
	54	111	199.495	162.948	-297.028	1	338.788	-61.2511	3.2501E-006	-0.452054	9
	55	113	177.836	167.236	-330.076	1	370.024	-63.1305	3.39826E-006	-0.452057	9
	56	115	158.533	172.095	-366.878	1	405.236	-64.8696	3.66371E-006	-0.452056	9
	57	117	141.263	177.554	-407.903	1	444.871	-66.4773	3.74746E-006	-0.452054	9
	58	119	125.911	183.479	-453.639	1	489.339	-67.9786	3.68751E-006	-0.45206	9
	59	121	112.198	190.528	-504.668	1	539.436	-69.3169	3.82226E-006	-0.452059	9
	60	123	100.009	198.299	-561.196	1	595.201	-70.5391	3.73614E-006	-0.452057	9
	61	125	89.1164	207.256	-624.446	1	657.942	-71.6388	3.86256E-006	-0.45206	9
	62	127	79.4083	218.258	-695.049	1	728.512	-72.5667	3.96422E-006	-0.452062	9
	63	129	70.788	229.398	-773.085	1	806.402	-73.4728	3.87711E-006	-0.452059	9
	64	131	63.0971	242.392	-859.979	1	893.487	-74.2591	3.57675E-006	-0.452061	9
	65	133	54.5476	261.545	-984.53	1	1018.68	-75.1227	3.51453E-006	-0.452064	9
	66	135	50.0083	273.647	-1066.48	1	1101.03	-75.609	2.4605E-006	-0.452067	8
	67	137	46.1675	287.005	-1149.13	1	1184.43	-75.9767	2.40905E-006	-0.452062	8
	68	140	40.0059	315.331	-1311.24	1	1348.62	-76.4781	2.51981E-006	-0.452061	8
	69	142	35.3046	343.703	-1471.89	1	1511.49	-76.8563	2.35416E-006	-0.452067	8
	70	144	31.5793	375.196	-1632.88	1	1675.43	-77.0594	2.41962E-006	-0.452059	8
	71	146	28.5748	406.187	-1790.22	1	1835.73	-77.2165	2.416E-006	-0.452055	8
	72	148	24.9911	457.005	-2025.48	1	2076.39	-77.2854	2.35466E-006	-0.452063	8
	73	150	22.2195	510.871	-2254.87	1	2312.02	-77.2344	2.39959E-006	-0.452064	8
	74	153	20.0011	563.911	-2484.49	1	2547.68	-77.2121	2.39857E-006	-0.452064	8
	75	155	17.6486	635.976	-2789.87	1	2861.44	-77.1583	2.31072E-006	-0.452062	8
	76	157	15.7934	720.61	-3083.71	1	3166.79	-76.847	2.36023E-006	-0.452064	8
	77	159	14.2828	820.065	-3378.76	1	3476.85	-76.3574	2.58832E-006	-0.452061	8
	78	162	12.5002	978.58	-3800.21	1	3924.19	-75.5597	2.66451E-006	-0.452059	8
	79	164	11.323	1099.08	-4152.69	1	4295.67	-75.1756	2.55184E-006	-0.452062	8
	80	167	9.9987	1288.89	-4644.83	1	4820.34	-74.4912	2.59402E-006	-0.452056	8
