EXPLAIN
TAG	EISPOT
TITLE	LABEL	Tomato_open	Test &Identifier
DATE	LABEL	5/12/2006	Date
TIME	LABEL	17:22:25	Time
NOTES	NOTES	1	&Notes...
	
PSTAT	PSTAT	300	Potentiostat
VDC	POTEN	1.00000E-001	T	DC &Voltage (V)
FREQINIT	QUANT	1.00000E+005	Initial Fre&q. (Hz)
FREQFINAL	QUANT	1.00000E+001	Final Fre&q. (Hz)
PTSPERDEC	QUANT	2.00000E+001	Points/&decade
VAC	QUANT	1.00000E+001	AC &Voltage (mV rms)
AREA	QUANT	1.00000E+000	&Area (cm²)
DENSITY	QUANT	7.87000E+000	&Density (gm/cm³)
EQUIV	QUANT	7.00000E+000	Equiv. &Wt
CONDIT	TWOPARAM	F	1.50000E+001	0.00000E+000	Conditionin&g	Time(s)	E(V)
DELAY	TWOPARAM	F	6.00000E+002	0.00000E+000	Init. De&lay	Time(s)	Stab.(mV/s)
SPEED	SELECTOR	1	&Optimize for:
ZGUESS	QUANT	1.00000E+002	E&stimated Z (ohms)
OCVCURVE	TABLE	39
	Pt	T	Vf	Vm	Ach	Over
	#	s	V vs. Ref.	V	V	bits
	0	0.258332	-5.91619E-001	5.32976E-006	-6.34000E-005	......
	1	0.516663	-5.92569E-001	5.32976E-006	1.36600E-004	......
	2	0.774994	-5.93470E-001	5.32976E-006	3.66000E-005	......
	3	1.03333	-5.94169E-001	5.32976E-006	3.36600E-004	......
	4	1.29166	-5.94970E-001	5.32976E-006	-6.34000E-005	......
	5	1.54999	-5.95569E-001	5.32976E-006	1.36600E-004	......
	6	1.80832	-5.95519E-001	5.32976E-006	3.66000E-005	......
	7	2.06665	-5.89819E-001	5.32976E-006	2.36600E-004	......
	8	2.32498	-5.92519E-001	5.32976E-006	3.66000E-005	......
	9	2.58332	-5.92470E-001	5.32976E-006	3.36600E-004	......
	10	2.84165	-5.93969E-001	5.32976E-006	-6.34000E-005	......
	11	3.09998	-5.94569E-001	5.32976E-006	2.36600E-004	......
	12	3.35831	-5.96070E-001	5.32976E-006	1.36600E-004	......
	13	3.61664	-5.95919E-001	5.32976E-006	3.36600E-004	......
	14	3.87497	-5.96720E-001	5.32976E-006	-6.34000E-005	......
	15	4.1333	-5.97969E-001	5.32976E-006	2.36600E-004	......
	16	4.39164	-5.98819E-001	5.32976E-006	3.66000E-005	......
	17	4.64997	-5.99519E-001	5.32976E-006	3.66000E-005	......
	18	4.9083	-5.94619E-001	5.32976E-006	3.66000E-005	......
	19	5.16663	-5.97169E-001	5.32976E-006	3.66000E-005	......
	20	5.42496	-5.98769E-001	5.32976E-006	-6.34000E-005	......
	21	5.68329	-6.00019E-001	5.32976E-006	2.36600E-004	......
	22	5.94162	-6.00419E-001	5.32976E-006	3.66000E-005	......
	23	6.19996	-6.00869E-001	5.32976E-006	1.36600E-004	......
	24	6.45829	-6.01070E-001	5.32976E-006	-6.34000E-005	......
	25	6.71662	-5.99569E-001	5.32976E-006	2.36600E-004	......
	26	6.97495	-6.01219E-001	5.32976E-006	3.66000E-005	......
	27	7.23328	-5.99869E-001	5.32976E-006	2.36600E-004	......
	28	7.49161	-5.97869E-001	5.32976E-006	3.66000E-005	......
	29	7.74995	-5.99419E-001	5.32976E-006	2.36600E-004	......
	30	8.00828	-5.97969E-001	5.32976E-006	3.66000E-005	......
	31	8.26661	-6.00719E-001	5.32976E-006	2.36600E-004	......
	32	8.52494	-6.01719E-001	5.32976E-006	3.66000E-005	......
	33	8.78327	-6.01919E-001	5.32976E-006	1.36600E-004	......
	34	9.0416	-6.01869E-001	5.32976E-006	1.36600E-004	......
	35	9.29993	-5.99819E-001	5.32976E-006	3.36600E-004	......
	36	9.5583	-6.02919E-001	5.32976E-006	-6.34000E-005	......
	37	9.8166	-5.93369E-001	5.32976E-006	2.36600E-004	......
	38	10.0749	-5.87469E-001	5.32976E-006	-6.34000E-005	......
EOC	QUANT	-0.587469	Open Circuit (V)
PSTATMODEL	IQUANT	32	Pstat Model
PSTATSECTION	LABEL	PStat0	Pstat Section
CTRLMODE	IQUANT	1	Control Mode
IESTAB	IQUANT	0	I/E Stability
CASPEED	IQUANT	1	Control Amp Speed
CONVENTION	IQUANT	1	Current Convention
ICHRANGE	IQUANT	2	Ich Range
ICHRANGEMODE	TOGGLE	F	Ich Auto Range
ICHOFFSETENABLE	TOGGLE	T	Ich Offset Enable
ICHOFFSET	QUANT	0	Ich Offset (V)
ICHFILTER	IQUANT	3	Ich Filter
VCHRANGE	IQUANT	2	Vch Range
VCHRANGEMODE	TOGGLE	F	Vch Auto Range
VCHOFFSETENABLE	TOGGLE	T	Vch Offset Enable
VCHOFFSET	QUANT	0	Vch Offset (V)
VCHFILTER	IQUANT	3	Vch Filter
ACHRANGE	IQUANT	0	Ach Range
IERANGELOWERLIMIT	IQUANT	3	I/E Range Lower Limit
IERANGEMODE	TOGGLE	F	I/E AutoRange
IERANGE	IQUANT	11	I/E Range
POSFEEDENABLE	TOGGLE	F	Positive Feedback IR Comp
POSFEEDRESISTANCE	QUANT	0	Positive Feedback Resistance (ohm)
FC350IDIVISOR	IQUANT	0	FC350 I Divisor
FC350VRANGE	IQUANT	0	FC350 V Range
FRAMEWORKVERSION	QUANT	4.35	Framework Version
ZCURVE	TABLE
	Pt	Time	Freq	Zreal	Zimag	Zsig	Zmod	Zphz	Idc	Vdc	IERange
	#	s	Hz	ohm	ohm	V	ohm	°	A	V	#
	0	4	100007	118.778	-0.536157	1	118.779	-0.258628	2.98168E-006	-0.487425	9
	1	6	89134.1	118.114	-0.808651	1	118.117	-0.39226	3.37857E-006	-0.487441	9
	2	8	79433.6	117.738	-1.17582	1	117.743	-0.572181	3.19851E-006	-0.487427	9
	3	10	70800.8	117.626	-1.30321	1	117.633	-0.63477	3.62043E-006	-0.487444	9
	4	12	63105.5	117.427	-1.70029	1	117.439	-0.82956	3.31128E-006	-0.487446	9
	5	14	56243.5	117.553	-1.92044	1	117.569	-0.935946	3.69592E-006	-0.48744	9
	6	16	50123.7	117.35	-2.34615	1	117.374	-1.14535	3.7386E-006	-0.487444	9
	7	18	44681	117.132	-2.49555	1	117.158	-1.22053	3.45578E-006	-0.487426	9
	8	20	39811.2	117.207	-2.94771	1	117.244	-1.44067	3.31382E-006	-0.487434	9
	9	22	35488.3	117.148	-3.22519	1	117.193	-1.577	3.74464E-006	-0.487456	9
	10	24	31634.1	117.434	-3.36644	1	117.482	-1.64203	3.06159E-006	-0.487426	9
	11	26	28173.1	117.303	-3.93013	1	117.369	-1.91893	3.11703E-006	-0.487448	9
	12	28	25123.7	117.535	-4.37289	1	117.616	-2.13071	3.26817E-006	-0.48745	9
	13	30	22389.3	117.56	-4.89774	1	117.662	-2.38566	3.4006E-006	-0.487428	9
	14	31	19954.4	117.722	-5.49188	1	117.85	-2.67098	3.65707E-006	-0.487457	9
	15	33	17778.2	117.846	-6.26801	1	118.012	-3.0446	3.39107E-006	-0.487444	9
	16	35	15852.9	118.12	-6.57763	1	118.303	-3.18727	3.35439E-006	-0.487451	9
	17	37	14122.3	118.187	-7.47313	1	118.423	-3.61807	3.45196E-006	-0.487443	9
	18	39	12587.2	118.618	-8.10957	1	118.895	-3.91105	3.4097E-006	-0.487439	9
	19	41	11221.1	118.603	-8.92262	1	118.938	-4.30233	3.32579E-006	-0.487445	9
	20	43	9998.2	118.683	-9.7868	1	119.086	-4.71405	3.13682E-006	-0.487439	9
	21	45	8912.76	119.147	-10.8393	1	119.639	-5.19817	3.49454E-006	-0.487458	9
	22	47	7942.6	119.41	-11.7426	1	119.986	-5.61631	3.3097E-006	-0.48745	9
	23	49	7078.05	119.599	-13.0704	1	120.311	-6.23683	3.28548E-006	-0.487443	9
	24	51	6311.1	119.954	-14.1927	1	120.791	-6.74775	3.43476E-006	-0.487432	9
	25	53	5622.14	120.189	-15.7582	1	121.218	-7.46955	3.45243E-006	-0.487441	9
	26	55	5011.18	120.778	-17.5325	1	122.044	-8.25953	3.34587E-006	-0.487439	9
	27	57	4465.21	121.194	-19.3149	1	122.724	-9.05516	3.26367E-006	-0.48744	9
	28	59	3980.93	121.626	-21.4116	1	123.496	-9.9843	3.16693E-006	-0.487429	9
	29	61	3548.18	121.853	-23.5067	1	124.1	-10.9188	2.85829E-006	-0.487437	9
	30	63	3162.67	122.371	-25.6486	1	125.03	-11.8377	2.91623E-006	-0.48745	9
	31	65	2819.01	123.156	-28.2189	1	126.348	-12.9055	2.70028E-006	-0.487412	9
	32	67	2511.16	123.73	-31.2458	1	127.615	-14.1727	2.8306E-006	-0.487444	9
	33	69	2238.63	124.544	-34.5507	1	129.247	-15.505	2.73738E-006	-0.487444	9
	34	71	1995.37	125.149	-38.289	1	130.875	-17.0113	2.91526E-006	-0.487441	9
	35	73	1778.51	126.048	-42.1061	1	132.895	-18.4718	2.76403E-006	-0.487446	9
	36	75	1584.49	126.885	-46.7191	1	135.213	-20.2137	2.72354E-006	-0.48744	9
	37	77	1412.76	127.806	-51.2667	1	137.705	-21.8571	2.44426E-006	-0.487451	9
	38	79	1259.04	128.799	-56.5071	1	140.649	-23.6882	2.59234E-006	-0.487438	9
	39	81	1121.63	129.951	-62.7218	1	144.296	-25.7646	2.68356E-006	-0.487433	9
	40	83	999.95	131.02	-69.4401	1	148.284	-27.9234	2.77331E-006	-0.487429	9
	41	85	891.184	132.359	-76.4917	1	152.872	-30.0241	2.82687E-006	-0.487426	9
	42	87	794.163	133.931	-84.7531	1	158.495	-32.3261	2.98785E-006	-0.48744	9
	43	89	707.867	135.379	-93.7545	1	164.674	-34.7038	2.94074E-006	-0.487425	9
	44	91	630.984	136.59	-103.876	1	171.601	-37.2529	2.69971E-006	-0.487446	9
	45	93	562.189	138.392	-114.558	1	179.655	-39.6171	2.75476E-006	-0.487437	9
	46	94	501.303	140.391	-127.011	1	189.318	-42.1355	2.86524E-006	-0.487435	9
	47	96	446.614	142.395	-140.764	1	200.228	-44.67	2.89829E-006	-0.487437	9
	48	98	398.209	144.55	-155.96	1	212.645	-47.1745	3.02513E-006	-0.487439	9
	49	100	354.821	146.953	-172.924	1	226.932	-49.6418	2.95046E-006	-0.487435	9
	50	102	316.113	149.524	-191.811	1	243.205	-52.0622	2.61377E-006	-0.487435	9
	51	104	281.926	152.4	-212.732	1	261.688	-54.3825	2.90015E-006	-0.487437	9
	52	106	251.185	155.572	-236.141	1	282.781	-56.6227	2.77581E-006	-0.487432	9
	53	108	223.946	159.021	-262.066	1	306.539	-58.7507	2.92463E-006	-0.487433	9
	54	110	199.495	162.747	-291.03	1	333.444	-60.7857	2.85888E-006	-0.487433	9
	55	112	177.836	167.063	-323.219	1	363.842	-62.6668	2.92149E-006	-0.487434	9
	56	114	158.533	171.749	-359.074	1	398.035	-64.4377	2.94084E-006	-0.487432	9
	57	116	141.263	177.034	-399.014	1	436.524	-66.0742	2.97284E-006	-0.487435	9
	58	118	125.911	182.644	-443.534	1	479.668	-67.6185	2.60417E-006	-0.487433	9
	59	120	112.198	189.404	-493.271	1	528.385	-68.9945	2.72619E-006	-0.487433	9
	60	122	100.009	196.262	-548.106	1	582.185	-70.2989	2.51153E-006	-0.48743	9
	61	125	89.1164	204.39	-609.957	1	643.291	-71.4745	2.66967E-006	-0.48743	9
	62	127	79.4083	214.11	-677.97	1	710.976	-72.4734	2.70735E-006	-0.487433	9
	63	129	70.788	224.724	-754.333	1	787.096	-73.4106	2.70326E-006	-0.487431	9
	64	131	63.0971	235.784	-838.732	1	871.244	-74.2983	2.50421E-006	-0.48743	9
	65	133	54.5476	252.399	-959.8	1	992.43	-75.2665	2.10461E-006	-0.487431	9
	66	135	50.0083	263.858	-1040.54	1	1073.48	-75.771	2.04946E-006	-0.487427	9
	67	137	46.1675	273.923	-1118.02	1	1151.09	-76.2333	1.35947E-006	-0.487432	8
	68	139	40.0059	297.989	-1276	1	1310.33	-76.8551	1.31893E-006	-0.487439	8
	69	141	35.3046	327.587	-1434.78	1	1471.71	-77.1388	1.70732E-006	-0.487447	8
	70	143	31.5793	352.296	-1591.06	1	1629.6	-77.5149	1.92141E-006	-0.487436	8
	71	145	28.5748	386.413	-1747.55	1	1789.76	-77.5316	1.41591E-006	-0.48744	8
	72	147	24.9911	420.273	-1973.34	1	2017.6	-77.9771	1.48957E-006	-0.487442	8
	73	150	22.2195	457.95	-2205.49	1	2252.54	-78.2698	1.5609E-006	-0.48744	8
	74	152	20.0011	511.359	-2427.49	1	2480.76	-78.1043	1.65654E-006	-0.487442	8
	75	155	17.6486	561.327	-2725.83	1	2783.03	-78.3638	1.61432E-006	-0.487439	8
	76	157	15.7934	599.792	-3018.03	1	3077.06	-78.7597	1.45891E-006	-0.487441	8
	77	159	14.2828	714.565	-3346.73	1	3422.17	-77.9477	1.45676E-006	-0.487442	8
	78	161	12.5002	832.672	-3750.38	1	3841.71	-77.4821	1.68926E-006	-0.487431	8
	79	164	11.323	901.577	-4050.92	1	4150.04	-77.4527	1.67009E-006	-0.487437	8
	80	166	9.9987	1011.2	-4543.21	1	4654.39	-77.4521	1.47435E-006	-0.487437	8
