EXPLAIN
TAG	EISPOT
TITLE	LABEL	Tomato_open	Test &Identifier
DATE	LABEL	5/12/2006	Date
TIME	LABEL	17:07:29	Time
NOTES	NOTES	1	&Notes...
	
PSTAT	PSTAT	300	Potentiostat
VDC	POTEN	1.00000E-001	T	DC &Voltage (V)
FREQINIT	QUANT	1.00000E+005	Initial Fre&q. (Hz)
FREQFINAL	QUANT	1.00000E+001	Final Fre&q. (Hz)
PTSPERDEC	QUANT	2.00000E+001	Points/&decade
VAC	QUANT	1.00000E+001	AC &Voltage (mV rms)
AREA	QUANT	1.00000E+000	&Area (cm²)
DENSITY	QUANT	7.87000E+000	&Density (gm/cm³)
EQUIV	QUANT	7.00000E+000	Equiv. &Wt
CONDIT	TWOPARAM	F	1.50000E+001	0.00000E+000	Conditionin&g	Time(s)	E(V)
DELAY	TWOPARAM	F	6.00000E+002	0.00000E+000	Init. De&lay	Time(s)	Stab.(mV/s)
SPEED	SELECTOR	1	&Optimize for:
ZGUESS	QUANT	1.00000E+002	E&stimated Z (ohms)
OCVCURVE	TABLE	39
	Pt	T	Vf	Vm	Ach	Over
	#	s	V vs. Ref.	V	V	bits
	0	0.258332	-5.50119E-001	5.59076E-006	2.36600E-004	......
	1	0.516663	-5.51369E-001	5.59076E-006	1.36600E-004	......
	2	0.774994	-5.50869E-001	5.59076E-006	2.36600E-004	......
	3	1.03333	-5.51669E-001	5.59076E-006	2.36600E-004	......
	4	1.29166	-5.50869E-001	5.59076E-006	3.36600E-004	......
	5	1.54999	-5.49720E-001	5.59076E-006	1.36600E-004	......
	6	1.80832	-5.49469E-001	5.59076E-006	3.36600E-004	......
	7	2.06665	-5.47520E-001	5.59076E-006	2.36600E-004	......
	8	2.32498	-5.47419E-001	5.59076E-006	2.36600E-004	......
	9	2.58332	-5.47069E-001	5.59076E-006	3.66000E-005	......
	10	2.84165	-5.46719E-001	5.59076E-006	2.36600E-004	......
	11	3.09998	-5.46769E-001	5.59076E-006	2.36600E-004	......
	12	3.35831	-5.47219E-001	5.59076E-006	2.36600E-004	......
	13	3.61664	-5.48069E-001	5.59076E-006	2.36600E-004	......
	14	3.87497	-5.50370E-001	5.59076E-006	3.36600E-004	......
	15	4.1333	-5.50869E-001	5.59076E-006	1.36600E-004	......
	16	4.39164	-5.52819E-001	5.59076E-006	2.36600E-004	......
	17	4.64997	-5.53469E-001	5.59076E-006	2.36600E-004	......
	18	4.9083	-5.53970E-001	5.59076E-006	3.36600E-004	......
	19	5.16663	-5.53169E-001	5.59076E-006	2.36600E-004	......
	20	5.42496	-5.54069E-001	5.59076E-006	2.36600E-004	......
	21	5.68329	-5.53069E-001	5.59076E-006	2.36600E-004	......
	22	5.94162	-5.53620E-001	5.59076E-006	2.36600E-004	......
	23	6.19996	-5.55420E-001	5.59076E-006	2.36600E-004	......
	24	6.45829	-5.53369E-001	5.59076E-006	1.36600E-004	......
	25	6.71662	-5.52570E-001	5.59076E-006	1.36600E-004	......
	26	6.97495	-5.53419E-001	5.59076E-006	3.36600E-004	......
	27	7.23328	-5.52419E-001	5.59076E-006	2.36600E-004	......
	28	7.49161	-5.52819E-001	5.59076E-006	2.36600E-004	......
	29	7.74995	-5.52869E-001	5.59076E-006	2.36600E-004	......
	30	8.00828	-5.54469E-001	5.59076E-006	3.36600E-004	......
	31	8.26661	-5.56569E-001	5.59076E-006	2.36600E-004	......
	32	8.52494	-5.57369E-001	5.59076E-006	3.36600E-004	......
	33	8.78327	-5.58219E-001	5.59076E-006	2.36600E-004	......
	34	9.0416	-5.58419E-001	5.59076E-006	4.36600E-004	......
	35	9.29993	-5.58069E-001	5.59076E-006	1.36600E-004	......
	36	9.5583	-5.57119E-001	5.59076E-006	1.36600E-004	......
	37	9.8166	-5.58319E-001	5.59076E-006	3.66000E-005	......
	38	10.0749	-5.59419E-001	5.59076E-006	3.36600E-004	......
EOC	QUANT	-0.559419	Open Circuit (V)
PSTATMODEL	IQUANT	32	Pstat Model
PSTATSECTION	LABEL	PStat0	Pstat Section
CTRLMODE	IQUANT	1	Control Mode
IESTAB	IQUANT	0	I/E Stability
CASPEED	IQUANT	1	Control Amp Speed
CONVENTION	IQUANT	1	Current Convention
ICHRANGE	IQUANT	2	Ich Range
ICHRANGEMODE	TOGGLE	F	Ich Auto Range
ICHOFFSETENABLE	TOGGLE	T	Ich Offset Enable
ICHOFFSET	QUANT	0	Ich Offset (V)
ICHFILTER	IQUANT	3	Ich Filter
VCHRANGE	IQUANT	2	Vch Range
VCHRANGEMODE	TOGGLE	F	Vch Auto Range
VCHOFFSETENABLE	TOGGLE	T	Vch Offset Enable
VCHOFFSET	QUANT	0	Vch Offset (V)
VCHFILTER	IQUANT	3	Vch Filter
ACHRANGE	IQUANT	0	Ach Range
IERANGELOWERLIMIT	IQUANT	3	I/E Range Lower Limit
IERANGEMODE	TOGGLE	F	I/E AutoRange
IERANGE	IQUANT	11	I/E Range
POSFEEDENABLE	TOGGLE	F	Positive Feedback IR Comp
POSFEEDRESISTANCE	QUANT	0	Positive Feedback Resistance (ohm)
FC350IDIVISOR	IQUANT	0	FC350 I Divisor
FC350VRANGE	IQUANT	0	FC350 V Range
FRAMEWORKVERSION	QUANT	4.35	Framework Version
ZCURVE	TABLE
	Pt	Time	Freq	Zreal	Zimag	Zsig	Zmod	Zphz	Idc	Vdc	IERange
	#	s	Hz	ohm	ohm	V	ohm	°	A	V	#
	0	4	100007	121.245	-0.377317	1	121.246	-0.178305	2.55593E-006	-0.459363	9
	1	6	89134.1	120.672	-0.690576	1	120.674	-0.327887	2.85774E-006	-0.459374	9
	2	8	79433.6	120.241	-0.97815	1	120.245	-0.466085	3.06054E-006	-0.459405	9
	3	10	70800.8	119.976	-1.26696	1	119.983	-0.605027	3.10762E-006	-0.459387	9
	4	12	63105.5	119.978	-1.49713	1	119.987	-0.714922	3.02363E-006	-0.459374	9
	5	14	56243.5	119.932	-1.73092	1	119.944	-0.826869	2.93212E-006	-0.459361	9
	6	16	50123.7	119.749	-2.01046	1	119.766	-0.96184	2.89856E-006	-0.459362	9
	7	18	44681	119.633	-2.60693	1	119.661	-1.24834	2.88653E-006	-0.459377	9
	8	20	39811.2	119.5	-2.73548	1	119.532	-1.31133	3.04199E-006	-0.459368	9
	9	22	35488.3	119.632	-3.0777	1	119.672	-1.47368	3.14049E-006	-0.459394	9
	10	24	31634.1	119.682	-3.70166	1	119.739	-1.77155	3.20562E-006	-0.459405	9
	11	26	28173.1	119.79	-4.22501	1	119.865	-2.01999	3.37053E-006	-0.45939	9
	12	27	25123.7	119.847	-4.33626	1	119.925	-2.07216	3.09087E-006	-0.459373	9
	13	29	22389.3	119.855	-4.75497	1	119.949	-2.27189	2.96776E-006	-0.459372	9
	14	31	19954.4	120.069	-5.60847	1	120.199	-2.67437	3.34359E-006	-0.459398	9
	15	33	17778.2	120.214	-5.94281	1	120.361	-2.83013	3.19679E-006	-0.459393	9
	16	35	15852.9	120.42	-6.48266	1	120.594	-3.08148	3.40621E-006	-0.459396	9
	17	37	14122.3	120.468	-7.38843	1	120.694	-3.50961	3.24106E-006	-0.459383	9
	18	39	12587.2	120.769	-7.89199	1	121.027	-3.73883	3.12195E-006	-0.45938	9
	19	41	11221.1	120.833	-8.69398	1	121.145	-4.11536	3.11159E-006	-0.459379	9
	20	43	9998.2	121.059	-9.6802	1	121.445	-4.57181	3.08031E-006	-0.459366	9
	21	45	8912.76	121.376	-10.6873	1	121.846	-5.03199	3.03529E-006	-0.459362	9
	22	47	7942.6	121.681	-11.8293	1	122.255	-5.55258	3.21578E-006	-0.459376	9
	23	49	7078.05	121.989	-12.9291	1	122.672	-6.04998	3.46667E-006	-0.459375	9
	24	51	6311.1	122.281	-14.2969	1	123.114	-6.66864	3.2697E-006	-0.459377	9
	25	53	5622.14	122.55	-15.8093	1	123.566	-7.35069	3.20323E-006	-0.459375	9
	26	55	5011.18	122.866	-17.2055	1	124.065	-7.97156	3.34548E-006	-0.459378	9
	27	57	4465.21	123.314	-19.1628	1	124.794	-8.83299	3.1682E-006	-0.459366	9
	28	59	3980.93	123.651	-20.9758	1	125.418	-9.6278	3.37692E-006	-0.459385	9
	29	61	3548.18	124.349	-23.2483	1	126.504	-10.5898	3.01882E-006	-0.459356	9
	30	63	3162.67	124.6	-25.4521	1	127.173	-11.545	2.93018E-006	-0.459372	9
	31	65	2819.01	125.245	-28.1873	1	128.378	-12.6835	3.12121E-006	-0.459352	9
	32	67	2511.16	125.848	-31.0698	1	129.627	-13.8681	3.00054E-006	-0.459377	9
	33	69	2238.63	126.677	-34.1509	1	131.199	-15.0877	3.00971E-006	-0.459383	9
	34	71	1995.37	127.183	-37.7937	1	132.679	-16.5499	3.10145E-006	-0.459387	9
	35	73	1778.51	128.036	-41.7847	1	134.682	-18.0742	2.93846E-006	-0.459374	9
	36	75	1584.49	128.941	-46.003	1	136.902	-19.6351	3.11648E-006	-0.459368	9
	37	77	1412.76	129.972	-50.9176	1	139.59	-21.3932	3.00543E-006	-0.459374	9
	38	79	1259.04	130.712	-56.2092	1	142.285	-23.2689	3.15704E-006	-0.459382	9
	39	81	1121.63	131.829	-62.1761	1	145.756	-25.2506	3.1327E-006	-0.459379	9
	40	83	999.95	133.139	-68.737	1	149.836	-27.3065	3.03842E-006	-0.459375	9
	41	85	891.184	134.485	-76.0638	1	154.506	-29.4921	3.11863E-006	-0.459374	9
	42	87	794.163	135.799	-83.7081	1	159.526	-31.6501	3.05828E-006	-0.45938	9
	43	89	707.867	137.351	-92.8662	1	165.799	-34.0635	2.87676E-006	-0.459385	9
	44	91	630.984	138.712	-102.558	1	172.509	-36.4776	2.6796E-006	-0.459375	9
	45	93	562.189	140.669	-113.77	1	180.918	-38.9651	2.92846E-006	-0.459388	9
	46	95	501.303	142.544	-125.677	1	190.036	-41.4015	2.78354E-006	-0.459371	9
	47	97	446.614	144.536	-139.271	1	200.717	-43.9372	2.54132E-006	-0.459372	9
	48	99	398.209	146.727	-154.29	1	212.918	-46.4392	2.86407E-006	-0.459372	9
	49	101	354.821	149.113	-171.029	1	226.904	-48.9162	2.86084E-006	-0.459369	9
	50	103	316.113	151.742	-189.72	1	242.939	-51.3465	2.71985E-006	-0.459369	9
	51	105	281.926	154.617	-210.32	1	261.038	-53.6785	2.73598E-006	-0.459369	9
	52	107	251.185	157.739	-233.403	1	281.706	-55.9482	2.68501E-006	-0.45937	9
	53	109	223.946	161.252	-259.004	1	305.099	-58.0943	2.79388E-006	-0.459368	9
	54	111	199.495	165.11	-287.69	1	331.703	-60.1478	2.81649E-006	-0.45937	9
	55	113	177.836	169.339	-319.422	1	361.533	-62.0701	2.8202E-006	-0.459371	9
	56	115	158.533	174.091	-354.691	1	395.112	-63.8571	2.86854E-006	-0.45937	9
	57	117	141.263	179.329	-394.238	1	433.108	-65.5404	2.91306E-006	-0.459371	9
	58	119	125.911	185.076	-437.958	1	475.458	-67.0916	2.58579E-006	-0.459377	9
	59	121	112.198	191.672	-486.927	1	523.293	-68.5136	2.57055E-006	-0.459377	9
	60	123	100.009	199.068	-541.285	1	576.73	-69.8081	2.79545E-006	-0.459368	9
	61	125	89.1164	207.338	-601.765	1	636.483	-70.9886	2.68521E-006	-0.45937	9
	62	127	79.4083	217.232	-669.354	1	703.721	-72.0197	2.90212E-006	-0.459373	9
	63	129	70.788	227.623	-744.313	1	778.34	-72.9955	2.70804E-006	-0.459364	9
	64	131	63.0971	239.904	-827.5	1	861.575	-73.8324	2.80556E-006	-0.459364	9
	65	133	54.5476	255.642	-946.538	1	980.45	-74.8861	2.2843E-006	-0.459367	9
	66	135	50.0083	267.23	-1025.94	1	1060.17	-75.4004	2.24589E-006	-0.459368	9
	67	137	46.1675	278.166	-1103.62	1	1138.14	-75.8534	1.36142E-006	-0.459366	8
	68	139	40.0059	302.788	-1259.92	1	1295.79	-76.4868	1.44228E-006	-0.45936	8
	69	142	35.3046	325.065	-1413.19	1	1450.1	-77.0461	1.30368E-006	-0.459372	8
	70	144	31.5793	353.29	-1566.8	1	1606.14	-77.2932	1.60338E-006	-0.459363	8
	71	146	28.5748	381.503	-1718.1	1	1759.95	-77.4807	1.67104E-006	-0.459366	8
	72	148	24.9911	426.254	-1944.89	1	1991.06	-77.6382	1.76361E-006	-0.459367	8
	73	150	22.2195	468.906	-2164.62	1	2214.83	-77.7773	1.65758E-006	-0.459367	8
	74	153	20.0011	512.2	-2388.86	1	2443.15	-77.8983	1.57071E-006	-0.459371	8
	75	155	17.6486	576.281	-2677.56	1	2738.88	-77.8537	1.7671E-006	-0.459366	8
	76	157	15.7934	636.375	-2969.01	1	3036.45	-77.9023	1.58944E-006	-0.459366	8
	77	159	14.2828	717.477	-3245.56	1	3323.92	-77.5344	1.82921E-006	-0.459368	8
	78	162	12.5002	781.282	-3676.94	1	3759.03	-78.0041	1.51103E-006	-0.45937	8
	79	164	11.323	901.191	-3995.94	1	4096.3	-77.2909	1.58902E-006	-0.459367	8
	80	167	9.9987	1021.43	-4480.57	1	4595.52	-77.1579	1.56645E-006	-0.459369	8
