EXPLAIN
TAG	EISPOT
TITLE	LABEL	Tomato_open	Test &Identifier
DATE	LABEL	5/12/2006	Date
TIME	LABEL	17:12:32	Time
NOTES	NOTES	1	&Notes...
	
PSTAT	PSTAT	300	Potentiostat
VDC	POTEN	1.00000E-001	T	DC &Voltage (V)
FREQINIT	QUANT	1.00000E+005	Initial Fre&q. (Hz)
FREQFINAL	QUANT	1.00000E+001	Final Fre&q. (Hz)
PTSPERDEC	QUANT	2.00000E+001	Points/&decade
VAC	QUANT	1.00000E+001	AC &Voltage (mV rms)
AREA	QUANT	1.00000E+000	&Area (cm²)
DENSITY	QUANT	7.87000E+000	&Density (gm/cm³)
EQUIV	QUANT	7.00000E+000	Equiv. &Wt
CONDIT	TWOPARAM	F	1.50000E+001	0.00000E+000	Conditionin&g	Time(s)	E(V)
DELAY	TWOPARAM	F	6.00000E+002	0.00000E+000	Init. De&lay	Time(s)	Stab.(mV/s)
SPEED	SELECTOR	1	&Optimize for:
ZGUESS	QUANT	1.00000E+002	E&stimated Z (ohms)
OCVCURVE	TABLE	39
	Pt	T	Vf	Vm	Ach	Over
	#	s	V vs. Ref.	V	V	bits
	0	0.258332	-5.74419E-001	4.54777E-006	2.36600E-004	......
	1	0.516663	-5.74920E-001	4.54777E-006	2.36600E-004	......
	2	0.774994	-5.68669E-001	4.54777E-006	2.36600E-004	......
	3	1.03333	-5.63919E-001	4.54777E-006	3.36600E-004	......
	4	1.29166	-5.64669E-001	4.54777E-006	2.36600E-004	......
	5	1.54999	-5.66069E-001	4.54777E-006	3.36600E-004	......
	6	1.80832	-5.66669E-001	4.54777E-006	1.36600E-004	......
	7	2.06665	-5.68020E-001	4.54777E-006	1.36600E-004	......
	8	2.32498	-5.68869E-001	4.54777E-006	2.36600E-004	......
	9	2.58332	-5.69070E-001	4.54777E-006	3.36600E-004	......
	10	2.84165	-5.68469E-001	4.54777E-006	2.36600E-004	......
	11	3.09998	-5.69420E-001	4.54777E-006	3.36600E-004	......
	12	3.35831	-5.66119E-001	4.54777E-006	1.36600E-004	......
	13	3.61664	-5.60870E-001	4.54777E-006	2.36600E-004	......
	14	3.87497	-5.63219E-001	4.54777E-006	2.36600E-004	......
	15	4.1333	-5.66669E-001	4.54777E-006	1.36600E-004	......
	16	4.39164	-5.68770E-001	4.54777E-006	2.36600E-004	......
	17	4.64997	-5.70919E-001	4.54777E-006	3.36600E-004	......
	18	4.9083	-5.72969E-001	4.54777E-006	1.36600E-004	......
	19	5.16663	-5.74319E-001	4.54777E-006	2.36600E-004	......
	20	5.42496	-5.75319E-001	4.54777E-006	2.36600E-004	......
	21	5.68329	-5.76169E-001	4.54777E-006	3.36600E-004	......
	22	5.94162	-5.75069E-001	4.54777E-006	2.36600E-004	......
	23	6.19996	-5.68720E-001	4.54777E-006	3.36600E-004	......
	24	6.45829	-5.66069E-001	4.54777E-006	2.36600E-004	......
	25	6.71662	-5.60969E-001	4.54777E-006	3.36600E-004	......
	26	6.97495	-5.59070E-001	4.54777E-006	2.36600E-004	......
	27	7.23328	-5.59869E-001	4.54777E-006	3.36600E-004	......
	28	7.49161	-5.59419E-001	4.54777E-006	2.36600E-004	......
	29	7.74995	-5.59770E-001	4.54777E-006	3.36600E-004	......
	30	8.00828	-5.60470E-001	4.54777E-006	2.36600E-004	......
	31	8.26661	-5.59820E-001	4.54777E-006	2.36600E-004	......
	32	8.52494	-5.57769E-001	4.54777E-006	2.36600E-004	......
	33	8.78327	-5.55269E-001	4.54777E-006	2.36600E-004	......
	34	9.0416	-5.56769E-001	4.54777E-006	1.36600E-004	......
	35	9.29993	-5.58519E-001	4.54777E-006	2.36600E-004	......
	36	9.5583	-5.60019E-001	4.54777E-006	2.36600E-004	......
	37	9.8166	-5.61669E-001	4.54777E-006	1.36600E-004	......
	38	10.0749	-5.61769E-001	4.54777E-006	2.36600E-004	......
EOC	QUANT	-0.561769	Open Circuit (V)
PSTATMODEL	IQUANT	32	Pstat Model
PSTATSECTION	LABEL	PStat0	Pstat Section
CTRLMODE	IQUANT	1	Control Mode
IESTAB	IQUANT	0	I/E Stability
CASPEED	IQUANT	1	Control Amp Speed
CONVENTION	IQUANT	1	Current Convention
ICHRANGE	IQUANT	2	Ich Range
ICHRANGEMODE	TOGGLE	F	Ich Auto Range
ICHOFFSETENABLE	TOGGLE	T	Ich Offset Enable
ICHOFFSET	QUANT	0	Ich Offset (V)
ICHFILTER	IQUANT	3	Ich Filter
VCHRANGE	IQUANT	2	Vch Range
VCHRANGEMODE	TOGGLE	F	Vch Auto Range
VCHOFFSETENABLE	TOGGLE	T	Vch Offset Enable
VCHOFFSET	QUANT	0	Vch Offset (V)
VCHFILTER	IQUANT	3	Vch Filter
ACHRANGE	IQUANT	0	Ach Range
IERANGELOWERLIMIT	IQUANT	3	I/E Range Lower Limit
IERANGEMODE	TOGGLE	F	I/E AutoRange
IERANGE	IQUANT	11	I/E Range
POSFEEDENABLE	TOGGLE	F	Positive Feedback IR Comp
POSFEEDRESISTANCE	QUANT	0	Positive Feedback Resistance (ohm)
FC350IDIVISOR	IQUANT	0	FC350 I Divisor
FC350VRANGE	IQUANT	0	FC350 V Range
FRAMEWORKVERSION	QUANT	4.35	Framework Version
ZCURVE	TABLE
	Pt	Time	Freq	Zreal	Zimag	Zsig	Zmod	Zphz	Idc	Vdc	IERange
	#	s	Hz	ohm	ohm	V	ohm	°	A	V	#
	0	4	100007	119.88	-0.435602	1	119.881	-0.208192	3.07637E-006	-0.461548	9
	1	6	89134.1	119.271	-0.680556	1	119.273	-0.326924	3.45681E-006	-0.461574	9
	2	8	79433.6	118.862	-1.13422	1	118.868	-0.54672	3.43715E-006	-0.46157	9
	3	10	70800.8	118.693	-1.22015	1	118.699	-0.588973	3.86517E-006	-0.461605	9
	4	12	63105.5	118.522	-1.55587	1	118.532	-0.752092	3.39834E-006	-0.461594	9
	5	14	56243.5	118.593	-1.83313	1	118.607	-0.885567	3.31117E-006	-0.461567	9
	6	15	50123.7	118.291	-2.20516	1	118.312	-1.06797	3.38245E-006	-0.461598	9
	7	17	44681	118.402	-2.368	1	118.425	-1.14575	3.40184E-006	-0.461578	9
	8	19	39811.2	118.388	-3.01343	1	118.426	-1.45809	3.70212E-006	-0.461579	9
	9	21	35488.3	118.329	-3.13807	1	118.37	-1.51913	3.83513E-006	-0.461571	9
	10	23	31634.1	118.378	-3.60971	1	118.433	-1.74659	4.22854E-006	-0.461606	9
	11	25	28173.1	118.464	-4.00421	1	118.532	-1.93592	4.02057E-006	-0.461583	9
	12	27	25123.7	118.496	-4.51553	1	118.582	-2.18232	4.07367E-006	-0.461601	9
	13	29	22389.3	118.737	-4.92245	1	118.839	-2.37395	3.89873E-006	-0.461595	9
	14	31	19954.4	118.791	-5.44015	1	118.916	-2.62208	3.70509E-006	-0.461583	9
	15	33	17778.2	118.903	-6.1653	1	119.063	-2.9682	4.02932E-006	-0.461591	9
	16	35	15852.9	119.22	-6.7095	1	119.408	-3.22112	3.96738E-006	-0.461586	9
	17	37	14122.3	119.183	-7.19075	1	119.399	-3.45269	3.93937E-006	-0.461582	9
	18	39	12587.2	119.454	-8.03091	1	119.724	-3.84621	3.50338E-006	-0.461576	9
	19	41	11221.1	119.65	-8.75626	1	119.97	-4.18559	3.49878E-006	-0.461585	9
	20	43	9998.2	119.828	-9.6553	1	120.217	-4.60672	3.66006E-006	-0.461589	9
	21	45	8912.76	120.063	-10.7848	1	120.546	-5.13287	3.65188E-006	-0.461568	9
	22	47	7942.6	120.487	-11.648	1	121.049	-5.52185	3.53917E-006	-0.46159	9
	23	49	7078.05	120.659	-13.0344	1	121.361	-6.1656	3.4262E-006	-0.461574	9
	24	51	6311.1	120.9	-14.3684	1	121.751	-6.77754	3.45317E-006	-0.461576	9
	25	53	5622.14	121.226	-15.834	1	122.255	-7.44162	3.23759E-006	-0.461586	9
	26	55	5011.18	121.791	-17.3514	1	123.021	-8.1083	3.15432E-006	-0.461582	9
	27	57	4465.21	122	-19.1718	1	123.497	-8.93073	3.26117E-006	-0.461574	9
	28	59	3980.93	122.433	-21.1181	1	124.241	-9.7865	3.22404E-006	-0.461576	9
	29	60	3548.18	123.031	-22.9699	1	125.157	-10.5754	3.1457E-006	-0.461574	9
	30	62	3162.67	123.568	-25.4905	1	126.17	-11.6559	3.22401E-006	-0.461582	9
	31	64	2819.01	123.931	-28.4768	1	127.161	-12.9407	2.91613E-006	-0.46156	9
	32	66	2511.16	124.742	-31.2016	1	128.585	-14.0432	3.00737E-006	-0.461587	9
	33	68	2238.63	125.344	-34.4208	1	129.984	-15.3555	3.00951E-006	-0.461581	9
	34	70	1995.37	126.095	-37.9819	1	131.692	-16.7631	3.07407E-006	-0.461577	9
	35	72	1778.51	126.798	-42.0388	1	133.585	-18.3426	3.24187E-006	-0.461576	9
	36	74	1584.49	127.73	-46.4449	1	135.912	-19.9822	3.25174E-006	-0.461585	9
	37	76	1412.76	128.606	-51.2757	1	138.451	-21.7374	3.50518E-006	-0.461597	9
	38	78	1259.04	129.537	-56.4545	1	141.304	-23.5484	3.34488E-006	-0.461583	9
	39	80	1121.63	130.672	-62.3904	1	144.802	-25.5225	3.08373E-006	-0.461587	9
	40	82	999.95	131.938	-68.8816	1	148.837	-27.568	3.08238E-006	-0.461589	9
	41	84	891.184	133.065	-76.1932	1	153.335	-29.7956	3.02215E-006	-0.461592	9
	42	86	794.163	134.803	-84.0756	1	158.873	-31.9515	3.13618E-006	-0.461589	9
	43	88	707.867	136.046	-93.1825	1	164.899	-34.4085	2.98554E-006	-0.461582	9
	44	90	630.984	137.334	-102.949	1	171.636	-36.8562	2.87504E-006	-0.461583	9
	45	92	562.189	139.532	-114.095	1	180.241	-39.2729	3.2916E-006	-0.461597	9
	46	94	501.303	141.362	-126.259	1	189.538	-41.77	3.23157E-006	-0.461576	9
	47	96	446.614	143.356	-139.924	1	200.324	-44.3057	3.36103E-006	-0.461571	9
	48	98	398.209	145.538	-154.986	1	212.607	-46.8007	3.34742E-006	-0.461572	9
	49	100	354.821	147.913	-171.801	1	226.702	-49.273	3.39176E-006	-0.461569	9
	50	102	316.113	150.549	-190.577	1	242.868	-51.6926	3.46377E-006	-0.461572	9
	51	104	281.926	153.422	-211.286	1	261.113	-54.0153	3.54312E-006	-0.46157	9
	52	106	251.185	156.591	-234.508	1	281.984	-56.2673	3.52346E-006	-0.46157	9
	53	108	223.946	160.047	-260.211	1	305.491	-58.4057	3.41167E-006	-0.461569	9
	54	110	199.495	163.927	-289.055	1	332.302	-60.4418	3.51598E-006	-0.461571	9
	55	112	177.836	168.216	-320.964	1	362.374	-62.3411	3.48134E-006	-0.461569	9
	56	114	158.533	173.009	-356.523	1	396.284	-64.1142	3.54624E-006	-0.461567	9
	57	116	141.263	178.359	-396.248	1	434.539	-65.7665	3.48734E-006	-0.461577	9
	58	118	125.911	184.17	-440.279	1	477.246	-67.3003	3.52365E-006	-0.461577	9
	59	120	112.198	190.727	-489.468	1	525.315	-68.7111	3.30598E-006	-0.461583	9
	60	122	100.009	198.023	-544.15	1	579.062	-70.0029	3.10503E-006	-0.461579	9
	61	124	89.1164	206.371	-605.248	1	639.464	-71.1722	3.03849E-006	-0.461577	9
	62	126	79.4083	215.424	-673.486	1	707.101	-72.2624	2.8575E-006	-0.461579	9
	63	128	70.788	226.092	-748.963	1	782.345	-73.2023	2.79118E-006	-0.461577	9
	64	130	63.0971	238.892	-832.885	1	866.469	-73.9958	2.97162E-006	-0.461583	9
	65	132	54.5476	256.416	-952.79	1	986.69	-74.9374	2.83437E-006	-0.461584	9
	66	134	50.0083	268.05	-1032.06	1	1066.3	-75.4407	2.90817E-006	-0.461585	9
	67	136	46.1675	279.767	-1110.89	1	1145.57	-75.8645	1.99672E-006	-0.461578	8
	68	138	40.0059	305.921	-1267.35	1	1303.75	-76.4292	2.11735E-006	-0.461577	8
	69	141	35.3046	333.264	-1423.13	1	1461.63	-76.8201	2.24928E-006	-0.461577	8
	70	143	31.5793	357.927	-1577.41	1	1617.51	-77.2156	2.16849E-006	-0.46157	8
	71	145	28.5748	390.379	-1727.79	1	1771.34	-77.2683	2.31865E-006	-0.461572	8
	72	147	24.9911	436.501	-1952.82	1	2001.01	-77.4002	2.44656E-006	-0.46157	8
	73	149	22.2195	482.417	-2179.83	1	2232.57	-77.521	2.39618E-006	-0.46157	8
	74	152	20.0011	530.099	-2402.48	1	2460.27	-77.5573	2.29015E-006	-0.461576	8
	75	154	17.6486	605.839	-2689.22	1	2756.62	-77.3041	2.42419E-006	-0.46157	8
	76	156	15.7934	669.706	-2978.2	1	3052.57	-77.3267	2.38609E-006	-0.461576	8
	77	158	14.2828	763.571	-3261	1	3349.21	-76.8215	2.49284E-006	-0.461573	8
	78	161	12.5002	882.158	-3683.07	1	3787.24	-76.5304	2.51457E-006	-0.461572	8
	79	163	11.323	990.83	-4020.18	1	4140.48	-76.1547	2.46386E-006	-0.461576	8
	80	166	9.9987	1162.41	-4489.28	1	4637.34	-75.4832	2.50335E-006	-0.461573	8
