EXPLAIN
TAG	EISPOT
TITLE	LABEL	Tomato_open	Test &Identifier
DATE	LABEL	5/12/2006	Date
TIME	LABEL	17:17:35	Time
NOTES	NOTES	1	&Notes...
	
PSTAT	PSTAT	300	Potentiostat
VDC	POTEN	1.00000E-001	T	DC &Voltage (V)
FREQINIT	QUANT	1.00000E+005	Initial Fre&q. (Hz)
FREQFINAL	QUANT	1.00000E+001	Final Fre&q. (Hz)
PTSPERDEC	QUANT	2.00000E+001	Points/&decade
VAC	QUANT	1.00000E+001	AC &Voltage (mV rms)
AREA	QUANT	1.00000E+000	&Area (cm²)
DENSITY	QUANT	7.87000E+000	&Density (gm/cm³)
EQUIV	QUANT	7.00000E+000	Equiv. &Wt
CONDIT	TWOPARAM	F	1.50000E+001	0.00000E+000	Conditionin&g	Time(s)	E(V)
DELAY	TWOPARAM	F	6.00000E+002	0.00000E+000	Init. De&lay	Time(s)	Stab.(mV/s)
SPEED	SELECTOR	1	&Optimize for:
ZGUESS	QUANT	1.00000E+002	E&stimated Z (ohms)
OCVCURVE	TABLE	39
	Pt	T	Vf	Vm	Ach	Over
	#	s	V vs. Ref.	V	V	bits
	0	0.258332	-5.59619E-001	5.34876E-006	1.36600E-004	......
	1	0.516663	-5.59969E-001	5.34876E-006	3.36600E-004	......
	2	0.774994	-5.60820E-001	5.34876E-006	1.36600E-004	......
	3	1.03333	-5.60820E-001	5.34876E-006	2.36600E-004	......
	4	1.29166	-5.61269E-001	5.34876E-006	1.36600E-004	......
	5	1.54999	-5.62169E-001	5.34876E-006	3.36600E-004	......
	6	1.80832	-5.62220E-001	5.34876E-006	2.36600E-004	......
	7	2.06665	-5.61769E-001	5.34876E-006	3.36600E-004	......
	8	2.32498	-5.62319E-001	5.34876E-006	3.66000E-005	......
	9	2.58332	-5.62769E-001	5.34876E-006	1.36600E-004	......
	10	2.84165	-5.65219E-001	5.34876E-006	2.36600E-004	......
	11	3.09998	-5.65669E-001	5.34876E-006	2.36600E-004	......
	12	3.35831	-5.64819E-001	5.34876E-006	2.36600E-004	......
	13	3.61664	-5.64869E-001	5.34876E-006	3.36600E-004	......
	14	3.87497	-5.64269E-001	5.34876E-006	2.36600E-004	......
	15	4.1333	-5.63670E-001	5.34876E-006	3.36600E-004	......
	16	4.39164	-5.61919E-001	5.34876E-006	1.36600E-004	......
	17	4.64997	-5.61669E-001	5.34876E-006	2.36600E-004	......
	18	4.9083	-5.63269E-001	5.34876E-006	2.36600E-004	......
	19	5.16663	-5.64269E-001	5.34876E-006	1.36600E-004	......
	20	5.42496	-5.65470E-001	5.34876E-006	2.36600E-004	......
	21	5.68329	-5.66570E-001	5.34876E-006	2.36600E-004	......
	22	5.94162	-5.67569E-001	5.34876E-006	2.36600E-004	......
	23	6.19996	-5.68619E-001	5.34876E-006	3.36600E-004	......
	24	6.45829	-5.69169E-001	5.34876E-006	2.36600E-004	......
	25	6.71662	-5.69420E-001	5.34876E-006	2.36600E-004	......
	26	6.97495	-5.68269E-001	5.34876E-006	2.36600E-004	......
	27	7.23328	-5.67819E-001	5.34876E-006	2.36600E-004	......
	28	7.49161	-5.68169E-001	5.34876E-006	2.36600E-004	......
	29	7.74995	-5.69470E-001	5.34876E-006	2.36600E-004	......
	30	8.00828	-5.70120E-001	5.34876E-006	2.36600E-004	......
	31	8.26661	-5.70319E-001	5.34876E-006	2.36600E-004	......
	32	8.52494	-5.70819E-001	5.34876E-006	1.36600E-004	......
	33	8.78327	-5.71119E-001	5.34876E-006	2.36600E-004	......
	34	9.0416	-5.71369E-001	5.34876E-006	1.36600E-004	......
	35	9.29993	-5.71669E-001	5.34876E-006	3.36600E-004	......
	36	9.5583	-5.71469E-001	5.34876E-006	3.66000E-005	......
	37	9.8166	-5.71719E-001	5.34876E-006	3.36600E-004	......
	38	10.0749	-5.72219E-001	5.34876E-006	3.66000E-005	......
EOC	QUANT	-0.572219	Open Circuit (V)
PSTATMODEL	IQUANT	32	Pstat Model
PSTATSECTION	LABEL	PStat0	Pstat Section
CTRLMODE	IQUANT	1	Control Mode
IESTAB	IQUANT	0	I/E Stability
CASPEED	IQUANT	1	Control Amp Speed
CONVENTION	IQUANT	1	Current Convention
ICHRANGE	IQUANT	2	Ich Range
ICHRANGEMODE	TOGGLE	F	Ich Auto Range
ICHOFFSETENABLE	TOGGLE	T	Ich Offset Enable
ICHOFFSET	QUANT	0	Ich Offset (V)
ICHFILTER	IQUANT	3	Ich Filter
VCHRANGE	IQUANT	2	Vch Range
VCHRANGEMODE	TOGGLE	F	Vch Auto Range
VCHOFFSETENABLE	TOGGLE	T	Vch Offset Enable
VCHOFFSET	QUANT	0	Vch Offset (V)
VCHFILTER	IQUANT	3	Vch Filter
ACHRANGE	IQUANT	0	Ach Range
IERANGELOWERLIMIT	IQUANT	3	I/E Range Lower Limit
IERANGEMODE	TOGGLE	F	I/E AutoRange
IERANGE	IQUANT	11	I/E Range
POSFEEDENABLE	TOGGLE	F	Positive Feedback IR Comp
POSFEEDRESISTANCE	QUANT	0	Positive Feedback Resistance (ohm)
FC350IDIVISOR	IQUANT	0	FC350 I Divisor
FC350VRANGE	IQUANT	0	FC350 V Range
FRAMEWORKVERSION	QUANT	4.35	Framework Version
ZCURVE	TABLE
	Pt	Time	Freq	Zreal	Zimag	Zsig	Zmod	Zphz	Idc	Vdc	IERange
	#	s	Hz	ohm	ohm	V	ohm	°	A	V	#
	0	4	100007	119.182	-0.349636	1	119.182	-0.168084	2.50487E-006	-0.472185	9
	1	6	89134.1	118.501	-0.642877	1	118.503	-0.310831	2.91518E-006	-0.472185	9
	2	8	79433.6	118.272	-1.01468	1	118.277	-0.491539	2.94657E-006	-0.472204	9
	3	10	70800.8	117.949	-1.31459	1	117.956	-0.638559	3.2034E-006	-0.472209	9
	4	12	63105.5	117.747	-1.58905	1	117.758	-0.773183	3.46362E-006	-0.472214	9
	5	14	56243.5	117.836	-1.73921	1	117.849	-0.845596	3.33418E-006	-0.47222	9
	6	16	50123.7	117.804	-2.14201	1	117.824	-1.04168	3.63545E-006	-0.472216	9
	7	18	44681	117.599	-2.35027	1	117.622	-1.14493	3.52599E-006	-0.472192	9
	8	20	39811.2	117.573	-2.91007	1	117.609	-1.41785	3.84773E-006	-0.472211	9
	9	22	35488.3	117.557	-3.25029	1	117.602	-1.58374	3.68949E-006	-0.472229	9
	10	24	31634.1	117.619	-3.52007	1	117.672	-1.71422	3.64834E-006	-0.472202	9
	11	26	28173.1	117.751	-4.08091	1	117.822	-1.98491	3.75481E-006	-0.47221	9
	12	28	25123.7	117.715	-4.36152	1	117.796	-2.12192	3.76715E-006	-0.472237	9
	13	29	22389.3	118.038	-5.03174	1	118.145	-2.44094	3.52677E-006	-0.472188	9
	14	31	19954.4	118.076	-5.4827	1	118.203	-2.65855	3.64173E-006	-0.472214	9
	15	33	17778.2	118.214	-6.08818	1	118.371	-2.94819	3.44129E-006	-0.472206	9
	16	35	15852.9	118.339	-6.51313	1	118.518	-3.15027	3.36292E-006	-0.472207	9
	17	37	14122.3	118.746	-7.27502	1	118.969	-3.50586	3.54242E-006	-0.47222	9
	18	39	12587.2	118.746	-8.0892	1	119.021	-3.89708	3.51545E-006	-0.472215	9
	19	41	11221.1	119.049	-8.88836	1	119.381	-4.26985	3.58274E-006	-0.472202	9
	20	43	9998.2	119.22	-9.673	1	119.611	-4.6386	3.46412E-006	-0.472202	9
	21	45	8912.76	119.549	-10.7205	1	120.029	-5.12425	3.42637E-006	-0.472222	9
	22	47	7942.6	119.641	-11.8487	1	120.226	-5.6559	3.67885E-006	-0.472214	9
	23	49	7078.05	120.103	-13.0327	1	120.808	-6.19306	3.63982E-006	-0.472206	9
	24	51	6311.1	120.21	-14.4295	1	121.073	-6.8448	3.69996E-006	-0.472216	9
	25	53	5622.14	120.634	-15.9725	1	121.687	-7.54233	3.49145E-006	-0.472204	9
	26	55	5011.18	121.109	-17.3155	1	122.34	-8.1367	3.6422E-006	-0.472211	9
	27	57	4465.21	121.497	-19.0005	1	122.974	-8.88829	3.56888E-006	-0.472213	9
	28	59	3980.93	121.77	-21.2634	1	123.613	-9.9051	3.61876E-006	-0.472212	9
	29	61	3548.18	122.317	-23.5196	1	124.558	-10.8842	3.27751E-006	-0.472217	9
	30	63	3162.67	122.953	-25.5707	1	125.584	-11.7484	3.21868E-006	-0.472213	9
	31	65	2819.01	123.429	-28.4423	1	126.663	-12.9764	3.49363E-006	-0.47222	9
	32	67	2511.16	123.853	-31.2261	1	127.729	-14.1506	3.45224E-006	-0.472212	9
	33	69	2238.63	124.676	-34.649	1	129.402	-15.5312	3.43662E-006	-0.472202	9
	34	71	1995.37	125.31	-38.2416	1	131.015	-16.971	3.40632E-006	-0.472207	9
	35	73	1778.51	126.266	-42.106	1	133.101	-18.442	3.38532E-006	-0.472202	9
	36	75	1584.49	126.949	-46.4452	1	135.178	-20.0955	3.21395E-006	-0.472208	9
	37	77	1412.76	128.051	-51.2113	1	137.912	-21.7978	3.1996E-006	-0.472196	9
	38	79	1259.04	129.059	-56.7222	1	140.974	-23.7258	3.35023E-006	-0.472211	9
	39	81	1121.63	130.093	-62.7037	1	144.416	-25.7337	3.12462E-006	-0.472211	9
	40	83	999.95	131.097	-68.9544	1	148.126	-27.7434	3.15982E-006	-0.472203	9
	41	85	891.184	132.382	-76.5175	1	152.905	-30.0281	3.22295E-006	-0.472218	9
	42	87	794.163	133.764	-84.6354	1	158.29	-32.3225	3.32554E-006	-0.472218	9
	43	89	707.867	135.572	-93.5265	1	164.703	-34.6004	3.42578E-006	-0.47223	9
	44	91	630.984	137.38	-103.221	1	171.837	-36.9196	3.28196E-006	-0.472205	9
	45	93	562.189	138.546	-114.375	1	179.657	-39.5409	3.26779E-006	-0.4722	9
	46	95	501.303	140.727	-126.669	1	189.338	-41.9906	3.50518E-006	-0.472203	9
	47	96	446.614	142.724	-140.382	1	200.193	-44.526	3.43221E-006	-0.4722	9
	48	98	398.209	144.887	-155.506	1	212.543	-47.0245	3.46857E-006	-0.472194	9
	49	100	354.821	147.284	-172.412	1	226.757	-49.4942	3.4191E-006	-0.472201	9
	50	102	316.113	149.895	-191.276	1	243.013	-51.9158	3.2816E-006	-0.472203	9
	51	104	281.926	152.753	-212.069	1	261.356	-54.2348	3.43573E-006	-0.472203	9
	52	106	251.185	155.939	-235.36	1	282.333	-56.4733	3.33146E-006	-0.472199	9
	53	108	223.946	159.449	-261.235	1	306.052	-58.6015	3.47235E-006	-0.472199	9
	54	110	199.495	163.289	-290.171	1	332.96	-60.6321	3.54829E-006	-0.472195	9
	55	112	177.836	167.469	-322.23	1	363.15	-62.5382	3.25279E-006	-0.472198	9
	56	114	158.533	172.199	-357.839	1	397.116	-64.3022	3.22279E-006	-0.472192	9
	57	116	141.263	177.532	-397.74	1	435.563	-65.9463	3.31768E-006	-0.472188	9
	58	118	125.911	183.379	-442.013	1	478.543	-67.4678	3.30199E-006	-0.472195	9
	59	120	112.198	190.192	-491.471	1	526.988	-68.8443	3.26108E-006	-0.472195	9
	60	123	100.009	197.503	-546.445	1	581.042	-70.1285	3.19178E-006	-0.4722	9
	61	125	89.1164	205.872	-607.804	1	641.724	-71.288	3.25509E-006	-0.472199	9
	62	127	79.4083	215.569	-675.873	1	709.418	-72.3099	3.40908E-006	-0.472201	9
	63	129	70.788	226.39	-751.807	1	785.154	-73.2415	3.31459E-006	-0.472198	9
	64	131	63.0971	238.911	-835.995	1	869.464	-74.0511	3.26876E-006	-0.472209	9
	65	133	54.5476	257.703	-956.98	1	991.07	-74.9285	3.36121E-006	-0.472202	9
	66	135	50.0083	270.691	-1036.84	1	1071.59	-75.3682	3.39244E-006	-0.472207	9
	67	137	46.1675	283.263	-1115.82	1	1151.22	-75.7558	2.55816E-006	-0.472213	8
	68	139	40.0059	309.68	-1273.56	1	1310.67	-76.3331	2.49791E-006	-0.472207	8
	69	141	35.3046	338.003	-1429.67	1	1469.08	-76.6983	2.56469E-006	-0.472213	8
	70	144	31.5793	365.588	-1584.54	1	1626.17	-77.008	2.52872E-006	-0.47221	8
	71	146	28.5748	394.777	-1738.9	1	1783.15	-77.2091	2.37499E-006	-0.472212	8
	72	148	24.9911	443.638	-1966.53	1	2015.95	-77.2872	2.41934E-006	-0.472223	8
	73	150	22.2195	491.337	-2190.67	1	2245.09	-77.3586	2.42227E-006	-0.472221	8
	74	152	20.0011	545.079	-2412.04	1	2472.87	-77.2661	2.49378E-006	-0.472222	8
	75	155	17.6486	615.927	-2707.08	1	2776.26	-77.182	2.5842E-006	-0.472215	8
	76	157	15.7934	697.643	-2992.78	1	3073.02	-76.8782	2.60982E-006	-0.472217	8
	77	159	14.2828	774.89	-3276.51	1	3366.89	-76.6941	2.61119E-006	-0.472208	8
	78	161	12.5002	901.135	-3694.27	1	3802.59	-76.2917	2.55029E-006	-0.472213	8
	79	164	11.323	1009.77	-4037.85	1	4162.2	-75.9597	2.4025E-006	-0.472217	8
	80	167	9.9987	1185.02	-4506.32	1	4659.53	-75.2666	2.50619E-006	-0.472214	8
