EXPLAIN
TAG	EISPOT
TITLE	LABEL	Tomato_open	Test &Identifier
DATE	LABEL	5/12/2006	Date
TIME	LABEL	17:02:25	Time
NOTES	NOTES	1	&Notes...
	
PSTAT	PSTAT	300	Potentiostat
VDC	POTEN	1.00000E-001	T	DC &Voltage (V)
FREQINIT	QUANT	1.00000E+005	Initial Fre&q. (Hz)
FREQFINAL	QUANT	1.00000E+001	Final Fre&q. (Hz)
PTSPERDEC	QUANT	2.00000E+001	Points/&decade
VAC	QUANT	1.00000E+001	AC &Voltage (mV rms)
AREA	QUANT	1.00000E+000	&Area (cm²)
DENSITY	QUANT	7.87000E+000	&Density (gm/cm³)
EQUIV	QUANT	7.00000E+000	Equiv. &Wt
CONDIT	TWOPARAM	F	1.50000E+001	0.00000E+000	Conditionin&g	Time(s)	E(V)
DELAY	TWOPARAM	F	6.00000E+002	0.00000E+000	Init. De&lay	Time(s)	Stab.(mV/s)
SPEED	SELECTOR	1	&Optimize for:
ZGUESS	QUANT	1.00000E+002	E&stimated Z (ohms)
OCVCURVE	TABLE	39
	Pt	T	Vf	Vm	Ach	Over
	#	s	V vs. Ref.	V	V	bits
	0	0.258332	-5.39369E-001	4.43094E-006	-1.63400E-004	......
	1	0.516663	-5.36469E-001	4.43094E-006	-1.63400E-004	......
	2	0.774994	-5.37769E-001	4.43094E-006	-6.34000E-005	......
	3	1.03333	-5.36070E-001	4.43094E-006	-1.63400E-004	......
	4	1.29166	-5.36569E-001	4.43094E-006	-1.63400E-004	......
	5	1.54999	-5.37269E-001	4.43094E-006	-1.63400E-004	......
	6	1.80832	-5.38269E-001	4.43094E-006	-6.34000E-005	......
	7	2.06665	-5.41869E-001	4.43094E-006	-1.63400E-004	......
	8	2.32498	-5.42120E-001	4.43094E-006	-1.63400E-004	......
	9	2.58332	-5.44369E-001	4.43094E-006	-1.63400E-004	......
	10	2.84165	-5.42669E-001	4.43094E-006	-1.63400E-004	......
	11	3.09998	-5.40819E-001	4.43094E-006	-1.63400E-004	......
	12	3.35831	-5.44119E-001	4.43094E-006	-6.34000E-005	......
	13	3.61664	-5.42870E-001	4.43094E-006	-1.63400E-004	......
	14	3.87497	-5.46669E-001	4.43094E-006	-6.34000E-005	......
	15	4.1333	-5.46769E-001	4.43094E-006	-6.34000E-005	......
	16	4.39164	-5.47419E-001	4.43094E-006	-1.63400E-004	......
	17	4.64997	-5.48369E-001	4.43094E-006	-1.63400E-004	......
	18	4.9083	-5.48419E-001	4.43094E-006	-1.63400E-004	......
	19	5.16663	-5.47419E-001	4.43094E-006	-1.63400E-004	......
	20	5.42496	-5.46619E-001	4.43094E-006	-6.34000E-005	......
	21	5.68329	-5.46669E-001	4.43094E-006	-6.34000E-005	......
	22	5.94162	-5.46819E-001	4.43094E-006	-1.63400E-004	......
	23	6.19996	-5.49370E-001	4.43094E-006	-1.63400E-004	......
	24	6.45829	-5.47619E-001	4.43094E-006	-1.63400E-004	......
	25	6.71662	-5.49619E-001	4.43094E-006	-6.34000E-005	......
	26	6.97495	-5.50219E-001	4.43094E-006	-6.34000E-005	......
	27	7.23328	-5.50319E-001	4.43094E-006	-1.63400E-004	......
	28	7.49161	-5.51269E-001	4.43094E-006	-1.63400E-004	......
	29	7.74995	-5.54219E-001	4.43094E-006	-1.63400E-004	......
	30	8.00828	-5.54370E-001	4.43094E-006	-6.34000E-005	......
	31	8.26661	-5.53819E-001	4.43094E-006	-1.63400E-004	......
	32	8.52494	-5.52769E-001	4.43094E-006	-1.63400E-004	......
	33	8.78327	-5.51069E-001	4.43094E-006	-1.63400E-004	......
	34	9.0416	-5.48619E-001	4.43094E-006	-2.63400E-004	......
	35	9.29993	-5.46769E-001	4.43094E-006	-1.63400E-004	......
	36	9.5583	-5.44369E-001	4.43094E-006	-6.34000E-005	......
	37	9.8166	-5.42170E-001	4.43094E-006	-2.63400E-004	......
	38	10.0749	-5.40419E-001	4.43094E-006	-6.34000E-005	......
EOC	QUANT	-0.540419	Open Circuit (V)
PSTATMODEL	IQUANT	32	Pstat Model
PSTATSECTION	LABEL	PStat0	Pstat Section
CTRLMODE	IQUANT	1	Control Mode
IESTAB	IQUANT	0	I/E Stability
CASPEED	IQUANT	1	Control Amp Speed
CONVENTION	IQUANT	1	Current Convention
ICHRANGE	IQUANT	2	Ich Range
ICHRANGEMODE	TOGGLE	F	Ich Auto Range
ICHOFFSETENABLE	TOGGLE	T	Ich Offset Enable
ICHOFFSET	QUANT	0	Ich Offset (V)
ICHFILTER	IQUANT	3	Ich Filter
VCHRANGE	IQUANT	2	Vch Range
VCHRANGEMODE	TOGGLE	F	Vch Auto Range
VCHOFFSETENABLE	TOGGLE	T	Vch Offset Enable
VCHOFFSET	QUANT	0	Vch Offset (V)
VCHFILTER	IQUANT	3	Vch Filter
ACHRANGE	IQUANT	0	Ach Range
IERANGELOWERLIMIT	IQUANT	3	I/E Range Lower Limit
IERANGEMODE	TOGGLE	F	I/E AutoRange
IERANGE	IQUANT	11	I/E Range
POSFEEDENABLE	TOGGLE	F	Positive Feedback IR Comp
POSFEEDRESISTANCE	QUANT	0	Positive Feedback Resistance (ohm)
FC350IDIVISOR	IQUANT	0	FC350 I Divisor
FC350VRANGE	IQUANT	0	FC350 V Range
FRAMEWORKVERSION	QUANT	4.35	Framework Version
ZCURVE	TABLE
	Pt	Time	Freq	Zreal	Zimag	Zsig	Zmod	Zphz	Idc	Vdc	IERange
	#	s	Hz	ohm	ohm	V	ohm	°	A	V	#
	0	4	100007	123.382	-0.316628	1	123.382	-0.147035	2.70832E-006	-0.440399	9
	1	6	89134.1	122.519	-0.673798	1	122.521	-0.315097	2.72174E-006	-0.440393	9
	2	8	79433.6	122.382	-1.1363	1	122.388	-0.531966	2.94837E-006	-0.440397	9
	3	10	70800.8	121.986	-1.35469	1	121.993	-0.636262	3.27159E-006	-0.440413	9
	4	12	63105.5	121.86	-1.55402	1	121.87	-0.730622	3.01198E-006	-0.440413	9
	5	14	56243.5	121.751	-1.61664	1	121.761	-0.760745	3.03999E-006	-0.440394	9
	6	16	50123.7	121.601	-2.13454	1	121.619	-1.00565	3.41078E-006	-0.440398	9
	7	18	44681	121.637	-2.54201	1	121.663	-1.19722	3.75759E-006	-0.440415	9
	8	20	39811.2	121.57	-2.78744	1	121.602	-1.31348	3.62901E-006	-0.440388	9
	9	22	35488.3	121.539	-3.14315	1	121.58	-1.48141	3.49385E-006	-0.440381	9
	10	24	31634.1	121.496	-3.65914	1	121.552	-1.72507	3.67728E-006	-0.440387	9
	11	26	28173.1	121.704	-4.06799	1	121.772	-1.91442	4.2111E-006	-0.440401	9
	12	28	25123.7	121.686	-4.56371	1	121.772	-2.14781	3.7567E-006	-0.440384	9
	13	30	22389.3	121.866	-4.78596	1	121.96	-2.24899	3.49381E-006	-0.440371	9
	14	32	19954.4	121.98	-5.51007	1	122.104	-2.58641	3.71756E-006	-0.440383	9
	15	34	17778.2	122.341	-6.05928	1	122.491	-2.83541	3.52848E-006	-0.440387	9
	16	35	15852.9	122.301	-6.74385	1	122.487	-3.15618	3.45318E-006	-0.440389	9
	17	37	14122.3	122.527	-7.42546	1	122.752	-3.46803	3.22093E-006	-0.440393	9
	18	39	12587.2	122.723	-8.19807	1	122.996	-3.82178	3.38901E-006	-0.440384	9
	19	41	11221.1	122.799	-8.90963	1	123.122	-4.14981	2.96982E-006	-0.440386	9
	20	43	9998.2	123.043	-9.7414	1	123.428	-4.52671	3.02629E-006	-0.440382	9
	21	45	8912.76	123.419	-10.6608	1	123.879	-4.93688	2.83879E-006	-0.440368	9
	22	47	7942.6	123.775	-11.9086	1	124.347	-5.49561	3.2381E-006	-0.440389	9
	23	49	7078.05	123.795	-12.8757	1	124.462	-5.9379	3.30235E-006	-0.440392	9
	24	51	6311.1	124.298	-14.1755	1	125.104	-6.50615	3.07587E-006	-0.440384	9
	25	53	5622.14	124.487	-15.3814	1	125.434	-7.04369	3.44815E-006	-0.440383	9
	26	55	5011.18	124.93	-17.2861	1	126.121	-7.87773	3.30102E-006	-0.440378	9
	27	57	4465.21	125.33	-19.2322	1	126.797	-8.72412	3.33774E-006	-0.440377	9
	28	59	3980.93	125.794	-20.9841	1	127.532	-9.47047	3.33157E-006	-0.440365	9
	29	61	3548.18	126.343	-23.0217	1	128.424	-10.3269	3.50971E-006	-0.440391	9
	30	63	3162.67	126.847	-25.3661	1	129.358	-11.3086	3.59507E-006	-0.440375	9
	31	65	2819.01	127.251	-27.9822	1	130.291	-12.4018	3.5297E-006	-0.440397	9
	32	67	2511.16	127.852	-31.0347	1	131.565	-13.644	3.32267E-006	-0.440379	9
	33	69	2238.63	128.63	-34.2313	1	133.107	-14.9023	3.63553E-006	-0.440394	9
	34	71	1995.37	129.367	-37.7018	1	134.749	-16.2479	3.43234E-006	-0.440377	9
	35	73	1778.51	130.277	-41.366	1	136.686	-17.6159	3.56107E-006	-0.440368	9
	36	75	1584.49	130.969	-45.8159	1	138.752	-19.281	3.54178E-006	-0.440374	9
	37	77	1412.76	131.737	-50.4654	1	141.072	-20.9607	3.45173E-006	-0.440362	9
	38	79	1259.04	132.788	-55.8103	1	144.039	-22.7969	3.56559E-006	-0.44037	9
	39	81	1121.63	133.999	-61.4015	1	147.397	-24.6184	3.96181E-006	-0.440372	9
	40	83	999.95	135.256	-67.9004	1	151.343	-26.6573	3.71081E-006	-0.440378	9
	41	85	891.184	136.503	-75.2219	1	155.857	-28.8577	3.35081E-006	-0.440375	9
	42	87	794.163	137.974	-83.2078	1	161.122	-31.0929	3.20301E-006	-0.440368	9
	43	89	707.867	139.469	-91.8997	1	167.024	-33.3819	3.2462E-006	-0.440382	9
	44	91	630.984	141.288	-101.751	1	174.114	-35.7602	3.26282E-006	-0.440367	9
	45	93	562.189	142.989	-112.72	1	182.076	-38.2492	3.13382E-006	-0.440377	9
	46	95	501.303	144.901	-124.442	1	191.003	-40.6563	3.39098E-006	-0.440367	9
	47	97	446.614	146.977	-137.839	1	201.499	-43.1622	3.49278E-006	-0.440368	9
	48	99	398.209	149.235	-152.649	1	213.478	-45.6479	3.64585E-006	-0.440366	9
	49	101	354.821	151.731	-169.166	1	227.243	-48.1098	3.70057E-006	-0.440373	9
	50	103	316.113	154.439	-187.552	1	242.955	-50.5303	3.58174E-006	-0.440374	9
	51	105	281.926	157.438	-207.845	1	260.741	-52.8569	3.71771E-006	-0.44037	9
	52	107	251.185	160.726	-230.575	1	281.066	-55.1209	3.68732E-006	-0.440368	9
	53	109	223.946	164.179	-255.718	1	303.885	-57.2982	3.0017E-006	-0.440368	9
	54	111	199.495	168.157	-283.977	1	330.03	-59.3681	2.91556E-006	-0.440367	9
	55	113	177.836	172.748	-315.215	1	359.447	-61.2758	3.24329E-006	-0.44037	9
	56	115	158.533	177.712	-349.917	1	392.458	-63.0754	3.51193E-006	-0.440368	9
	57	117	141.263	183.246	-388.692	1	429.721	-64.7588	3.45362E-006	-0.44037	9
	58	119	125.911	189.427	-431.766	1	471.492	-66.3117	3.50001E-006	-0.440371	9
	59	121	112.198	196.387	-479.682	1	518.327	-67.7353	3.45176E-006	-0.440374	9
	60	123	100.009	204.248	-533.02	1	570.814	-69.0337	3.47713E-006	-0.440379	9
	61	125	89.1164	212.44	-592.609	1	629.536	-70.2781	2.98633E-006	-0.440378	9
	62	127	79.4083	222.175	-658.792	1	695.247	-71.3635	2.9711E-006	-0.440372	9
	63	129	70.788	234.09	-732.165	1	768.676	-72.2697	3.31378E-006	-0.440365	9
	64	131	63.0971	246.265	-813.682	1	850.132	-73.1613	3.12999E-006	-0.440359	9
	65	133	54.5476	265.751	-929.896	1	967.12	-74.0508	3.31322E-006	-0.440358	9
	66	135	50.0083	278.178	-1007.68	1	1045.37	-74.5674	3.30571E-006	-0.440357	9
	67	137	46.1675	291.112	-1083.79	1	1122.21	-74.965	2.48936E-006	-0.440362	8
	68	140	40.0059	318.072	-1235.87	1	1276.14	-75.5671	2.43446E-006	-0.440357	8
	69	142	35.3046	345.341	-1386.91	1	1429.26	-76.0177	2.43167E-006	-0.440355	8
	70	144	31.5793	373.288	-1534.55	1	1579.3	-76.328	2.60311E-006	-0.440355	8
	71	146	28.5748	401.399	-1682.61	1	1729.83	-76.5825	2.53383E-006	-0.440356	8
	72	148	24.9911	450.337	-1903.11	1	1955.67	-76.6869	2.64284E-006	-0.440365	8
	73	150	22.2195	499.391	-2116.31	1	2174.43	-76.7226	2.66012E-006	-0.440364	8
	74	153	20.0011	555.729	-2329.56	1	2394.93	-76.5826	2.76295E-006	-0.440361	8
	75	155	17.6486	619.599	-2619.17	1	2691.46	-76.6906	2.71301E-006	-0.440362	8
	76	157	15.7934	699.416	-2892.21	1	2975.57	-76.4053	2.6822E-006	-0.440369	8
	77	159	14.2828	795.26	-3161.55	1	3260.04	-75.8807	2.5645E-006	-0.440367	8
	78	162	12.5002	882.285	-3562.27	1	3669.91	-76.0892	2.53478E-006	-0.440376	8
	79	164	11.323	990.19	-3873.86	1	3998.41	-75.6618	2.54157E-006	-0.440364	8
	80	167	9.9987	1149.63	-4346.58	1	4496.04	-75.1851	2.38012E-006	-0.440366	8
