EXPLAIN
TAG	EISPOT
TITLE	LABEL	Tomato_open	Test &Identifier
DATE	LABEL	5/16/2006	Date
TIME	LABEL	11:50:22	Time
NOTES	NOTES	1	&Notes...
	
PSTAT	PSTAT	300	Potentiostat
VDC	POTEN	1.00000E-001	T	DC &Voltage (V)
FREQINIT	QUANT	1.00000E+005	Initial Fre&q. (Hz)
FREQFINAL	QUANT	1.00000E+001	Final Fre&q. (Hz)
PTSPERDEC	QUANT	2.00000E+001	Points/&decade
VAC	QUANT	1.00000E+001	AC &Voltage (mV rms)
AREA	QUANT	1.00000E+000	&Area (cm²)
DENSITY	QUANT	7.87000E+000	&Density (gm/cm³)
EQUIV	QUANT	7.00000E+000	Equiv. &Wt
CONDIT	TWOPARAM	F	1.50000E+001	0.00000E+000	Conditionin&g	Time(s)	E(V)
DELAY	TWOPARAM	F	6.00000E+002	0.00000E+000	Init. De&lay	Time(s)	Stab.(mV/s)
SPEED	SELECTOR	1	&Optimize for:
ZGUESS	QUANT	1.00000E+002	E&stimated Z (ohms)
OCVCURVE	TABLE	39
	Pt	T	Vf	Vm	Ach	Over
	#	s	V vs. Ref.	V	V	bits
	0	0.258332	-4.76469E-001	5.06676E-006	1.36600E-004	......
	1	0.516663	-4.75769E-001	5.06676E-006	-1.63400E-004	......
	2	0.774994	-4.73769E-001	5.06676E-006	1.36600E-004	......
	3	1.03333	-4.74019E-001	5.06676E-006	-1.63400E-004	......
	4	1.29166	-4.73819E-001	5.06676E-006	3.66000E-005	......
	5	1.54999	-4.74369E-001	5.06676E-006	-1.63400E-004	......
	6	1.80832	-4.74869E-001	5.06676E-006	2.36600E-004	......
	7	2.06665	-4.76169E-001	5.06676E-006	-1.63400E-004	......
	8	2.32498	-4.77469E-001	5.06676E-006	1.36600E-004	......
	9	2.58332	-4.78269E-001	5.06676E-006	-1.63400E-004	......
	10	2.84165	-4.78220E-001	5.06676E-006	2.36600E-004	......
	11	3.09998	-4.79519E-001	5.06676E-006	-1.63400E-004	......
	12	3.35831	-4.80219E-001	5.06676E-006	1.36600E-004	......
	13	3.61664	-4.80119E-001	5.06676E-006	-1.63400E-004	......
	14	3.87497	-4.79869E-001	5.06676E-006	1.36600E-004	......
	15	4.1333	-4.80069E-001	5.06676E-006	-1.63400E-004	......
	16	4.39164	-4.73469E-001	5.06676E-006	3.66000E-005	......
	17	4.64997	-4.67119E-001	5.06676E-006	-1.63400E-004	......
	18	4.9083	-4.65669E-001	5.06676E-006	3.66000E-005	......
	19	5.16663	-4.65219E-001	5.06676E-006	-1.63400E-004	......
	20	5.42496	-4.66169E-001	5.06676E-006	3.66000E-005	......
	21	5.68329	-4.68419E-001	5.06676E-006	-1.63400E-004	......
	22	5.94162	-4.67719E-001	5.06676E-006	1.36600E-004	......
	23	6.19996	-4.69869E-001	5.06676E-006	-1.63400E-004	......
	24	6.45829	-4.74469E-001	5.06676E-006	3.66000E-005	......
	25	6.71662	-4.76269E-001	5.06676E-006	-6.34000E-005	......
	26	6.97495	-4.78019E-001	5.06676E-006	3.66000E-005	......
	27	7.23328	-4.79019E-001	5.06676E-006	-6.34000E-005	......
	28	7.49161	-4.80019E-001	5.06676E-006	3.66000E-005	......
	29	7.74995	-4.80619E-001	5.06676E-006	-6.34000E-005	......
	30	8.00828	-4.80870E-001	5.06676E-006	1.36600E-004	......
	31	8.26661	-4.77369E-001	5.06676E-006	-6.34000E-005	......
	32	8.52494	-4.73569E-001	5.06676E-006	2.36600E-004	......
	33	8.78327	-4.71669E-001	5.06676E-006	-1.63400E-004	......
	34	9.0416	-4.70569E-001	5.06676E-006	3.66000E-005	......
	35	9.29993	-4.72869E-001	5.06676E-006	-2.63400E-004	......
	36	9.5583	-4.74569E-001	5.06676E-006	1.36600E-004	......
	37	9.8166	-4.75769E-001	5.06676E-006	-6.34000E-005	......
	38	10.0749	-4.76269E-001	5.06676E-006	3.66000E-005	......
EOC	QUANT	-0.476269	Open Circuit (V)
PSTATMODEL	IQUANT	32	Pstat Model
PSTATSECTION	LABEL	PStat0	Pstat Section
CTRLMODE	IQUANT	1	Control Mode
IESTAB	IQUANT	0	I/E Stability
CASPEED	IQUANT	1	Control Amp Speed
CONVENTION	IQUANT	1	Current Convention
ICHRANGE	IQUANT	2	Ich Range
ICHRANGEMODE	TOGGLE	F	Ich Auto Range
ICHOFFSETENABLE	TOGGLE	T	Ich Offset Enable
ICHOFFSET	QUANT	0	Ich Offset (V)
ICHFILTER	IQUANT	3	Ich Filter
VCHRANGE	IQUANT	2	Vch Range
VCHRANGEMODE	TOGGLE	F	Vch Auto Range
VCHOFFSETENABLE	TOGGLE	T	Vch Offset Enable
VCHOFFSET	QUANT	0	Vch Offset (V)
VCHFILTER	IQUANT	3	Vch Filter
ACHRANGE	IQUANT	0	Ach Range
IERANGELOWERLIMIT	IQUANT	3	I/E Range Lower Limit
IERANGEMODE	TOGGLE	F	I/E AutoRange
IERANGE	IQUANT	11	I/E Range
POSFEEDENABLE	TOGGLE	F	Positive Feedback IR Comp
POSFEEDRESISTANCE	QUANT	0	Positive Feedback Resistance (ohm)
FC350IDIVISOR	IQUANT	0	FC350 I Divisor
FC350VRANGE	IQUANT	0	FC350 V Range
FRAMEWORKVERSION	QUANT	4.35	Framework Version
ZCURVE	TABLE
	Pt	Time	Freq	Zreal	Zimag	Zsig	Zmod	Zphz	Idc	Vdc	IERange
	#	s	Hz	ohm	ohm	V	ohm	°	A	V	#
	0	4	100007	43.838	-0.706751	1	43.8437	-0.923636	5.79588E-006	-0.376346	10
	1	6	89134.1	43.6674	-0.946369	1	43.6776	-1.24153	6.78463E-006	-0.376373	10
	2	8	79433.6	43.6345	-1.12518	1	43.649	-1.47712	9.18322E-006	-0.376368	10
	3	10	70800.8	43.5212	-1.33211	1	43.5416	-1.75318	9.58869E-006	-0.376404	10
	4	12	63105.5	43.5119	-1.5122	1	43.5381	-1.99044	7.49775E-006	-0.376354	10
	5	14	56243.5	43.6037	-1.72235	1	43.6377	-2.26202	1.01453E-005	-0.3764	10
	6	16	50123.7	43.5296	-1.98078	1	43.5746	-2.6054	7.50056E-006	-0.376381	10
	7	18	44681	43.5107	-2.27308	1	43.5701	-2.99051	8.56244E-006	-0.376372	10
	8	20	39811.2	43.5799	-2.47684	1	43.6502	-3.25288	7.20994E-006	-0.376383	10
	9	22	35488.3	43.5775	-2.85965	1	43.6712	-3.75449	8.58947E-006	-0.376355	10
	10	24	31634.1	43.6203	-3.21637	1	43.7387	-4.2171	7.58228E-006	-0.376363	10
	11	26	28173.1	43.7112	-3.53157	1	43.8536	-4.61908	8.43275E-006	-0.376378	10
	12	28	25123.7	43.7686	-3.93894	1	43.9455	-5.14246	9.40525E-006	-0.376402	10
	13	30	22389.3	43.879	-4.38199	1	44.0972	-5.70295	9.64619E-006	-0.376405	10
	14	32	19954.4	43.8927	-4.86489	1	44.1615	-6.32462	8.84916E-006	-0.376371	10
	15	34	17778.2	44.011	-5.33438	1	44.3331	-6.91086	9.59338E-006	-0.376378	10
	16	36	15852.9	44.1614	-5.94737	1	44.5601	-7.67007	9.644E-006	-0.376414	10
	17	38	14122.3	44.2379	-6.5343	1	44.7179	-8.4023	7.34666E-006	-0.3764	10
	18	40	12587.2	44.3225	-7.26806	1	44.9144	-9.31255	7.90572E-006	-0.376396	10
	19	41	11221.1	44.5422	-8.03339	1	45.2608	-10.2237	7.07306E-006	-0.376393	10
	20	43	9998.2	44.6986	-8.80319	1	45.5572	-11.1416	7.97494E-006	-0.376393	10
	21	45	8912.76	44.8643	-9.825	1	45.9275	-12.3524	6.49197E-006	-0.376403	10
	22	47	7942.6	45.129	-10.8829	1	46.4227	-13.5581	7.98462E-006	-0.376375	10
	23	49	7078.05	45.1947	-12.077	1	46.7805	-14.9611	7.14072E-006	-0.376388	10
	24	51	6311.1	45.4486	-13.2867	1	47.351	-16.296	7.74806E-006	-0.376378	10
	25	53	5622.14	45.6215	-14.7597	1	47.9497	-17.9277	1.1468E-006	-0.376372	11
	26	56	5011.18	45.8561	-16.2388	1	48.6465	-19.5004	7.78388E-006	-0.376376	10
	27	58	4465.21	46.1626	-18.0772	1	49.5759	-21.3852	6.9801E-006	-0.376386	10
	28	60	3980.93	46.4093	-20.0005	1	50.5355	-23.314	8.0882E-006	-0.37638	10
	29	61	3548.18	46.7249	-22.2197	1	51.7391	-25.4331	5.48395E-006	-0.376375	10
	30	63	3162.67	47.0429	-24.6932	1	53.1299	-27.6953	6.4317E-006	-0.376351	10
	31	65	2819.01	47.4211	-27.3141	1	54.7249	-29.9415	7.20273E-006	-0.376398	10
	32	67	2511.16	47.7228	-30.283	1	56.5202	-32.3975	7.35627E-006	-0.376375	10
	33	69	2238.63	48.0938	-33.7694	1	58.7655	-35.0749	7.37207E-006	-0.376371	10
	34	71	1995.37	48.7308	-37.3964	1	61.4262	-37.5029	6.87583E-006	-0.376377	10
	35	73	1778.51	49.1879	-41.4532	1	64.3258	-40.1226	7.06037E-006	-0.376376	10
	36	75	1584.49	49.7771	-46.106	1	67.8492	-42.8074	6.92609E-006	-0.376378	10
	37	77	1412.76	50.1559	-51.1813	1	71.6599	-45.5798	5.71649E-006	-0.376377	10
	38	79	1259.04	51.0394	-57.0144	1	76.5223	-48.1651	6.92482E-006	-0.376367	10
	39	81	1121.63	51.7015	-63.2867	1	81.7206	-50.7532	7.11221E-006	-0.376372	10
	40	83	999.95	52.4481	-70.3446	1	87.7449	-53.2922	7.23462E-006	-0.376379	10
	41	85	891.184	53.3318	-78.2481	1	94.6945	-55.7227	6.91016E-006	-0.376368	10
	42	87	794.163	54.2701	-87.1498	1	102.666	-58.0886	7.05737E-006	-0.376373	10
	43	89	707.867	55.5476	-97.076	1	111.845	-60.2215	3.31362E-006	-0.376364	9
	44	91	630.984	56.3969	-107.808	1	121.669	-62.385	3.52629E-006	-0.376365	9
	45	93	562.189	58.1239	-119.916	1	133.26	-64.1403	3.66484E-006	-0.376357	9
	46	95	501.303	59.52	-133.353	1	146.033	-65.9471	3.36918E-006	-0.376374	9
	47	97	446.614	61.1453	-148.456	1	160.555	-67.6145	3.52613E-006	-0.37637	9
	48	99	398.209	62.9334	-165.162	1	176.746	-69.1412	3.48609E-006	-0.376375	9
	49	101	354.821	64.9524	-183.852	1	194.988	-70.5424	3.45928E-006	-0.376376	9
	50	103	316.113	67.2257	-204.713	1	215.469	-71.8203	3.4561E-006	-0.376373	9
	51	105	281.926	69.7012	-227.741	1	238.169	-72.9831	3.47154E-006	-0.37637	9
	52	107	251.185	72.5178	-253.64	1	263.803	-74.0443	3.52748E-006	-0.376363	9
	53	109	223.946	75.6481	-282.262	1	292.223	-74.9969	3.53842E-006	-0.376373	9
	54	111	199.495	79.1411	-314.417	1	324.224	-75.8717	3.5042E-006	-0.376373	9
	55	113	177.836	83.0963	-349.978	1	359.708	-76.6434	3.55349E-006	-0.376366	9
	56	115	158.533	87.3659	-389.541	1	399.218	-77.3589	3.42935E-006	-0.376372	9
	57	117	141.263	92.1802	-433.922	1	443.605	-78.0067	3.40445E-006	-0.376361	9
	58	119	125.911	97.936	-483.225	1	493.05	-78.543	3.35871E-006	-0.37637	9
	59	121	112.198	104.477	-538.522	1	548.563	-79.0206	3.4358E-006	-0.376377	9
	60	123	100.009	111.531	-599.521	1	609.807	-79.4615	3.51642E-006	-0.376373	9
	61	125	89.1164	119.444	-667.778	1	678.377	-79.8588	3.48821E-006	-0.376368	9
	62	127	79.4083	128.415	-743.999	1	755	-80.2072	3.40778E-006	-0.376366	9
	63	129	70.788	138.734	-828.498	1	840.033	-80.4939	3.36352E-006	-0.376368	9
	64	131	63.0971	150.05	-922.982	1	935.099	-80.7662	3.33044E-006	-0.376363	9
	65	133	54.5476	167.136	-1057.95	1	1071.07	-81.0225	3.25165E-006	-0.37637	9
	66	135	50.0083	179.011	-1146.99	1	1160.88	-81.1294	2.53431E-006	-0.376367	8
	67	138	46.1675	191.346	-1235.96	1	1250.68	-81.1996	2.49451E-006	-0.376376	8
	68	140	40.0059	216.98	-1414.02	1	1430.57	-81.2761	2.53834E-006	-0.376371	8
	69	142	35.3046	241.905	-1589.53	1	1607.84	-81.3468	2.58994E-006	-0.376374	8
	70	144	31.5793	264.023	-1763.31	1	1782.96	-81.4842	2.39527E-006	-0.376366	8
	71	146	28.5748	294.95	-1938.19	1	1960.5	-81.3472	2.49903E-006	-0.376367	8
	72	148	24.9911	344.442	-2195.47	1	2222.33	-81.0837	2.49834E-006	-0.376368	8
	73	150	22.2195	389.55	-2455.17	1	2485.88	-80.9843	2.511E-006	-0.376362	8
	74	153	20.0011	431.327	-2712.4	1	2746.48	-80.9644	2.46137E-006	-0.37637	8
	75	155	17.6486	486.905	-3046.74	1	3085.4	-80.9202	2.40891E-006	-0.376363	8
	76	157	15.7934	564.299	-3369.64	1	3416.56	-80.4931	2.37034E-006	-0.376372	8
	77	160	14.2828	653.031	-3708.65	1	3765.71	-80.0135	2.45894E-006	-0.376371	8
	78	162	12.5002	772.82	-4174.38	1	4245.31	-79.5113	2.42734E-006	-0.376365	8
	79	164	11.323	856.546	-4579.03	1	4658.45	-79.4048	2.34715E-006	-0.376372	8
	80	167	9.9987	1031.4	-5141.44	1	5243.87	-78.6568	2.37713E-006	-0.376367	8
