EXPLAIN
TAG	EISPOT
TITLE	LABEL	Tomato_open	Test &Identifier
DATE	LABEL	5/16/2006	Date
TIME	LABEL	11:45:19	Time
NOTES	NOTES	1	&Notes...
	
PSTAT	PSTAT	300	Potentiostat
VDC	POTEN	1.00000E-001	T	DC &Voltage (V)
FREQINIT	QUANT	1.00000E+005	Initial Fre&q. (Hz)
FREQFINAL	QUANT	1.00000E+001	Final Fre&q. (Hz)
PTSPERDEC	QUANT	2.00000E+001	Points/&decade
VAC	QUANT	1.00000E+001	AC &Voltage (mV rms)
AREA	QUANT	1.00000E+000	&Area (cm²)
DENSITY	QUANT	7.87000E+000	&Density (gm/cm³)
EQUIV	QUANT	7.00000E+000	Equiv. &Wt
CONDIT	TWOPARAM	F	1.50000E+001	0.00000E+000	Conditionin&g	Time(s)	E(V)
DELAY	TWOPARAM	F	6.00000E+002	0.00000E+000	Init. De&lay	Time(s)	Stab.(mV/s)
SPEED	SELECTOR	1	&Optimize for:
ZGUESS	QUANT	1.00000E+002	E&stimated Z (ohms)
OCVCURVE	TABLE	39
	Pt	T	Vf	Vm	Ach	Over
	#	s	V vs. Ref.	V	V	bits
	0	0.258332	-4.90219E-001	4.25876E-006	3.66000E-005	......
	1	0.516663	-4.90719E-001	4.25876E-006	-1.63400E-004	......
	2	0.774994	-4.90769E-001	4.25876E-006	3.66000E-005	......
	3	1.03333	-4.91619E-001	4.25876E-006	-6.34000E-005	......
	4	1.29166	-4.91869E-001	4.25876E-006	3.66000E-005	......
	5	1.54999	-4.91519E-001	4.25876E-006	-1.63400E-004	......
	6	1.80832	-4.91169E-001	4.25876E-006	-6.34000E-005	......
	7	2.06665	-4.91019E-001	4.25876E-006	-6.34000E-005	......
	8	2.32498	-4.91419E-001	4.25876E-006	2.36600E-004	......
	9	2.58332	-4.91219E-001	4.25876E-006	-6.34000E-005	......
	10	2.84165	-4.91269E-001	4.25876E-006	3.66000E-005	......
	11	3.09998	-4.90319E-001	4.25876E-006	-1.63400E-004	......
	12	3.35831	-4.90969E-001	4.25876E-006	3.66000E-005	......
	13	3.61664	-4.91419E-001	4.25876E-006	-2.63400E-004	......
	14	3.87497	-4.92769E-001	4.25876E-006	1.36600E-004	......
	15	4.1333	-4.93669E-001	4.25876E-006	-6.34000E-005	......
	16	4.39164	-4.94369E-001	4.25876E-006	1.36600E-004	......
	17	4.64997	-4.95119E-001	4.25876E-006	-1.63400E-004	......
	18	4.9083	-4.94219E-001	4.25876E-006	3.66000E-005	......
	19	5.16663	-4.94569E-001	4.25876E-006	-6.34000E-005	......
	20	5.42496	-4.94769E-001	4.25876E-006	-6.34000E-005	......
	21	5.68329	-4.95119E-001	4.25876E-006	-6.34000E-005	......
	22	5.94162	-4.94919E-001	4.25876E-006	3.66000E-005	......
	23	6.19996	-4.95019E-001	4.25876E-006	-6.34000E-005	......
	24	6.45829	-4.95169E-001	4.25876E-006	3.66000E-005	......
	25	6.71662	-4.95219E-001	4.25876E-006	-1.63400E-004	......
	26	6.97495	-4.95069E-001	4.25876E-006	3.66000E-005	......
	27	7.23328	-4.95069E-001	4.25876E-006	-2.63400E-004	......
	28	7.49161	-4.95069E-001	4.25876E-006	1.36600E-004	......
	29	7.74995	-4.95469E-001	4.25876E-006	-1.63400E-004	......
	30	8.00828	-4.95869E-001	4.25876E-006	3.66000E-005	......
	31	8.26661	-4.94669E-001	4.25876E-006	-1.63400E-004	......
	32	8.52494	-4.93419E-001	4.25876E-006	3.66000E-005	......
	33	8.78327	-4.93219E-001	4.25876E-006	3.66000E-005	......
	34	9.0416	-4.94419E-001	4.25876E-006	1.36600E-004	......
	35	9.29993	-4.95069E-001	4.25876E-006	-6.34000E-005	......
	36	9.5583	-4.95819E-001	4.25876E-006	3.66000E-005	......
	37	9.8166	-4.95969E-001	4.25876E-006	-6.34000E-005	......
	38	10.0749	-4.96869E-001	4.25876E-006	3.66000E-005	......
EOC	QUANT	-0.496869	Open Circuit (V)
PSTATMODEL	IQUANT	32	Pstat Model
PSTATSECTION	LABEL	PStat0	Pstat Section
CTRLMODE	IQUANT	1	Control Mode
IESTAB	IQUANT	0	I/E Stability
CASPEED	IQUANT	1	Control Amp Speed
CONVENTION	IQUANT	1	Current Convention
ICHRANGE	IQUANT	2	Ich Range
ICHRANGEMODE	TOGGLE	F	Ich Auto Range
ICHOFFSETENABLE	TOGGLE	T	Ich Offset Enable
ICHOFFSET	QUANT	0	Ich Offset (V)
ICHFILTER	IQUANT	3	Ich Filter
VCHRANGE	IQUANT	2	Vch Range
VCHRANGEMODE	TOGGLE	F	Vch Auto Range
VCHOFFSETENABLE	TOGGLE	T	Vch Offset Enable
VCHOFFSET	QUANT	0	Vch Offset (V)
VCHFILTER	IQUANT	3	Vch Filter
ACHRANGE	IQUANT	0	Ach Range
IERANGELOWERLIMIT	IQUANT	3	I/E Range Lower Limit
IERANGEMODE	TOGGLE	F	I/E AutoRange
IERANGE	IQUANT	11	I/E Range
POSFEEDENABLE	TOGGLE	F	Positive Feedback IR Comp
POSFEEDRESISTANCE	QUANT	0	Positive Feedback Resistance (ohm)
FC350IDIVISOR	IQUANT	0	FC350 I Divisor
FC350VRANGE	IQUANT	0	FC350 V Range
FRAMEWORKVERSION	QUANT	4.35	Framework Version
ZCURVE	TABLE
	Pt	Time	Freq	Zreal	Zimag	Zsig	Zmod	Zphz	Idc	Vdc	IERange
	#	s	Hz	ohm	ohm	V	ohm	°	A	V	#
	0	4	100007	43.9336	-0.683852	1	43.9389	-0.89177	6.13509E-006	-0.396614	10
	1	6	89134.1	43.7448	-0.884113	1	43.7538	-1.15783	5.93838E-006	-0.396621	10
	2	8	79433.6	43.732	-1.11717	1	43.7462	-1.46335	6.12463E-006	-0.396626	10
	3	10	70800.8	43.6456	-1.3517	1	43.6665	-1.77389	6.16259E-006	-0.396625	10
	4	12	63105.5	43.6144	-1.50727	1	43.6404	-1.97929	6.52041E-006	-0.396613	10
	5	14	56243.5	43.5794	-1.7048	1	43.6128	-2.24023	6.47791E-006	-0.3966	10
	6	16	50123.7	43.6281	-1.96718	1	43.6724	-2.58171	8.63056E-006	-0.396594	10
	7	18	44681	43.619	-2.25458	1	43.6772	-2.95887	5.92853E-006	-0.396604	10
	8	20	39811.2	43.6689	-2.59634	1	43.746	-3.40252	6.39134E-006	-0.396613	10
	9	22	35488.3	43.6005	-2.85248	1	43.6937	-3.74313	8.72384E-006	-0.396626	10
	10	24	31634.1	43.6819	-3.20597	1	43.7994	-4.19761	7.09291E-006	-0.396629	10
	11	26	28173.1	43.7586	-3.55035	1	43.9024	-4.63853	7.61682E-006	-0.396598	10
	12	28	25123.7	43.8029	-3.95916	1	43.9815	-5.16469	8.06197E-006	-0.396592	10
	13	30	22389.3	43.9168	-4.44108	1	44.1408	-5.7744	6.07166E-006	-0.396594	10
	14	32	19954.4	43.9713	-4.83955	1	44.2368	-6.28079	8.40681E-006	-0.39663	10
	15	34	17778.2	44.1677	-5.38846	1	44.4952	-6.95572	6.75978E-006	-0.396604	10
	16	36	15852.9	44.274	-5.88686	1	44.6636	-7.57387	7.15134E-006	-0.396625	10
	17	38	14122.3	44.3893	-6.53131	1	44.8672	-8.37027	7.25478E-006	-0.396608	10
	18	40	12587.2	44.4927	-7.33358	1	45.093	-9.35972	7.44978E-006	-0.396609	10
	19	42	11221.1	44.6386	-8.02836	1	45.3548	-10.1958	7.10134E-006	-0.396608	10
	20	44	9998.2	44.778	-8.86119	1	45.6464	-11.1937	7.44947E-006	-0.396601	10
	21	46	8912.76	44.9412	-9.8261	1	46.0028	-12.3333	5.98525E-006	-0.396609	10
	22	48	7942.6	45.119	-10.8029	1	46.3942	-13.465	7.29166E-006	-0.39659	10
	23	50	7078.05	45.2767	-12.0589	1	46.855	-14.9139	7.16853E-006	-0.396605	10
	24	52	6311.1	45.5527	-13.262	1	47.444	-16.2321	7.27697E-006	-0.396606	10
	25	54	5622.14	45.7316	-14.7782	1	48.0601	-17.9082	5.99056E-006	-0.396604	10
	26	56	5011.18	45.9918	-16.2926	1	48.7923	-19.5067	6.6665E-006	-0.396612	10
	27	58	4465.21	46.2049	-18.0107	1	49.5911	-21.2958	7.20593E-006	-0.396607	10
	28	59	3980.93	46.5139	-20.0554	1	50.6533	-23.3243	8.2546E-006	-0.396624	10
	29	61	3548.18	46.8412	-22.1637	1	51.8201	-25.322	8.50056E-006	-0.39662	10
	30	64	3162.67	47.1305	-24.598	1	53.1634	-27.5606	5.41298E-006	-0.396618	10
	31	66	2819.01	47.4327	-27.2791	1	54.7176	-29.9037	7.16874E-006	-0.396625	10
	32	68	2511.16	47.8003	-30.2224	1	56.5532	-32.3037	7.25541E-006	-0.396604	10
	33	70	2238.63	48.3351	-33.539	1	58.8315	-34.7563	7.10335E-006	-0.396611	10
	34	72	1995.37	48.7025	-37.3376	1	61.368	-37.4755	7.94252E-006	-0.396611	10
	35	74	1778.51	49.3125	-41.3683	1	64.3666	-39.9933	7.32888E-006	-0.396606	10
	36	76	1584.49	49.7383	-45.978	1	67.7338	-42.7502	8.1456E-006	-0.396615	10
	37	78	1412.76	50.4992	-51.138	1	71.8698	-45.3601	6.24302E-006	-0.396616	10
	38	79	1259.04	51.1124	-56.7737	1	76.3919	-48.0038	7.99748E-006	-0.396602	10
	39	81	1121.63	51.7238	-63.0706	1	81.5674	-50.645	7.37557E-006	-0.396614	10
	40	83	999.95	52.5284	-70.1491	1	87.6363	-53.1737	7.68137E-006	-0.39661	10
	41	85	891.184	53.5869	-78.2292	1	94.8228	-55.5889	6.97793E-006	-0.396601	10
	42	87	794.163	54.7747	-86.8264	1	102.66	-57.7541	7.70373E-006	-0.39661	10
	43	89	707.867	55.7129	-96.623	1	111.534	-60.0321	4.01423E-006	-0.396607	9
	44	91	630.984	56.8864	-107.351	1	121.492	-62.0804	3.78709E-006	-0.396609	9
	45	93	562.189	58.0191	-119.541	1	132.877	-64.1105	3.92538E-006	-0.396612	9
	46	95	501.303	59.6811	-132.812	1	145.605	-65.8025	3.85496E-006	-0.396611	9
	47	97	446.614	61.3008	-147.825	1	160.031	-67.4769	3.8229E-006	-0.396616	9
	48	99	398.209	63.0701	-164.436	1	176.117	-69.0155	3.75562E-006	-0.396613	9
	49	101	354.821	65.1181	-183.047	1	194.284	-70.4172	3.78796E-006	-0.396604	9
	50	103	316.113	67.3955	-203.802	1	214.656	-71.7014	3.71471E-006	-0.396614	9
	51	105	281.926	69.8911	-226.706	1	237.235	-72.866	3.6987E-006	-0.396607	9
	52	107	251.185	72.6963	-252.438	1	262.697	-73.9348	3.65607E-006	-0.396608	9
	53	109	223.946	75.8051	-280.892	1	290.942	-74.8972	3.58281E-006	-0.396612	9
	54	111	199.495	79.3163	-312.882	1	322.779	-75.7751	3.56628E-006	-0.39661	9
	55	113	177.836	83.1828	-348.325	1	358.12	-76.5689	3.54156E-006	-0.396605	9
	56	115	158.533	87.5081	-387.762	1	397.514	-77.2828	3.42645E-006	-0.396597	9
	57	117	141.263	92.6106	-431.857	1	441.676	-77.8964	3.42974E-006	-0.396605	9
	58	119	125.911	98.223	-480.825	1	490.755	-78.4545	3.52343E-006	-0.396601	9
	59	121	112.198	104.478	-535.692	1	545.785	-78.9639	3.5014E-006	-0.396609	9
	60	123	100.009	111.434	-596.558	1	606.877	-79.4193	3.43917E-006	-0.396611	9
	61	125	89.1164	119.238	-664.476	1	675.089	-79.8267	3.30627E-006	-0.39661	9
	62	127	79.4083	128.642	-740.272	1	751.367	-80.1417	3.33141E-006	-0.396615	9
	63	129	70.788	138.747	-824.433	1	836.027	-80.447	3.17529E-006	-0.396613	9
	64	131	63.0971	150.585	-918.424	1	930.687	-80.6886	3.15377E-006	-0.396614	9
	65	133	54.5476	168.178	-1052.81	1	1066.16	-80.9242	3.20046E-006	-0.396608	9
	66	136	50.0083	180.164	-1141.15	1	1155.29	-81.0283	2.46748E-006	-0.396614	8
	67	138	46.1675	191.054	-1230.52	1	1245.26	-81.1745	2.42223E-006	-0.396609	8
	68	140	40.0059	216.7	-1407.31	1	1423.89	-81.2462	2.398E-006	-0.396612	8
	69	142	35.3046	242.153	-1581.83	1	1600.26	-81.2965	2.34972E-006	-0.396609	8
	70	144	31.5793	265.995	-1757.39	1	1777.41	-81.3932	2.1767E-006	-0.396612	8
	71	146	28.5748	297.755	-1932.86	1	1955.66	-81.2425	2.18201E-006	-0.396615	8
	72	148	24.9911	349.463	-2186.23	1	2213.99	-80.9183	2.48609E-006	-0.396623	8
	73	151	22.2195	397.508	-2444.54	1	2476.65	-80.7639	2.53002E-006	-0.396614	8
	74	153	20.0011	441.369	-2692.54	1	2728.48	-80.6907	2.4827E-006	-0.396622	8
	75	156	17.6486	516.462	-3024.97	1	3068.74	-80.3111	2.4739E-006	-0.396612	8
	76	158	15.7934	579.846	-3368.33	1	3417.87	-80.2325	2.38937E-006	-0.396608	8
	77	160	14.2828	649.428	-3662.6	1	3719.73	-79.9452	2.35784E-006	-0.396618	8
	78	162	12.5002	766.325	-4160.83	1	4230.81	-79.5644	2.27431E-006	-0.396619	8
	79	165	11.323	847.763	-4566.39	1	4644.42	-79.4826	2.22442E-006	-0.396621	8
	80	167	9.9987	1005.65	-5119.64	1	5217.48	-78.8869	2.29356E-006	-0.39662	8
