EXPLAIN
TAG	EISPOT
TITLE	LABEL	Tomato_open	Test &Identifier
DATE	LABEL	5/16/2006	Date
TIME	LABEL	11:35:22	Time
NOTES	NOTES	1	&Notes...
	
PSTAT	PSTAT	300	Potentiostat
VDC	POTEN	1.00000E-001	T	DC &Voltage (V)
FREQINIT	QUANT	1.00000E+005	Initial Fre&q. (Hz)
FREQFINAL	QUANT	1.00000E+001	Final Fre&q. (Hz)
PTSPERDEC	QUANT	2.00000E+001	Points/&decade
VAC	QUANT	1.00000E+001	AC &Voltage (mV rms)
AREA	QUANT	1.00000E+000	&Area (cm²)
DENSITY	QUANT	7.87000E+000	&Density (gm/cm³)
EQUIV	QUANT	7.00000E+000	Equiv. &Wt
CONDIT	TWOPARAM	F	1.50000E+001	0.00000E+000	Conditionin&g	Time(s)	E(V)
DELAY	TWOPARAM	F	6.00000E+002	0.00000E+000	Init. De&lay	Time(s)	Stab.(mV/s)
SPEED	SELECTOR	1	&Optimize for:
ZGUESS	QUANT	1.00000E+002	E&stimated Z (ohms)
OCVCURVE	TABLE	39
	Pt	T	Vf	Vm	Ach	Over
	#	s	V vs. Ref.	V	V	bits
	0	0.258332	-5.36569E-001	4.89676E-006	-1.63400E-004	......
	1	0.516663	-5.35269E-001	4.89676E-006	3.66000E-005	......
	2	0.774994	-5.37769E-001	4.89676E-006	-1.63400E-004	......
	3	1.03333	-5.37220E-001	4.89676E-006	3.66000E-005	......
	4	1.29166	-5.42769E-001	4.89676E-006	-1.63400E-004	......
	5	1.54999	-5.45269E-001	4.89676E-006	3.66000E-005	......
	6	1.80832	-5.36669E-001	4.89676E-006	-1.63400E-004	......
	7	2.06665	-5.25469E-001	4.89676E-006	3.66000E-005	......
	8	2.32498	-5.22820E-001	4.89676E-006	-6.34000E-005	......
	9	2.58332	-5.23719E-001	4.89676E-006	1.36600E-004	......
	10	2.84165	-5.31069E-001	4.89676E-006	-1.63400E-004	......
	11	3.09998	-5.37969E-001	4.89676E-006	3.66000E-005	......
	12	3.35831	-5.35469E-001	4.89676E-006	-1.63400E-004	......
	13	3.61664	-5.36869E-001	4.89676E-006	3.66000E-005	......
	14	3.87497	-5.38069E-001	4.89676E-006	3.66000E-005	......
	15	4.1333	-5.38769E-001	4.89676E-006	3.66000E-005	......
	16	4.39164	-5.46169E-001	4.89676E-006	-1.63400E-004	......
	17	4.64997	-5.46719E-001	4.89676E-006	3.66000E-005	......
	18	4.9083	-5.36269E-001	4.89676E-006	-6.34000E-005	......
	19	5.16663	-5.34669E-001	4.89676E-006	3.66000E-005	......
	20	5.42496	-5.36269E-001	4.89676E-006	-6.34000E-005	......
	21	5.68329	-5.39119E-001	4.89676E-006	3.66000E-005	......
	22	5.94162	-5.41319E-001	4.89676E-006	-1.63400E-004	......
	23	6.19996	-5.43369E-001	4.89676E-006	3.66000E-005	......
	24	6.45829	-5.44769E-001	4.89676E-006	-6.34000E-005	......
	25	6.71662	-5.44419E-001	4.89676E-006	3.66000E-005	......
	26	6.97495	-5.43819E-001	4.89676E-006	-1.63400E-004	......
	27	7.23328	-5.43270E-001	4.89676E-006	1.36600E-004	......
	28	7.49161	-5.43270E-001	4.89676E-006	-2.63400E-004	......
	29	7.74995	-5.41219E-001	4.89676E-006	2.36600E-004	......
	30	8.00828	-5.38620E-001	4.89676E-006	-1.63400E-004	......
	31	8.26661	-5.39219E-001	4.89676E-006	3.66000E-005	......
	32	8.52494	-5.32619E-001	4.89676E-006	-1.63400E-004	......
	33	8.78327	-5.29119E-001	4.89676E-006	2.36600E-004	......
	34	9.0416	-5.27470E-001	4.89676E-006	-1.63400E-004	......
	35	9.29993	-5.36469E-001	4.89676E-006	3.66000E-005	......
	36	9.5583	-5.34220E-001	4.89676E-006	-1.63400E-004	......
	37	9.8166	-5.36819E-001	4.89676E-006	1.36600E-004	......
	38	10.0749	-5.41019E-001	4.89676E-006	-1.63400E-004	......
EOC	QUANT	-0.541019	Open Circuit (V)
PSTATMODEL	IQUANT	32	Pstat Model
PSTATSECTION	LABEL	PStat0	Pstat Section
CTRLMODE	IQUANT	1	Control Mode
IESTAB	IQUANT	0	I/E Stability
CASPEED	IQUANT	1	Control Amp Speed
CONVENTION	IQUANT	1	Current Convention
ICHRANGE	IQUANT	2	Ich Range
ICHRANGEMODE	TOGGLE	F	Ich Auto Range
ICHOFFSETENABLE	TOGGLE	T	Ich Offset Enable
ICHOFFSET	QUANT	0	Ich Offset (V)
ICHFILTER	IQUANT	3	Ich Filter
VCHRANGE	IQUANT	2	Vch Range
VCHRANGEMODE	TOGGLE	F	Vch Auto Range
VCHOFFSETENABLE	TOGGLE	T	Vch Offset Enable
VCHOFFSET	QUANT	0	Vch Offset (V)
VCHFILTER	IQUANT	3	Vch Filter
ACHRANGE	IQUANT	0	Ach Range
IERANGELOWERLIMIT	IQUANT	3	I/E Range Lower Limit
IERANGEMODE	TOGGLE	F	I/E AutoRange
IERANGE	IQUANT	11	I/E Range
POSFEEDENABLE	TOGGLE	F	Positive Feedback IR Comp
POSFEEDRESISTANCE	QUANT	0	Positive Feedback Resistance (ohm)
FC350IDIVISOR	IQUANT	0	FC350 I Divisor
FC350VRANGE	IQUANT	0	FC350 V Range
FRAMEWORKVERSION	QUANT	4.35	Framework Version
ZCURVE	TABLE
	Pt	Time	Freq	Zreal	Zimag	Zsig	Zmod	Zphz	Idc	Vdc	IERange
	#	s	Hz	ohm	ohm	V	ohm	°	A	V	#
	0	4	100007	44.099	-0.741769	1	44.1053	-0.96365	8.32275E-006	-0.440786	10
	1	6	89134.1	43.8672	-0.924049	1	43.8769	-1.20674	8.64494E-006	-0.440789	10
	2	8	79433.6	43.8513	-1.10624	1	43.8653	-1.4451	9.56291E-006	-0.440842	10
	3	10	70800.8	43.8134	-1.35983	1	43.8345	-1.77771	8.66666E-006	-0.440806	10
	4	12	63105.5	43.7718	-1.53573	1	43.7987	-2.00939	1.00888E-005	-0.440793	10
	5	14	56243.5	43.7563	-1.72641	1	43.7904	-2.25944	7.79775E-006	-0.440797	10
	6	16	50123.7	43.7231	-2.04461	1	43.7708	-2.67735	8.78525E-006	-0.440786	10
	7	18	44681	43.7519	-2.2112	1	43.8078	-2.89324	9.42353E-006	-0.440825	10
	8	20	39811.2	43.8642	-2.48873	1	43.9347	-3.24733	6.764E-006	-0.440805	10
	9	22	35488.3	43.7969	-2.81872	1	43.8875	-3.68242	7.60213E-006	-0.440806	10
	10	24	31634.1	43.8583	-3.22495	1	43.9767	-4.20545	8.80775E-006	-0.440821	10
	11	26	28173.1	43.9478	-3.557	1	44.0915	-4.62726	7.67181E-006	-0.440806	10
	12	28	25123.7	44.046	-3.93803	1	44.2217	-5.10906	7.97369E-006	-0.440791	10
	13	30	22389.3	44.0076	-4.36496	1	44.2235	-5.66444	8.07291E-006	-0.440814	10
	14	32	19954.4	44.2099	-4.81727	1	44.4716	-6.21862	5.76197E-006	-0.440798	10
	15	34	17778.2	44.3056	-5.31103	1	44.6228	-6.83558	7.09759E-006	-0.440801	10
	16	36	15852.9	44.4165	-5.91147	1	44.8082	-7.58104	7.16666E-006	-0.440791	10
	17	38	14122.3	44.4542	-6.50531	1	44.9276	-8.32543	6.94744E-006	-0.440797	10
	18	40	12587.2	44.6769	-7.21478	1	45.2557	-9.17338	7.09853E-006	-0.440791	10
	19	42	11221.1	44.8612	-8.02866	1	45.574	-10.1466	7.50869E-006	-0.440785	10
	20	44	9998.2	44.9818	-8.77961	1	45.8306	-11.0442	6.89822E-006	-0.440787	10
	21	46	8912.76	45.1799	-9.7203	1	46.2138	-12.1419	6.54275E-006	-0.440789	10
	22	48	7942.6	45.3109	-10.7809	1	46.5758	-13.3837	7.16134E-006	-0.440797	10
	23	50	7078.05	45.5082	-11.833	1	47.0215	-14.5753	6.96259E-006	-0.440791	10
	24	52	6311.1	45.6882	-13.1855	1	47.5528	-16.098	7.38134E-006	-0.440803	10
	25	54	5622.14	45.98	-14.6226	1	48.2492	-17.6418	7.30088E-006	-0.440802	10
	26	56	5011.18	46.1562	-16.1987	1	48.9162	-19.3387	7.16509E-006	-0.440798	10
	27	58	4465.21	46.455	-17.8621	1	49.7707	-21.0319	7.3623E-006	-0.440802	10
	28	59	3980.93	46.7475	-19.7672	1	50.755	-22.9211	7.22663E-006	-0.44079	10
	29	61	3548.18	46.9657	-21.901	1	51.8211	-25.0006	5.84766E-006	-0.440805	10
	30	63	3162.67	47.3234	-24.2975	1	53.1965	-27.1776	5.95023E-006	-0.440795	10
	31	65	2819.01	47.719	-26.9181	1	54.7877	-29.4272	6.68512E-006	-0.440827	10
	32	67	2511.16	48.0518	-29.8816	1	56.5852	-31.8759	6.48671E-006	-0.4408	10
	33	69	2238.63	48.5549	-33.2464	1	58.8464	-34.4002	6.73521E-006	-0.440804	10
	34	71	1995.37	48.9123	-36.8302	1	61.2281	-36.9792	6.80143E-006	-0.440808	10
	35	73	1778.51	49.5417	-40.9603	1	64.2816	-39.5834	6.68301E-006	-0.440805	10
	36	75	1584.49	50.0628	-45.5419	1	67.6783	-42.2926	6.93607E-006	-0.440816	10
	37	77	1412.76	50.6468	-50.4502	1	71.4865	-44.8885	5.43432E-006	-0.440806	10
	38	79	1259.04	51.2826	-56.033	1	75.9578	-47.5346	6.35534E-006	-0.440809	10
	39	81	1121.63	52.1036	-62.2048	1	81.1432	-50.05	6.0324E-006	-0.440801	10
	40	83	999.95	52.9367	-69.2219	1	87.1433	-52.5934	6.19007E-006	-0.440808	10
	41	85	891.184	53.6802	-76.9123	1	93.7927	-55.0873	6.08451E-006	-0.440793	10
	42	87	794.163	54.8065	-85.5394	1	101.591	-57.3516	6.26294E-006	-0.440793	10
	43	89	707.867	55.9527	-95.36	1	110.564	-59.5977	1.94048E-006	-0.440782	9
	44	91	630.984	56.9835	-105.781	1	120.153	-61.6889	2.32251E-006	-0.440792	9
	45	93	562.189	58.2218	-117.754	1	131.361	-63.6905	2.81937E-006	-0.440797	9
	46	95	501.303	59.8528	-130.927	1	143.959	-65.4327	2.32879E-006	-0.440795	9
	47	97	446.614	61.446	-145.728	1	158.153	-67.1374	2.35352E-006	-0.440805	9
	48	99	398.209	63.1915	-162.1	1	173.981	-68.7027	2.33042E-006	-0.440807	9
	49	101	354.821	65.2184	-180.453	1	191.877	-70.1294	2.59398E-006	-0.440802	9
	50	103	316.113	67.4188	-200.916	1	211.926	-71.4504	2.46342E-006	-0.440801	9
	51	105	281.926	69.8755	-223.49	1	234.159	-72.6378	2.53701E-006	-0.4408	9
	52	107	251.185	72.5638	-248.827	1	259.191	-73.742	2.41417E-006	-0.440798	9
	53	109	223.946	75.6516	-276.931	1	287.078	-74.7208	2.56296E-006	-0.440802	9
	54	111	199.495	78.9806	-308.451	1	318.402	-75.6377	2.46157E-006	-0.440795	9
	55	113	177.836	82.7923	-343.315	1	353.157	-76.4417	2.53707E-006	-0.440797	9
	56	115	158.533	87.1714	-382.238	1	392.052	-77.1531	2.65167E-006	-0.440793	9
	57	117	141.263	91.8736	-425.73	1	435.53	-77.8222	2.62174E-006	-0.440789	9
	58	119	125.911	96.981	-474.018	1	483.837	-78.4372	2.59792E-006	-0.440796	9
	59	121	112.198	103.167	-528.142	1	538.124	-78.947	2.65989E-006	-0.440794	9
	60	123	100.009	109.891	-588.07	1	598.249	-79.4153	2.70894E-006	-0.440793	9
	61	125	89.1164	117.577	-655.078	1	665.546	-79.8246	2.70963E-006	-0.440792	9
	62	127	79.4083	126.505	-730.089	1	740.968	-80.1697	2.71091E-006	-0.440791	9
	63	129	70.788	136.163	-813.203	1	824.524	-80.4945	2.78547E-006	-0.440787	9
	64	131	63.0971	147.471	-905.871	1	917.796	-80.7537	2.77603E-006	-0.440785	9
	65	133	54.5476	164.718	-1038.11	1	1051.1	-80.984	2.804E-006	-0.440789	9
	66	135	50.0083	175.707	-1125.41	1	1139.05	-81.1262	2.097E-006	-0.440787	8
	67	137	46.1675	188.493	-1213.32	1	1227.87	-81.1695	2.15086E-006	-0.440801	8
	68	140	40.0059	212.217	-1387.83	1	1403.96	-81.3061	2.06098E-006	-0.440798	8
	69	142	35.3046	235.481	-1559.2	1	1576.88	-81.4117	2.02971E-006	-0.440799	8
	70	144	31.5793	263.944	-1733.04	1	1753.03	-81.3404	2.15748E-006	-0.440796	8
	71	146	28.5748	289.337	-1903.52	1	1925.38	-81.3571	2.06056E-006	-0.440797	8
	72	148	24.9911	333.134	-2156.42	1	2182	-81.2181	2.04026E-006	-0.440797	8
	73	150	22.2195	381.389	-2407.63	1	2437.65	-80.9987	2.09209E-006	-0.440785	8
	74	153	20.0011	428.256	-2659.82	1	2694.08	-80.8533	2.15896E-006	-0.440787	8
	75	155	17.6486	501.474	-2989.44	1	3031.21	-80.4774	2.17208E-006	-0.440796	8
	76	157	15.7934	560.629	-3312.88	1	3359.98	-80.395	2.10422E-006	-0.440797	8
	77	159	14.2828	647.616	-3640.76	1	3697.91	-79.9138	2.16567E-006	-0.4408	8
	78	162	12.5002	762.353	-4108.04	1	4178.18	-79.4869	2.12887E-006	-0.440804	8
	79	164	11.323	878.465	-4506.67	1	4591.48	-78.9699	2.15704E-006	-0.440801	8
	80	167	9.9987	1052.64	-5051.65	1	5160.16	-78.2294	2.21735E-006	-0.440796	8
