EXPLAIN
TAG	EISPOT
TITLE	LABEL	Tomato_open	Test &Identifier
DATE	LABEL	5/16/2006	Date
TIME	LABEL	11:30:21	Time
NOTES	NOTES	1	&Notes...
	
PSTAT	PSTAT	300	Potentiostat
VDC	POTEN	1.00000E-001	T	DC &Voltage (V)
FREQINIT	QUANT	1.00000E+005	Initial Fre&q. (Hz)
FREQFINAL	QUANT	1.00000E+001	Final Fre&q. (Hz)
PTSPERDEC	QUANT	2.00000E+001	Points/&decade
VAC	QUANT	1.00000E+001	AC &Voltage (mV rms)
AREA	QUANT	1.00000E+000	&Area (cm²)
DENSITY	QUANT	7.87000E+000	&Density (gm/cm³)
EQUIV	QUANT	7.00000E+000	Equiv. &Wt
CONDIT	TWOPARAM	F	1.50000E+001	0.00000E+000	Conditionin&g	Time(s)	E(V)
DELAY	TWOPARAM	F	6.00000E+002	0.00000E+000	Init. De&lay	Time(s)	Stab.(mV/s)
SPEED	SELECTOR	1	&Optimize for:
ZGUESS	QUANT	1.00000E+002	E&stimated Z (ohms)
OCVCURVE	TABLE	39
	Pt	T	Vf	Vm	Ach	Over
	#	s	V vs. Ref.	V	V	bits
	0	0.258332	-5.52170E-001	2.65344E-006	-6.34000E-005	......
	1	0.516663	-5.51820E-001	2.65344E-006	1.36600E-004	......
	2	0.774994	-5.50869E-001	2.65344E-006	-1.63400E-004	......
	3	1.03333	-5.51170E-001	2.65344E-006	3.66000E-005	......
	4	1.29166	-5.49869E-001	2.65344E-006	-1.63400E-004	......
	5	1.54999	-5.49069E-001	2.65344E-006	3.66000E-005	......
	6	1.80832	-5.49619E-001	2.65344E-006	-6.34000E-005	......
	7	2.06665	-5.49670E-001	2.65344E-006	3.66000E-005	......
	8	2.32498	-5.49619E-001	2.65344E-006	-1.63400E-004	......
	9	2.58332	-5.49719E-001	2.65344E-006	-6.34000E-005	......
	10	2.84165	-5.47269E-001	2.65344E-006	-6.34000E-005	......
	11	3.09998	-5.46420E-001	2.65344E-006	1.36600E-004	......
	12	3.35831	-5.44169E-001	2.65344E-006	-1.63400E-004	......
	13	3.61664	-5.40119E-001	2.65344E-006	3.66000E-005	......
	14	3.87497	-5.41819E-001	2.65344E-006	-1.63400E-004	......
	15	4.1333	-5.44219E-001	2.65344E-006	2.36600E-004	......
	16	4.39164	-5.43619E-001	2.65344E-006	-6.34000E-005	......
	17	4.64997	-5.45919E-001	2.65344E-006	3.66000E-005	......
	18	4.9083	-5.50169E-001	2.65344E-006	-6.34000E-005	......
	19	5.16663	-5.50070E-001	2.65344E-006	2.36600E-004	......
	20	5.42496	-5.51619E-001	2.65344E-006	-1.63400E-004	......
	21	5.68329	-5.53119E-001	2.65344E-006	3.66000E-005	......
	22	5.94162	-5.52419E-001	2.65344E-006	-1.63400E-004	......
	23	6.19996	-5.51619E-001	2.65344E-006	3.66000E-005	......
	24	6.45829	-5.52570E-001	2.65344E-006	-1.63400E-004	......
	25	6.71662	-5.53069E-001	2.65344E-006	1.36600E-004	......
	26	6.97495	-5.53019E-001	2.65344E-006	-2.63400E-004	......
	27	7.23328	-5.52419E-001	2.65344E-006	3.66000E-005	......
	28	7.49161	-5.52669E-001	2.65344E-006	-1.63400E-004	......
	29	7.74995	-5.52719E-001	2.65344E-006	1.36600E-004	......
	30	8.00828	-5.50669E-001	2.65344E-006	-1.63400E-004	......
	31	8.26661	-5.49519E-001	2.65344E-006	3.66000E-005	......
	32	8.52494	-5.49919E-001	2.65344E-006	-1.63400E-004	......
	33	8.78327	-5.49269E-001	2.65344E-006	3.66000E-005	......
	34	9.0416	-5.48220E-001	2.65344E-006	3.66000E-005	......
	35	9.29993	-5.48119E-001	2.65344E-006	2.36600E-004	......
	36	9.5583	-5.47419E-001	2.65344E-006	-1.63400E-004	......
	37	9.8166	-5.47119E-001	2.65344E-006	3.66000E-005	......
	38	10.0749	-5.47170E-001	2.65344E-006	-6.34000E-005	......
EOC	QUANT	-0.54717	Open Circuit (V)
PSTATMODEL	IQUANT	32	Pstat Model
PSTATSECTION	LABEL	PStat0	Pstat Section
CTRLMODE	IQUANT	1	Control Mode
IESTAB	IQUANT	0	I/E Stability
CASPEED	IQUANT	1	Control Amp Speed
CONVENTION	IQUANT	1	Current Convention
ICHRANGE	IQUANT	2	Ich Range
ICHRANGEMODE	TOGGLE	F	Ich Auto Range
ICHOFFSETENABLE	TOGGLE	T	Ich Offset Enable
ICHOFFSET	QUANT	0	Ich Offset (V)
ICHFILTER	IQUANT	3	Ich Filter
VCHRANGE	IQUANT	2	Vch Range
VCHRANGEMODE	TOGGLE	F	Vch Auto Range
VCHOFFSETENABLE	TOGGLE	T	Vch Offset Enable
VCHOFFSET	QUANT	0	Vch Offset (V)
VCHFILTER	IQUANT	3	Vch Filter
ACHRANGE	IQUANT	0	Ach Range
IERANGELOWERLIMIT	IQUANT	3	I/E Range Lower Limit
IERANGEMODE	TOGGLE	F	I/E AutoRange
IERANGE	IQUANT	11	I/E Range
POSFEEDENABLE	TOGGLE	F	Positive Feedback IR Comp
POSFEEDRESISTANCE	QUANT	0	Positive Feedback Resistance (ohm)
FC350IDIVISOR	IQUANT	0	FC350 I Divisor
FC350VRANGE	IQUANT	0	FC350 V Range
FRAMEWORKVERSION	QUANT	4.35	Framework Version
ZCURVE	TABLE
	Pt	Time	Freq	Zreal	Zimag	Zsig	Zmod	Zphz	Idc	Vdc	IERange
	#	s	Hz	ohm	ohm	V	ohm	°	A	V	#
	0	4	100007	44.0707	-0.746332	1	44.077	-0.9702	7.66431E-006	-0.446935	10
	1	6	89134.1	43.8899	-0.895222	1	43.899	-1.1685	6.87306E-006	-0.446954	10
	2	8	79433.6	43.8189	-1.09852	1	43.8327	-1.43608	1.15835E-005	-0.446993	10
	3	10	70800.8	43.7731	-1.32238	1	43.7931	-1.73037	1.20745E-005	-0.446987	10
	4	12	63105.5	43.7141	-1.48693	1	43.7393	-1.94816	1.01006E-005	-0.446966	10
	5	14	56243.5	43.7884	-1.74824	1	43.8232	-2.28631	1.04849E-005	-0.446956	10
	6	16	50123.7	43.792	-1.99181	1	43.8372	-2.60422	9.92744E-006	-0.446957	10
	7	18	44681	43.795	-2.21788	1	43.8511	-2.89912	1.0502E-005	-0.446988	10
	8	20	39811.2	43.8485	-2.6101	1	43.9261	-3.40653	7.9915E-006	-0.446974	10
	9	22	35488.3	43.9064	-2.83864	1	43.9981	-3.69915	9.77009E-006	-0.446961	10
	10	24	31634.1	43.87	-3.09411	1	43.9789	-4.03434	8.60728E-006	-0.446964	10
	11	26	28173.1	43.9465	-3.53381	1	44.0884	-4.59736	7.78853E-006	-0.446963	10
	12	28	25123.7	43.9943	-3.92274	1	44.1688	-5.0953	7.66025E-006	-0.446995	10
	13	30	22389.3	44.1629	-4.34838	1	44.3765	-5.62334	8.5265E-006	-0.446957	10
	14	32	19954.4	44.188	-4.78657	1	44.4465	-6.18234	7.70416E-006	-0.446961	10
	15	34	17778.2	44.3461	-5.26185	1	44.6572	-6.76674	7.03478E-006	-0.446965	10
	16	36	15852.9	44.4639	-5.9129	1	44.8553	-7.57487	8.88041E-006	-0.446989	10
	17	38	14122.3	44.5851	-6.54882	1	45.0634	-8.35606	7.07275E-006	-0.446958	10
	18	40	12587.2	44.7091	-7.09255	1	45.2682	-9.01416	7.56572E-006	-0.44696	10
	19	42	11221.1	44.9247	-7.94962	1	45.6226	-10.0349	6.89634E-006	-0.446956	10
	20	44	9998.2	45.0226	-8.76214	1	45.8673	-11.013	7.00353E-006	-0.446959	10
	21	46	8912.76	45.2068	-9.6177	1	46.2185	-12.0105	8.14525E-006	-0.446972	10
	22	48	7942.6	45.3573	-10.6861	1	46.5991	-13.2571	7.07509E-006	-0.446952	10
	23	50	7078.05	45.5997	-11.8186	1	47.1064	-14.5303	7.00931E-006	-0.446965	10
	24	52	6311.1	45.7757	-13.102	1	47.6138	-15.9723	6.87478E-006	-0.446956	10
	25	54	5622.14	46.0114	-14.5249	1	48.2496	-17.5199	6.84509E-006	-0.44696	10
	26	56	5011.18	46.2141	-15.9334	1	48.8837	-19.0228	6.79431E-006	-0.446958	10
	27	58	4465.21	46.5427	-17.6972	1	49.7937	-20.8186	6.89299E-006	-0.446962	10
	28	60	3980.93	46.8323	-19.7515	1	50.827	-22.8676	8.28335E-006	-0.446978	10
	29	62	3548.18	47.1708	-21.734	1	51.937	-24.7379	7.50076E-006	-0.446986	10
	30	63	3162.67	47.5587	-24.0034	1	53.2728	-26.7806	7.09937E-006	-0.446955	10
	31	65	2819.01	47.9119	-26.6187	1	54.8097	-29.0555	7.07249E-006	-0.446948	10
	32	67	2511.16	48.3513	-29.522	1	56.6516	-31.4071	6.98645E-006	-0.446962	10
	33	69	2238.63	48.6922	-32.7877	1	58.7024	-33.955	6.61752E-006	-0.446969	10
	34	71	1995.37	49.3843	-36.3596	1	61.3256	-36.3627	6.23734E-006	-0.446968	10
	35	73	1778.51	49.6837	-40.3965	1	64.034	-39.1136	6.37901E-006	-0.44697	10
	36	75	1584.49	50.3894	-44.7881	1	67.4171	-41.6319	6.40984E-006	-0.446973	10
	37	77	1412.76	50.9159	-49.796	1	71.2185	-44.3629	7.62196E-006	-0.446954	10
	38	79	1259.04	51.5278	-55.0587	1	75.4094	-46.8974	6.02721E-006	-0.446976	10
	39	81	1121.63	52.3303	-61.1179	1	80.4603	-49.4293	6.13491E-006	-0.446983	10
	40	83	999.95	53.1369	-68.0705	1	86.3546	-52.0238	6.24673E-006	-0.446979	10
	41	85	891.184	54.1043	-75.7221	1	93.0651	-54.4537	5.69843E-006	-0.446977	10
	42	87	794.163	54.8848	-84.292	1	100.586	-56.9308	6.02704E-006	-0.44697	10
	43	89	707.867	55.9197	-93.4803	1	108.929	-59.1122	2.71687E-006	-0.446986	9
	44	91	630.984	57.1133	-103.95	1	118.606	-61.2142	2.1626E-006	-0.446981	9
	45	93	562.189	58.2177	-115.958	1	129.752	-63.3408	2.4706E-006	-0.446977	9
	46	95	501.303	59.9699	-128.857	1	142.129	-65.0428	2.36053E-006	-0.446974	9
	47	97	446.614	61.5476	-143.425	1	156.073	-66.7745	2.45932E-006	-0.446975	9
	48	99	398.209	63.2566	-159.544	1	171.626	-68.3724	2.40759E-006	-0.446985	9
	49	101	354.821	65.2098	-177.597	1	189.191	-69.8379	2.40931E-006	-0.446982	9
	50	103	316.113	67.3756	-197.708	1	208.873	-71.1817	2.48104E-006	-0.44698	9
	51	105	281.926	69.7584	-219.916	1	230.715	-72.4007	2.46934E-006	-0.446986	9
	52	107	251.185	72.3991	-244.914	1	255.391	-73.5318	2.29901E-006	-0.446981	9
	53	109	223.946	75.2997	-272.555	1	282.766	-74.556	2.35265E-006	-0.446986	9
	54	111	199.495	78.6512	-303.617	1	313.638	-75.4769	2.38942E-006	-0.446988	9
	55	113	177.836	82.2755	-338.02	1	347.889	-76.32	2.39468E-006	-0.446982	9
	56	115	158.533	86.3643	-376.284	1	386.068	-77.0734	2.46931E-006	-0.446983	9
	57	117	141.263	90.8902	-419.273	1	429.012	-77.7686	2.34104E-006	-0.446986	9
	58	119	125.911	96.089	-466.852	1	476.638	-78.3697	2.46253E-006	-0.446982	9
	59	121	112.198	102.12	-520.208	1	530.137	-78.8937	2.50455E-006	-0.44698	9
	60	123	100.009	108.585	-579.445	1	589.532	-79.3862	2.48458E-006	-0.446976	9
	61	125	89.1164	116.102	-645.588	1	655.945	-79.8049	2.57645E-006	-0.446966	9
	62	127	79.4083	124.445	-719.581	1	730.263	-80.1883	2.54093E-006	-0.446969	9
	63	129	70.788	133.629	-801.526	1	812.589	-80.5348	2.31762E-006	-0.446972	9
	64	131	63.0971	144.635	-892.824	1	904.464	-80.7982	2.49906E-006	-0.446976	9
	65	133	54.5476	160.008	-1023.85	1	1036.27	-81.1176	2.56792E-006	-0.446972	9
	66	135	50.0083	171.997	-1109.88	1	1123.13	-81.191	1.97176E-006	-0.446975	8
	67	137	46.1675	185.784	-1197.04	1	1211.37	-81.1779	2.08981E-006	-0.446979	8
	68	140	40.0059	209.532	-1368.25	1	1384.2	-81.2934	2.09912E-006	-0.446977	8
	69	142	35.3046	231.836	-1540.48	1	1557.83	-81.4415	1.84919E-006	-0.446973	8
	70	144	31.5793	257.646	-1710.65	1	1729.94	-81.4349	1.85E-006	-0.446978	8
	71	146	28.5748	280.178	-1880.93	1	1901.68	-81.5277	1.78693E-006	-0.44697	8
	72	148	24.9911	318.584	-2131.8	1	2155.47	-81.5004	1.80044E-006	-0.446979	8
	73	150	22.2195	356.743	-2379.15	1	2405.74	-81.4723	1.83929E-006	-0.446989	8
	74	153	20.0011	411.735	-2628.46	1	2660.51	-81.0972	1.88327E-006	-0.446986	8
	75	155	17.6486	476.183	-2950.43	1	2988.61	-80.8318	1.93058E-006	-0.446988	8
	76	157	15.7934	543.615	-3286.85	1	3331.5	-80.6088	1.92504E-006	-0.446982	8
	77	159	14.2828	632.276	-3599.67	1	3654.78	-80.0377	2.06764E-006	-0.446988	8
	78	162	12.5002	756.495	-4068.95	1	4138.68	-79.4679	2.04594E-006	-0.446982	8
	79	164	11.323	843.205	-4464.4	1	4543.33	-79.3044	1.9608E-006	-0.446992	8
	80	167	9.9987	963.45	-4975.59	1	5068.01	-79.0411	1.94218E-006	-0.446985	8
