EXPLAIN
TAG	EISPOT
TITLE	LABEL	Tomato_open	Test &Identifier
DATE	LABEL	5/16/2006	Date
TIME	LABEL	11:40:22	Time
NOTES	NOTES	1	&Notes...
	
PSTAT	PSTAT	300	Potentiostat
VDC	POTEN	1.00000E-001	T	DC &Voltage (V)
FREQINIT	QUANT	1.00000E+005	Initial Fre&q. (Hz)
FREQFINAL	QUANT	1.00000E+001	Final Fre&q. (Hz)
PTSPERDEC	QUANT	2.00000E+001	Points/&decade
VAC	QUANT	1.00000E+001	AC &Voltage (mV rms)
AREA	QUANT	1.00000E+000	&Area (cm²)
DENSITY	QUANT	7.87000E+000	&Density (gm/cm³)
EQUIV	QUANT	7.00000E+000	Equiv. &Wt
CONDIT	TWOPARAM	F	1.50000E+001	0.00000E+000	Conditionin&g	Time(s)	E(V)
DELAY	TWOPARAM	F	6.00000E+002	0.00000E+000	Init. De&lay	Time(s)	Stab.(mV/s)
SPEED	SELECTOR	1	&Optimize for:
ZGUESS	QUANT	1.00000E+002	E&stimated Z (ohms)
OCVCURVE	TABLE	39
	Pt	T	Vf	Vm	Ach	Over
	#	s	V vs. Ref.	V	V	bits
	0	0.258332	-5.02369E-001	5.04176E-006	-1.63400E-004	......
	1	0.516663	-5.09569E-001	5.04176E-006	3.66000E-005	......
	2	0.774994	-5.02469E-001	5.04176E-006	-1.63400E-004	......
	3	1.03333	-5.01119E-001	5.04176E-006	3.66000E-005	......
	4	1.29166	-5.02819E-001	5.04176E-006	-1.63400E-004	......
	5	1.54999	-5.04519E-001	5.04176E-006	3.66000E-005	......
	6	1.80832	-5.04070E-001	5.04176E-006	-6.34000E-005	......
	7	2.06665	-5.05619E-001	5.04176E-006	3.66000E-005	......
	8	2.32498	-5.05870E-001	5.04176E-006	-6.34000E-005	......
	9	2.58332	-5.04969E-001	5.04176E-006	2.36600E-004	......
	10	2.84165	-5.05719E-001	5.04176E-006	-6.34000E-005	......
	11	3.09998	-5.07419E-001	5.04176E-006	2.36600E-004	......
	12	3.35831	-5.10069E-001	5.04176E-006	-1.63400E-004	......
	13	3.61664	-5.12069E-001	5.04176E-006	3.66000E-005	......
	14	3.87497	-5.16069E-001	5.04176E-006	-1.63400E-004	......
	15	4.1333	-5.18719E-001	5.04176E-006	3.66000E-005	......
	16	4.39164	-5.18019E-001	5.04176E-006	-1.63400E-004	......
	17	4.64997	-5.19120E-001	5.04176E-006	3.66000E-005	......
	18	4.9083	-5.19619E-001	5.04176E-006	-1.63400E-004	......
	19	5.16663	-5.20319E-001	5.04176E-006	3.66000E-005	......
	20	5.42496	-5.21119E-001	5.04176E-006	-6.34000E-005	......
	21	5.68329	-5.20920E-001	5.04176E-006	3.66000E-005	......
	22	5.94162	-5.20019E-001	5.04176E-006	-2.63400E-004	......
	23	6.19996	-5.20270E-001	5.04176E-006	-6.34000E-005	......
	24	6.45829	-5.16919E-001	5.04176E-006	-1.63400E-004	......
	25	6.71662	-5.11469E-001	5.04176E-006	1.36600E-004	......
	26	6.97495	-5.05269E-001	5.04176E-006	-6.34000E-005	......
	27	7.23328	-5.04719E-001	5.04176E-006	1.36600E-004	......
	28	7.49161	-5.06819E-001	5.04176E-006	-1.63400E-004	......
	29	7.74995	-5.04669E-001	5.04176E-006	2.36600E-004	......
	30	8.00828	-4.94769E-001	5.04176E-006	-1.63400E-004	......
	31	8.26661	-4.91669E-001	5.04176E-006	3.66000E-005	......
	32	8.52494	-4.95319E-001	5.04176E-006	-6.34000E-005	......
	33	8.78327	-5.00619E-001	5.04176E-006	3.66000E-005	......
	34	9.0416	-5.03269E-001	5.04176E-006	-6.34000E-005	......
	35	9.29993	-5.05220E-001	5.04176E-006	2.36600E-004	......
	36	9.5583	-5.08070E-001	5.04176E-006	-1.63400E-004	......
	37	9.8166	-5.11769E-001	5.04176E-006	-6.34000E-005	......
	38	10.0749	-5.13819E-001	5.04176E-006	-1.63400E-004	......
EOC	QUANT	-0.513819	Open Circuit (V)
PSTATMODEL	IQUANT	32	Pstat Model
PSTATSECTION	LABEL	PStat0	Pstat Section
CTRLMODE	IQUANT	1	Control Mode
IESTAB	IQUANT	0	I/E Stability
CASPEED	IQUANT	1	Control Amp Speed
CONVENTION	IQUANT	1	Current Convention
ICHRANGE	IQUANT	2	Ich Range
ICHRANGEMODE	TOGGLE	F	Ich Auto Range
ICHOFFSETENABLE	TOGGLE	T	Ich Offset Enable
ICHOFFSET	QUANT	0	Ich Offset (V)
ICHFILTER	IQUANT	3	Ich Filter
VCHRANGE	IQUANT	2	Vch Range
VCHRANGEMODE	TOGGLE	F	Vch Auto Range
VCHOFFSETENABLE	TOGGLE	T	Vch Offset Enable
VCHOFFSET	QUANT	0	Vch Offset (V)
VCHFILTER	IQUANT	3	Vch Filter
ACHRANGE	IQUANT	0	Ach Range
IERANGELOWERLIMIT	IQUANT	3	I/E Range Lower Limit
IERANGEMODE	TOGGLE	F	I/E AutoRange
IERANGE	IQUANT	11	I/E Range
POSFEEDENABLE	TOGGLE	F	Positive Feedback IR Comp
POSFEEDRESISTANCE	QUANT	0	Positive Feedback Resistance (ohm)
FC350IDIVISOR	IQUANT	0	FC350 I Divisor
FC350VRANGE	IQUANT	0	FC350 V Range
FRAMEWORKVERSION	QUANT	4.35	Framework Version
ZCURVE	TABLE
	Pt	Time	Freq	Zreal	Zimag	Zsig	Zmod	Zphz	Idc	Vdc	IERange
	#	s	Hz	ohm	ohm	V	ohm	°	A	V	#
	0	4	100007	43.984	-0.765142	1	43.9906	-0.99661	9.37619E-006	-0.413539	10
	1	6	89134.1	43.8163	-0.904398	1	43.8256	-1.18246	1.05513E-005	-0.413586	10
	2	8	79433.6	43.7731	-1.05192	1	43.7857	-1.37662	9.55259E-006	-0.4136	10
	3	10	70800.8	43.6627	-1.26671	1	43.6811	-1.66176	1.03892E-005	-0.41357	10
	4	12	63105.5	43.6296	-1.52912	1	43.6564	-2.00727	1.04224E-005	-0.413591	10
	5	14	56243.5	43.6761	-1.7536	1	43.7113	-2.29919	9.209E-006	-0.413594	10
	6	16	50123.7	43.6587	-1.96956	1	43.7031	-2.58301	9.66588E-006	-0.413588	10
	7	18	44681	43.6897	-2.25768	1	43.748	-2.95814	9.58869E-006	-0.413594	10
	8	20	39811.2	43.74	-2.64457	1	43.8199	-3.45995	6.94088E-006	-0.413562	10
	9	22	35488.3	43.7348	-2.81566	1	43.8253	-3.68364	6.35337E-006	-0.413576	10
	10	24	31634.1	43.782	-3.17984	1	43.8973	-4.15404	8.55072E-006	-0.41357	10
	11	26	28173.1	43.8626	-3.53521	1	44.0048	-4.60793	6.74322E-006	-0.413586	10
	12	28	25123.7	43.8907	-3.93862	1	44.0671	-5.12782	6.17291E-006	-0.413577	10
	13	30	22389.3	44.0467	-4.37719	1	44.2636	-5.6752	6.16572E-006	-0.41356	10
	14	32	19954.4	44.0949	-4.8281	1	44.3585	-6.24862	6.68431E-006	-0.413556	10
	15	34	17778.2	44.1715	-5.36143	1	44.4957	-6.92057	6.61009E-006	-0.41357	10
	16	36	15852.9	44.3549	-5.94321	1	44.7513	-7.63173	7.52869E-006	-0.413588	10
	17	38	14122.3	44.4067	-6.55313	1	44.8876	-8.39459	6.61963E-006	-0.413572	10
	18	40	12587.2	44.5676	-7.25262	1	45.1539	-9.24289	7.29369E-006	-0.413569	10
	19	42	11221.1	44.6737	-8.02114	1	45.388	-10.179	7.49369E-006	-0.413572	10
	20	44	9998.2	44.8095	-8.82857	1	45.6709	-11.1459	6.19775E-006	-0.413579	10
	21	46	8912.76	44.9725	-9.74	1	46.0151	-12.2202	5.21416E-006	-0.413571	10
	22	47	7942.6	45.1425	-10.8224	1	46.4217	-13.4815	6.3365E-006	-0.413574	10
	23	49	7078.05	45.3299	-11.9466	1	46.8777	-14.7644	6.63416E-006	-0.413572	10
	24	51	6311.1	45.6357	-13.2337	1	47.5157	-16.1714	6.86556E-006	-0.413581	10
	25	53	5622.14	45.8209	-14.6677	1	48.1113	-17.7504	7.65697E-006	-0.413589	10
	26	55	5011.18	46.126	-16.2468	1	48.9036	-19.4036	6.5669E-006	-0.413571	10
	27	57	4465.21	46.3519	-18.0661	1	49.7482	-21.2938	7.31185E-006	-0.413571	10
	28	59	3980.93	46.5536	-19.8711	1	50.6171	-23.1149	8.46124E-006	-0.413566	10
	29	61	3548.18	46.9554	-22.0758	1	51.8859	-25.1803	5.75549E-006	-0.413569	10
	30	63	3162.67	47.2563	-24.5661	1	53.2602	-27.4676	8.34407E-006	-0.41356	10
	31	65	2819.01	47.5742	-27.1371	1	54.7697	-29.7011	7.17001E-006	-0.413544	10
	32	67	2511.16	47.9675	-30.1149	1	56.6373	-32.1213	7.40448E-006	-0.413566	10
	33	69	2238.63	48.4931	-33.4395	1	58.9049	-34.5891	7.35607E-006	-0.413564	10
	34	71	1995.37	48.8457	-37.15	1	61.3679	-37.2551	7.0914E-006	-0.413568	10
	35	73	1778.51	49.4303	-41.2328	1	64.37	-39.8335	7.27985E-006	-0.413569	10
	36	75	1584.49	50.02	-45.8578	1	67.8596	-42.5143	7.22443E-006	-0.413572	10
	37	77	1412.76	50.4516	-50.8394	1	71.6241	-45.2194	6.78127E-006	-0.413596	10
	38	79	1259.04	51.2583	-56.4729	1	76.2667	-47.7711	7.02249E-006	-0.413566	10
	39	81	1121.63	51.7964	-62.8587	1	81.4499	-50.511	7.26585E-006	-0.413571	10
	40	83	999.95	52.936	-69.7573	1	87.5689	-52.8066	6.86546E-006	-0.413576	10
	41	85	891.184	53.6428	-77.4477	1	94.2109	-55.2923	6.84351E-006	-0.413563	10
	42	87	794.163	54.6295	-86.2605	1	102.104	-57.6536	6.91576E-006	-0.413574	10
	43	89	707.867	55.8202	-95.877	1	110.943	-59.7917	3.16501E-006	-0.413569	9
	44	91	630.984	56.9547	-106.786	1	121.025	-61.9265	3.3531E-006	-0.413564	9
	45	93	562.189	58.1592	-118.789	1	132.262	-63.9136	2.82593E-006	-0.413564	9
	46	95	501.303	59.7561	-132.008	1	144.903	-65.6452	2.47623E-006	-0.413565	9
	47	97	446.614	61.3749	-146.963	1	159.264	-67.3336	2.94545E-006	-0.413573	9
	48	99	398.209	63.1123	-163.456	1	175.217	-68.8879	2.77359E-006	-0.413569	9
	49	101	354.821	65.1344	-181.97	1	193.276	-70.3056	2.83474E-006	-0.413571	9
	50	103	316.113	67.3614	-202.597	1	213.502	-71.6086	2.9159E-006	-0.413564	9
	51	105	281.926	69.6976	-225.329	1	235.862	-72.8124	2.23421E-006	-0.413563	9
	52	107	251.185	72.641	-250.941	1	261.243	-73.8556	2.74181E-006	-0.413563	9
	53	109	223.946	75.7301	-279.28	1	289.365	-74.8284	3.29542E-006	-0.413558	9
	54	111	199.495	79.24	-311.054	1	320.989	-75.7081	3.23081E-006	-0.41356	9
	55	113	177.836	82.8337	-346.199	1	355.971	-76.544	2.75396E-006	-0.413558	9
	56	115	158.533	87.0411	-385.355	1	395.063	-77.272	2.60132E-006	-0.413564	9
	57	117	141.263	91.6519	-429.367	1	439.04	-77.9506	2.29435E-006	-0.413565	9
	58	119	125.911	97.04	-478.086	1	487.835	-78.5262	2.53099E-006	-0.413558	9
	59	121	112.198	103.1	-532.455	1	542.345	-79.0413	2.45083E-006	-0.413557	9
	60	123	100.009	109.659	-593.029	1	603.082	-79.5236	2.58913E-006	-0.413561	9
	61	125	89.1164	117.394	-661.347	1	671.686	-79.9344	2.68605E-006	-0.413562	9
	62	127	79.4083	125.808	-736.104	1	746.777	-80.3012	2.72681E-006	-0.413567	9
	63	129	70.788	135.942	-820.123	1	831.313	-80.5884	2.80251E-006	-0.413558	9
	64	131	63.0971	147.558	-913.703	1	925.542	-80.8263	2.78056E-006	-0.413563	9
	65	133	54.5476	165.403	-1046.7	1	1059.69	-81.0202	2.78258E-006	-0.413561	9
	66	135	50.0083	174.179	-1135.39	1	1148.67	-81.2783	1.94796E-006	-0.41357	8
	67	137	46.1675	185.62	-1224.44	1	1238.43	-81.3799	1.8994E-006	-0.413572	8
	68	139	40.0059	209.535	-1398.92	1	1414.52	-81.4813	1.85744E-006	-0.413575	8
	69	141	35.3046	233.226	-1574.4	1	1591.58	-81.5737	1.86827E-006	-0.413566	8
	70	144	31.5793	256.266	-1745.96	1	1764.66	-81.6499	1.90633E-006	-0.413565	8
	71	146	28.5748	280.776	-1922.16	1	1942.56	-81.6894	1.84218E-006	-0.413566	8
	72	148	24.9911	314.559	-2178.13	1	2200.73	-81.7823	1.74456E-006	-0.413565	8
	73	150	22.2195	348.882	-2436.77	1	2461.61	-81.8521	1.38181E-006	-0.413573	8
	74	152	20.0011	397.019	-2687.28	1	2716.45	-81.5959	1.38014E-006	-0.413567	8
	75	155	17.6486	431.97	-3024.29	1	3054.98	-81.8712	1.35408E-006	-0.413565	8
	76	157	15.7934	512.322	-3341.86	1	3380.91	-81.2842	1.4269E-006	-0.413571	8
	77	159	14.2828	566.672	-3669.03	1	3712.53	-81.2202	1.47386E-006	-0.41357	8
	78	161	12.5002	687.288	-4193.94	1	4249.88	-80.6933	1.50217E-006	-0.413581	8
	79	164	11.323	745.644	-4566.89	1	4627.36	-80.727	1.46027E-006	-0.413581	8
	80	167	9.9987	905.34	-5110.77	1	5190.34	-79.9546	1.41197E-006	-0.413581	8
