EXPLAIN
TAG	EISPOT
TITLE	LABEL	Tomato_open	Test &Identifier
DATE	LABEL	5/14/2006	Date
TIME	LABEL	13:27:39	Time
NOTES	NOTES	1	&Notes...
	
PSTAT	PSTAT	300	Potentiostat
VDC	POTEN	1.00000E-001	T	DC &Voltage (V)
FREQINIT	QUANT	1.00000E+005	Initial Fre&q. (Hz)
FREQFINAL	QUANT	1.00000E+001	Final Fre&q. (Hz)
PTSPERDEC	QUANT	2.00000E+001	Points/&decade
VAC	QUANT	1.00000E+001	AC &Voltage (mV rms)
AREA	QUANT	1.00000E+000	&Area (cm²)
DENSITY	QUANT	7.87000E+000	&Density (gm/cm³)
EQUIV	QUANT	7.00000E+000	Equiv. &Wt
CONDIT	TWOPARAM	F	1.50000E+001	0.00000E+000	Conditionin&g	Time(s)	E(V)
DELAY	TWOPARAM	F	6.00000E+002	0.00000E+000	Init. De&lay	Time(s)	Stab.(mV/s)
SPEED	SELECTOR	1	&Optimize for:
ZGUESS	QUANT	1.00000E+002	E&stimated Z (ohms)
OCVCURVE	TABLE	39
	Pt	T	Vf	Vm	Ach	Over
	#	s	V vs. Ref.	V	V	bits
	0	0.258332	-5.18369E-001	4.78076E-006	3.36600E-004	......
	1	0.516663	-5.18919E-001	4.78076E-006	2.36600E-004	......
	2	0.774994	-5.19269E-001	4.78076E-006	2.36600E-004	......
	3	1.03333	-5.18869E-001	4.78076E-006	2.36600E-004	......
	4	1.29166	-5.19019E-001	4.78076E-006	2.36600E-004	......
	5	1.54999	-5.18519E-001	4.78076E-006	2.36600E-004	......
	6	1.80832	-5.18669E-001	4.78076E-006	2.36600E-004	......
	7	2.06665	-5.19369E-001	4.78076E-006	3.66000E-005	......
	8	2.32498	-5.20169E-001	4.78076E-006	2.36600E-004	......
	9	2.58332	-5.21169E-001	4.78076E-006	2.36600E-004	......
	10	2.84165	-5.22169E-001	4.78076E-006	3.36600E-004	......
	11	3.09998	-5.23019E-001	4.78076E-006	2.36600E-004	......
	12	3.35831	-5.23569E-001	4.78076E-006	2.36600E-004	......
	13	3.61664	-5.23969E-001	4.78076E-006	2.36600E-004	......
	14	3.87497	-5.24619E-001	4.78076E-006	2.36600E-004	......
	15	4.1333	-5.24669E-001	4.78076E-006	2.36600E-004	......
	16	4.39164	-5.24819E-001	4.78076E-006	3.36600E-004	......
	17	4.64997	-5.25069E-001	4.78076E-006	3.66000E-005	......
	18	4.9083	-5.25719E-001	4.78076E-006	2.36600E-004	......
	19	5.16663	-5.26219E-001	4.78076E-006	2.36600E-004	......
	20	5.42496	-5.26919E-001	4.78076E-006	2.36600E-004	......
	21	5.68329	-5.27420E-001	4.78076E-006	3.36600E-004	......
	22	5.94162	-5.24719E-001	4.78076E-006	2.36600E-004	......
	23	6.19996	-5.21319E-001	4.78076E-006	2.36600E-004	......
	24	6.45829	-5.19269E-001	4.78076E-006	3.36600E-004	......
	25	6.71662	-5.17720E-001	4.78076E-006	2.36600E-004	......
	26	6.97495	-5.16270E-001	4.78076E-006	2.36600E-004	......
	27	7.23328	-5.14569E-001	4.78076E-006	3.36600E-004	......
	28	7.49161	-5.13469E-001	4.78076E-006	3.36600E-004	......
	29	7.74995	-5.11419E-001	4.78076E-006	2.36600E-004	......
	30	8.00828	-5.10619E-001	4.78076E-006	2.36600E-004	......
	31	8.26661	-5.10419E-001	4.78076E-006	3.36600E-004	......
	32	8.52494	-5.10719E-001	4.78076E-006	3.36600E-004	......
	33	8.78327	-5.10920E-001	4.78076E-006	1.36600E-004	......
	34	9.0416	-5.11319E-001	4.78076E-006	4.36600E-004	......
	35	9.29993	-5.11869E-001	4.78076E-006	2.36600E-004	......
	36	9.5583	-5.12769E-001	4.78076E-006	2.36600E-004	......
	37	9.8166	-5.13869E-001	4.78076E-006	3.36600E-004	......
	38	10.0749	-5.14769E-001	4.78076E-006	2.36600E-004	......
EOC	QUANT	-0.514769	Open Circuit (V)
PSTATMODEL	IQUANT	32	Pstat Model
PSTATSECTION	LABEL	PStat0	Pstat Section
CTRLMODE	IQUANT	1	Control Mode
IESTAB	IQUANT	0	I/E Stability
CASPEED	IQUANT	1	Control Amp Speed
CONVENTION	IQUANT	1	Current Convention
ICHRANGE	IQUANT	2	Ich Range
ICHRANGEMODE	TOGGLE	F	Ich Auto Range
ICHOFFSETENABLE	TOGGLE	T	Ich Offset Enable
ICHOFFSET	QUANT	0	Ich Offset (V)
ICHFILTER	IQUANT	3	Ich Filter
VCHRANGE	IQUANT	2	Vch Range
VCHRANGEMODE	TOGGLE	F	Vch Auto Range
VCHOFFSETENABLE	TOGGLE	T	Vch Offset Enable
VCHOFFSET	QUANT	0	Vch Offset (V)
VCHFILTER	IQUANT	3	Vch Filter
ACHRANGE	IQUANT	0	Ach Range
IERANGELOWERLIMIT	IQUANT	3	I/E Range Lower Limit
IERANGEMODE	TOGGLE	F	I/E AutoRange
IERANGE	IQUANT	11	I/E Range
POSFEEDENABLE	TOGGLE	F	Positive Feedback IR Comp
POSFEEDRESISTANCE	QUANT	0	Positive Feedback Resistance (ohm)
FC350IDIVISOR	IQUANT	0	FC350 I Divisor
FC350VRANGE	IQUANT	0	FC350 V Range
FRAMEWORKVERSION	QUANT	4.35	Framework Version
ZCURVE	TABLE
	Pt	Time	Freq	Zreal	Zimag	Zsig	Zmod	Zphz	Idc	Vdc	IERange
	#	s	Hz	ohm	ohm	V	ohm	°	A	V	#
	0	4	100007	40.4198	-0.622884	1	40.4246	-0.882879	6.8176E-006	-0.414625	10
	1	6	89134.1	40.2267	-0.788525	1	40.2344	-1.12297	6.98619E-006	-0.414646	10
	2	8	79433.6	40.1036	-1.03867	1	40.117	-1.48361	6.45338E-006	-0.414638	10
	3	10	70800.8	40.1222	-1.18473	1	40.1397	-1.69134	5.92353E-006	-0.414619	10
	4	12	63105.5	40.0744	-1.46315	1	40.1011	-2.09099	8.81244E-006	-0.414659	10
	5	14	56243.5	40.0852	-1.68852	1	40.1207	-2.41207	7.99822E-006	-0.414621	10
	6	16	50123.7	40.0488	-1.92285	1	40.0949	-2.74881	8.8665E-006	-0.414623	10
	7	18	44681	39.9857	-2.27193	1	40.0502	-3.25197	9.59384E-006	-0.414618	10
	8	20	39811.2	40.0101	-2.4327	1	40.084	-3.47943	9.879E-006	-0.414642	10
	9	22	35488.3	40.1132	-2.7239	1	40.2055	-3.88473	1.05876E-005	-0.41465	10
	10	24	31634.1	40.1429	-3.12127	1	40.2641	-4.44603	8.94525E-006	-0.414639	10
	11	26	28173.1	40.1433	-3.50452	1	40.296	-4.98928	9.6015E-006	-0.414638	10
	12	28	25123.7	40.255	-3.87799	1	40.4414	-5.50265	9.48447E-006	-0.414629	10
	13	30	22389.3	40.3122	-4.25456	1	40.5361	-6.02471	8.39791E-006	-0.414619	10
	14	32	19954.4	40.3944	-4.75863	1	40.6738	-6.71871	8.77197E-006	-0.41463	10
	15	34	17778.2	40.5312	-5.33047	1	40.8803	-7.49226	8.53135E-006	-0.414625	10
	16	36	15852.9	40.6385	-5.94123	1	41.0705	-8.31755	8.16791E-006	-0.414609	10
	17	38	14122.3	40.7579	-6.5845	1	41.2864	-9.17692	8.114E-006	-0.414624	10
	18	40	12587.2	40.8575	-7.21293	1	41.4893	-10.0118	8.75947E-006	-0.41462	10
	19	42	11221.1	40.9993	-8.03371	1	41.779	-11.0865	8.33088E-006	-0.414637	10
	20	44	9998.2	41.1745	-8.89476	1	42.1243	-12.19	8.68994E-006	-0.414634	10
	21	46	8912.76	41.2833	-9.8437	1	42.4406	-13.4113	8.89681E-006	-0.414646	10
	22	48	7942.6	41.4916	-10.9362	1	42.9087	-14.7659	7.78025E-006	-0.414623	10
	23	50	7078.05	41.6951	-12.1082	1	43.4177	-16.1932	7.56619E-006	-0.414634	10
	24	52	6311.1	41.9333	-13.3155	1	43.9967	-17.6167	7.52322E-006	-0.414631	10
	25	54	5622.14	42.2018	-14.7947	1	44.7199	-19.3191	7.36806E-006	-0.414618	10
	26	56	5011.18	42.4597	-16.382	1	45.5104	-21.0979	8.20791E-006	-0.414623	10
	27	58	4465.21	42.672	-18.1359	1	46.3661	-23.0258	7.14947E-006	-0.414624	10
	28	60	3980.93	42.9639	-20.0859	1	47.4273	-25.0564	6.679E-006	-0.414601	10
	29	62	3548.18	43.2803	-22.3211	1	48.6972	-27.2816	7.8476E-006	-0.414627	10
	30	64	3162.67	43.672	-24.7563	1	50.2007	-29.5476	7.82696E-006	-0.414627	10
	31	66	2819.01	44.0141	-27.3537	1	51.8215	-31.8599	7.48994E-006	-0.414646	10
	32	68	2511.16	44.3634	-30.458	1	53.8126	-34.4718	7.0724E-006	-0.414612	10
	33	70	2238.63	44.8885	-33.7121	1	56.138	-36.9072	7.52201E-006	-0.414614	10
	34	72	1995.37	45.3006	-37.3904	1	58.7383	-39.5357	6.69888E-006	-0.414618	10
	35	74	1778.51	45.8709	-41.4459	1	61.8215	-42.0989	7.04699E-006	-0.414614	10
	36	76	1584.49	46.5269	-46.0949	1	65.4942	-44.7328	7.19062E-006	-0.414619	10
	37	78	1412.76	47.1585	-51.2984	1	69.6811	-47.4078	7.3237E-006	-0.414626	10
	38	80	1259.04	47.6624	-56.8458	1	74.1832	-50.0218	6.68105E-006	-0.414621	10
	39	82	1121.63	48.509	-63.301	1	79.7505	-52.5362	6.91605E-006	-0.414627	10
	40	84	999.95	49.48	-70.4524	1	86.0919	-54.9189	6.61191E-006	-0.414623	10
	41	86	891.184	50.1628	-77.9587	1	92.7031	-57.2406	6.79106E-006	-0.414617	10
	42	88	794.163	51.3045	-86.5975	1	100.654	-59.3555	7.10937E-006	-0.414614	10
	43	90	707.867	52.1344	-96.486	1	109.67	-61.6163	3.54773E-006	-0.414618	9
	44	92	630.984	53.4519	-107.314	1	119.889	-63.5226	3.30943E-006	-0.414611	9
	45	94	562.189	54.8175	-119.101	1	131.111	-65.2853	3.70918E-006	-0.414618	9
	46	96	501.303	56.4991	-132.631	1	144.164	-66.9267	3.39374E-006	-0.414607	9
	47	98	446.614	58.1189	-147.608	1	158.638	-68.5086	3.48415E-006	-0.414608	9
	48	100	398.209	59.8927	-164.17	1	174.754	-69.957	3.39923E-006	-0.414604	9
	49	102	354.821	61.942	-182.719	1	192.932	-71.2732	3.46981E-006	-0.414613	9
	50	104	316.113	64.1755	-203.39	1	213.274	-72.488	3.17042E-006	-0.41461	9
	51	106	281.926	66.6158	-226.239	1	235.843	-73.593	3.07237E-006	-0.41461	9
	52	108	251.185	69.4156	-251.928	1	261.317	-74.5951	3.21679E-006	-0.414612	9
	53	110	223.946	72.4964	-280.374	1	289.595	-75.5025	3.25048E-006	-0.414607	9
	54	112	199.495	75.9903	-312.256	1	321.37	-76.3225	3.40306E-006	-0.414611	9
	55	114	177.836	79.7973	-347.647	1	356.687	-77.0725	3.25338E-006	-0.414614	9
	56	116	158.533	84.1751	-386.96	1	396.01	-77.7277	3.3757E-006	-0.414619	9
	57	118	141.263	88.9367	-430.965	1	440.046	-78.3398	3.17101E-006	-0.414615	9
	58	120	125.911	94.6672	-480.047	1	489.292	-78.8442	3.40448E-006	-0.414615	9
	59	123	112.198	100.857	-534.724	1	544.152	-79.3186	3.3166E-006	-0.414616	9
	60	125	100.009	107.805	-595.31	1	604.992	-79.7355	3.41922E-006	-0.414618	9
	61	127	89.1164	115.178	-663.279	1	673.205	-80.1489	3.08253E-006	-0.414612	9
	62	129	79.4083	124.046	-738.838	1	749.178	-80.4693	3.05346E-006	-0.41461	9
	63	131	70.788	134.24	-822.854	1	833.732	-80.7344	2.96587E-006	-0.414608	9
	64	133	63.0971	145.595	-916.625	1	928.116	-80.9746	3.02656E-006	-0.41461	9
	65	135	54.5476	161.633	-1050.63	1	1062.99	-81.254	2.83677E-006	-0.414608	9
	66	137	50.0083	172.239	-1138.46	1	1151.41	-81.3969	2.00746E-006	-0.41461	8
	67	139	46.1675	184.587	-1226.48	1	1240.3	-81.4412	2.13695E-006	-0.414607	8
	68	141	40.0059	207.7	-1403.28	1	1418.57	-81.5807	2.08758E-006	-0.414603	8
	69	144	35.3046	230.547	-1577.79	1	1594.55	-81.6868	1.98456E-006	-0.414604	8
	70	146	31.5793	262.76	-1751.62	1	1771.22	-81.4687	2.32711E-006	-0.414603	8
	71	148	28.5748	283	-1923.77	1	1944.48	-81.6314	2.02371E-006	-0.414603	8
	72	150	24.9911	329.539	-2180.18	1	2204.94	-81.4047	2.24176E-006	-0.414613	8
	73	152	22.2195	367.793	-2434.37	1	2462	-81.4085	2.1969E-006	-0.414615	8
	74	155	20.0011	414.947	-2684.91	1	2716.78	-81.2146	2.276E-006	-0.414616	8
	75	157	17.6486	473.206	-3021.47	1	3058.3	-81.099	2.20186E-006	-0.41461	8
	76	159	15.7934	531.664	-3347.9	1	3389.85	-80.9765	1.99565E-006	-0.414612	8
	77	162	14.2828	613.857	-3678.09	1	3728.96	-80.5249	2.02093E-006	-0.414616	8
	78	164	12.5002	704.691	-4174.88	1	4233.93	-80.4192	1.9259E-006	-0.414612	8
	79	166	11.323	798.311	-4575.3	1	4644.42	-80.1025	1.93505E-006	-0.414614	8
	80	169	9.9987	915.341	-5132.44	1	5213.42	-79.8879	1.84097E-006	-0.414614	8
