EXPLAIN
TAG	EISPOT
TITLE	LABEL	Tomato_open	Test &Identifier
DATE	LABEL	5/14/2006	Date
TIME	LABEL	13:12:46	Time
NOTES	NOTES	1	&Notes...
	
PSTAT	PSTAT	300	Potentiostat
VDC	POTEN	1.00000E-001	T	DC &Voltage (V)
FREQINIT	QUANT	1.00000E+005	Initial Fre&q. (Hz)
FREQFINAL	QUANT	1.00000E+001	Final Fre&q. (Hz)
PTSPERDEC	QUANT	2.00000E+001	Points/&decade
VAC	QUANT	1.00000E+001	AC &Voltage (mV rms)
AREA	QUANT	1.00000E+000	&Area (cm²)
DENSITY	QUANT	7.87000E+000	&Density (gm/cm³)
EQUIV	QUANT	7.00000E+000	Equiv. &Wt
CONDIT	TWOPARAM	F	1.50000E+001	0.00000E+000	Conditionin&g	Time(s)	E(V)
DELAY	TWOPARAM	F	6.00000E+002	0.00000E+000	Init. De&lay	Time(s)	Stab.(mV/s)
SPEED	SELECTOR	1	&Optimize for:
ZGUESS	QUANT	1.00000E+002	E&stimated Z (ohms)
OCVCURVE	TABLE	39
	Pt	T	Vf	Vm	Ach	Over
	#	s	V vs. Ref.	V	V	bits
	0	0.258332	-6.09769E-001	3.46976E-006	3.66000E-005	......
	1	0.516663	-6.10770E-001	3.46976E-006	2.36600E-004	......
	2	0.774994	-6.11820E-001	3.46976E-006	-6.34000E-005	......
	3	1.03333	-6.12719E-001	3.46976E-006	2.36600E-004	......
	4	1.29166	-6.13469E-001	3.46976E-006	3.66000E-005	......
	5	1.54999	-6.14370E-001	3.46976E-006	2.36600E-004	......
	6	1.80832	-6.15319E-001	3.46976E-006	3.66000E-005	......
	7	2.06665	-6.16170E-001	3.46976E-006	2.36600E-004	......
	8	2.32498	-6.16719E-001	3.46976E-006	-1.63400E-004	......
	9	2.58332	-6.17369E-001	3.46976E-006	2.36600E-004	......
	10	2.84165	-6.17869E-001	3.46976E-006	-6.34000E-005	......
	11	3.09998	-6.16319E-001	3.46976E-006	2.36600E-004	......
	12	3.35831	-6.14769E-001	3.46976E-006	-6.34000E-005	......
	13	3.61664	-6.14869E-001	3.46976E-006	2.36600E-004	......
	14	3.87497	-6.15919E-001	3.46976E-006	-6.34000E-005	......
	15	4.1333	-6.13769E-001	3.46976E-006	2.36600E-004	......
	16	4.39164	-6.12569E-001	3.46976E-006	-6.34000E-005	......
	17	4.64997	-6.12669E-001	3.46976E-006	3.36600E-004	......
	18	4.9083	-6.13019E-001	3.46976E-006	-6.34000E-005	......
	19	5.16663	-6.13869E-001	3.46976E-006	3.66000E-005	......
	20	5.42496	-6.15269E-001	3.46976E-006	3.66000E-005	......
	21	5.68329	-6.16820E-001	3.46976E-006	2.36600E-004	......
	22	5.94162	-6.17819E-001	3.46976E-006	3.66000E-005	......
	23	6.19996	-6.17069E-001	3.46976E-006	2.36600E-004	......
	24	6.45829	-6.16519E-001	3.46976E-006	3.66000E-005	......
	25	6.71662	-6.17069E-001	3.46976E-006	2.36600E-004	......
	26	6.97495	-6.17869E-001	3.46976E-006	-6.34000E-005	......
	27	7.23328	-6.18519E-001	3.46976E-006	2.36600E-004	......
	28	7.49161	-6.19119E-001	3.46976E-006	-1.63400E-004	......
	29	7.74995	-6.19469E-001	3.46976E-006	3.66000E-005	......
	30	8.00828	-6.20070E-001	3.46976E-006	3.66000E-005	......
	31	8.26661	-6.18270E-001	3.46976E-006	2.36600E-004	......
	32	8.52494	-6.16969E-001	3.46976E-006	3.66000E-005	......
	33	8.78327	-6.16569E-001	3.46976E-006	3.66000E-005	......
	34	9.0416	-6.16619E-001	3.46976E-006	-6.34000E-005	......
	35	9.29993	-6.16719E-001	3.46976E-006	1.36600E-004	......
	36	9.5583	-6.17069E-001	3.46976E-006	3.66000E-005	......
	37	9.8166	-6.15319E-001	3.46976E-006	2.36600E-004	......
	38	10.0749	-6.15319E-001	3.46976E-006	3.66000E-005	......
EOC	QUANT	-0.615319	Open Circuit (V)
PSTATMODEL	IQUANT	32	Pstat Model
PSTATSECTION	LABEL	PStat0	Pstat Section
CTRLMODE	IQUANT	1	Control Mode
IESTAB	IQUANT	0	I/E Stability
CASPEED	IQUANT	1	Control Amp Speed
CONVENTION	IQUANT	1	Current Convention
ICHRANGE	IQUANT	2	Ich Range
ICHRANGEMODE	TOGGLE	F	Ich Auto Range
ICHOFFSETENABLE	TOGGLE	T	Ich Offset Enable
ICHOFFSET	QUANT	0	Ich Offset (V)
ICHFILTER	IQUANT	3	Ich Filter
VCHRANGE	IQUANT	2	Vch Range
VCHRANGEMODE	TOGGLE	F	Vch Auto Range
VCHOFFSETENABLE	TOGGLE	T	Vch Offset Enable
VCHOFFSET	QUANT	0	Vch Offset (V)
VCHFILTER	IQUANT	3	Vch Filter
ACHRANGE	IQUANT	0	Ach Range
IERANGELOWERLIMIT	IQUANT	3	I/E Range Lower Limit
IERANGEMODE	TOGGLE	F	I/E AutoRange
IERANGE	IQUANT	11	I/E Range
POSFEEDENABLE	TOGGLE	F	Positive Feedback IR Comp
POSFEEDRESISTANCE	QUANT	0	Positive Feedback Resistance (ohm)
FC350IDIVISOR	IQUANT	0	FC350 I Divisor
FC350VRANGE	IQUANT	0	FC350 V Range
FRAMEWORKVERSION	QUANT	4.35	Framework Version
ZCURVE	TABLE
	Pt	Time	Freq	Zreal	Zimag	Zsig	Zmod	Zphz	Idc	Vdc	IERange
	#	s	Hz	ohm	ohm	V	ohm	°	A	V	#
	0	4	100007	40.6718	-0.698908	1	40.6778	-0.98448	7.30869E-006	-0.515268	10
	1	6	89134.1	40.5679	-0.83673	1	40.5765	-1.18158	6.52306E-006	-0.515255	10
	2	8	79433.6	40.5015	-1.01075	1	40.5141	-1.42957	7.0565E-006	-0.515287	10
	3	10	70800.8	40.4403	-1.22992	1	40.459	-1.74201	7.75338E-006	-0.51526	10
	4	12	63105.5	40.4027	-1.5108	1	40.4309	-2.1415	8.62509E-006	-0.515281	10
	5	14	56243.5	40.4038	-1.65624	1	40.4377	-2.34737	8.14478E-006	-0.515294	10
	6	16	50123.7	40.3508	-1.9453	1	40.3977	-2.76007	7.62384E-006	-0.515256	10
	7	18	44681	40.3496	-2.21016	1	40.4101	-3.13527	7.26947E-006	-0.515264	10
	8	20	39811.2	40.3665	-2.42499	1	40.4392	-3.43787	1.0212E-005	-0.515284	10
	9	22	35488.3	40.4539	-2.77793	1	40.5491	-3.92829	9.64853E-006	-0.515294	10
	10	24	31634.1	40.4956	-3.11737	1	40.6154	-4.40198	9.93963E-006	-0.515282	10
	11	26	28173.1	40.526	-3.50524	1	40.6773	-4.94342	8.46306E-006	-0.515277	10
	12	28	25123.7	40.5872	-3.93221	1	40.7772	-5.53372	9.14588E-006	-0.515278	10
	13	30	22389.3	40.7048	-4.3406	1	40.9355	-6.08681	7.95431E-006	-0.515285	10
	14	32	19954.4	40.7559	-4.75664	1	41.0326	-6.65689	9.424E-006	-0.515289	10
	15	34	17778.2	40.8619	-5.35441	1	41.2112	-7.46532	8.04947E-006	-0.515276	10
	16	36	15852.9	40.9462	-5.92358	1	41.3724	-8.23172	8.55853E-006	-0.515289	10
	17	38	14122.3	41.077	-6.50684	1	41.5892	-9.00119	7.69103E-006	-0.515274	10
	18	40	12587.2	41.1859	-7.28456	1	41.8251	-10.0302	7.704E-006	-0.515277	10
	19	42	11221.1	41.369	-8.09303	1	42.1532	-11.069	7.24212E-006	-0.515278	10
	20	44	9998.2	41.5426	-8.9037	1	42.486	-12.097	7.82853E-006	-0.515266	10
	21	46	8912.76	41.8023	-9.8201	1	42.9402	-13.2201	7.52775E-006	-0.515275	10
	22	48	7942.6	41.8956	-10.9192	1	43.2952	-14.608	6.93119E-006	-0.515265	10
	23	50	7078.05	42.1205	-12.0483	1	43.8098	-15.9628	7.39713E-006	-0.515283	10
	24	52	6311.1	42.4284	-13.3308	1	44.4734	-17.4424	7.42384E-006	-0.515273	10
	25	54	5622.14	42.6263	-14.7427	1	45.1038	-19.0784	7.17072E-006	-0.515283	10
	26	56	5011.18	42.888	-16.3459	1	45.8974	-20.8633	6.93572E-006	-0.515272	10
	27	58	4465.21	43.1539	-18.1357	1	46.8099	-22.7949	7.05947E-006	-0.515277	10
	28	60	3980.93	43.477	-20.0044	1	47.8583	-24.7078	7.7065E-006	-0.515287	10
	29	61	3548.18	43.7621	-22.1698	1	49.0573	-26.8667	5.67971E-006	-0.515287	10
	30	63	3162.67	44.2044	-24.5934	1	50.5852	-29.0896	7.46724E-006	-0.515284	10
	31	65	2819.01	44.5614	-27.1645	1	52.1884	-31.3664	6.47179E-006	-0.515292	10
	32	67	2511.16	45.01	-30.2252	1	54.2168	-33.8822	6.97071E-006	-0.515277	10
	33	69	2238.63	45.4906	-33.4715	1	56.4777	-36.3452	6.62177E-006	-0.515285	10
	34	71	1995.37	46.0016	-37.076	1	59.0828	-38.8679	6.44765E-006	-0.515274	10
	35	73	1778.51	46.5226	-41.0492	1	62.0435	-41.4235	6.31165E-006	-0.515276	10
	36	75	1584.49	47.0339	-45.7021	1	65.581	-44.1772	6.1684E-006	-0.515272	10
	37	77	1412.76	47.8105	-50.6368	1	69.6414	-46.6445	7.04268E-006	-0.515281	10
	38	79	1259.04	48.4722	-56.0297	1	74.087	-49.1364	6.19598E-006	-0.515272	10
	39	81	1121.63	49.28	-62.3386	1	79.4646	-51.6729	5.89804E-006	-0.515269	10
	40	83	999.95	49.94	-69.2716	1	85.3965	-54.211	5.8781E-006	-0.515266	10
	41	85	891.184	51.1693	-76.7248	1	92.2225	-56.2999	6.0594E-006	-0.515282	10
	42	87	794.163	52.3206	-85.635	1	100.353	-58.5762	5.73626E-006	-0.515274	10
	43	89	707.867	53.1565	-94.9254	1	108.795	-60.752	2.79013E-006	-0.515281	9
	44	91	630.984	54.3878	-105.568	1	118.755	-62.743	2.54729E-006	-0.515272	9
	45	93	562.189	55.7721	-117.472	1	130.039	-64.603	2.59721E-006	-0.515268	9
	46	95	501.303	57.2777	-130.437	1	142.459	-66.2927	2.37762E-006	-0.51527	9
	47	97	446.614	58.8753	-145.108	1	156.597	-67.916	2.44785E-006	-0.515272	9
	48	99	398.209	60.63	-161.368	1	172.382	-69.4075	2.38984E-006	-0.515273	9
	49	101	354.821	62.6032	-179.558	1	190.159	-70.7788	2.44821E-006	-0.515269	9
	50	103	316.113	64.7877	-199.846	1	210.085	-72.0379	2.42602E-006	-0.515269	9
	51	105	281.926	67.1904	-222.271	1	232.205	-73.1804	2.32948E-006	-0.515272	9
	52	108	251.185	69.9207	-247.463	1	257.151	-74.2223	2.39879E-006	-0.515268	9
	53	110	223.946	72.9074	-275.346	1	284.835	-75.1693	2.46088E-006	-0.515263	9
	54	112	199.495	76.2055	-306.688	1	316.014	-76.0458	2.22671E-006	-0.515266	9
	55	114	177.836	79.9682	-341.336	1	350.579	-76.8146	1.98074E-006	-0.515261	9
	56	116	158.533	84.0944	-380.012	1	389.206	-77.5219	2.08945E-006	-0.515255	9
	57	118	141.263	88.801	-423.124	1	432.342	-78.1474	2.04904E-006	-0.515257	9
	58	120	125.911	93.939	-471.245	1	480.517	-78.7263	2.08537E-006	-0.515259	9
	59	122	112.198	99.751	-524.794	1	534.19	-79.2378	2.00857E-006	-0.515257	9
	60	124	100.009	106.198	-584.597	1	594.165	-79.7039	1.95208E-006	-0.515252	9
	61	126	89.1164	114.215	-651.25	1	661.189	-80.0527	2.19327E-006	-0.515259	9
	62	128	79.4083	122.589	-725.585	1	735.868	-80.4103	2.26998E-006	-0.515258	9
	63	130	70.788	132.217	-808.036	1	818.781	-80.7072	2.29152E-006	-0.515255	9
	64	132	63.0971	142.763	-900.417	1	911.665	-80.9906	2.25971E-006	-0.515259	9
	65	134	54.5476	158.419	-1031.68	1	1043.77	-81.2702	2.25201E-006	-0.515256	9
	66	136	50.0083	168.152	-1118.24	1	1130.81	-81.4484	1.36463E-006	-0.515259	8
	67	138	46.1675	177.904	-1205.21	1	1218.27	-81.6031	1.29288E-006	-0.515256	8
	68	141	40.0059	199.329	-1379.02	1	1393.36	-81.7752	1.31402E-006	-0.515263	8
	69	143	35.3046	219.943	-1550.63	1	1566.15	-81.9269	1.23146E-006	-0.515267	8
	70	145	31.5793	242.432	-1722.55	1	1739.52	-81.9888	1.25054E-006	-0.515267	8
	71	147	28.5748	265.62	-1891.7	1	1910.26	-82.0072	1.20646E-006	-0.515267	8
	72	149	24.9911	298.411	-2144.45	1	2165.11	-82.0779	1.16393E-006	-0.515268	8
	73	151	22.2195	335.338	-2394.65	1	2418.01	-82.0283	1.1631E-006	-0.515274	8
	74	154	20.0011	386.165	-2640.44	1	2668.53	-81.6795	1.27883E-006	-0.515269	8
	75	156	17.6486	426.668	-2976.32	1	3006.75	-81.842	1.19691E-006	-0.515272	8
	76	159	15.7934	483.943	-3299.56	1	3334.86	-81.656	1.28085E-006	-0.515272	8
	77	161	14.2828	544.974	-3620.99	1	3661.77	-81.441	1.23298E-006	-0.515262	8
	78	163	12.5002	652.436	-4104.57	1	4156.1	-80.9682	1.3368E-006	-0.515261	8
	79	166	11.323	722.788	-4503.25	1	4560.89	-80.8816	1.28544E-006	-0.515264	8
	80	168	9.9987	853.562	-5062.47	1	5133.92	-80.4296	1.33437E-006	-0.515263	8
