EXPLAIN
TAG	EISPOT
TITLE	LABEL	Tomato_open	Test &Identifier
DATE	LABEL	5/14/2006	Date
TIME	LABEL	13:17:39	Time
NOTES	NOTES	1	&Notes...
	
PSTAT	PSTAT	300	Potentiostat
VDC	POTEN	1.00000E-001	T	DC &Voltage (V)
FREQINIT	QUANT	1.00000E+005	Initial Fre&q. (Hz)
FREQFINAL	QUANT	1.00000E+001	Final Fre&q. (Hz)
PTSPERDEC	QUANT	2.00000E+001	Points/&decade
VAC	QUANT	1.00000E+001	AC &Voltage (mV rms)
AREA	QUANT	1.00000E+000	&Area (cm²)
DENSITY	QUANT	7.87000E+000	&Density (gm/cm³)
EQUIV	QUANT	7.00000E+000	Equiv. &Wt
CONDIT	TWOPARAM	F	1.50000E+001	0.00000E+000	Conditionin&g	Time(s)	E(V)
DELAY	TWOPARAM	F	6.00000E+002	0.00000E+000	Init. De&lay	Time(s)	Stab.(mV/s)
SPEED	SELECTOR	1	&Optimize for:
ZGUESS	QUANT	1.00000E+002	E&stimated Z (ohms)
OCVCURVE	TABLE	39
	Pt	T	Vf	Vm	Ach	Over
	#	s	V vs. Ref.	V	V	bits
	0	0.258332	-5.75369E-001	4.08176E-006	-2.63400E-004	......
	1	0.516663	-5.76169E-001	4.08176E-006	-2.63400E-004	......
	2	0.774994	-5.76670E-001	4.08176E-006	-6.34000E-005	......
	3	1.03333	-5.77019E-001	4.08176E-006	-6.34000E-005	......
	4	1.29166	-5.77219E-001	4.08176E-006	-1.63400E-004	......
	5	1.54999	-5.75819E-001	4.08176E-006	-1.63400E-004	......
	6	1.80832	-5.75119E-001	4.08176E-006	-1.63400E-004	......
	7	2.06665	-5.75069E-001	4.08176E-006	-6.34000E-005	......
	8	2.32498	-5.75269E-001	4.08176E-006	-1.63400E-004	......
	9	2.58332	-5.75469E-001	4.08176E-006	-1.63400E-004	......
	10	2.84165	-5.75619E-001	4.08176E-006	-1.63400E-004	......
	11	3.09998	-5.76019E-001	4.08176E-006	-1.63400E-004	......
	12	3.35831	-5.76769E-001	4.08176E-006	-1.63400E-004	......
	13	3.61664	-5.77169E-001	4.08176E-006	-2.63400E-004	......
	14	3.87497	-5.77269E-001	4.08176E-006	-2.63400E-004	......
	15	4.1333	-5.77519E-001	4.08176E-006	-1.63400E-004	......
	16	4.39164	-5.77769E-001	4.08176E-006	-6.34000E-005	......
	17	4.64997	-5.77819E-001	4.08176E-006	-1.63400E-004	......
	18	4.9083	-5.77169E-001	4.08176E-006	-6.34000E-005	......
	19	5.16663	-5.75669E-001	4.08176E-006	-1.63400E-004	......
	20	5.42496	-5.65120E-001	4.08176E-006	-1.63400E-004	......
	21	5.68329	-5.56019E-001	4.08176E-006	-1.63400E-004	......
	22	5.94162	-5.53219E-001	4.08176E-006	-1.63400E-004	......
	23	6.19996	-5.53169E-001	4.08176E-006	-1.63400E-004	......
	24	6.45829	-5.54819E-001	4.08176E-006	-1.63400E-004	......
	25	6.71662	-5.56969E-001	4.08176E-006	-1.63400E-004	......
	26	6.97495	-5.60169E-001	4.08176E-006	-2.63400E-004	......
	27	7.23328	-5.62069E-001	4.08176E-006	-6.34000E-005	......
	28	7.49161	-5.62869E-001	4.08176E-006	-1.63400E-004	......
	29	7.74995	-5.64119E-001	4.08176E-006	-1.63400E-004	......
	30	8.00828	-5.64569E-001	4.08176E-006	-1.63400E-004	......
	31	8.26661	-5.65669E-001	4.08176E-006	-1.63400E-004	......
	32	8.52494	-5.67019E-001	4.08176E-006	-2.63400E-004	......
	33	8.78327	-5.68269E-001	4.08176E-006	-6.34000E-005	......
	34	9.0416	-5.67369E-001	4.08176E-006	-1.63400E-004	......
	35	9.29993	-5.65969E-001	4.08176E-006	-1.63400E-004	......
	36	9.5583	-5.66170E-001	4.08176E-006	-1.63400E-004	......
	37	9.8166	-5.66170E-001	4.08176E-006	-2.63400E-004	......
	38	10.0749	-5.66869E-001	4.08176E-006	-1.63400E-004	......
EOC	QUANT	-0.566869	Open Circuit (V)
PSTATMODEL	IQUANT	32	Pstat Model
PSTATSECTION	LABEL	PStat0	Pstat Section
CTRLMODE	IQUANT	1	Control Mode
IESTAB	IQUANT	0	I/E Stability
CASPEED	IQUANT	1	Control Amp Speed
CONVENTION	IQUANT	1	Current Convention
ICHRANGE	IQUANT	2	Ich Range
ICHRANGEMODE	TOGGLE	F	Ich Auto Range
ICHOFFSETENABLE	TOGGLE	T	Ich Offset Enable
ICHOFFSET	QUANT	0	Ich Offset (V)
ICHFILTER	IQUANT	3	Ich Filter
VCHRANGE	IQUANT	2	Vch Range
VCHRANGEMODE	TOGGLE	F	Vch Auto Range
VCHOFFSETENABLE	TOGGLE	T	Vch Offset Enable
VCHOFFSET	QUANT	0	Vch Offset (V)
VCHFILTER	IQUANT	3	Vch Filter
ACHRANGE	IQUANT	0	Ach Range
IERANGELOWERLIMIT	IQUANT	3	I/E Range Lower Limit
IERANGEMODE	TOGGLE	F	I/E AutoRange
IERANGE	IQUANT	11	I/E Range
POSFEEDENABLE	TOGGLE	F	Positive Feedback IR Comp
POSFEEDRESISTANCE	QUANT	0	Positive Feedback Resistance (ohm)
FC350IDIVISOR	IQUANT	0	FC350 I Divisor
FC350VRANGE	IQUANT	0	FC350 V Range
FRAMEWORKVERSION	QUANT	4.35	Framework Version
ZCURVE	TABLE
	Pt	Time	Freq	Zreal	Zimag	Zsig	Zmod	Zphz	Idc	Vdc	IERange
	#	s	Hz	ohm	ohm	V	ohm	°	A	V	#
	0	4	100007	40.4868	-0.710365	1	40.4931	-1.00518	8.35806E-006	-0.466714	10
	1	6	89134.1	40.3957	-0.833694	1	40.4043	-1.18231	5.92463E-006	-0.466684	10
	2	8	79433.6	40.3316	-1.0034	1	40.3441	-1.42516	6.25415E-006	-0.466685	10
	3	10	70800.8	40.2838	-1.23334	1	40.3027	-1.75364	7.65306E-006	-0.466712	10
	4	12	63105.5	40.2591	-1.51185	1	40.2875	-2.15062	6.22588E-006	-0.466701	10
	5	14	56243.5	40.2419	-1.66277	1	40.2763	-2.36607	6.95291E-006	-0.466694	10
	6	16	50123.7	40.2207	-1.93189	1	40.2671	-2.74994	7.29994E-006	-0.466686	10
	7	18	44681	40.2699	-2.24488	1	40.3324	-3.1907	7.47244E-006	-0.466688	10
	8	20	39811.2	40.215	-2.57331	1	40.2973	-3.6613	8.71509E-006	-0.46672	10
	9	22	35488.3	40.3132	-2.7982	1	40.4102	-3.97062	7.47931E-006	-0.466684	10
	10	24	31634.1	40.3372	-3.12787	1	40.4583	-4.43402	9.31197E-006	-0.466728	10
	11	26	28173.1	40.3826	-3.52875	1	40.5364	-4.99399	8.38306E-006	-0.466715	10
	12	28	25123.7	40.4719	-3.88519	1	40.6579	-5.48344	8.06963E-006	-0.466711	10
	13	30	22389.3	40.5523	-4.32933	1	40.7828	-6.09377	8.059E-006	-0.466694	10
	14	32	19954.4	40.6141	-4.76316	1	40.8925	-6.689	8.1551E-006	-0.466687	10
	15	34	17778.2	40.7403	-5.34841	1	41.0899	-7.47905	8.47275E-006	-0.466711	10
	16	36	15852.9	40.8435	-5.95384	1	41.2751	-8.29371	8.75181E-006	-0.466711	10
	17	38	14122.3	40.9746	-6.53698	1	41.4928	-9.06443	8.55416E-006	-0.466707	10
	18	40	12587.2	41.1079	-7.30758	1	41.7523	-10.0799	8.89228E-006	-0.466715	10
	19	42	11221.1	41.2227	-8.0556	1	42.0024	-11.0572	8.73978E-006	-0.466706	10
	20	44	9998.2	41.4043	-8.91378	1	42.3529	-12.1496	8.47228E-006	-0.466706	10
	21	46	8912.76	41.6002	-9.8202	1	42.7436	-13.2821	8.85119E-006	-0.46673	10
	22	48	7942.6	41.7764	-10.9067	1	43.1767	-14.6318	8.37744E-006	-0.466717	10
	23	50	7078.05	41.9139	-12.0767	1	43.6191	-16.0734	8.50416E-006	-0.466709	10
	24	52	6311.1	42.1509	-13.363	1	44.2184	-17.5901	8.56259E-006	-0.466709	10
	25	54	5622.14	42.4281	-14.8104	1	44.9388	-19.2425	8.3515E-006	-0.466712	10
	26	56	5011.18	42.6337	-16.3541	1	45.6628	-20.9866	8.04853E-006	-0.466704	10
	27	58	4465.21	42.9654	-18.1217	1	46.6306	-22.8688	7.78181E-006	-0.466696	10
	28	60	3980.93	43.3025	-20.104	1	47.7418	-24.904	-1.07562E-006	-0.466683	11
	29	62	3548.18	43.5841	-22.2353	1	48.9283	-27.0293	8.62376E-006	-0.466706	10
	30	64	3162.67	43.9219	-24.6012	1	50.3424	-29.2537	5.75449E-006	-0.466683	10
	31	66	2819.01	44.2848	-27.2753	1	52.0104	-31.6292	6.07049E-006	-0.466678	10
	32	68	2511.16	44.7217	-30.2902	1	54.0141	-34.11	7.21066E-006	-0.466701	10
	33	70	2238.63	45.1569	-33.4654	1	56.2057	-36.5418	7.1636E-006	-0.466701	10
	34	72	1995.37	45.718	-37.1647	1	58.9182	-39.108	7.27302E-006	-0.466709	10
	35	74	1778.51	46.2298	-41.3423	1	62.0192	-41.8056	7.42896E-006	-0.466707	10
	36	76	1584.49	46.9328	-45.8924	1	65.6414	-44.3579	7.13226E-006	-0.466702	10
	37	78	1412.76	47.5762	-50.7846	1	69.5886	-46.8682	6.36457E-006	-0.466681	10
	38	80	1259.04	48.2587	-56.3902	1	74.221	-49.4431	6.78809E-006	-0.466698	10
	39	82	1121.63	49.1101	-62.6827	1	79.6299	-51.9223	6.80504E-006	-0.466692	10
	40	84	999.95	49.8077	-69.6849	1	85.655	-54.4445	6.90801E-006	-0.46669	10
	41	86	891.184	50.842	-77.4582	1	92.6536	-56.7199	7.01526E-006	-0.466701	10
	42	88	794.163	51.8036	-85.9228	1	100.331	-58.9139	6.75424E-006	-0.466708	10
	43	90	707.867	53.0108	-95.423	1	109.159	-60.9464	3.51407E-006	-0.4667	9
	44	92	630.984	54.0692	-106.274	1	119.238	-63.0342	3.14778E-006	-0.466696	9
	45	94	562.189	55.4817	-118.389	1	130.745	-64.8904	3.01478E-006	-0.466691	9
	46	96	501.303	56.9759	-131.265	1	143.097	-66.5366	3.56545E-006	-0.466706	9
	47	98	446.614	58.5957	-146.054	1	157.37	-68.1398	3.39942E-006	-0.466704	9
	48	100	398.209	60.3561	-162.407	1	173.259	-69.6131	3.34595E-006	-0.466699	9
	49	102	354.821	62.3292	-180.746	1	191.191	-70.9735	3.29243E-006	-0.466697	9
	50	104	316.113	64.5443	-201.209	1	211.308	-72.2147	3.30462E-006	-0.46669	9
	51	106	281.926	66.9855	-223.813	1	233.622	-73.338	3.26159E-006	-0.466693	9
	52	109	251.185	69.7474	-249.166	1	258.743	-74.3618	3.21474E-006	-0.466688	9
	53	111	223.946	72.8148	-277.315	1	286.715	-75.2879	3.18063E-006	-0.466693	9
	54	113	199.495	76.1459	-308.836	1	318.085	-76.1495	2.82381E-006	-0.466696	9
	55	115	177.836	79.8622	-343.786	1	352.94	-76.922	2.75365E-006	-0.466693	9
	56	117	158.533	84.0678	-382.736	1	391.86	-77.6117	2.85434E-006	-0.466697	9
	57	119	141.263	88.9124	-426.362	1	435.534	-78.2205	2.80123E-006	-0.466692	9
	58	121	125.911	94.1209	-474.683	1	483.924	-78.7848	2.59345E-006	-0.466692	9
	59	123	112.198	100.262	-528.849	1	538.269	-79.265	2.68845E-006	-0.466695	9
	60	125	100.009	107.318	-589.008	1	598.705	-79.6739	2.82396E-006	-0.466697	9
	61	127	89.1164	115.349	-656.231	1	666.291	-80.0307	2.85727E-006	-0.466693	9
	62	129	79.4083	123.821	-731.1	1	741.511	-80.3875	2.77039E-006	-0.466699	9
	63	131	70.788	134.243	-814.115	1	825.109	-80.6365	2.96155E-006	-0.466694	9
	64	133	63.0971	145.814	-906.578	1	918.229	-80.8628	2.91514E-006	-0.466699	9
	65	135	54.5476	162.611	-1039.54	1	1052.18	-81.1095	2.75733E-006	-0.466697	9
	66	137	50.0083	173.163	-1126.18	1	1139.41	-81.2586	1.97617E-006	-0.466702	8
	67	139	46.1675	185.194	-1213.92	1	1227.97	-81.3259	2.04343E-006	-0.466702	8
	68	142	40.0059	209.187	-1388.79	1	1404.45	-81.4342	2.09715E-006	-0.466704	8
	69	144	35.3046	233.287	-1560.38	1	1577.73	-81.4969	2.03444E-006	-0.466708	8
	70	146	31.5793	262.314	-1733.83	1	1753.56	-81.3969	2.11868E-006	-0.466702	8
	71	148	28.5748	286.15	-1904.26	1	1925.64	-81.4542	2.02444E-006	-0.466703	8
	72	150	24.9911	325.877	-2157.39	1	2181.86	-81.4103	1.96131E-006	-0.466707	8
	73	152	22.2195	376.037	-2408.61	1	2437.79	-81.1265	2.17309E-006	-0.466713	8
	74	155	20.0011	432.964	-2653.96	1	2689.05	-80.7345	2.17867E-006	-0.466711	8
	75	157	17.6486	494.121	-2987.91	1	3028.49	-80.6098	2.20899E-006	-0.466713	8
	76	160	15.7934	577.786	-3297.35	1	3347.59	-80.0611	2.54068E-006	-0.466719	8
	77	162	14.2828	649.955	-3624.34	1	3682.15	-79.8332	2.50787E-006	-0.466719	8
	78	164	12.5002	796.264	-4095.8	1	4172.49	-78.9984	2.48151E-006	-0.466719	8
	79	167	11.323	865.145	-4500.12	1	4582.53	-79.1177	2.24667E-006	-0.466713	8
	80	169	9.9987	1065.22	-5008.36	1	5120.39	-77.9927	2.39729E-006	-0.466711	8
