EXPLAIN
TAG	EISPOT
TITLE	LABEL	Tomato_open	Test &Identifier
DATE	LABEL	5/14/2006	Date
TIME	LABEL	13:07:45	Time
NOTES	NOTES	1	&Notes...
	
PSTAT	PSTAT	300	Potentiostat
VDC	POTEN	1.00000E-001	T	DC &Voltage (V)
FREQINIT	QUANT	1.00000E+005	Initial Fre&q. (Hz)
FREQFINAL	QUANT	1.00000E+001	Final Fre&q. (Hz)
PTSPERDEC	QUANT	2.00000E+001	Points/&decade
VAC	QUANT	1.00000E+001	AC &Voltage (mV rms)
AREA	QUANT	1.00000E+000	&Area (cm²)
DENSITY	QUANT	7.87000E+000	&Density (gm/cm³)
EQUIV	QUANT	7.00000E+000	Equiv. &Wt
CONDIT	TWOPARAM	F	1.50000E+001	0.00000E+000	Conditionin&g	Time(s)	E(V)
DELAY	TWOPARAM	F	6.00000E+002	0.00000E+000	Init. De&lay	Time(s)	Stab.(mV/s)
SPEED	SELECTOR	1	&Optimize for:
ZGUESS	QUANT	1.00000E+002	E&stimated Z (ohms)
OCVCURVE	TABLE	39
	Pt	T	Vf	Vm	Ach	Over
	#	s	V vs. Ref.	V	V	bits
	0	0.258332	-6.88119E-001	3.67674E-006	2.36600E-004	......
	1	0.516663	-6.87669E-001	3.67674E-006	3.66000E-005	......
	2	0.774994	-6.94669E-001	3.67674E-006	2.36600E-004	......
	3	1.03333	-6.96519E-001	3.67674E-006	1.36600E-004	......
	4	1.29166	-6.92369E-001	3.67674E-006	1.36600E-004	......
	5	1.54999	-6.92620E-001	3.67674E-006	-6.34000E-005	......
	6	1.80832	-6.91719E-001	3.67674E-006	1.36600E-004	......
	7	2.06665	-6.91969E-001	3.67674E-006	-6.34000E-005	......
	8	2.32498	-6.90219E-001	3.67674E-006	2.36600E-004	......
	9	2.58332	-6.90369E-001	3.67674E-006	3.66000E-005	......
	10	2.84165	-6.89919E-001	3.67674E-006	3.36600E-004	......
	11	3.09998	-6.91619E-001	3.67674E-006	3.66000E-005	......
	12	3.35831	-6.90519E-001	3.67674E-006	3.66000E-005	......
	13	3.61664	-6.92269E-001	3.67674E-006	3.66000E-005	......
	14	3.87497	-6.93419E-001	3.67674E-006	2.36600E-004	......
	15	4.1333	-6.94269E-001	3.67674E-006	-6.34000E-005	......
	16	4.39164	-6.95619E-001	3.67674E-006	3.66000E-005	......
	17	4.64997	-6.97819E-001	3.67674E-006	3.66000E-005	......
	18	4.9083	-7.00069E-001	3.67674E-006	3.36600E-004	......
	19	5.16663	-7.01719E-001	3.67674E-006	3.66000E-005	......
	20	5.42496	-7.01119E-001	3.67674E-006	3.66000E-005	......
	21	5.68329	-7.01819E-001	3.67674E-006	-6.34000E-005	......
	22	5.94162	-7.02219E-001	3.67674E-006	2.36600E-004	......
	23	6.19996	-7.01919E-001	3.67674E-006	-6.34000E-005	......
	24	6.45829	-7.00869E-001	3.67674E-006	3.66000E-005	......
	25	6.71662	-7.00870E-001	3.67674E-006	-6.34000E-005	......
	26	6.97495	-7.00919E-001	3.67674E-006	2.36600E-004	......
	27	7.23328	-7.02469E-001	3.67674E-006	-6.34000E-005	......
	28	7.49161	-7.05069E-001	3.67674E-006	2.36600E-004	......
	29	7.74995	-7.04820E-001	3.67674E-006	-6.34000E-005	......
	30	8.00828	-7.05469E-001	3.67674E-006	3.66000E-005	......
	31	8.26661	-7.03619E-001	3.67674E-006	-6.34000E-005	......
	32	8.52494	-7.02020E-001	3.67674E-006	1.36600E-004	......
	33	8.78327	-6.98519E-001	3.67674E-006	3.66000E-005	......
	34	9.0416	-6.95120E-001	3.67674E-006	2.36600E-004	......
	35	9.29993	-6.92519E-001	3.67674E-006	-6.34000E-005	......
	36	9.5583	-6.90369E-001	3.67674E-006	2.36600E-004	......
	37	9.8166	-6.88869E-001	3.67674E-006	3.66000E-005	......
	38	10.0749	-6.87519E-001	3.67674E-006	3.36600E-004	......
EOC	QUANT	-0.687519	Open Circuit (V)
PSTATMODEL	IQUANT	32	Pstat Model
PSTATSECTION	LABEL	PStat0	Pstat Section
CTRLMODE	IQUANT	1	Control Mode
IESTAB	IQUANT	0	I/E Stability
CASPEED	IQUANT	1	Control Amp Speed
CONVENTION	IQUANT	1	Current Convention
ICHRANGE	IQUANT	2	Ich Range
ICHRANGEMODE	TOGGLE	F	Ich Auto Range
ICHOFFSETENABLE	TOGGLE	T	Ich Offset Enable
ICHOFFSET	QUANT	0	Ich Offset (V)
ICHFILTER	IQUANT	3	Ich Filter
VCHRANGE	IQUANT	2	Vch Range
VCHRANGEMODE	TOGGLE	F	Vch Auto Range
VCHOFFSETENABLE	TOGGLE	T	Vch Offset Enable
VCHOFFSET	QUANT	0	Vch Offset (V)
VCHFILTER	IQUANT	3	Vch Filter
ACHRANGE	IQUANT	0	Ach Range
IERANGELOWERLIMIT	IQUANT	3	I/E Range Lower Limit
IERANGEMODE	TOGGLE	F	I/E AutoRange
IERANGE	IQUANT	11	I/E Range
POSFEEDENABLE	TOGGLE	F	Positive Feedback IR Comp
POSFEEDRESISTANCE	QUANT	0	Positive Feedback Resistance (ohm)
FC350IDIVISOR	IQUANT	0	FC350 I Divisor
FC350VRANGE	IQUANT	0	FC350 V Range
FRAMEWORKVERSION	QUANT	4.35	Framework Version
ZCURVE	TABLE
	Pt	Time	Freq	Zreal	Zimag	Zsig	Zmod	Zphz	Idc	Vdc	IERange
	#	s	Hz	ohm	ohm	V	ohm	°	A	V	#
	0	4	100007	40.8205	-0.698816	1	40.8265	-0.98076	7.07978E-006	-0.587503	10
	1	6	89134.1	40.6627	-0.863744	1	40.6719	-1.21688	7.25056E-006	-0.58753	10
	2	8	79433.6	40.5881	-1.03581	1	40.6013	-1.46187	8.65119E-006	-0.587547	10
	3	10	70800.8	40.5639	-1.27586	1	40.5839	-1.80153	7.42713E-006	-0.587524	10
	4	12	63105.5	40.4868	-1.46306	1	40.5132	-2.06959	9.19463E-006	-0.587528	10
	5	14	56243.5	40.535	-1.65485	1	40.5688	-2.33782	9.21275E-006	-0.587552	10
	6	16	50123.7	40.4721	-1.9863	1	40.5208	-2.80973	7.06228E-006	-0.587527	10
	7	18	44681	40.4815	-2.21381	1	40.542	-3.13022	7.78744E-006	-0.587522	10
	8	20	39811.2	40.6468	-2.55342	1	40.7269	-3.59458	6.91978E-006	-0.587545	10
	9	22	35488.3	40.6003	-2.84172	1	40.6996	-4.00374	7.07869E-006	-0.587527	10
	10	24	31634.1	40.5981	-3.13004	1	40.7185	-4.40869	5.919E-006	-0.587514	10
	11	26	28173.1	40.6984	-3.53374	1	40.8515	-4.9624	7.19306E-006	-0.587535	10
	12	28	25123.7	40.8265	-3.9156	1	41.0138	-5.47838	5.76884E-006	-0.587509	10
	13	30	22389.3	40.8577	-4.37489	1	41.0912	-6.11173	5.864E-006	-0.587511	10
	14	32	19954.4	40.8844	-4.86996	1	41.1735	-6.7928	5.16541E-006	-0.587512	10
	15	34	17778.2	41.0581	-5.35896	1	41.4064	-7.43629	6.57572E-006	-0.587531	10
	16	36	15852.9	41.1615	-5.96007	1	41.5907	-8.23902	6.89384E-006	-0.587543	10
	17	38	14122.3	41.381	-6.57751	1	41.9005	-9.0316	6.19494E-006	-0.587525	10
	18	40	12587.2	41.5083	-7.31268	1	42.1475	-9.9915	5.97119E-006	-0.58753	10
	19	42	11221.1	41.5348	-8.02226	1	42.3024	-10.9318	5.80181E-006	-0.587527	10
	20	44	9998.2	41.7917	-8.94569	1	42.7384	-12.0821	5.57791E-006	-0.587532	10
	21	46	8912.76	41.9725	-9.8511	1	43.1131	-13.2084	6.49228E-006	-0.587543	10
	22	48	7942.6	42.1339	-10.913	1	43.5242	-14.521	5.46931E-006	-0.587524	10
	23	50	7078.05	42.3856	-12.042	1	44.063	-15.8602	5.04853E-006	-0.587525	10
	24	52	6311.1	42.5836	-13.3261	1	44.62	-17.3769	5.04838E-006	-0.58754	10
	25	54	5622.14	42.8471	-14.8577	1	45.35	-19.1246	4.80447E-006	-0.587527	10
	26	56	5011.18	43.1422	-16.3689	1	46.1431	-20.7776	5.09744E-006	-0.58752	10
	27	58	4465.21	43.4099	-18.1054	1	47.0343	-22.64	5.274E-006	-0.587512	10
	28	60	3980.93	43.7316	-20.0084	1	48.0915	-24.5854	6.27916E-006	-0.587536	10
	29	62	3548.18	44.0861	-22.0934	1	49.3123	-26.6174	5.8815E-006	-0.587527	10
	30	64	3162.67	44.573	-24.4342	1	50.8309	-28.7308	4.68754E-006	-0.58752	10
	31	66	2819.01	44.9236	-27.0725	1	52.4504	-31.0746	5.30013E-006	-0.587506	10
	32	68	2511.16	45.2809	-30.04	1	54.3393	-33.5609	5.76727E-006	-0.587525	10
	33	70	2238.63	45.933	-33.3438	1	56.7596	-35.9767	5.15998E-006	-0.587502	10
	34	72	1995.37	46.3382	-36.817	1	59.1837	-38.4681	5.22612E-006	-0.587504	10
	35	74	1778.51	46.9365	-40.7933	1	62.1862	-40.9944	5.25671E-006	-0.58751	10
	36	76	1584.49	47.4435	-45.31	1	65.604	-43.6824	5.12529E-006	-0.587495	10
	37	78	1412.76	48.2026	-50.3812	1	69.7263	-46.266	6.08248E-006	-0.587514	10
	38	80	1259.04	49.0182	-55.7376	1	74.2258	-48.6701	5.01973E-006	-0.587504	10
	39	82	1121.63	49.7433	-61.8424	1	79.3655	-51.1884	5.20868E-006	-0.587506	10
	40	84	999.95	50.5073	-68.8145	1	85.3605	-53.7227	5.1271E-006	-0.587512	10
	41	86	891.184	51.5931	-76.1535	1	91.9847	-55.8828	5.0568E-006	-0.587513	10
	42	88	794.163	52.5181	-84.554	1	99.537	-58.1548	5.20076E-006	-0.587508	10
	43	90	707.867	53.848	-93.906	1	108.249	-60.169	5.58896E-006	-0.587516	10
	44	92	630.984	55.3233	-104.451	1	118.197	-62.0917	2.04362E-006	-0.587506	9
	45	94	562.189	56.4834	-115.937	1	128.964	-64.025	1.7201E-006	-0.587521	9
	46	96	501.303	57.9126	-128.939	1	141.348	-65.8129	1.7271E-006	-0.587511	9
	47	98	446.614	59.5234	-143.395	1	155.258	-67.4566	1.86626E-006	-0.587511	9
	48	100	398.209	61.3049	-159.406	1	170.788	-68.964	1.93249E-006	-0.587511	9
	49	102	354.821	63.3285	-177.34	1	188.308	-70.3483	2.02985E-006	-0.587515	9
	50	104	316.113	65.4875	-197.321	1	207.905	-71.6399	1.78004E-006	-0.587519	9
	51	106	281.926	67.9218	-219.4	1	229.673	-72.7985	1.92356E-006	-0.587517	9
	52	108	251.185	70.6528	-244.214	1	254.229	-73.8645	1.86368E-006	-0.587516	9
	53	110	223.946	73.6631	-271.706	1	281.514	-74.831	1.92206E-006	-0.587512	9
	54	112	199.495	77.121	-302.547	1	312.221	-75.6995	2.06367E-006	-0.587509	9
	55	114	177.836	80.7189	-336.714	1	346.254	-76.5191	1.87442E-006	-0.587511	9
	56	116	158.533	84.8351	-374.746	1	384.228	-77.2444	1.73977E-006	-0.587514	9
	57	118	141.263	89.5721	-417.366	1	426.87	-77.8873	1.79634E-006	-0.587508	9
	58	120	125.911	94.6223	-464.64	1	474.177	-78.4893	1.73699E-006	-0.587506	9
	59	122	112.198	100.484	-517.508	1	527.173	-79.0117	1.6936E-006	-0.587509	9
	60	124	100.009	106.818	-576.46	1	586.273	-79.5022	1.54876E-006	-0.587509	9
	61	126	89.1164	113.645	-642.235	1	652.213	-79.9652	1.43359E-006	-0.587507	9
	62	128	79.4083	121.136	-715.613	1	725.793	-80.3923	1.24216E-006	-0.587511	9
	63	130	70.788	129.868	-796.893	1	807.406	-80.744	1.12798E-006	-0.587511	9
	64	132	63.0971	139.91	-887.534	1	898.494	-81.0417	1.13784E-006	-0.587516	9
	65	134	54.5476	153.768	-1018.18	1	1029.73	-81.412	1.06483E-006	-0.587513	9
	66	137	50.0083	162.828	-1103.69	1	1115.64	-81.6077	4.41535E-007	-0.58751	8
	67	139	46.1675	172.488	-1190.35	1	1202.79	-81.755	4.11052E-007	-0.587508	8
	68	141	40.0059	191.139	-1361.35	1	1374.7	-82.0077	3.43946E-007	-0.587511	8
	69	143	35.3046	211.517	-1531.04	1	1545.58	-82.1342	4.43332E-007	-0.58751	8
	70	145	31.5793	232.659	-1699.51	1	1715.36	-82.2048	4.9046E-007	-0.587511	8
	71	147	28.5748	255.038	-1869.06	1	1886.38	-82.2298	5.14241E-007	-0.587514	8
	72	149	24.9911	287.479	-2118.48	1	2137.9	-82.2721	5.75095E-007	-0.587513	8
	73	152	22.2195	321.587	-2370.36	1	2392.07	-82.2738	6.23449E-007	-0.587511	8
	74	154	20.0011	359.147	-2614.34	1	2638.9	-82.1779	6.83309E-007	-0.587513	8
	75	157	17.6486	404.316	-2941	1	2968.66	-82.1723	6.43632E-007	-0.587506	8
	76	159	15.7934	461.392	-3264.04	1	3296.49	-81.9542	7.19567E-007	-0.587508	8
	77	161	14.2828	508.415	-3585.59	1	3621.45	-81.9296	6.00765E-007	-0.587513	8
	78	163	12.5002	591.855	-4067.7	1	4110.53	-81.7215	6.2359E-007	-0.58751	8
	79	166	11.323	659.28	-4472.08	1	4520.42	-81.6138	6.19156E-007	-0.587513	8
	80	169	9.9987	752.277	-5014.86	1	5070.97	-81.4687	6.09965E-007	-0.587511	8
