EXPLAIN
TAG	EISPOT
TITLE	LABEL	Tomato_open	Test &Identifier
DATE	LABEL	5/14/2006	Date
TIME	LABEL	13:22:45	Time
NOTES	NOTES	1	&Notes...
	
PSTAT	PSTAT	300	Potentiostat
VDC	POTEN	1.00000E-001	T	DC &Voltage (V)
FREQINIT	QUANT	1.00000E+005	Initial Fre&q. (Hz)
FREQFINAL	QUANT	1.00000E+001	Final Fre&q. (Hz)
PTSPERDEC	QUANT	2.00000E+001	Points/&decade
VAC	QUANT	1.00000E+001	AC &Voltage (mV rms)
AREA	QUANT	1.00000E+000	&Area (cm²)
DENSITY	QUANT	7.87000E+000	&Density (gm/cm³)
EQUIV	QUANT	7.00000E+000	Equiv. &Wt
CONDIT	TWOPARAM	F	1.50000E+001	0.00000E+000	Conditionin&g	Time(s)	E(V)
DELAY	TWOPARAM	F	6.00000E+002	0.00000E+000	Init. De&lay	Time(s)	Stab.(mV/s)
SPEED	SELECTOR	1	&Optimize for:
ZGUESS	QUANT	1.00000E+002	E&stimated Z (ohms)
OCVCURVE	TABLE	39
	Pt	T	Vf	Vm	Ach	Over
	#	s	V vs. Ref.	V	V	bits
	0	0.258332	-5.25419E-001	5.07776E-006	3.36600E-004	......
	1	0.516663	-5.26919E-001	5.07776E-006	3.66000E-005	......
	2	0.774994	-5.26069E-001	5.07776E-006	1.36600E-004	......
	3	1.03333	-5.26819E-001	5.07776E-006	-6.34000E-005	......
	4	1.29166	-5.26370E-001	5.07776E-006	2.36600E-004	......
	5	1.54999	-5.26169E-001	5.07776E-006	3.66000E-005	......
	6	1.80832	-5.26969E-001	5.07776E-006	2.36600E-004	......
	7	2.06665	-5.28569E-001	5.07776E-006	3.66000E-005	......
	8	2.32498	-5.29620E-001	5.07776E-006	3.36600E-004	......
	9	2.58332	-5.29920E-001	5.07776E-006	3.66000E-005	......
	10	2.84165	-5.31569E-001	5.07776E-006	2.36600E-004	......
	11	3.09998	-5.31869E-001	5.07776E-006	3.66000E-005	......
	12	3.35831	-5.33269E-001	5.07776E-006	1.36600E-004	......
	13	3.61664	-5.32319E-001	5.07776E-006	3.66000E-005	......
	14	3.87497	-5.34069E-001	5.07776E-006	1.36600E-004	......
	15	4.1333	-5.33870E-001	5.07776E-006	3.66000E-005	......
	16	4.39164	-5.35269E-001	5.07776E-006	2.36600E-004	......
	17	4.64997	-5.35469E-001	5.07776E-006	-6.34000E-005	......
	18	4.9083	-5.36269E-001	5.07776E-006	3.36600E-004	......
	19	5.16663	-5.36070E-001	5.07776E-006	-6.34000E-005	......
	20	5.42496	-5.36120E-001	5.07776E-006	2.36600E-004	......
	21	5.68329	-5.37019E-001	5.07776E-006	3.66000E-005	......
	22	5.94162	-5.37019E-001	5.07776E-006	2.36600E-004	......
	23	6.19996	-5.37569E-001	5.07776E-006	-6.34000E-005	......
	24	6.45829	-5.37519E-001	5.07776E-006	2.36600E-004	......
	25	6.71662	-5.38319E-001	5.07776E-006	3.66000E-005	......
	26	6.97495	-5.38220E-001	5.07776E-006	2.36600E-004	......
	27	7.23328	-5.39369E-001	5.07776E-006	3.66000E-005	......
	28	7.49161	-5.40419E-001	5.07776E-006	2.36600E-004	......
	29	7.74995	-5.40469E-001	5.07776E-006	3.66000E-005	......
	30	8.00828	-5.41169E-001	5.07776E-006	2.36600E-004	......
	31	8.26661	-5.41019E-001	5.07776E-006	3.66000E-005	......
	32	8.52494	-5.42369E-001	5.07776E-006	2.36600E-004	......
	33	8.78327	-5.42719E-001	5.07776E-006	-6.34000E-005	......
	34	9.0416	-5.41269E-001	5.07776E-006	1.36600E-004	......
	35	9.29993	-5.41019E-001	5.07776E-006	3.66000E-005	......
	36	9.5583	-5.39519E-001	5.07776E-006	2.36600E-004	......
	37	9.8166	-5.39219E-001	5.07776E-006	3.66000E-005	......
	38	10.0749	-5.38819E-001	5.07776E-006	1.36600E-004	......
EOC	QUANT	-0.538819	Open Circuit (V)
PSTATMODEL	IQUANT	32	Pstat Model
PSTATSECTION	LABEL	PStat0	Pstat Section
CTRLMODE	IQUANT	1	Control Mode
IESTAB	IQUANT	0	I/E Stability
CASPEED	IQUANT	1	Control Amp Speed
CONVENTION	IQUANT	1	Current Convention
ICHRANGE	IQUANT	2	Ich Range
ICHRANGEMODE	TOGGLE	F	Ich Auto Range
ICHOFFSETENABLE	TOGGLE	T	Ich Offset Enable
ICHOFFSET	QUANT	0	Ich Offset (V)
ICHFILTER	IQUANT	3	Ich Filter
VCHRANGE	IQUANT	2	Vch Range
VCHRANGEMODE	TOGGLE	F	Vch Auto Range
VCHOFFSETENABLE	TOGGLE	T	Vch Offset Enable
VCHOFFSET	QUANT	0	Vch Offset (V)
VCHFILTER	IQUANT	3	Vch Filter
ACHRANGE	IQUANT	0	Ach Range
IERANGELOWERLIMIT	IQUANT	3	I/E Range Lower Limit
IERANGEMODE	TOGGLE	F	I/E AutoRange
IERANGE	IQUANT	11	I/E Range
POSFEEDENABLE	TOGGLE	F	Positive Feedback IR Comp
POSFEEDRESISTANCE	QUANT	0	Positive Feedback Resistance (ohm)
FC350IDIVISOR	IQUANT	0	FC350 I Divisor
FC350VRANGE	IQUANT	0	FC350 V Range
FRAMEWORKVERSION	QUANT	4.35	Framework Version
ZCURVE	TABLE
	Pt	Time	Freq	Zreal	Zimag	Zsig	Zmod	Zphz	Idc	Vdc	IERange
	#	s	Hz	ohm	ohm	V	ohm	°	A	V	#
	0	4	100007	40.4712	-0.631241	1	40.4761	-0.893587	5.00775E-006	-0.438553	10
	1	6	89134.1	40.2811	-0.791653	1	40.2888	-1.1259	8.4965E-006	-0.4386	10
	2	8	79433.6	40.204	-1.08088	1	40.2186	-1.54002	7.02228E-006	-0.43857	10
	3	10	70800.8	40.1816	-1.22347	1	40.2002	-1.74403	1.08934E-005	-0.438591	10
	4	12	63105.5	40.0914	-1.50672	1	40.1198	-2.15228	9.97556E-006	-0.438588	10
	5	14	56243.5	40.1027	-1.63933	1	40.1362	-2.34085	9.21447E-006	-0.438581	10
	6	16	50123.7	40.147	-1.95848	1	40.1948	-2.79283	9.48947E-006	-0.438565	10
	7	18	44681	40.0993	-2.17999	1	40.1585	-3.11182	9.14838E-006	-0.438576	10
	8	20	39811.2	40.0542	-2.42501	1	40.1276	-3.46464	9.05556E-006	-0.43859	10
	9	22	35488.3	40.1545	-2.77117	1	40.25	-3.94787	9.83759E-006	-0.438586	10
	10	24	31634.1	40.2447	-3.10437	1	40.3643	-4.4109	8.60885E-006	-0.438582	10
	11	26	28173.1	40.3054	-3.49158	1	40.4564	-4.95106	9.41588E-006	-0.438573	10
	12	28	25123.7	40.3211	-3.94536	1	40.5136	-5.58852	8.87322E-006	-0.43856	10
	13	30	22389.3	40.4205	-4.33692	1	40.6525	-6.12413	8.90353E-006	-0.438591	10
	14	32	19954.4	40.5194	-4.77615	1	40.7999	-6.72262	8.95666E-006	-0.438572	10
	15	34	17778.2	40.6551	-5.29429	1	40.9984	-7.41956	9.08588E-006	-0.438584	10
	16	36	15852.9	40.676	-5.87913	1	41.0987	-8.22432	8.32181E-006	-0.438585	10
	17	38	14122.3	40.8617	-6.51808	1	41.3783	-9.06323	8.59103E-006	-0.438568	10
	18	40	12587.2	40.9839	-7.29182	1	41.6275	-10.0885	7.969E-006	-0.438583	10
	19	42	11221.1	41.0427	-8.03383	1	41.8216	-11.0752	7.84322E-006	-0.438585	10
	20	44	9998.2	41.2639	-8.97266	1	42.2281	-12.2678	7.91025E-006	-0.438585	10
	21	46	8912.76	41.4249	-9.8345	1	42.5763	-13.3551	7.2101E-006	-0.438579	10
	22	48	7942.6	41.6332	-10.9464	1	43.0482	-14.731	8.50431E-006	-0.438591	10
	23	50	7078.05	41.8227	-12.0535	1	43.525	-16.0773	7.96884E-006	-0.438596	10
	24	52	6311.1	42.0053	-13.3933	1	44.0888	-17.6848	7.29525E-006	-0.438599	10
	25	54	5622.14	42.2564	-14.7303	1	44.7502	-19.2182	7.29603E-006	-0.438594	10
	26	56	5011.18	42.5152	-16.3287	1	45.543	-21.0101	6.97759E-006	-0.43859	10
	27	58	4465.21	42.8469	-18.1022	1	46.5139	-22.9034	6.71963E-006	-0.438587	10
	28	60	3980.93	43.091	-20.1061	1	47.5509	-25.0135	6.54509E-006	-0.438568	10
	29	62	3548.18	43.3711	-22.335	1	48.7842	-27.2473	6.56666E-006	-0.438578	10
	30	64	3162.67	43.7477	-24.6854	1	50.2318	-29.4346	7.27051E-006	-0.438597	10
	31	66	2819.01	44.1665	-27.3387	1	51.9431	-31.7571	6.47088E-006	-0.43858	10
	32	68	2511.16	44.5917	-30.3515	1	53.941	-34.2412	6.89449E-006	-0.4386	10
	33	70	2238.63	44.9795	-33.6563	1	56.1774	-36.806	6.81248E-006	-0.438608	10
	34	72	1995.37	45.4564	-37.3342	1	58.8228	-39.3969	6.81898E-006	-0.438596	10
	35	74	1778.51	46.0335	-41.359	1	61.8842	-41.9383	7.16857E-006	-0.438604	10
	36	76	1584.49	46.5091	-45.9615	1	65.3878	-44.6607	6.86205E-006	-0.438592	10
	37	78	1412.76	47.2246	-51.0001	1	69.5066	-47.2013	8.24374E-006	-0.43862	10
	38	80	1259.04	48.0497	-56.7252	1	74.3406	-49.7334	5.91682E-006	-0.438603	10
	39	82	1121.63	48.5683	-62.8396	1	79.421	-52.2998	6.68549E-006	-0.438602	10
	40	84	999.95	49.5127	-69.9744	1	85.72	-54.7175	6.46516E-006	-0.438601	10
	41	86	891.184	50.3824	-77.6463	1	92.5599	-57.0216	6.69856E-006	-0.438605	10
	42	88	794.163	51.4291	-86.7086	1	100.813	-59.3268	6.41895E-006	-0.438614	10
	43	90	707.867	52.697	-95.853	1	109.383	-61.1993	2.92212E-006	-0.438603	9
	44	92	630.984	53.5644	-106.69	1	119.381	-63.3407	2.9899E-006	-0.43859	9
	45	94	562.189	55.2689	-119.038	1	131.242	-65.0947	2.94848E-006	-0.438589	9
	46	96	501.303	56.6696	-132.017	1	143.666	-66.7682	3.05245E-006	-0.438596	9
	47	98	446.614	58.2771	-146.914	1	158.05	-68.363	3.00153E-006	-0.438596	9
	48	100	398.209	60.0549	-163.399	1	174.086	-69.8199	3.09656E-006	-0.438587	9
	49	102	354.821	62.0569	-181.844	1	192.142	-71.1571	3.17292E-006	-0.438592	9
	50	104	316.113	64.2806	-202.467	1	212.426	-72.3861	3.37371E-006	-0.438587	9
	51	106	281.926	66.7095	-225.21	1	234.882	-73.5001	3.13306E-006	-0.438589	9
	52	108	251.185	69.4313	-250.749	1	260.184	-74.5228	3.00935E-006	-0.438594	9
	53	110	223.946	72.5028	-279.044	1	288.309	-75.4351	3.07176E-006	-0.438598	9
	54	112	199.495	75.9236	-310.781	1	319.92	-76.2716	2.84988E-006	-0.438591	9
	55	114	177.836	79.6635	-345.925	1	354.98	-77.0314	2.77931E-006	-0.438595	9
	56	116	158.533	83.9899	-385.141	1	394.193	-77.6978	2.95379E-006	-0.438597	9
	57	118	141.263	88.7832	-428.94	1	438.032	-78.3059	3.15256E-006	-0.438595	9
	58	120	125.911	94.0239	-477.628	1	486.795	-78.8634	2.88637E-006	-0.4386	9
	59	122	112.198	100.248	-532.196	1	541.556	-79.3324	2.91154E-006	-0.438608	9
	60	124	100.009	107.046	-592.557	1	602.148	-79.7599	2.92726E-006	-0.438596	9
	61	126	89.1164	114.706	-660.162	1	670.053	-80.1431	2.97765E-006	-0.438594	9
	62	128	79.4083	123.18	-735.321	1	745.567	-80.4902	2.77128E-006	-0.438595	9
	63	130	70.788	132.983	-818.898	1	829.625	-80.7761	2.85833E-006	-0.438598	9
	64	132	63.0971	144.667	-912.046	1	923.448	-80.987	2.98812E-006	-0.438597	9
	65	135	54.5476	161.413	-1045.77	1	1058.16	-81.2257	2.89663E-006	-0.438594	9
	66	137	50.0083	172.223	-1133.56	1	1146.57	-81.3611	2.0508E-006	-0.4386	8
	67	139	46.1675	182.322	-1221.76	1	1235.29	-81.5124	2.04866E-006	-0.438595	8
	68	141	40.0059	204.75	-1397.55	1	1412.47	-81.6651	1.88867E-006	-0.438592	8
	69	143	35.3046	229.203	-1571.26	1	1587.89	-81.7007	1.94774E-006	-0.43859	8
	70	145	31.5793	257.734	-1746.13	1	1765.05	-81.6036	2.03064E-006	-0.438584	8
	71	147	28.5748	285.365	-1916.88	1	1938.01	-81.5326	2.18188E-006	-0.43859	8
	72	150	24.9911	332.348	-2171.35	1	2196.63	-81.2978	2.43952E-006	-0.438597	8
	73	152	22.2195	378.06	-2424.42	1	2453.72	-81.1368	2.37689E-006	-0.438593	8
	74	154	20.0011	430.895	-2673.88	1	2708.38	-80.8455	2.54181E-006	-0.438594	8
	75	157	17.6486	481.794	-3006.42	1	3044.78	-80.8955	2.15982E-006	-0.43859	8
	76	159	15.7934	542.394	-3341.74	1	3385.47	-80.7808	2.12836E-006	-0.43859	8
	77	161	14.2828	606.711	-3659.8	1	3709.75	-80.5873	2.06623E-006	-0.438593	8
	78	163	12.5002	722.032	-4146.71	1	4209.1	-80.1226	2.07384E-006	-0.438595	8
	79	166	11.323	794.915	-4548.35	1	4617.29	-80.0865	2.02453E-006	-0.43859	8
	80	169	9.9987	946.789	-5102.22	1	5189.32	-79.4875	2.00542E-006	-0.438596	8
