EXPLAIN
TAG	EISPOT
TITLE	LABEL	Tomato_open	Test &Identifier
DATE	LABEL	5/15/2006	Date
TIME	LABEL	17:29:23	Time
NOTES	NOTES	1	&Notes...
	
PSTAT	PSTAT	300	Potentiostat
VDC	POTEN	1.00000E-001	T	DC &Voltage (V)
FREQINIT	QUANT	1.00000E+005	Initial Fre&q. (Hz)
FREQFINAL	QUANT	1.00000E+001	Final Fre&q. (Hz)
PTSPERDEC	QUANT	2.00000E+001	Points/&decade
VAC	QUANT	1.00000E+001	AC &Voltage (mV rms)
AREA	QUANT	1.00000E+000	&Area (cm²)
DENSITY	QUANT	7.87000E+000	&Density (gm/cm³)
EQUIV	QUANT	7.00000E+000	Equiv. &Wt
CONDIT	TWOPARAM	F	1.50000E+001	0.00000E+000	Conditionin&g	Time(s)	E(V)
DELAY	TWOPARAM	F	6.00000E+002	0.00000E+000	Init. De&lay	Time(s)	Stab.(mV/s)
SPEED	SELECTOR	1	&Optimize for:
ZGUESS	QUANT	1.00000E+002	E&stimated Z (ohms)
OCVCURVE	TABLE	39
	Pt	T	Vf	Vm	Ach	Over
	#	s	V vs. Ref.	V	V	bits
	0	0.258332	-6.49719E-001	1.15834E-006	2.36600E-004	......
	1	0.516663	-6.49570E-001	1.15834E-006	2.36600E-004	......
	2	0.774994	-6.51420E-001	1.15834E-006	2.36600E-004	......
	3	1.03333	-6.50270E-001	1.15834E-006	1.36600E-004	......
	4	1.29166	-6.51969E-001	1.15834E-006	2.36600E-004	......
	5	1.54999	-6.53319E-001	1.15834E-006	1.36600E-004	......
	6	1.80832	-6.42119E-001	1.15834E-006	2.36600E-004	......
	7	2.06665	-5.92719E-001	1.15834E-006	1.36600E-004	......
	8	2.32498	-5.80319E-001	1.15834E-006	2.36600E-004	......
	9	2.58332	-5.82019E-001	1.15834E-006	2.36600E-004	......
	10	2.84165	-5.78820E-001	1.15834E-006	2.36600E-004	......
	11	3.09998	-5.88519E-001	1.15834E-006	2.36600E-004	......
	12	3.35831	-6.05819E-001	1.15834E-006	3.36600E-004	......
	13	3.61664	-6.08119E-001	1.15834E-006	2.36600E-004	......
	14	3.87497	-5.98769E-001	1.15834E-006	1.36600E-004	......
	15	4.1333	-5.70269E-001	1.15834E-006	2.36600E-004	......
	16	4.39164	-6.01669E-001	1.15834E-006	3.36600E-004	......
	17	4.64997	-6.24519E-001	1.15834E-006	2.36600E-004	......
	18	4.9083	-6.28819E-001	1.15834E-006	2.36600E-004	......
	19	5.16663	-6.29919E-001	1.15834E-006	1.36600E-004	......
	20	5.42496	-6.26619E-001	1.15834E-006	2.36600E-004	......
	21	5.68329	-6.10720E-001	1.15834E-006	2.36600E-004	......
	22	5.94162	-6.10720E-001	1.15834E-006	2.36600E-004	......
	23	6.19996	-6.08419E-001	1.15834E-006	1.36600E-004	......
	24	6.45829	-6.07019E-001	1.15834E-006	2.36600E-004	......
	25	6.71662	-5.97569E-001	1.15834E-006	3.66000E-005	......
	26	6.97495	-5.96770E-001	1.15834E-006	3.36600E-004	......
	27	7.23328	-5.88219E-001	1.15834E-006	1.36600E-004	......
	28	7.49161	-5.75870E-001	1.15834E-006	3.66000E-005	......
	29	7.74995	-5.61019E-001	1.15834E-006	2.36600E-004	......
	30	8.00828	-5.54669E-001	1.15834E-006	3.66000E-005	......
	31	8.26661	-5.50169E-001	1.15834E-006	2.36600E-004	......
	32	8.52494	-5.43419E-001	1.15834E-006	2.36600E-004	......
	33	8.78327	-5.34119E-001	1.15834E-006	2.36600E-004	......
	34	9.0416	-5.29469E-001	1.15834E-006	2.36600E-004	......
	35	9.29993	-5.28019E-001	1.15834E-006	2.36600E-004	......
	36	9.5583	-5.26119E-001	1.15834E-006	1.36600E-004	......
	37	9.8166	-5.25369E-001	1.15834E-006	2.36600E-004	......
	38	10.0749	-5.27470E-001	1.15834E-006	2.36600E-004	......
EOC	QUANT	-0.52747	Open Circuit (V)
PSTATMODEL	IQUANT	32	Pstat Model
PSTATSECTION	LABEL	PStat0	Pstat Section
CTRLMODE	IQUANT	1	Control Mode
IESTAB	IQUANT	0	I/E Stability
CASPEED	IQUANT	1	Control Amp Speed
CONVENTION	IQUANT	1	Current Convention
ICHRANGE	IQUANT	2	Ich Range
ICHRANGEMODE	TOGGLE	F	Ich Auto Range
ICHOFFSETENABLE	TOGGLE	T	Ich Offset Enable
ICHOFFSET	QUANT	0	Ich Offset (V)
ICHFILTER	IQUANT	3	Ich Filter
VCHRANGE	IQUANT	2	Vch Range
VCHRANGEMODE	TOGGLE	F	Vch Auto Range
VCHOFFSETENABLE	TOGGLE	T	Vch Offset Enable
VCHOFFSET	QUANT	0	Vch Offset (V)
VCHFILTER	IQUANT	3	Vch Filter
ACHRANGE	IQUANT	0	Ach Range
IERANGELOWERLIMIT	IQUANT	3	I/E Range Lower Limit
IERANGEMODE	TOGGLE	F	I/E AutoRange
IERANGE	IQUANT	11	I/E Range
POSFEEDENABLE	TOGGLE	F	Positive Feedback IR Comp
POSFEEDRESISTANCE	QUANT	0	Positive Feedback Resistance (ohm)
FC350IDIVISOR	IQUANT	0	FC350 I Divisor
FC350VRANGE	IQUANT	0	FC350 V Range
FRAMEWORKVERSION	QUANT	4.35	Framework Version
ZCURVE	TABLE
	Pt	Time	Freq	Zreal	Zimag	Zsig	Zmod	Zphz	Idc	Vdc	IERange
	#	s	Hz	ohm	ohm	V	ohm	°	A	V	#
	0	4	100007	44.3686	-0.881995	1	44.3773	-1.13882	3.18356E-005	-0.427482	10
	1	6	89134.1	44.2043	-1.10306	1	44.2181	-1.42945	2.91556E-005	-0.427467	10
	2	8	79433.6	44.0707	-1.31088	1	44.0902	-1.70376	2.78329E-005	-0.427469	10
	3	10	70800.8	44.0419	-1.56844	1	44.0699	-2.03958	2.56413E-005	-0.427493	10
	4	12	63105.5	43.9616	-1.83546	1	43.9999	-2.39079	2.47951E-005	-0.4275	10
	5	14	56243.5	43.9961	-2.01444	1	44.0422	-2.62156	2.18377E-005	-0.427463	10
	6	16	50123.7	43.9562	-2.31366	1	44.0171	-3.01301	1.68217E-005	-0.427495	10
	7	18	44681	43.959	-2.63628	1	44.038	-3.43199	1.21453E-005	-0.427462	10
	8	20	39811.2	43.9464	-2.96627	1	44.0464	-3.86147	1.36876E-005	-0.42746	10
	9	22	35488.3	44.0498	-3.38603	1	44.1797	-4.39558	9.08525E-006	-0.427468	10
	10	24	31634.1	44.1189	-3.76198	1	44.279	-4.87377	6.74619E-006	-0.427463	10
	11	26	28173.1	44.1415	-4.21602	1	44.3424	-5.45586	9.00431E-006	-0.427481	10
	12	28	25123.7	44.2114	-4.75719	1	44.4666	-6.14146	9.91322E-006	-0.42747	10
	13	30	22389.3	44.2767	-5.28042	1	44.5904	-6.80094	9.63666E-006	-0.427482	10
	14	32	19954.4	44.4634	-5.86546	1	44.8486	-7.51486	1.20693E-005	-0.427497	10
	15	34	17778.2	44.4716	-6.57176	1	44.9546	-8.40601	9.7015E-006	-0.427477	10
	16	36	15852.9	44.6541	-7.17821	1	45.2273	-9.13226	9.65791E-006	-0.427473	10
	17	38	14122.3	44.8594	-7.97661	1	45.5631	-10.0826	8.06447E-006	-0.42748	10
	18	40	12587.2	44.9724	-8.87377	1	45.8395	-11.162	7.64666E-006	-0.427472	10
	19	42	11221.1	45.1517	-9.8298	1	46.2093	-12.282	6.43322E-006	-0.427477	10
	20	44	9998.2	45.3149	-10.8482	1	46.5953	-13.463	6.56228E-006	-0.427484	10
	21	46	8912.76	45.7642	-12.1259	1	47.3434	-14.8403	4.68634E-006	-0.427476	10
	22	47	7942.6	45.8189	-13.3378	1	47.7207	-16.2302	5.27619E-006	-0.427484	10
	23	49	7078.05	46.1539	-14.7875	1	48.4649	-17.7652	5.06416E-006	-0.427479	10
	24	51	6311.1	46.3664	-16.4463	1	49.1968	-19.5298	6.15826E-006	-0.427481	10
	25	53	5622.14	46.6738	-18.1229	1	50.0688	-21.2206	4.7071E-006	-0.427495	10
	26	55	5011.18	47.0485	-20.0634	1	51.1479	-23.0954	4.84916E-006	-0.427496	10
	27	57	4465.21	47.4516	-22.1748	1	52.3773	-25.0474	4.90598E-006	-0.427487	10
	28	59	3980.93	47.7189	-24.5215	1	53.6507	-27.1975	7.3181E-006	-0.427485	10
	29	61	3548.18	48.3024	-27.1214	1	55.3957	-29.3138	7.74485E-006	-0.427475	10
	30	63	3162.67	48.7301	-30.0868	1	57.2699	-31.6919	5.03438E-006	-0.427465	10
	31	65	2819.01	49.1803	-33.3398	1	59.4158	-34.1337	8.5321E-006	-0.427469	10
	32	67	2511.16	49.8516	-36.8565	1	61.9967	-36.4764	8.84765E-006	-0.427481	10
	33	69	2238.63	50.5221	-40.7582	1	64.9131	-38.8945	9.01124E-006	-0.427477	10
	34	71	1995.37	51.0906	-45.2026	1	68.2167	-41.5009	8.15618E-006	-0.42749	10
	35	73	1778.51	51.8108	-50.2106	1	72.1489	-44.1014	7.41226E-006	-0.427487	10
	36	75	1584.49	52.5487	-55.5726	1	76.4832	-46.602	7.96054E-006	-0.427489	10
	37	77	1412.76	53.32	-61.7572	1	81.5903	-49.1933	4.84723E-006	-0.427482	10
	38	79	1259.04	54.2535	-68.3669	1	87.2781	-51.5658	6.31098E-006	-0.427473	10
	39	81	1121.63	55.1519	-76.0357	1	93.9317	-54.045	6.31555E-006	-0.42748	10
	40	83	999.95	56.2108	-84.5299	1	101.513	-56.3768	6.08568E-006	-0.427489	10
	41	85	891.184	57.1138	-93.7046	1	109.739	-58.6373	2.13924E-006	-0.427479	9
	42	87	794.163	58.5975	-104.061	1	119.425	-60.6158	1.79207E-006	-0.427476	9
	43	89	707.867	60.0785	-115.441	1	130.139	-62.5064	2.10349E-006	-0.427477	9
	44	91	630.984	61.6906	-128.371	1	142.425	-64.3327	2.67946E-006	-0.427482	9
	45	93	562.189	63.2665	-142.82	1	156.206	-66.1076	3.09865E-006	-0.427482	9
	46	95	501.303	65.3641	-158.713	1	171.645	-67.6162	2.76506E-006	-0.427482	9
	47	97	446.614	67.4694	-176.56	1	189.012	-69.0865	2.65337E-006	-0.427496	9
	48	99	398.209	69.81	-196.241	1	208.288	-70.4177	2.72026E-006	-0.427493	9
	49	101	354.821	72.4226	-218.32	1	230.019	-71.6479	2.35556E-006	-0.427498	9
	50	103	316.113	75.2527	-242.914	1	254.303	-72.7874	1.75799E-006	-0.427495	9
	51	105	281.926	78.467	-270.064	1	281.232	-73.7988	1.61381E-006	-0.427498	9
	52	107	251.185	82.3662	-300.549	1	311.631	-74.6742	2.43134E-006	-0.42749	9
	53	109	223.946	86.866	-334.268	1	345.37	-75.4328	3.15745E-006	-0.427487	9
	54	111	199.495	91.8255	-372.054	1	383.218	-76.1361	3.26381E-006	-0.427492	9
	55	113	177.836	97.167	-413.861	1	425.114	-76.7874	3.34534E-006	-0.427491	9
	56	115	158.533	103.176	-460.317	1	471.738	-77.3664	3.34831E-006	-0.427495	9
	57	117	141.263	110.107	-512.446	1	524.141	-77.8735	3.2699E-006	-0.427496	9
	58	119	125.911	118.017	-569.966	1	582.056	-78.3016	3.36393E-006	-0.427494	9
	59	121	112.198	126.398	-634.499	1	646.966	-78.7336	3.06178E-006	-0.427485	9
	60	123	100.009	136.018	-705.968	1	718.952	-79.0945	2.95017E-006	-0.427492	9
	61	125	89.1164	147.315	-785.56	1	799.253	-79.3788	2.83889E-006	-0.427497	9
	62	127	79.4083	161.142	-874.134	1	888.863	-79.5551	3.0171E-006	-0.427495	9
	63	129	70.788	176.523	-972.44	1	988.33	-79.7114	3.11971E-006	-0.427494	9
	64	131	63.0971	192.582	-1082.21	1	1099.22	-79.9097	2.91262E-006	-0.427492	9
	65	133	54.5476	218.14	-1238.47	1	1257.54	-80.0106	2.29839E-006	-0.427494	8
	66	135	50.0083	232.144	-1341.93	1	1361.86	-80.1854	1.97201E-006	-0.427501	8
	67	138	46.1675	251.935	-1445.31	1	1467.1	-80.112	2.02661E-006	-0.427498	8
	68	140	40.0059	287.348	-1649.37	1	1674.21	-80.1173	2.10026E-006	-0.427499	8
	69	142	35.3046	321.127	-1852.13	1	1879.76	-80.1637	1.94912E-006	-0.427495	8
	70	144	31.5793	357.598	-2054.04	1	2084.94	-80.1241	1.73254E-006	-0.427491	8
	71	146	28.5748	406.884	-2252.16	1	2288.62	-79.7592	1.92379E-006	-0.427487	8
	72	148	24.9911	464.997	-2547.71	1	2589.8	-79.6565	1.83043E-006	-0.427492	8
	73	151	22.2195	525.33	-2834.83	1	2883.1	-79.5015	1.97637E-006	-0.427494	8
	74	153	20.0011	606.319	-3118.51	1	3176.91	-78.9975	2.15894E-006	-0.427496	8
	75	155	17.6486	711.188	-3500.97	1	3572.48	-78.5172	2.00699E-006	-0.427487	8
	76	158	15.7934	799.388	-3866.84	1	3948.61	-78.3198	1.94953E-006	-0.427488	8
	77	160	14.2828	921.44	-4248.03	1	4346.81	-77.7616	2.03997E-006	-0.427481	8
	78	162	12.5002	1121.32	-4772.98	1	4902.93	-76.7793	2.32217E-006	-0.427475	8
	79	165	11.323	1277.12	-5216.07	1	5370.14	-76.2422	2.13806E-006	-0.427484	8
	80	167	9.9987	1477.68	-5825.56	1	6010.05	-75.7669	1.83525E-006	-0.427483	8
