EXPLAIN
TAG	EISPOT
TITLE	LABEL	Tomato_open	Test &Identifier
DATE	LABEL	5/15/2006	Date
TIME	LABEL	17:44:25	Time
NOTES	NOTES	1	&Notes...
	
PSTAT	PSTAT	300	Potentiostat
VDC	POTEN	1.00000E-001	T	DC &Voltage (V)
FREQINIT	QUANT	1.00000E+005	Initial Fre&q. (Hz)
FREQFINAL	QUANT	1.00000E+001	Final Fre&q. (Hz)
PTSPERDEC	QUANT	2.00000E+001	Points/&decade
VAC	QUANT	1.00000E+001	AC &Voltage (mV rms)
AREA	QUANT	1.00000E+000	&Area (cm²)
DENSITY	QUANT	7.87000E+000	&Density (gm/cm³)
EQUIV	QUANT	7.00000E+000	Equiv. &Wt
CONDIT	TWOPARAM	F	1.50000E+001	0.00000E+000	Conditionin&g	Time(s)	E(V)
DELAY	TWOPARAM	F	6.00000E+002	0.00000E+000	Init. De&lay	Time(s)	Stab.(mV/s)
SPEED	SELECTOR	1	&Optimize for:
ZGUESS	QUANT	1.00000E+002	E&stimated Z (ohms)
OCVCURVE	TABLE	39
	Pt	T	Vf	Vm	Ach	Over
	#	s	V vs. Ref.	V	V	bits
	0	0.258332	-5.09969E-001	4.49634E-006	-6.34000E-005	......
	1	0.516663	-5.08269E-001	4.49634E-006	-6.34000E-005	......
	2	0.774994	-5.08919E-001	4.49634E-006	-6.34000E-005	......
	3	1.03333	-5.10870E-001	4.49634E-006	3.66000E-005	......
	4	1.29166	-5.11819E-001	4.49634E-006	-1.63400E-004	......
	5	1.54999	-5.13370E-001	4.49634E-006	3.66000E-005	......
	6	1.80832	-5.15869E-001	4.49634E-006	-1.63400E-004	......
	7	2.06665	-5.18070E-001	4.49634E-006	3.66000E-005	......
	8	2.32498	-5.17919E-001	4.49634E-006	-1.63400E-004	......
	9	2.58332	-5.20119E-001	4.49634E-006	1.36600E-004	......
	10	2.84165	-5.19919E-001	4.49634E-006	-1.63400E-004	......
	11	3.09998	-5.18070E-001	4.49634E-006	3.66000E-005	......
	12	3.35831	-5.20269E-001	4.49634E-006	-6.34000E-005	......
	13	3.61664	-5.20069E-001	4.49634E-006	3.66000E-005	......
	14	3.87497	-5.20069E-001	4.49634E-006	-2.63400E-004	......
	15	4.1333	-5.15970E-001	4.49634E-006	1.36600E-004	......
	16	4.39164	-5.12019E-001	4.49634E-006	-2.63400E-004	......
	17	4.64997	-5.11270E-001	4.49634E-006	3.66000E-005	......
	18	4.9083	-5.12420E-001	4.49634E-006	-1.63400E-004	......
	19	5.16663	-5.09919E-001	4.49634E-006	3.66000E-005	......
	20	5.42496	-5.08619E-001	4.49634E-006	-1.63400E-004	......
	21	5.68329	-5.12169E-001	4.49634E-006	3.66000E-005	......
	22	5.94162	-5.13020E-001	4.49634E-006	-1.63400E-004	......
	23	6.19996	-5.15970E-001	4.49634E-006	3.66000E-005	......
	24	6.45829	-5.15619E-001	4.49634E-006	-6.34000E-005	......
	25	6.71662	-5.02019E-001	4.49634E-006	3.66000E-005	......
	26	6.97495	-5.02169E-001	4.49634E-006	-1.63400E-004	......
	27	7.23328	-5.09519E-001	4.49634E-006	3.66000E-005	......
	28	7.49161	-5.04669E-001	4.49634E-006	-1.63400E-004	......
	29	7.74995	-5.04169E-001	4.49634E-006	3.66000E-005	......
	30	8.00828	-5.09369E-001	4.49634E-006	-1.63400E-004	......
	31	8.26661	-5.07819E-001	4.49634E-006	3.66000E-005	......
	32	8.52494	-5.06419E-001	4.49634E-006	-6.34000E-005	......
	33	8.78327	-5.08420E-001	4.49634E-006	2.36600E-004	......
	34	9.0416	-4.99869E-001	4.49634E-006	-1.63400E-004	......
	35	9.29993	-4.99119E-001	4.49634E-006	3.66000E-005	......
	36	9.5583	-5.09269E-001	4.49634E-006	-1.63400E-004	......
	37	9.8166	-5.05819E-001	4.49634E-006	1.36600E-004	......
	38	10.0749	-5.09169E-001	4.49634E-006	-1.63400E-004	......
EOC	QUANT	-0.509169	Open Circuit (V)
PSTATMODEL	IQUANT	32	Pstat Model
PSTATSECTION	LABEL	PStat0	Pstat Section
CTRLMODE	IQUANT	1	Control Mode
IESTAB	IQUANT	0	I/E Stability
CASPEED	IQUANT	1	Control Amp Speed
CONVENTION	IQUANT	1	Current Convention
ICHRANGE	IQUANT	2	Ich Range
ICHRANGEMODE	TOGGLE	F	Ich Auto Range
ICHOFFSETENABLE	TOGGLE	T	Ich Offset Enable
ICHOFFSET	QUANT	0	Ich Offset (V)
ICHFILTER	IQUANT	3	Ich Filter
VCHRANGE	IQUANT	2	Vch Range
VCHRANGEMODE	TOGGLE	F	Vch Auto Range
VCHOFFSETENABLE	TOGGLE	T	Vch Offset Enable
VCHOFFSET	QUANT	0	Vch Offset (V)
VCHFILTER	IQUANT	3	Vch Filter
ACHRANGE	IQUANT	0	Ach Range
IERANGELOWERLIMIT	IQUANT	3	I/E Range Lower Limit
IERANGEMODE	TOGGLE	F	I/E AutoRange
IERANGE	IQUANT	11	I/E Range
POSFEEDENABLE	TOGGLE	F	Positive Feedback IR Comp
POSFEEDRESISTANCE	QUANT	0	Positive Feedback Resistance (ohm)
FC350IDIVISOR	IQUANT	0	FC350 I Divisor
FC350VRANGE	IQUANT	0	FC350 V Range
FRAMEWORKVERSION	QUANT	4.35	Framework Version
ZCURVE	TABLE
	Pt	Time	Freq	Zreal	Zimag	Zsig	Zmod	Zphz	Idc	Vdc	IERange
	#	s	Hz	ohm	ohm	V	ohm	°	A	V	#
	0	4	100007	43.9389	-0.809405	1	43.9463	-1.05534	7.46025E-006	-0.409196	10
	1	6	89134.1	43.7837	-1.05599	1	43.7964	-1.38161	9.26728E-006	-0.409207	10
	2	8	79433.6	43.7065	-1.3876	1	43.7285	-1.81842	1.02206E-005	-0.409206	10
	3	10	70800.8	43.6274	-1.56865	1	43.6556	-2.05921	1.12304E-005	-0.409227	10
	4	12	63105.5	43.616	-1.81196	1	43.6536	-2.37889	1.05734E-005	-0.40922	10
	5	14	56243.5	43.6539	-2.03628	1	43.7013	-2.67068	1.15593E-005	-0.409202	10
	6	16	50123.7	43.5339	-2.37334	1	43.5986	-3.12051	1.18734E-005	-0.409202	10
	7	18	44681	43.6179	-2.68687	1	43.7005	-3.52497	1.07617E-005	-0.409193	10
	8	20	39811.2	43.66	-3.03214	1	43.7651	-3.97276	1.12268E-005	-0.409222	10
	9	22	35488.3	43.6521	-3.4014	1	43.7844	-4.45553	1.08613E-005	-0.409219	10
	10	24	31634.1	43.6938	-3.78505	1	43.8574	-4.95098	1.05242E-005	-0.409217	10
	11	26	28173.1	43.7806	-4.24118	1	43.9855	-5.53318	9.01103E-006	-0.4092	10
	12	28	25123.7	43.8617	-4.81209	1	44.1249	-6.26091	7.61978E-006	-0.40919	10
	13	30	22389.3	43.9082	-5.30171	1	44.2271	-6.88487	9.5015E-006	-0.409214	10
	14	32	19954.4	44.0694	-5.86714	1	44.4582	-7.58344	9.31728E-006	-0.409189	10
	15	34	17778.2	44.1551	-6.55484	1	44.639	-8.44391	8.18791E-006	-0.40919	10
	16	36	15852.9	44.2992	-7.26222	1	44.8905	-9.31002	9.25619E-006	-0.40921	10
	17	38	14122.3	44.4184	-8.1057	1	45.152	-10.3418	8.29291E-006	-0.409199	10
	18	39	12587.2	44.5628	-8.94884	1	45.4525	-11.3548	8.01213E-006	-0.409199	10
	19	41	11221.1	44.7649	-9.8601	1	45.838	-12.4219	7.8726E-006	-0.409197	10
	20	43	9998.2	44.9812	-10.9168	1	46.2869	-13.6418	7.42338E-006	-0.4092	10
	21	45	8912.76	45.2452	-12.0906	1	46.8328	-14.9613	8.39103E-006	-0.409181	10
	22	47	7942.6	45.4316	-13.489	1	47.3918	-16.5366	1.86882E-007	-0.409199	11
	23	50	7078.05	45.684	-14.8764	1	48.0451	-18.0372	7.69838E-006	-0.409197	10
	24	51	6311.1	45.9113	-16.4358	1	48.7645	-19.6968	7.47132E-006	-0.409206	10
	25	53	5622.14	46.3082	-18.2855	1	49.7876	-21.5474	7.70474E-006	-0.4092	10
	26	55	5011.18	46.6267	-20.1422	1	50.7913	-23.3638	8.03009E-006	-0.409211	10
	27	58	4465.21	46.9297	-22.3344	1	51.9733	-25.4504	7.33251E-006	-0.409201	10
	28	60	3980.93	47.4297	-24.7304	1	53.4899	-27.5381	7.48638E-006	-0.409215	10
	29	62	3548.18	47.8537	-27.1723	1	55.0301	-29.5888	8.78621E-006	-0.409211	10
	30	64	3162.67	48.3063	-30.2372	1	56.9893	-32.0444	7.20874E-006	-0.409184	10
	31	65	2819.01	48.8757	-33.4718	1	59.2384	-34.4048	5.7261E-006	-0.409195	10
	32	67	2511.16	49.2915	-37.0777	1	61.6799	-36.9509	6.64857E-006	-0.40919	10
	33	69	2238.63	49.9444	-41.1266	1	64.6981	-39.4697	6.72827E-006	-0.409201	10
	34	71	1995.37	50.7167	-45.5732	1	68.1844	-41.9424	6.67007E-006	-0.409196	10
	35	73	1778.51	51.3819	-50.5199	1	72.058	-44.5154	7.13762E-006	-0.4092	10
	36	75	1584.49	52.0163	-56.1348	1	76.5298	-47.1808	6.82762E-006	-0.409195	10
	37	77	1412.76	52.9773	-62.0562	1	81.594	-49.5126	5.55726E-006	-0.409187	10
	38	79	1259.04	53.6682	-69.016	1	87.427	-52.1307	6.72385E-006	-0.409201	10
	39	81	1121.63	54.8512	-76.4059	1	94.0559	-54.3257	6.51107E-006	-0.409193	10
	40	83	999.95	55.7211	-84.9844	1	101.623	-56.7487	6.53777E-006	-0.4092	10
	41	85	891.184	56.9689	-94.284	1	110.159	-58.8585	2.59857E-006	-0.409189	9
	42	87	794.163	58.1233	-105.249	1	120.232	-61.0905	3.14478E-006	-0.409192	9
	43	89	707.867	59.5626	-116.447	1	130.796	-62.9102	2.55837E-006	-0.409195	9
	44	91	630.984	60.9281	-129.476	1	143.096	-64.7996	2.50049E-006	-0.409196	9
	45	93	562.189	62.4866	-144.087	1	157.053	-66.555	2.29993E-006	-0.40919	9
	46	95	501.303	64.7249	-160.077	1	172.667	-67.9847	2.87356E-006	-0.409198	9
	47	97	446.614	66.8152	-178.114	1	190.234	-69.4377	2.83673E-006	-0.409193	9
	48	99	398.209	69.0998	-198.033	1	209.742	-70.7645	2.91524E-006	-0.409199	9
	49	101	354.821	71.7004	-220.355	1	231.727	-71.9759	2.83879E-006	-0.409194	9
	50	103	316.113	74.6433	-245.203	1	256.313	-73.069	2.91577E-006	-0.40919	9
	51	105	281.926	77.8373	-272.675	1	283.568	-74.0682	2.77829E-006	-0.40919	9
	52	107	251.185	81.4493	-303.462	1	314.202	-74.9759	2.82628E-006	-0.409187	9
	53	109	223.946	85.5704	-337.509	1	348.188	-75.7733	2.78088E-006	-0.409191	9
	54	111	199.495	90.054	-375.746	1	386.387	-76.5223	2.65557E-006	-0.409183	9
	55	113	177.836	95.311	-418.117	1	428.843	-77.1587	2.77593E-006	-0.409182	9
	56	115	158.533	101.035	-465.188	1	476.034	-77.7461	2.80534E-006	-0.409184	9
	57	117	141.263	107.602	-517.835	1	528.897	-78.2614	2.73627E-006	-0.409177	9
	58	119	125.911	115.13	-576.324	1	587.711	-78.7029	2.84735E-006	-0.409184	9
	59	121	112.198	123.05	-641.443	1	653.138	-79.1407	2.74368E-006	-0.409186	9
	60	123	100.009	133.56	-713.892	1	726.278	-79.4032	2.89355E-006	-0.409186	9
	61	125	89.1164	144.611	-794.852	1	807.9	-79.6887	2.88285E-006	-0.409193	9
	62	127	79.4083	156.456	-884.875	1	898.6	-79.9731	2.86551E-006	-0.40919	9
	63	129	70.788	170.796	-984.72	1	999.42	-80.1601	2.78984E-006	-0.409189	9
	64	131	63.0971	186.861	-1095.94	1	1111.75	-80.3239	2.8289E-006	-0.409188	9
	65	134	54.5476	210.093	-1253.19	1	1270.68	-80.483	2.00919E-006	-0.409185	8
	66	136	50.0083	225.839	-1358.54	1	1377.18	-80.5616	1.96401E-006	-0.409193	8
	67	138	46.1675	243.178	-1463.73	1	1483.79	-80.5672	2.04804E-006	-0.409191	8
	68	140	40.0059	277.361	-1671.44	1	1694.29	-80.5781	2.01914E-006	-0.409194	8
	69	142	35.3046	317.944	-1876.9	1	1903.64	-80.3855	2.17346E-006	-0.409198	8
	70	144	31.5793	357.903	-2078.64	1	2109.22	-80.2305	2.15453E-006	-0.409194	8
	71	146	28.5748	395.564	-2281	1	2315.04	-80.1618	2.16514E-006	-0.409193	8
	72	148	24.9911	466.559	-2579.49	1	2621.34	-79.7476	2.36819E-006	-0.409192	8
	73	151	22.2195	539.457	-2871.32	1	2921.55	-79.3594	2.219E-006	-0.4092	8
	74	153	20.0011	611.852	-3170.28	1	3228.79	-79.0764	2.18617E-006	-0.409195	8
	75	156	17.6486	729.882	-3543.45	1	3617.84	-78.361	2.1816E-006	-0.409199	8
	76	158	15.7934	819.679	-3931.96	1	4016.49	-78.2244	1.94324E-006	-0.4092	8
	77	160	14.2828	907.09	-4283.7	1	4378.68	-78.044	2.17958E-006	-0.409198	8
	78	162	12.5002	1082.22	-4855.49	1	4974.63	-77.435	1.94097E-006	-0.409195	8
	79	165	11.323	1257.75	-5326.43	1	5472.91	-76.7139	1.90923E-006	-0.409199	8
	80	167	9.9987	1444.73	-5922.11	1	6095.79	-76.2902	2.04601E-006	-0.4092	8
