EXPLAIN
TAG	EISPOT
TITLE	LABEL	Tomato_open	Test &Identifier
DATE	LABEL	5/15/2006	Date
TIME	LABEL	17:24:23	Time
NOTES	NOTES	1	&Notes...
	
PSTAT	PSTAT	300	Potentiostat
VDC	POTEN	1.00000E-001	T	DC &Voltage (V)
FREQINIT	QUANT	1.00000E+005	Initial Fre&q. (Hz)
FREQFINAL	QUANT	1.00000E+001	Final Fre&q. (Hz)
PTSPERDEC	QUANT	2.00000E+001	Points/&decade
VAC	QUANT	1.00000E+001	AC &Voltage (mV rms)
AREA	QUANT	1.00000E+000	&Area (cm²)
DENSITY	QUANT	7.87000E+000	&Density (gm/cm³)
EQUIV	QUANT	7.00000E+000	Equiv. &Wt
CONDIT	TWOPARAM	F	1.50000E+001	0.00000E+000	Conditionin&g	Time(s)	E(V)
DELAY	TWOPARAM	F	6.00000E+002	0.00000E+000	Init. De&lay	Time(s)	Stab.(mV/s)
SPEED	SELECTOR	1	&Optimize for:
ZGUESS	QUANT	1.00000E+002	E&stimated Z (ohms)
OCVCURVE	TABLE	39
	Pt	T	Vf	Vm	Ach	Over
	#	s	V vs. Ref.	V	V	bits
	0	0.258332	-6.66820E-001	4.34376E-006	1.36600E-004	......
	1	0.516663	-6.68819E-001	4.34376E-006	-1.63400E-004	......
	2	0.774994	-6.62419E-001	4.34376E-006	1.36600E-004	......
	3	1.03333	-6.67819E-001	4.34376E-006	-6.34000E-005	......
	4	1.29166	-6.68069E-001	4.34376E-006	2.36600E-004	......
	5	1.54999	-6.69169E-001	4.34376E-006	-6.34000E-005	......
	6	1.80832	-6.73419E-001	4.34376E-006	3.66000E-005	......
	7	2.06665	-6.75669E-001	4.34376E-006	-1.63400E-004	......
	8	2.32498	-6.74269E-001	4.34376E-006	3.66000E-005	......
	9	2.58332	-6.79919E-001	4.34376E-006	-1.63400E-004	......
	10	2.84165	-6.73970E-001	4.34376E-006	3.66000E-005	......
	11	3.09998	-6.70269E-001	4.34376E-006	-6.34000E-005	......
	12	3.35831	-6.73570E-001	4.34376E-006	1.36600E-004	......
	13	3.61664	-6.73270E-001	4.34376E-006	-1.63400E-004	......
	14	3.87497	-6.68269E-001	4.34376E-006	3.66000E-005	......
	15	4.1333	-6.65419E-001	4.34376E-006	-1.63400E-004	......
	16	4.39164	-6.68570E-001	4.34376E-006	3.66000E-005	......
	17	4.64997	-6.68920E-001	4.34376E-006	-1.63400E-004	......
	18	4.9083	-6.71470E-001	4.34376E-006	1.36600E-004	......
	19	5.16663	-6.74969E-001	4.34376E-006	3.66000E-005	......
	20	5.42496	-6.66219E-001	4.34376E-006	1.36600E-004	......
	21	5.68329	-6.68220E-001	4.34376E-006	-6.34000E-005	......
	22	5.94162	-6.69469E-001	4.34376E-006	1.36600E-004	......
	23	6.19996	-6.70219E-001	4.34376E-006	-6.34000E-005	......
	24	6.45829	-6.62269E-001	4.34376E-006	3.66000E-005	......
	25	6.71662	-6.59119E-001	4.34376E-006	-1.63400E-004	......
	26	6.97495	-6.63269E-001	4.34376E-006	3.66000E-005	......
	27	7.23328	-6.64270E-001	4.34376E-006	3.66000E-005	......
	28	7.49161	-6.65619E-001	4.34376E-006	3.66000E-005	......
	29	7.74995	-6.64369E-001	4.34376E-006	-6.34000E-005	......
	30	8.00828	-6.54269E-001	4.34376E-006	3.66000E-005	......
	31	8.26661	-6.47669E-001	4.34376E-006	-1.63400E-004	......
	32	8.52494	-6.47069E-001	4.34376E-006	3.66000E-005	......
	33	8.78327	-6.49620E-001	4.34376E-006	-6.34000E-005	......
	34	9.0416	-6.48669E-001	4.34376E-006	3.66000E-005	......
	35	9.29993	-6.51119E-001	4.34376E-006	-6.34000E-005	......
	36	9.5583	-6.55869E-001	4.34376E-006	3.66000E-005	......
	37	9.8166	-6.57269E-001	4.34376E-006	-6.34000E-005	......
	38	10.0749	-6.58669E-001	4.34376E-006	1.36600E-004	......
EOC	QUANT	-0.658669	Open Circuit (V)
PSTATMODEL	IQUANT	32	Pstat Model
PSTATSECTION	LABEL	PStat0	Pstat Section
CTRLMODE	IQUANT	1	Control Mode
IESTAB	IQUANT	0	I/E Stability
CASPEED	IQUANT	1	Control Amp Speed
CONVENTION	IQUANT	1	Current Convention
ICHRANGE	IQUANT	2	Ich Range
ICHRANGEMODE	TOGGLE	F	Ich Auto Range
ICHOFFSETENABLE	TOGGLE	T	Ich Offset Enable
ICHOFFSET	QUANT	0	Ich Offset (V)
ICHFILTER	IQUANT	3	Ich Filter
VCHRANGE	IQUANT	2	Vch Range
VCHRANGEMODE	TOGGLE	F	Vch Auto Range
VCHOFFSETENABLE	TOGGLE	T	Vch Offset Enable
VCHOFFSET	QUANT	0	Vch Offset (V)
VCHFILTER	IQUANT	3	Vch Filter
ACHRANGE	IQUANT	0	Ach Range
IERANGELOWERLIMIT	IQUANT	3	I/E Range Lower Limit
IERANGEMODE	TOGGLE	F	I/E AutoRange
IERANGE	IQUANT	11	I/E Range
POSFEEDENABLE	TOGGLE	F	Positive Feedback IR Comp
POSFEEDRESISTANCE	QUANT	0	Positive Feedback Resistance (ohm)
FC350IDIVISOR	IQUANT	0	FC350 I Divisor
FC350VRANGE	IQUANT	0	FC350 V Range
FRAMEWORKVERSION	QUANT	4.35	Framework Version
ZCURVE	TABLE
	Pt	Time	Freq	Zreal	Zimag	Zsig	Zmod	Zphz	Idc	Vdc	IERange
	#	s	Hz	ohm	ohm	V	ohm	°	A	V	#
	0	5	100007	44.72	-0.923746	1	44.7295	-1.18335	1.77843E-005	-0.558708	10
	1	6	89134.1	44.4884	-1.0835	1	44.5016	-1.39515	1.57499E-005	-0.558728	10
	2	8	79433.6	44.4303	-1.27686	1	44.4486	-1.64614	1.5512E-005	-0.558741	10
	3	10	70800.8	44.4138	-1.52548	1	44.44	-1.96717	1.56148E-005	-0.55873	10
	4	12	63105.5	44.378	-1.86146	1	44.417	-2.4019	1.5336E-005	-0.558726	10
	5	14	56243.5	44.3228	-2.03282	1	44.3694	-2.62597	1.26934E-005	-0.558738	10
	6	16	50123.7	44.3122	-2.33119	1	44.3735	-3.01145	1.08134E-005	-0.558756	10
	7	18	44681	44.3716	-2.65447	1	44.4509	-3.42356	8.844E-006	-0.558758	10
	8	20	39811.2	44.327	-2.88855	1	44.4211	-3.72838	5.54884E-006	-0.558731	10
	9	22	35488.3	44.376	-3.37122	1	44.5038	-4.34439	6.86744E-006	-0.558734	10
	10	24	31634.1	44.4819	-3.78287	1	44.6425	-4.8609	4.54166E-006	-0.55875	10
	11	26	28173.1	44.4995	-4.19336	1	44.6966	-5.3833	4.37978E-006	-0.558749	10
	12	28	25123.7	44.5832	-4.70404	1	44.8306	-6.02308	1.53681E-006	-0.558745	10
	13	30	22389.3	44.6301	-5.28828	1	44.9424	-6.75754	2.75697E-006	-0.558745	10
	14	32	19954.4	44.745	-5.85371	1	45.1263	-7.45332	5.88259E-006	-0.558744	10
	15	34	17778.2	44.8575	-6.44707	1	45.3184	-8.17874	4.17853E-006	-0.558764	10
	16	36	15852.9	45.0634	-7.18146	1	45.632	-9.05472	5.02916E-006	-0.558741	10
	17	38	14122.3	45.1656	-7.94874	1	45.8597	-9.9813	4.79525E-006	-0.558754	10
	18	40	12587.2	45.341	-8.76695	1	46.1807	-10.9434	4.45588E-006	-0.55875	10
	19	42	11221.1	45.4512	-9.765	1	46.4883	-12.1254	4.18806E-006	-0.558753	10
	20	44	9998.2	45.5712	-10.8777	1	46.8515	-13.4251	5.29494E-006	-0.55875	10
	21	46	8912.76	45.9029	-11.944	1	47.4313	-14.585	7.19837E-006	-0.558749	10
	22	48	7942.6	46.1175	-13.2941	1	47.9954	-16.0805	1.01143E-005	-0.55874	10
	23	50	7078.05	46.3874	-14.6236	1	48.6378	-17.4975	9.69213E-006	-0.558753	10
	24	52	6311.1	46.6368	-16.2764	1	49.3955	-19.2391	8.70149E-006	-0.558746	10
	25	54	5622.14	46.9886	-18.0395	1	50.3324	-21.0024	8.02024E-006	-0.558737	10
	26	56	5011.18	47.3061	-19.9181	1	51.3283	-22.8334	6.45129E-006	-0.558735	10
	27	58	4465.21	47.7421	-22.0318	1	52.5805	-24.7722	5.68579E-006	-0.558734	10
	28	60	3980.93	48.0776	-24.4387	1	53.9324	-26.945	5.90937E-006	-0.558742	10
	29	62	3548.18	48.5399	-26.9474	1	55.5184	-29.0372	5.49833E-006	-0.558742	10
	30	64	3162.67	49.0264	-29.7982	1	57.3717	-31.2912	5.12782E-006	-0.558754	10
	31	66	2819.01	49.5477	-33.125	1	59.6007	-33.7647	4.18863E-006	-0.558748	10
	32	68	2511.16	50.044	-36.6677	1	62.0396	-36.2306	1.86548E-006	-0.558733	10
	33	70	2238.63	50.6277	-40.6138	1	64.9049	-38.7368	2.08343E-006	-0.55875	10
	34	72	1995.37	51.3871	-45.0646	1	68.348	-41.2496	1.80271E-006	-0.558739	10
	35	74	1778.51	52.0176	-49.721	1	71.9583	-43.7069	1.8794E-006	-0.558731	10
	36	76	1584.49	52.903	-55.2941	1	76.5256	-46.266	1.88313E-006	-0.55874	10
	37	78	1412.76	53.6344	-61.2966	1	81.4489	-48.8142	2.9527E-006	-0.55872	10
	38	80	1259.04	54.6092	-68.054	1	87.2555	-51.2551	1.95123E-006	-0.558724	10
	39	82	1121.63	55.4914	-75.4392	1	93.6502	-53.6627	2.06838E-006	-0.55872	10
	40	84	999.95	56.5236	-83.982	1	101.232	-56.0577	1.86462E-006	-0.558725	10
	41	86	891.184	57.7725	-93.0425	1	109.52	-58.1628	-1.39085E-006	-0.558728	9
	42	88	794.163	59.0711	-103.177	1	118.89	-60.2079	-1.53547E-006	-0.558719	9
	43	90	707.867	60.4235	-114.53	1	129.491	-62.1848	-1.6168E-006	-0.558725	9
	44	92	630.984	61.8389	-127.296	1	141.521	-64.09	-1.36194E-006	-0.558729	9
	45	94	562.189	63.6431	-141.665	1	155.305	-65.808	-1.21283E-006	-0.558726	9
	46	96	501.303	65.7285	-157.549	1	170.71	-67.3544	-1.11948E-006	-0.558733	9
	47	98	446.614	67.8095	-175.22	1	187.883	-68.8437	-1.0206E-006	-0.558726	9
	48	100	398.209	70.0812	-194.765	1	206.99	-70.21	-9.98678E-007	-0.558727	9
	49	102	354.821	72.6928	-216.619	1	228.491	-71.4493	-9.45694E-007	-0.558728	9
	50	104	316.113	75.5664	-240.997	1	252.567	-72.5908	-8.15663E-007	-0.55873	9
	51	106	281.926	79.0144	-267.868	1	279.278	-73.5653	3.40056E-007	-0.558735	9
	52	108	251.185	82.5572	-298.005	1	309.229	-74.5155	2.96837E-007	-0.558738	9
	53	110	223.946	87.179	-331.305	1	342.584	-75.2575	1.69523E-006	-0.558739	9
	54	112	199.495	91.7029	-368.748	1	379.979	-76.0346	1.50702E-006	-0.558741	9
	55	114	177.836	96.658	-410.112	1	421.349	-76.7381	1.28009E-006	-0.558742	9
	56	116	158.533	102.277	-456.106	1	467.433	-77.361	9.92306E-007	-0.558739	9
	57	118	141.263	108.466	-507.534	1	518.995	-77.9367	9.38601E-007	-0.558739	9
	58	120	125.911	115.469	-564.803	1	576.485	-78.4456	6.48074E-007	-0.558749	9
	59	122	112.198	122.485	-628.758	1	640.578	-78.9766	2.0669E-007	-0.55875	9
	60	124	100.009	133.13	-699.522	1	712.077	-79.2246	8.20216E-007	-0.558749	9
	61	126	89.1164	142.768	-778.244	1	791.231	-79.6048	6.34149E-007	-0.558749	9
	62	128	79.4083	152.237	-866.58	1	879.851	-80.0362	2.14349E-007	-0.558746	9
	63	130	70.788	165.034	-963.87	1	977.9	-80.284	2.58144E-007	-0.558741	9
	64	132	63.0971	201.515	-1063.48	1	1082.4	-79.2704	5.34235E-006	-0.55874	9
	65	134	54.5476	244.199	-1210.24	1	1234.63	-78.5922	5.36247E-006	-0.558755	8
	66	136	50.0083	264.774	-1311.14	1	1337.61	-78.5831	4.79783E-006	-0.558752	8
	67	138	46.1675	289.127	-1421.24	1	1450.35	-78.5011	3.83636E-006	-0.558744	8
	68	141	40.0059	310.527	-1619.27	1	1648.78	-79.1442	3.15087E-006	-0.558752	8
	69	143	35.3046	361.657	-1827.29	1	1862.74	-78.8047	3.09854E-006	-0.558748	8
	70	145	31.5793	383.703	-2038.38	1	2074.18	-79.3394	2.26479E-006	-0.558747	8
	71	147	28.5748	421.764	-2207.51	1	2247.44	-79.1835	1.91362E-006	-0.558749	8
	72	149	24.9911	492.837	-2493.1	1	2541.35	-78.8179	1.67891E-006	-0.558759	8
	73	151	22.2195	572.748	-2777.61	1	2836.04	-78.3488	1.58009E-006	-0.558755	8
	74	154	20.0011	567.607	-3064.71	1	3116.82	-79.5073	3.71131E-007	-0.558762	8
	75	157	17.6486	590.467	-3448.52	1	3498.71	-80.2839	-7.35662E-007	-0.558756	8
	76	159	15.7934	672.958	-3853.03	1	3911.36	-80.0928	-8.83055E-007	-0.558753	8
	77	161	14.2828	694.908	-4220.71	1	4277.53	-80.6506	-9.21772E-007	-0.558758	8
	78	164	12.5002	778.459	-4794.86	1	4857.65	-80.7783	-1.10226E-006	-0.558755	8
	79	166	11.323	831.123	-5259.77	1	5325.03	-81.0206	-1.20589E-006	-0.558746	8
	80	169	9.9987	1016.66	-5936.2	1	6022.63	-80.2816	-1.18109E-006	-0.558741	8
