EXPLAIN
TAG	EISPOT
TITLE	LABEL	Tomato_open	Test &Identifier
DATE	LABEL	5/15/2006	Date
TIME	LABEL	17:39:24	Time
NOTES	NOTES	1	&Notes...
	
PSTAT	PSTAT	300	Potentiostat
VDC	POTEN	1.00000E-001	T	DC &Voltage (V)
FREQINIT	QUANT	1.00000E+005	Initial Fre&q. (Hz)
FREQFINAL	QUANT	1.00000E+001	Final Fre&q. (Hz)
PTSPERDEC	QUANT	2.00000E+001	Points/&decade
VAC	QUANT	1.00000E+001	AC &Voltage (mV rms)
AREA	QUANT	1.00000E+000	&Area (cm²)
DENSITY	QUANT	7.87000E+000	&Density (gm/cm³)
EQUIV	QUANT	7.00000E+000	Equiv. &Wt
CONDIT	TWOPARAM	F	1.50000E+001	0.00000E+000	Conditionin&g	Time(s)	E(V)
DELAY	TWOPARAM	F	6.00000E+002	0.00000E+000	Init. De&lay	Time(s)	Stab.(mV/s)
SPEED	SELECTOR	1	&Optimize for:
ZGUESS	QUANT	1.00000E+002	E&stimated Z (ohms)
OCVCURVE	TABLE	39
	Pt	T	Vf	Vm	Ach	Over
	#	s	V vs. Ref.	V	V	bits
	0	0.258332	-5.15019E-001	4.76604E-006	-1.63400E-004	......
	1	0.516663	-5.14820E-001	4.76604E-006	3.66000E-005	......
	2	0.774994	-5.14719E-001	4.76604E-006	-6.34000E-005	......
	3	1.03333	-5.15769E-001	4.76604E-006	2.36600E-004	......
	4	1.29166	-5.16569E-001	4.76604E-006	-2.63400E-004	......
	5	1.54999	-5.16970E-001	4.76604E-006	1.36600E-004	......
	6	1.80832	-5.16369E-001	4.76604E-006	-1.63400E-004	......
	7	2.06665	-5.16670E-001	4.76604E-006	1.36600E-004	......
	8	2.32498	-5.16469E-001	4.76604E-006	-6.34000E-005	......
	9	2.58332	-5.16670E-001	4.76604E-006	3.66000E-005	......
	10	2.84165	-5.17119E-001	4.76604E-006	-6.34000E-005	......
	11	3.09998	-5.17569E-001	4.76604E-006	3.66000E-005	......
	12	3.35831	-5.17519E-001	4.76604E-006	-1.63400E-004	......
	13	3.61664	-5.14619E-001	4.76604E-006	-6.34000E-005	......
	14	3.87497	-5.12219E-001	4.76604E-006	-1.63400E-004	......
	15	4.1333	-5.11069E-001	4.76604E-006	3.66000E-005	......
	16	4.39164	-5.10819E-001	4.76604E-006	-1.63400E-004	......
	17	4.64997	-5.11069E-001	4.76604E-006	3.66000E-005	......
	18	4.9083	-5.09369E-001	4.76604E-006	-6.34000E-005	......
	19	5.16663	-5.09169E-001	4.76604E-006	1.36600E-004	......
	20	5.42496	-5.05269E-001	4.76604E-006	-1.63400E-004	......
	21	5.68329	-5.04770E-001	4.76604E-006	3.66000E-005	......
	22	5.94162	-5.05069E-001	4.76604E-006	-6.34000E-005	......
	23	6.19996	-5.05819E-001	4.76604E-006	1.36600E-004	......
	24	6.45829	-5.06069E-001	4.76604E-006	-6.34000E-005	......
	25	6.71662	-5.05569E-001	4.76604E-006	3.66000E-005	......
	26	6.97495	-5.05470E-001	4.76604E-006	-1.63400E-004	......
	27	7.23328	-5.06869E-001	4.76604E-006	2.36600E-004	......
	28	7.49161	-5.08120E-001	4.76604E-006	-6.34000E-005	......
	29	7.74995	-5.09420E-001	4.76604E-006	1.36600E-004	......
	30	8.00828	-5.10119E-001	4.76604E-006	-1.63400E-004	......
	31	8.26661	-5.11069E-001	4.76604E-006	1.36600E-004	......
	32	8.52494	-5.11869E-001	4.76604E-006	-6.34000E-005	......
	33	8.78327	-5.12869E-001	4.76604E-006	3.66000E-005	......
	34	9.0416	-5.13969E-001	4.76604E-006	-6.34000E-005	......
	35	9.29993	-5.15069E-001	4.76604E-006	3.66000E-005	......
	36	9.5583	-5.15220E-001	4.76604E-006	-1.63400E-004	......
	37	9.8166	-5.15669E-001	4.76604E-006	3.66000E-005	......
	38	10.0749	-5.17269E-001	4.76604E-006	-1.63400E-004	......
EOC	QUANT	-0.517269	Open Circuit (V)
PSTATMODEL	IQUANT	32	Pstat Model
PSTATSECTION	LABEL	PStat0	Pstat Section
CTRLMODE	IQUANT	1	Control Mode
IESTAB	IQUANT	0	I/E Stability
CASPEED	IQUANT	1	Control Amp Speed
CONVENTION	IQUANT	1	Current Convention
ICHRANGE	IQUANT	2	Ich Range
ICHRANGEMODE	TOGGLE	F	Ich Auto Range
ICHOFFSETENABLE	TOGGLE	T	Ich Offset Enable
ICHOFFSET	QUANT	0	Ich Offset (V)
ICHFILTER	IQUANT	3	Ich Filter
VCHRANGE	IQUANT	2	Vch Range
VCHRANGEMODE	TOGGLE	F	Vch Auto Range
VCHOFFSETENABLE	TOGGLE	T	Vch Offset Enable
VCHOFFSET	QUANT	0	Vch Offset (V)
VCHFILTER	IQUANT	3	Vch Filter
ACHRANGE	IQUANT	0	Ach Range
IERANGELOWERLIMIT	IQUANT	3	I/E Range Lower Limit
IERANGEMODE	TOGGLE	F	I/E AutoRange
IERANGE	IQUANT	11	I/E Range
POSFEEDENABLE	TOGGLE	F	Positive Feedback IR Comp
POSFEEDRESISTANCE	QUANT	0	Positive Feedback Resistance (ohm)
FC350IDIVISOR	IQUANT	0	FC350 I Divisor
FC350VRANGE	IQUANT	0	FC350 V Range
FRAMEWORKVERSION	QUANT	4.35	Framework Version
ZCURVE	TABLE
	Pt	Time	Freq	Zreal	Zimag	Zsig	Zmod	Zphz	Idc	Vdc	IERange
	#	s	Hz	ohm	ohm	V	ohm	°	A	V	#
	0	4	100007	44.001	-0.804199	1	44.0083	-1.04707	7.29228E-006	-0.417135	10
	1	6	89134.1	43.8281	-1.06274	1	43.841	-1.38904	9.43416E-006	-0.417125	10
	2	8	79433.6	43.7791	-1.34659	1	43.7999	-1.76179	9.67181E-006	-0.417126	10
	3	10	70800.8	43.6914	-1.51781	1	43.7178	-1.98962	8.16166E-006	-0.417137	10
	4	12	63105.5	43.6801	-1.86219	1	43.7198	-2.44118	8.6815E-006	-0.417123	10
	5	14	56243.5	43.6456	-2.0581	1	43.6941	-2.69977	9.40025E-006	-0.417165	10
	6	16	50123.7	43.7086	-2.32416	1	43.7704	-3.04377	8.69494E-006	-0.417118	10
	7	18	44681	43.6512	-2.76623	1	43.7388	-3.62605	1.04249E-005	-0.417126	10
	8	20	39811.2	43.6831	-2.96069	1	43.7833	-3.87739	1.11512E-005	-0.417152	10
	9	22	35488.3	43.7232	-3.42205	1	43.857	-4.47519	1.03977E-005	-0.417142	10
	10	24	31634.1	43.762	-3.82407	1	43.9288	-4.99401	9.01009E-006	-0.417155	10
	11	25	28173.1	43.8404	-4.28069	1	44.0489	-5.57683	9.30306E-006	-0.417136	10
	12	27	25123.7	43.9088	-4.79735	1	44.1701	-6.23524	1.0432E-005	-0.417115	10
	13	29	22389.3	44.1072	-5.27101	1	44.4211	-6.81477	8.91931E-006	-0.417145	10
	14	31	19954.4	44.1545	-5.86162	1	44.5418	-7.56194	7.53025E-006	-0.417129	10
	15	33	17778.2	44.2524	-6.51955	1	44.7301	-8.38089	8.14447E-006	-0.417138	10
	16	35	15852.9	44.395	-7.30866	1	44.9925	-9.34864	9.15556E-006	-0.41713	10
	17	37	14122.3	44.4953	-8.04	1	45.2158	-10.2425	7.97275E-006	-0.417134	10
	18	39	12587.2	44.6797	-8.92509	1	45.5624	-11.2966	7.93963E-006	-0.417133	10
	19	41	11221.1	44.8795	-9.8816	1	45.9545	-12.4172	8.01744E-006	-0.417132	10
	20	43	9998.2	45.0751	-10.9387	1	46.3834	-13.6407	7.959E-006	-0.417131	10
	21	45	8912.76	45.3077	-12.1418	1	46.9064	-15.0019	8.86728E-006	-0.417152	10
	22	47	7942.6	45.5191	-13.3456	1	47.4351	-16.3404	6.2907E-007	-0.417159	11
	23	50	7078.05	45.7283	-14.8843	1	48.0897	-18.0297	8.15235E-006	-0.417144	10
	24	51	6311.1	46.0749	-16.5091	1	48.9433	-19.7131	7.69591E-006	-0.417146	10
	25	53	5622.14	46.3108	-18.2433	1	49.7746	-21.501	7.39542E-006	-0.417154	10
	26	55	5011.18	46.7382	-20.1115	1	50.8815	-23.2823	7.6236E-006	-0.417138	10
	27	57	4465.21	47.0917	-22.2774	1	52.0952	-25.3172	7.13451E-006	-0.417159	10
	28	59	3980.93	47.4858	-24.6566	1	53.5056	-27.4402	6.46454E-006	-0.417164	10
	29	61	3548.18	47.9881	-27.3289	1	55.2243	-29.6612	5.9686E-006	-0.41715	10
	30	63	3162.67	48.4377	-30.1908	1	57.0762	-31.935	6.13944E-006	-0.417154	10
	31	65	2819.01	48.9836	-33.5008	1	59.3439	-34.369	8.18024E-006	-0.417139	10
	32	67	2511.16	49.471	-37.0968	1	61.8348	-36.8651	6.84546E-006	-0.417157	10
	33	69	2238.63	50.1125	-41.0747	1	64.795	-39.3398	7.3119E-006	-0.417156	10
	34	71	1995.37	50.6868	-45.5124	1	68.1214	-41.9211	7.41285E-006	-0.417153	10
	35	73	1778.51	51.4927	-50.4272	1	72.0722	-44.401	7.1137E-006	-0.417149	10
	36	75	1584.49	52.0233	-56.0179	1	76.4489	-47.1174	7.32563E-006	-0.417153	10
	37	77	1412.76	52.9223	-62.0834	1	81.5789	-49.5544	6.21195E-006	-0.417157	10
	38	79	1259.04	53.9424	-68.7467	1	87.3836	-51.8803	7.04554E-006	-0.417149	10
	39	81	1121.63	54.8117	-76.4604	1	94.0772	-54.3646	7.12543E-006	-0.417161	10
	40	83	999.95	55.9567	-84.8119	1	101.608	-56.5842	6.97898E-006	-0.417155	10
	41	85	891.184	57.2224	-94.165	1	110.188	-58.7137	2.87868E-006	-0.417151	9
	42	87	794.163	58.4155	-104.626	1	119.829	-60.8242	3.14795E-006	-0.417156	9
	43	89	707.867	59.8483	-116.177	1	130.686	-62.7448	3.08253E-006	-0.41714	9
	44	91	630.984	61.253	-129.302	1	143.077	-64.6521	3.25198E-006	-0.417143	9
	45	93	562.189	63.0858	-143.832	1	157.059	-66.3174	3.44223E-006	-0.417139	9
	46	95	501.303	64.9211	-159.736	1	172.425	-67.8818	3.30815E-006	-0.417154	9
	47	97	446.614	67.0231	-177.722	1	189.94	-69.3374	3.33815E-006	-0.417155	9
	48	99	398.209	69.3173	-197.578	1	209.384	-70.6673	3.08634E-006	-0.417147	9
	49	101	354.821	72.0069	-219.832	1	231.325	-71.8636	3.29912E-006	-0.417147	9
	50	103	316.113	75.0058	-244.665	1	255.904	-72.9563	3.31781E-006	-0.417153	9
	51	105	281.926	78.2117	-271.968	1	282.991	-73.956	3.02006E-006	-0.417153	9
	52	107	251.185	81.9258	-302.702	1	313.593	-74.8558	2.98829E-006	-0.417155	9
	53	109	223.946	86.0022	-336.653	1	347.464	-75.6696	2.81221E-006	-0.417153	9
	54	111	199.495	90.7882	-374.856	1	385.693	-76.3854	3.08646E-006	-0.417145	9
	55	113	177.836	95.965	-417.021	1	427.921	-77.0407	2.86085E-006	-0.417142	9
	56	115	158.533	101.919	-463.904	1	474.967	-77.6091	2.99348E-006	-0.417148	9
	57	117	141.263	108.769	-516.469	1	527.798	-78.1073	2.95163E-006	-0.417156	9
	58	119	125.911	116.284	-574.623	1	586.271	-78.5598	2.94978E-006	-0.417147	9
	59	121	112.198	124.891	-639.805	1	651.88	-78.9547	2.85249E-006	-0.417148	9
	60	123	100.009	134.099	-711.894	1	724.414	-79.3322	2.63603E-006	-0.417147	9
	61	125	89.1164	145.193	-792.408	1	805.6	-79.6169	2.71243E-006	-0.417144	9
	62	127	79.4083	158.237	-881.614	1	895.702	-79.8246	2.83323E-006	-0.417146	9
	63	129	70.788	173.052	-981.26	1	996.4	-79.9983	2.95692E-006	-0.417139	9
	64	131	63.0971	190.972	-1092	1	1108.58	-80.0803	3.01898E-006	-0.41715	9
	65	133	54.5476	213.767	-1248.93	1	1267.09	-80.2874	2.12934E-006	-0.417147	8
	66	135	50.0083	229.786	-1353.58	1	1372.94	-80.3652	2.03484E-006	-0.417142	8
	67	138	46.1675	250.287	-1458.46	1	1479.78	-80.2623	2.26921E-006	-0.417147	8
	68	140	40.0059	290.861	-1664.41	1	1689.63	-80.0875	2.35509E-006	-0.417148	8
	69	142	35.3046	323.551	-1869.15	1	1896.94	-80.1794	2.21529E-006	-0.417147	8
	70	144	31.5793	367.077	-2069.66	1	2101.96	-79.9425	2.29653E-006	-0.417145	8
	71	146	28.5748	415.34	-2273.54	1	2311.17	-79.6471	2.32159E-006	-0.417141	8
	72	148	24.9911	484.114	-2564.38	1	2609.67	-79.3093	2.48701E-006	-0.417142	8
	73	151	22.2195	539.492	-2861.43	1	2911.85	-79.3228	2.17202E-006	-0.417139	8
	74	153	20.0011	622.143	-3148.51	1	3209.38	-78.8224	2.37671E-006	-0.417142	8
	75	155	17.6486	723.134	-3536.22	1	3609.4	-78.4427	2.32324E-006	-0.417137	8
	76	158	15.7934	848.464	-3897.37	1	3988.65	-77.7182	2.49519E-006	-0.417141	8
	77	160	14.2828	948.163	-4272.07	1	4376.02	-77.4863	2.38924E-006	-0.417141	8
	78	162	12.5002	1153.97	-4792.6	1	4929.57	-76.462	2.57015E-006	-0.417144	8
	79	165	11.323	1335.23	-5236.63	1	5404.18	-75.6955	2.60567E-006	-0.417146	8
	80	167	9.9987	1530.31	-5846.23	1	6043.2	-75.3314	2.31676E-006	-0.417142	8
