EXPLAIN
TAG	EISPOT
TITLE	LABEL	Tomato_open	Test &Identifier
DATE	LABEL	5/15/2006	Date
TIME	LABEL	17:34:23	Time
NOTES	NOTES	1	&Notes...
	
PSTAT	PSTAT	300	Potentiostat
VDC	POTEN	1.00000E-001	T	DC &Voltage (V)
FREQINIT	QUANT	1.00000E+005	Initial Fre&q. (Hz)
FREQFINAL	QUANT	1.00000E+001	Final Fre&q. (Hz)
PTSPERDEC	QUANT	2.00000E+001	Points/&decade
VAC	QUANT	1.00000E+001	AC &Voltage (mV rms)
AREA	QUANT	1.00000E+000	&Area (cm²)
DENSITY	QUANT	7.87000E+000	&Density (gm/cm³)
EQUIV	QUANT	7.00000E+000	Equiv. &Wt
CONDIT	TWOPARAM	F	1.50000E+001	0.00000E+000	Conditionin&g	Time(s)	E(V)
DELAY	TWOPARAM	F	6.00000E+002	0.00000E+000	Init. De&lay	Time(s)	Stab.(mV/s)
SPEED	SELECTOR	1	&Optimize for:
ZGUESS	QUANT	1.00000E+002	E&stimated Z (ohms)
OCVCURVE	TABLE	39
	Pt	T	Vf	Vm	Ach	Over
	#	s	V vs. Ref.	V	V	bits
	0	0.258332	-5.34669E-001	4.06674E-006	3.66000E-005	......
	1	0.516663	-5.37419E-001	4.06674E-006	3.66000E-005	......
	2	0.774994	-5.38669E-001	4.06674E-006	2.36600E-004	......
	3	1.03333	-5.34270E-001	4.06674E-006	2.36600E-004	......
	4	1.29166	-5.30869E-001	4.06674E-006	2.36600E-004	......
	5	1.54999	-5.32369E-001	4.06674E-006	2.36600E-004	......
	6	1.80832	-5.33069E-001	4.06674E-006	2.36600E-004	......
	7	2.06665	-5.34669E-001	4.06674E-006	1.36600E-004	......
	8	2.32498	-5.34019E-001	4.06674E-006	2.36600E-004	......
	9	2.58332	-5.31969E-001	4.06674E-006	3.66000E-005	......
	10	2.84165	-5.32369E-001	4.06674E-006	1.36600E-004	......
	11	3.09998	-5.32969E-001	4.06674E-006	2.36600E-004	......
	12	3.35831	-5.33419E-001	4.06674E-006	2.36600E-004	......
	13	3.61664	-5.33769E-001	4.06674E-006	1.36600E-004	......
	14	3.87497	-5.33269E-001	4.06674E-006	3.36600E-004	......
	15	4.1333	-5.33319E-001	4.06674E-006	2.36600E-004	......
	16	4.39164	-5.33520E-001	4.06674E-006	2.36600E-004	......
	17	4.64997	-5.30819E-001	4.06674E-006	2.36600E-004	......
	18	4.9083	-5.27269E-001	4.06674E-006	2.36600E-004	......
	19	5.16663	-5.24520E-001	4.06674E-006	2.36600E-004	......
	20	5.42496	-5.22669E-001	4.06674E-006	3.66000E-005	......
	21	5.68329	-5.23569E-001	4.06674E-006	4.36600E-004	......
	22	5.94162	-5.23269E-001	4.06674E-006	3.66000E-005	......
	23	6.19996	-5.22619E-001	4.06674E-006	1.36600E-004	......
	24	6.45829	-5.22419E-001	4.06674E-006	2.36600E-004	......
	25	6.71662	-5.22820E-001	4.06674E-006	3.36600E-004	......
	26	6.97495	-5.20819E-001	4.06674E-006	2.36600E-004	......
	27	7.23328	-5.21270E-001	4.06674E-006	3.66000E-005	......
	28	7.49161	-5.22919E-001	4.06674E-006	2.36600E-004	......
	29	7.74995	-5.23669E-001	4.06674E-006	2.36600E-004	......
	30	8.00828	-5.23820E-001	4.06674E-006	2.36600E-004	......
	31	8.26661	-5.23669E-001	4.06674E-006	2.36600E-004	......
	32	8.52494	-5.24870E-001	4.06674E-006	2.36600E-004	......
	33	8.78327	-5.21919E-001	4.06674E-006	2.36600E-004	......
	34	9.0416	-5.20270E-001	4.06674E-006	2.36600E-004	......
	35	9.29993	-5.20769E-001	4.06674E-006	2.36600E-004	......
	36	9.5583	-5.21719E-001	4.06674E-006	3.66000E-005	......
	37	9.8166	-5.19570E-001	4.06674E-006	2.36600E-004	......
	38	10.0749	-5.18470E-001	4.06674E-006	3.36600E-004	......
EOC	QUANT	-0.51847	Open Circuit (V)
PSTATMODEL	IQUANT	32	Pstat Model
PSTATSECTION	LABEL	PStat0	Pstat Section
CTRLMODE	IQUANT	1	Control Mode
IESTAB	IQUANT	0	I/E Stability
CASPEED	IQUANT	1	Control Amp Speed
CONVENTION	IQUANT	1	Current Convention
ICHRANGE	IQUANT	2	Ich Range
ICHRANGEMODE	TOGGLE	F	Ich Auto Range
ICHOFFSETENABLE	TOGGLE	T	Ich Offset Enable
ICHOFFSET	QUANT	0	Ich Offset (V)
ICHFILTER	IQUANT	3	Ich Filter
VCHRANGE	IQUANT	2	Vch Range
VCHRANGEMODE	TOGGLE	F	Vch Auto Range
VCHOFFSETENABLE	TOGGLE	T	Vch Offset Enable
VCHOFFSET	QUANT	0	Vch Offset (V)
VCHFILTER	IQUANT	3	Vch Filter
ACHRANGE	IQUANT	0	Ach Range
IERANGELOWERLIMIT	IQUANT	3	I/E Range Lower Limit
IERANGEMODE	TOGGLE	F	I/E AutoRange
IERANGE	IQUANT	11	I/E Range
POSFEEDENABLE	TOGGLE	F	Positive Feedback IR Comp
POSFEEDRESISTANCE	QUANT	0	Positive Feedback Resistance (ohm)
FC350IDIVISOR	IQUANT	0	FC350 I Divisor
FC350VRANGE	IQUANT	0	FC350 V Range
FRAMEWORKVERSION	QUANT	4.35	Framework Version
ZCURVE	TABLE
	Pt	Time	Freq	Zreal	Zimag	Zsig	Zmod	Zphz	Idc	Vdc	IERange
	#	s	Hz	ohm	ohm	V	ohm	°	A	V	#
	0	4	100007	44.1196	-0.944918	1	44.1297	-1.22693	1.03756E-005	-0.418469	10
	1	6	89134.1	43.9648	-0.9991	1	43.9761	-1.30183	1.10456E-005	-0.418449	10
	2	8	79433.6	43.9036	-1.32021	1	43.9234	-1.7224	9.3215E-006	-0.418464	10
	3	10	70800.8	43.8197	-1.55144	1	43.8472	-2.02771	1.07701E-005	-0.418474	10
	4	12	63105.5	43.7595	-1.84643	1	43.7984	-2.41616	1.19096E-005	-0.418463	10
	5	14	56243.5	43.7662	-1.99518	1	43.8117	-2.61015	1.09832E-005	-0.418436	10
	6	16	50123.7	43.7832	-2.34039	1	43.8457	-3.05978	1.20228E-005	-0.418434	10
	7	18	44681	43.8097	-2.69388	1	43.8925	-3.51872	1.00557E-005	-0.418468	10
	8	20	39811.2	43.8146	-3.12856	1	43.9261	-4.08425	9.55041E-006	-0.418472	10
	9	22	35488.3	43.8491	-3.41705	1	43.982	-4.45591	9.41244E-006	-0.418475	10
	10	24	31634.1	43.9194	-3.819	1	44.0851	-4.96964	8.53681E-006	-0.418446	10
	11	26	28173.1	43.9601	-4.22767	1	44.1629	-5.49327	9.03572E-006	-0.418461	10
	12	28	25123.7	44.0787	-4.74565	1	44.3334	-6.14497	1.00226E-005	-0.41848	10
	13	30	22389.3	44.1595	-5.29397	1	44.4757	-6.83617	9.63322E-006	-0.418441	10
	14	32	19954.4	44.243	-5.90267	1	44.635	-7.59924	9.54009E-006	-0.418472	10
	15	34	17778.2	44.3456	-6.50186	1	44.8197	-8.34115	8.09572E-006	-0.418459	10
	16	36	15852.9	44.5225	-7.30939	1	45.1185	-9.32326	8.93041E-006	-0.418441	10
	17	38	14122.3	44.6099	-8.04342	1	45.3293	-10.2209	7.5465E-006	-0.418454	10
	18	40	12587.2	44.8838	-8.96481	1	45.7703	-11.2953	7.77838E-006	-0.41846	10
	19	42	11221.1	44.9543	-9.9304	1	46.038	-12.4565	7.70728E-006	-0.418461	10
	20	44	9998.2	45.1954	-10.9884	1	46.5121	-13.6653	7.71119E-006	-0.418479	10
	21	46	8912.76	45.3801	-12.1052	1	46.9669	-14.9359	7.41853E-006	-0.418481	10
	22	48	7942.6	45.6302	-13.4435	1	47.5694	-16.416	7.989E-006	-0.418457	10
	23	50	7078.05	45.8476	-14.8788	1	48.2014	-17.9797	7.41987E-006	-0.418468	10
	24	52	6311.1	46.2167	-16.4667	1	49.0625	-19.6107	7.55916E-006	-0.418455	10
	25	54	5622.14	46.4897	-18.2371	1	49.9388	-21.4192	6.95426E-006	-0.418456	10
	26	56	5011.18	46.8354	-20.1377	1	50.9812	-23.2661	7.01556E-006	-0.418465	10
	27	59	4465.21	47.1122	-22.2434	1	52.0992	-25.2737	7.44801E-006	-0.418467	10
	28	61	3980.93	47.5967	-24.6226	1	53.5884	-27.3533	7.2046E-006	-0.418478	10
	29	63	3548.18	48.1155	-27.212	1	55.2774	-29.4906	7.32677E-006	-0.418445	10
	30	65	3162.67	48.4829	-30.1507	1	57.0934	-31.8768	7.15277E-006	-0.418485	10
	31	67	2819.01	49.1014	-33.4588	1	59.4175	-34.2714	5.94876E-006	-0.418447	10
	32	69	2511.16	49.5963	-37.0226	1	61.8908	-36.7406	7.16809E-006	-0.418458	10
	33	71	2238.63	50.2917	-40.9875	1	64.8786	-39.1799	7.33905E-006	-0.418459	10
	34	73	1995.37	50.8576	-45.4071	1	68.1785	-41.7594	7.03782E-006	-0.418453	10
	35	75	1778.51	51.4059	-50.2794	1	71.9068	-44.3653	6.87515E-006	-0.418457	10
	36	77	1584.49	52.2751	-55.7473	1	76.4229	-46.8411	7.59668E-006	-0.418459	10
	37	79	1412.76	53.0162	-61.9055	1	81.5046	-49.423	7.2369E-006	-0.418448	10
	38	81	1259.04	54.14	-68.7311	1	87.4935	-51.7722	7.76252E-006	-0.418454	10
	39	82	1121.63	55.1766	-76.4366	1	94.271	-54.176	7.09318E-006	-0.418457	10
	40	84	999.95	56.0892	-84.6944	1	101.583	-56.4854	8.1993E-006	-0.418456	10
	41	86	891.184	57.3559	-94.196	1	110.284	-58.6628	3.88087E-006	-0.41846	9
	42	88	794.163	58.36	-104.331	1	119.544	-60.7785	4.05495E-006	-0.418454	9
	43	90	707.867	59.8894	-116.028	1	130.573	-62.6989	4.27153E-006	-0.41846	9
	44	92	630.984	61.3018	-128.696	1	142.55	-64.5301	3.62677E-006	-0.418459	9
	45	94	562.189	63.0261	-143.346	1	156.59	-66.266	4.27131E-006	-0.418459	9
	46	96	501.303	65.2061	-159.31	1	172.138	-67.7406	3.63121E-006	-0.418457	9
	47	98	446.614	67.3415	-177.208	1	189.572	-69.1925	3.63517E-006	-0.418459	9
	48	100	398.209	69.7694	-197.034	1	209.022	-70.501	3.91628E-006	-0.418457	9
	49	102	354.821	72.3994	-219.184	1	230.832	-71.7209	3.44809E-006	-0.418453	9
	50	104	316.113	75.3794	-243.894	1	255.277	-72.8254	3.36651E-006	-0.418453	9
	51	106	281.926	78.7462	-271.179	1	282.381	-73.8075	3.44826E-006	-0.418456	9
	52	108	251.185	82.4448	-301.77	1	312.829	-74.7194	3.28226E-006	-0.418448	9
	53	110	223.946	86.6993	-335.633	1	346.65	-75.5162	3.33165E-006	-0.418453	9
	54	112	199.495	91.261	-373.609	1	384.594	-76.2732	2.95271E-006	-0.41845	9
	55	114	177.836	96.352	-415.556	1	426.58	-76.946	2.71979E-006	-0.418451	9
	56	116	158.533	102.724	-462.424	1	473.696	-77.4755	3.05718E-006	-0.418447	9
	57	118	141.263	109.847	-514.713	1	526.304	-77.953	3.13259E-006	-0.418454	9
	58	120	125.911	117.438	-572.681	1	584.598	-78.4112	3.12328E-006	-0.418443	9
	59	122	112.198	126.151	-637.292	1	649.657	-78.8031	3.12701E-006	-0.418446	9
	60	124	100.009	135.607	-708.974	1	721.827	-79.1717	2.8747E-006	-0.418446	9
	61	127	89.1164	147	-789.229	1	802.803	-79.4491	2.94304E-006	-0.418447	9
	62	129	79.4083	159.98	-878.389	1	892.838	-79.6779	2.90915E-006	-0.41845	9
	63	131	70.788	175.447	-977.02	1	992.65	-79.8197	3.17834E-006	-0.418442	9
	64	133	63.0971	192.528	-1087.23	1	1104.14	-79.9581	3.16351E-006	-0.418449	9
	65	135	54.5476	217.417	-1243.65	1	1262.51	-80.0837	2.36676E-006	-0.41845	8
	66	137	50.0083	233.509	-1347.54	1	1367.62	-80.1691	2.18531E-006	-0.418446	8
	67	139	46.1675	251.953	-1450.81	1	1472.52	-80.148	2.32171E-006	-0.418448	8
	68	141	40.0059	291.217	-1656.99	1	1682.38	-80.032	2.45207E-006	-0.41845	8
	69	143	35.3046	330.672	-1858.61	1	1887.79	-79.9118	2.42962E-006	-0.41845	8
	70	145	31.5793	370.92	-2063.1	1	2096.17	-79.8078	2.3101E-006	-0.418451	8
	71	147	28.5748	424.047	-2259.79	1	2299.23	-79.3721	2.43324E-006	-0.418447	8
	72	150	24.9911	485.474	-2553.37	1	2599.11	-79.2348	2.48284E-006	-0.418443	8
	73	152	22.2195	560.322	-2846.26	1	2900.89	-78.863	2.39474E-006	-0.418449	8
	74	154	20.0011	632.135	-3130.88	1	3194.06	-78.5853	2.38797E-006	-0.418451	8
	75	157	17.6486	734.977	-3506.51	1	3582.71	-78.162	2.33943E-006	-0.418447	8
	76	159	15.7934	869.556	-3876.07	1	3972.41	-77.3556	2.57697E-006	-0.418446	8
	77	161	14.2828	1019.89	-4244.63	1	4365.44	-76.4892	2.58169E-006	-0.418445	8
	78	163	12.5002	1180.72	-4766.77	1	4910.83	-76.0879	2.56572E-006	-0.418451	8
	79	166	11.323	1335.5	-5212.26	1	5380.63	-75.6287	2.50676E-006	-0.41845	8
	80	169	9.9987	1622.28	-5811.47	1	6033.66	-74.4029	2.60383E-006	-0.418456	8
