EXPLAIN
TAG	EISPOT
TITLE	LABEL	Tomato_open	Test &Identifier
DATE	LABEL	5/14/2006	Date
TIME	LABEL	14:49:55	Time
NOTES	NOTES	1	&Notes...
	
PSTAT	PSTAT	300	Potentiostat
VDC	POTEN	1.00000E-001	T	DC &Voltage (V)
FREQINIT	QUANT	1.00000E+005	Initial Fre&q. (Hz)
FREQFINAL	QUANT	1.00000E+001	Final Fre&q. (Hz)
PTSPERDEC	QUANT	2.00000E+001	Points/&decade
VAC	QUANT	1.00000E+001	AC &Voltage (mV rms)
AREA	QUANT	1.00000E+000	&Area (cm²)
DENSITY	QUANT	7.87000E+000	&Density (gm/cm³)
EQUIV	QUANT	7.00000E+000	Equiv. &Wt
CONDIT	TWOPARAM	F	1.50000E+001	0.00000E+000	Conditionin&g	Time(s)	E(V)
DELAY	TWOPARAM	F	6.00000E+002	0.00000E+000	Init. De&lay	Time(s)	Stab.(mV/s)
SPEED	SELECTOR	1	&Optimize for:
ZGUESS	QUANT	1.00000E+002	E&stimated Z (ohms)
OCVCURVE	TABLE	39
	Pt	T	Vf	Vm	Ach	Over
	#	s	V vs. Ref.	V	V	bits
	0	0.258332	-5.28120E-001	4.73376E-006	3.66000E-005	......
	1	0.516663	-5.28870E-001	4.73376E-006	-3.63400E-004	......
	2	0.774994	-5.30219E-001	4.73376E-006	1.36600E-004	......
	3	1.03333	-5.30769E-001	4.73376E-006	-6.34000E-005	......
	4	1.29166	-5.28820E-001	4.73376E-006	3.66000E-005	......
	5	1.54999	-5.27869E-001	4.73376E-006	-1.63400E-004	......
	6	1.80832	-5.26719E-001	4.73376E-006	3.66000E-005	......
	7	2.06665	-5.26370E-001	4.73376E-006	-1.63400E-004	......
	8	2.32498	-5.27369E-001	4.73376E-006	3.66000E-005	......
	9	2.58332	-5.27269E-001	4.73376E-006	-6.34000E-005	......
	10	2.84165	-5.28419E-001	4.73376E-006	2.36600E-004	......
	11	3.09998	-5.29619E-001	4.73376E-006	-1.63400E-004	......
	12	3.35831	-5.29819E-001	4.73376E-006	1.36600E-004	......
	13	3.61664	-5.30919E-001	4.73376E-006	3.66000E-005	......
	14	3.87497	-5.32119E-001	4.73376E-006	3.66000E-005	......
	15	4.1333	-5.31469E-001	4.73376E-006	-1.63400E-004	......
	16	4.39164	-5.30419E-001	4.73376E-006	3.66000E-005	......
	17	4.64997	-5.28719E-001	4.73376E-006	-6.34000E-005	......
	18	4.9083	-5.27669E-001	4.73376E-006	3.66000E-005	......
	19	5.16663	-5.27770E-001	4.73376E-006	-6.34000E-005	......
	20	5.42496	-5.27869E-001	4.73376E-006	3.66000E-005	......
	21	5.68329	-5.26469E-001	4.73376E-006	-1.63400E-004	......
	22	5.94162	-5.25220E-001	4.73376E-006	3.66000E-005	......
	23	6.19996	-5.23519E-001	4.73376E-006	-1.63400E-004	......
	24	6.45829	-5.21969E-001	4.73376E-006	1.36600E-004	......
	25	6.71662	-5.22169E-001	4.73376E-006	-6.34000E-005	......
	26	6.97495	-5.21169E-001	4.73376E-006	3.66000E-005	......
	27	7.23328	-5.20719E-001	4.73376E-006	-6.34000E-005	......
	28	7.49161	-5.21669E-001	4.73376E-006	3.66000E-005	......
	29	7.74995	-5.22370E-001	4.73376E-006	-1.63400E-004	......
	30	8.00828	-5.23470E-001	4.73376E-006	3.66000E-005	......
	31	8.26661	-5.25220E-001	4.73376E-006	-1.63400E-004	......
	32	8.52494	-5.25970E-001	4.73376E-006	3.66000E-005	......
	33	8.78327	-5.27070E-001	4.73376E-006	-1.63400E-004	......
	34	9.0416	-5.27420E-001	4.73376E-006	3.66000E-005	......
	35	9.29993	-5.27269E-001	4.73376E-006	-1.63400E-004	......
	36	9.5583	-5.27319E-001	4.73376E-006	2.36600E-004	......
	37	9.8166	-5.27919E-001	4.73376E-006	-6.34000E-005	......
	38	10.0749	-5.29570E-001	4.73376E-006	3.66000E-005	......
EOC	QUANT	-0.52957	Open Circuit (V)
PSTATMODEL	IQUANT	32	Pstat Model
PSTATSECTION	LABEL	PStat0	Pstat Section
CTRLMODE	IQUANT	1	Control Mode
IESTAB	IQUANT	0	I/E Stability
CASPEED	IQUANT	1	Control Amp Speed
CONVENTION	IQUANT	1	Current Convention
ICHRANGE	IQUANT	2	Ich Range
ICHRANGEMODE	TOGGLE	F	Ich Auto Range
ICHOFFSETENABLE	TOGGLE	T	Ich Offset Enable
ICHOFFSET	QUANT	0	Ich Offset (V)
ICHFILTER	IQUANT	3	Ich Filter
VCHRANGE	IQUANT	2	Vch Range
VCHRANGEMODE	TOGGLE	F	Vch Auto Range
VCHOFFSETENABLE	TOGGLE	T	Vch Offset Enable
VCHOFFSET	QUANT	0	Vch Offset (V)
VCHFILTER	IQUANT	3	Vch Filter
ACHRANGE	IQUANT	0	Ach Range
IERANGELOWERLIMIT	IQUANT	3	I/E Range Lower Limit
IERANGEMODE	TOGGLE	F	I/E AutoRange
IERANGE	IQUANT	11	I/E Range
POSFEEDENABLE	TOGGLE	F	Positive Feedback IR Comp
POSFEEDRESISTANCE	QUANT	0	Positive Feedback Resistance (ohm)
FC350IDIVISOR	IQUANT	0	FC350 I Divisor
FC350VRANGE	IQUANT	0	FC350 V Range
FRAMEWORKVERSION	QUANT	4.35	Framework Version
ZCURVE	TABLE
	Pt	Time	Freq	Zreal	Zimag	Zsig	Zmod	Zphz	Idc	Vdc	IERange
	#	s	Hz	ohm	ohm	V	ohm	°	A	V	#
	0	5	100007	37.9171	-0.677561	1	37.9231	-1.02374	7.38369E-006	-0.429527	10
	1	6	89134.1	37.7982	-0.939928	1	37.8098	-1.42448	8.09447E-006	-0.429511	10
	2	8	79433.6	37.7397	-1.11919	1	37.7563	-1.69864	8.94853E-006	-0.429546	10
	3	10	70800.8	37.7206	-1.32831	1	37.7439	-2.01681	6.91978E-006	-0.429513	10
	4	12	63105.5	37.6663	-1.51532	1	37.6967	-2.30378	8.81806E-006	-0.429564	10
	5	14	56243.5	37.713	-1.73942	1	37.7531	-2.64075	9.4465E-006	-0.429522	10
	6	16	50123.7	37.6796	-2.02907	1	37.7341	-3.08244	7.61806E-006	-0.429538	10
	7	18	44681	37.7477	-2.27866	1	37.8164	-3.4545	8.35634E-006	-0.429548	10
	8	20	39811.2	37.6696	-2.55387	1	37.7561	-3.87853	8.29978E-006	-0.429543	10
	9	22	35488.3	37.8048	-2.86028	1	37.9129	-4.3267	7.25041E-006	-0.429522	10
	10	24	31634.1	37.8597	-3.20016	1	37.9947	-4.83154	7.60322E-006	-0.429535	10
	11	26	28173.1	37.9472	-3.51287	1	38.1095	-5.28894	8.05728E-006	-0.429523	10
	12	28	25123.7	37.9896	-3.91601	1	38.1909	-5.88533	9.39072E-006	-0.429537	10
	13	30	22389.3	38.1165	-4.36153	1	38.3652	-6.52776	8.43088E-006	-0.429521	10
	14	32	19954.4	38.2041	-4.81367	1	38.5062	-7.18136	9.38634E-006	-0.429549	10
	15	34	17778.2	38.3172	-5.32924	1	38.686	-7.91804	8.16463E-006	-0.429529	10
	16	36	15852.9	38.442	-5.84068	1	38.8831	-8.63916	6.57775E-006	-0.429513	10
	17	38	14122.3	38.5804	-6.51065	1	39.1259	-9.5787	7.99275E-006	-0.429512	10
	18	40	12587.2	38.7327	-7.13619	1	39.3846	-10.4392	7.51963E-006	-0.429528	10
	19	42	11221.1	38.8724	-7.97729	1	39.6825	-11.5971	7.74244E-006	-0.429515	10
	20	44	9998.2	39.0756	-8.71789	1	40.0362	-12.5769	7.77791E-006	-0.42953	10
	21	46	8912.76	39.2602	-9.5996	1	40.4168	-13.7399	7.80806E-006	-0.429515	10
	22	48	7942.6	39.4524	-10.6296	1	40.8593	-15.0791	7.61103E-006	-0.429515	10
	23	50	7078.05	39.7049	-11.7953	1	41.4199	-16.5454	7.45291E-006	-0.429515	10
	24	52	6311.1	39.8907	-12.9643	1	41.9445	-18.0039	8.31463E-006	-0.429515	10
	25	54	5622.14	40.1808	-14.3889	1	42.6795	-19.7026	7.2965E-006	-0.429518	10
	26	56	5011.18	40.4415	-15.8062	1	43.4206	-21.3476	8.15416E-006	-0.429517	10
	27	58	4465.21	40.785	-17.4599	1	44.3651	-23.1756	7.32213E-006	-0.429525	10
	28	60	3980.93	40.9432	-19.3376	1	45.2801	-25.2815	8.02025E-006	-0.429514	10
	29	62	3548.18	41.3272	-21.3274	1	46.5058	-27.2966	5.70806E-006	-0.429505	10
	30	64	3162.67	41.6685	-23.7139	1	47.9438	-29.6445	6.34431E-006	-0.429507	10
	31	66	2819.01	42.1297	-26.1115	1	49.5653	-31.7902	7.80463E-006	-0.429512	10
	32	68	2511.16	42.4656	-29.0286	1	51.4391	-34.3558	7.12567E-006	-0.429517	10
	33	70	2238.63	42.8379	-32.0836	1	53.5205	-36.8315	7.57645E-006	-0.429536	10
	34	72	1995.37	43.457	-35.4802	1	56.1013	-39.2297	7.22082E-006	-0.429526	10
	35	73	1778.51	44.001	-39.3923	1	59.058	-41.8368	7.5289E-006	-0.429524	10
	36	75	1584.49	44.4161	-43.5823	1	62.227	-44.4571	7.14177E-006	-0.429528	10
	37	77	1412.76	45.1006	-48.4267	1	66.1756	-47.0367	8.31887E-006	-0.429513	10
	38	79	1259.04	45.7169	-53.8306	1	70.6241	-49.6596	6.79313E-006	-0.429526	10
	39	81	1121.63	46.3226	-59.6692	1	75.5394	-52.177	7.20576E-006	-0.429522	10
	40	83	999.95	47.1209	-66.3625	1	81.3902	-54.6232	6.90204E-006	-0.42952	10
	41	85	891.184	48.0023	-73.6063	1	87.8755	-56.8896	6.98691E-006	-0.429523	10
	42	87	794.163	48.746	-81.9283	1	95.333	-59.248	6.78432E-006	-0.429525	10
	43	89	707.867	49.6578	-91.2927	1	103.924	-61.4564	6.93598E-006	-0.429557	10
	44	91	630.984	50.8132	-101.353	1	113.377	-63.3731	3.12634E-006	-0.429523	9
	45	93	562.189	51.7581	-112.596	1	123.923	-65.3128	2.48149E-006	-0.42953	9
	46	95	501.303	53.3251	-125.372	1	136.241	-66.9582	3.13677E-006	-0.429532	9
	47	97	446.614	54.6853	-139.582	1	149.912	-68.6058	3.10249E-006	-0.429528	9
	48	99	398.209	56.2118	-155.324	1	165.182	-70.1048	3.20357E-006	-0.429539	9
	49	101	354.821	57.8974	-172.95	1	182.384	-71.4913	2.93557E-006	-0.429528	9
	50	103	316.113	59.7845	-192.652	1	201.716	-72.7597	3.03807E-006	-0.429526	9
	51	105	281.926	61.8649	-214.426	1	223.173	-73.9064	3.1634E-006	-0.429538	9
	52	107	251.185	64.2526	-238.947	1	247.435	-74.9492	3.36351E-006	-0.429528	9
	53	109	223.946	66.7947	-266.078	1	274.334	-75.908	3.27579E-006	-0.429528	9
	54	111	199.495	69.764	-296.601	1	304.695	-76.7639	3.35703E-006	-0.429525	9
	55	113	177.836	73.0008	-330.436	1	338.404	-77.5422	3.16423E-006	-0.429535	9
	56	115	158.533	76.4441	-368.142	1	375.995	-78.2693	3.02248E-006	-0.42953	9
	57	117	141.263	80.3776	-410.439	1	418.235	-78.9198	2.78874E-006	-0.429532	9
	58	119	125.911	85.0475	-457.458	1	465.296	-79.4682	2.96404E-006	-0.429535	9
	59	121	112.198	90.0207	-509.995	1	517.879	-79.9897	3.00393E-006	-0.42953	9
	60	123	100.009	95.464	-568.585	1	576.543	-80.469	2.76208E-006	-0.429537	9
	61	125	89.1164	101.691	-634.227	1	642.328	-80.8908	2.64681E-006	-0.429537	9
	62	127	79.4083	108.749	-707.223	1	715.535	-81.2582	2.53705E-006	-0.42954	9
	63	129	70.788	117.492	-788.624	1	797.328	-81.5262	2.76142E-006	-0.429539	9
	64	131	63.0971	127.413	-879.264	1	888.447	-81.7547	2.87203E-006	-0.429533	9
	65	134	54.5476	141.58	-1009.52	1	1019.4	-82.0166	2.77906E-006	-0.429539	9
	66	136	50.0083	151.304	-1095.2	1	1105.6	-82.1342	2.16154E-006	-0.429539	8
	67	138	46.1675	162.295	-1181.14	1	1192.24	-82.1763	2.21611E-006	-0.429536	8
	68	140	40.0059	181.973	-1353.43	1	1365.61	-82.3423	2.22988E-006	-0.429537	8
	69	142	35.3046	203.246	-1523.05	1	1536.55	-82.399	2.19654E-006	-0.42954	8
	70	144	31.5793	228.004	-1692.68	1	1707.97	-82.3284	2.28751E-006	-0.429537	8
	71	146	28.5748	249.071	-1861.44	1	1878.03	-82.3788	2.19674E-006	-0.429531	8
	72	148	24.9911	281.113	-2112.83	1	2131.45	-82.4213	1.98831E-006	-0.429536	8
	73	151	22.2195	308.035	-2364.08	1	2384.07	-82.5763	1.64013E-006	-0.429524	8
	74	153	20.0011	345.094	-2613.72	1	2636.41	-82.4787	1.73335E-006	-0.429529	8
	75	156	17.6486	398.044	-2939.21	1	2966.04	-82.2876	1.66546E-006	-0.429526	8
	76	158	15.7934	458.013	-3261.89	1	3293.89	-82.0071	1.7127E-006	-0.429535	8
	77	160	14.2828	526.181	-3593.79	1	3632.11	-81.6703	1.75541E-006	-0.429528	8
	78	162	12.5002	617.48	-4068.72	1	4115.31	-81.3705	1.78698E-006	-0.429533	8
	79	165	11.323	693.788	-4472.25	1	4525.74	-81.1819	1.76494E-006	-0.429539	8
	80	167	9.9987	813.97	-5026.25	1	5091.74	-80.8012	1.77393E-006	-0.429531	8
