EXPLAIN
TAG	EISPOT
TITLE	LABEL	Tomato_open	Test &Identifier
DATE	LABEL	5/14/2006	Date
TIME	LABEL	15:00:05	Time
NOTES	NOTES	1	&Notes...
	
PSTAT	PSTAT	300	Potentiostat
VDC	POTEN	1.00000E-001	T	DC &Voltage (V)
FREQINIT	QUANT	1.00000E+005	Initial Fre&q. (Hz)
FREQFINAL	QUANT	1.00000E+001	Final Fre&q. (Hz)
PTSPERDEC	QUANT	2.00000E+001	Points/&decade
VAC	QUANT	1.00000E+001	AC &Voltage (mV rms)
AREA	QUANT	1.00000E+000	&Area (cm²)
DENSITY	QUANT	7.87000E+000	&Density (gm/cm³)
EQUIV	QUANT	7.00000E+000	Equiv. &Wt
CONDIT	TWOPARAM	F	1.50000E+001	0.00000E+000	Conditionin&g	Time(s)	E(V)
DELAY	TWOPARAM	F	6.00000E+002	0.00000E+000	Init. De&lay	Time(s)	Stab.(mV/s)
SPEED	SELECTOR	1	&Optimize for:
ZGUESS	QUANT	1.00000E+002	E&stimated Z (ohms)
OCVCURVE	TABLE	39
	Pt	T	Vf	Vm	Ach	Over
	#	s	V vs. Ref.	V	V	bits
	0	0.258332	-4.99569E-001	5.01276E-006	-1.63400E-004	......
	1	0.516663	-4.99769E-001	5.01276E-006	1.36600E-004	......
	2	0.774994	-5.00519E-001	5.01276E-006	-1.63400E-004	......
	3	1.03333	-5.01469E-001	5.01276E-006	3.66000E-005	......
	4	1.29166	-5.01970E-001	5.01276E-006	-6.34000E-005	......
	5	1.54999	-5.02419E-001	5.01276E-006	3.66000E-005	......
	6	1.80832	-5.01469E-001	5.01276E-006	-1.63400E-004	......
	7	2.06665	-5.00870E-001	5.01276E-006	3.66000E-005	......
	8	2.32498	-5.01269E-001	5.01276E-006	-6.34000E-005	......
	9	2.58332	-5.00969E-001	5.01276E-006	3.66000E-005	......
	10	2.84165	-5.01269E-001	5.01276E-006	-1.63400E-004	......
	11	3.09998	-5.02069E-001	5.01276E-006	3.66000E-005	......
	12	3.35831	-5.02219E-001	5.01276E-006	-6.34000E-005	......
	13	3.61664	-5.02319E-001	5.01276E-006	3.66000E-005	......
	14	3.87497	-5.03169E-001	5.01276E-006	-6.34000E-005	......
	15	4.1333	-5.03619E-001	5.01276E-006	3.66000E-005	......
	16	4.39164	-5.03969E-001	5.01276E-006	-1.63400E-004	......
	17	4.64997	-5.04619E-001	5.01276E-006	1.36600E-004	......
	18	4.9083	-5.04369E-001	5.01276E-006	-6.34000E-005	......
	19	5.16663	-5.04019E-001	5.01276E-006	3.66000E-005	......
	20	5.42496	-5.00619E-001	5.01276E-006	-1.63400E-004	......
	21	5.68329	-4.99419E-001	5.01276E-006	1.36600E-004	......
	22	5.94162	-4.99269E-001	5.01276E-006	-6.34000E-005	......
	23	6.19996	-5.00019E-001	5.01276E-006	1.36600E-004	......
	24	6.45829	-5.01269E-001	5.01276E-006	-6.34000E-005	......
	25	6.71662	-5.01970E-001	5.01276E-006	3.66000E-005	......
	26	6.97495	-5.04219E-001	5.01276E-006	-1.63400E-004	......
	27	7.23328	-5.04819E-001	5.01276E-006	3.66000E-005	......
	28	7.49161	-5.06069E-001	5.01276E-006	-1.63400E-004	......
	29	7.74995	-5.06069E-001	5.01276E-006	1.36600E-004	......
	30	8.00828	-5.06169E-001	5.01276E-006	-2.63400E-004	......
	31	8.26661	-5.06970E-001	5.01276E-006	3.66000E-005	......
	32	8.52494	-5.08370E-001	5.01276E-006	-6.34000E-005	......
	33	8.78327	-5.09969E-001	5.01276E-006	1.36600E-004	......
	34	9.0416	-5.11869E-001	5.01276E-006	-6.34000E-005	......
	35	9.29993	-5.13419E-001	5.01276E-006	3.66000E-005	......
	36	9.5583	-5.13269E-001	5.01276E-006	-6.34000E-005	......
	37	9.8166	-5.12419E-001	5.01276E-006	3.66000E-005	......
	38	10.0749	-5.11469E-001	5.01276E-006	-1.63400E-004	......
EOC	QUANT	-0.511469	Open Circuit (V)
PSTATMODEL	IQUANT	32	Pstat Model
PSTATSECTION	LABEL	PStat0	Pstat Section
CTRLMODE	IQUANT	1	Control Mode
IESTAB	IQUANT	0	I/E Stability
CASPEED	IQUANT	1	Control Amp Speed
CONVENTION	IQUANT	1	Current Convention
ICHRANGE	IQUANT	2	Ich Range
ICHRANGEMODE	TOGGLE	F	Ich Auto Range
ICHOFFSETENABLE	TOGGLE	T	Ich Offset Enable
ICHOFFSET	QUANT	0	Ich Offset (V)
ICHFILTER	IQUANT	3	Ich Filter
VCHRANGE	IQUANT	2	Vch Range
VCHRANGEMODE	TOGGLE	F	Vch Auto Range
VCHOFFSETENABLE	TOGGLE	T	Vch Offset Enable
VCHOFFSET	QUANT	0	Vch Offset (V)
VCHFILTER	IQUANT	3	Vch Filter
ACHRANGE	IQUANT	0	Ach Range
IERANGELOWERLIMIT	IQUANT	3	I/E Range Lower Limit
IERANGEMODE	TOGGLE	F	I/E AutoRange
IERANGE	IQUANT	11	I/E Range
POSFEEDENABLE	TOGGLE	F	Positive Feedback IR Comp
POSFEEDRESISTANCE	QUANT	0	Positive Feedback Resistance (ohm)
FC350IDIVISOR	IQUANT	0	FC350 I Divisor
FC350VRANGE	IQUANT	0	FC350 V Range
FRAMEWORKVERSION	QUANT	4.35	Framework Version
ZCURVE	TABLE
	Pt	Time	Freq	Zreal	Zimag	Zsig	Zmod	Zphz	Idc	Vdc	IERange
	#	s	Hz	ohm	ohm	V	ohm	°	A	V	#
	0	6	100007	-29620.9	-334690	1	335998	-95.058	1.19278E-006	-0.411398	9
	1	10	89134.1	-65776	-374398	1	380132	-99.964	8.81203E-007	-0.411381	9
	2	14	79433.6	-87846.9	-420265	1	429348	-101.806	8.90349E-007	-0.411402	9
	3	18	70800.8	-113859	-411496	1	426958	-105.467	8.78975E-007	-0.411386	9
	4	23	63105.5	-148966	-430017	1	455089	-109.107	8.95938E-007	-0.411403	9
	5	27	56243.5	-63111.3	-591232	1	594591	-96.093	9.03985E-007	-0.411403	9
	6	31	50123.7	-104338	-572287	1	581721	-100.333	8.93121E-007	-0.411404	9
	7	35	44681	-112116	-596342	1	606789	-100.648	7.47519E-007	-0.411443	9
	8	39	39811.2	123534	418248	1	436110	73.5449	8.05212E-007	-0.411406	9
	9	43	35488.3	-431385	-809207	1	917011	-118.062	7.03156E-007	-0.411436	9
	10	47	31634.1	-15061	-1.27567E+006	1	1.27575E+006	-90.6764	9.18412E-007	-0.411403	9
	11	51	28173.1	-172353	-1.59797E+006	1	1.60724E+006	-96.156	1.07389E-007	-0.411415	8
	12	55	25123.7	-200034	865825	1	888632	103.009	4.54079E-008	-0.411468	8
	13	62	22389.3	-1.14446E+006	-2.00676E+006	1	2.31017E+006	-119.696	1.1961E-007	-0.411357	8
	14	67	19954.4	228879	-1.96926E+006	1	1.98252E+006	-83.3705	3.72128E-008	-0.411268	7
	15	74	17778.2	334677	-1.98139E+006	1	2.00946E+006	-80.4127	9.14215E-009	-0.411419	7
	16	80	15852.9	1.05982E+006	-2.76983E+006	1	2.96567E+006	-69.0617	9.64026E-010	-0.411493	7
	17	88	14122.3	-677069	-3.0157E+006	1	3.09078E+006	-102.654	1.06113E-008	-0.411417	7
	18	96	12587.2	-279287	-3.09343E+006	1	3.10602E+006	-95.159	9.42842E-009	-0.411415	7
