EXPLAIN
TAG	EISPOT
TITLE	LABEL	Tomato_open	Test &Identifier
DATE	LABEL	5/14/2006	Date
TIME	LABEL	14:39:31	Time
NOTES	NOTES	1	&Notes...
	
PSTAT	PSTAT	300	Potentiostat
VDC	POTEN	1.00000E-001	T	DC &Voltage (V)
FREQINIT	QUANT	1.00000E+005	Initial Fre&q. (Hz)
FREQFINAL	QUANT	1.00000E+001	Final Fre&q. (Hz)
PTSPERDEC	QUANT	2.00000E+001	Points/&decade
VAC	QUANT	1.00000E+001	AC &Voltage (mV rms)
AREA	QUANT	1.00000E+000	&Area (cm²)
DENSITY	QUANT	7.87000E+000	&Density (gm/cm³)
EQUIV	QUANT	7.00000E+000	Equiv. &Wt
CONDIT	TWOPARAM	F	1.50000E+001	0.00000E+000	Conditionin&g	Time(s)	E(V)
DELAY	TWOPARAM	F	6.00000E+002	0.00000E+000	Init. De&lay	Time(s)	Stab.(mV/s)
SPEED	SELECTOR	1	&Optimize for:
ZGUESS	QUANT	1.00000E+002	E&stimated Z (ohms)
OCVCURVE	TABLE	39
	Pt	T	Vf	Vm	Ach	Over
	#	s	V vs. Ref.	V	V	bits
	0	0.258332	-5.58320E-001	5.62576E-006	1.36600E-004	......
	1	0.516663	-5.60719E-001	5.62576E-006	-1.63400E-004	......
	2	0.774994	-5.63670E-001	5.62576E-006	3.66000E-005	......
	3	1.03333	-5.63619E-001	5.62576E-006	-1.63400E-004	......
	4	1.29166	-5.63969E-001	5.62576E-006	3.66000E-005	......
	5	1.54999	-5.65120E-001	5.62576E-006	-1.63400E-004	......
	6	1.80832	-5.62119E-001	5.62576E-006	3.66000E-005	......
	7	2.06665	-5.60969E-001	5.62576E-006	-1.63400E-004	......
	8	2.32498	-5.58769E-001	5.62576E-006	1.36600E-004	......
	9	2.58332	-5.55470E-001	5.62576E-006	-2.63400E-004	......
	10	2.84165	-5.54119E-001	5.62576E-006	3.66000E-005	......
	11	3.09998	-5.55219E-001	5.62576E-006	-6.34000E-005	......
	12	3.35831	-5.57419E-001	5.62576E-006	3.66000E-005	......
	13	3.61664	-5.56569E-001	5.62576E-006	-1.63400E-004	......
	14	3.87497	-5.54370E-001	5.62576E-006	3.66000E-005	......
	15	4.1333	-5.52719E-001	5.62576E-006	-2.63400E-004	......
	16	4.39164	-5.52869E-001	5.62576E-006	3.66000E-005	......
	17	4.64997	-5.53620E-001	5.62576E-006	-1.63400E-004	......
	18	4.9083	-5.52219E-001	5.62576E-006	3.66000E-005	......
	19	5.16663	-5.52119E-001	5.62576E-006	-1.63400E-004	......
	20	5.42496	-5.52419E-001	5.62576E-006	3.66000E-005	......
	21	5.68329	-5.51369E-001	5.62576E-006	-6.34000E-005	......
	22	5.94162	-5.51969E-001	5.62576E-006	3.66000E-005	......
	23	6.19996	-5.50770E-001	5.62576E-006	-6.34000E-005	......
	24	6.45829	-5.53569E-001	5.62576E-006	3.66000E-005	......
	25	6.71662	-5.54069E-001	5.62576E-006	-6.34000E-005	......
	26	6.97495	-5.54219E-001	5.62576E-006	3.66000E-005	......
	27	7.23328	-5.54069E-001	5.62576E-006	-1.63400E-004	......
	28	7.49161	-5.55869E-001	5.62576E-006	3.66000E-005	......
	29	7.74995	-5.55770E-001	5.62576E-006	-6.34000E-005	......
	30	8.00828	-5.54569E-001	5.62576E-006	3.66000E-005	......
	31	8.26661	-5.53270E-001	5.62576E-006	-2.63400E-004	......
	32	8.52494	-5.52619E-001	5.62576E-006	3.66000E-005	......
	33	8.78327	-5.54219E-001	5.62576E-006	-1.63400E-004	......
	34	9.0416	-5.53670E-001	5.62576E-006	3.66000E-005	......
	35	9.29993	-5.52869E-001	5.62576E-006	-6.34000E-005	......
	36	9.5583	-5.53169E-001	5.62576E-006	2.36600E-004	......
	37	9.8166	-5.53620E-001	5.62576E-006	-6.34000E-005	......
	38	10.0749	-5.54069E-001	5.62576E-006	3.66000E-005	......
EOC	QUANT	-0.554069	Open Circuit (V)
PSTATMODEL	IQUANT	32	Pstat Model
PSTATSECTION	LABEL	PStat0	Pstat Section
CTRLMODE	IQUANT	1	Control Mode
IESTAB	IQUANT	0	I/E Stability
CASPEED	IQUANT	1	Control Amp Speed
CONVENTION	IQUANT	1	Current Convention
ICHRANGE	IQUANT	2	Ich Range
ICHRANGEMODE	TOGGLE	F	Ich Auto Range
ICHOFFSETENABLE	TOGGLE	T	Ich Offset Enable
ICHOFFSET	QUANT	0	Ich Offset (V)
ICHFILTER	IQUANT	3	Ich Filter
VCHRANGE	IQUANT	2	Vch Range
VCHRANGEMODE	TOGGLE	F	Vch Auto Range
VCHOFFSETENABLE	TOGGLE	T	Vch Offset Enable
VCHOFFSET	QUANT	0	Vch Offset (V)
VCHFILTER	IQUANT	3	Vch Filter
ACHRANGE	IQUANT	0	Ach Range
IERANGELOWERLIMIT	IQUANT	3	I/E Range Lower Limit
IERANGEMODE	TOGGLE	F	I/E AutoRange
IERANGE	IQUANT	11	I/E Range
POSFEEDENABLE	TOGGLE	F	Positive Feedback IR Comp
POSFEEDRESISTANCE	QUANT	0	Positive Feedback Resistance (ohm)
FC350IDIVISOR	IQUANT	0	FC350 I Divisor
FC350VRANGE	IQUANT	0	FC350 V Range
FRAMEWORKVERSION	QUANT	4.35	Framework Version
ZCURVE	TABLE
	Pt	Time	Freq	Zreal	Zimag	Zsig	Zmod	Zphz	Idc	Vdc	IERange
	#	s	Hz	ohm	ohm	V	ohm	°	A	V	#
	0	4	100007	37.9741	-0.80412	1	37.9826	-1.21309	6.41838E-006	-0.453973	10
	1	6	89134.1	37.8481	-0.892628	1	37.8586	-1.35104	9.334E-006	-0.453977	10
	2	8	79433.6	37.7219	-1.10987	1	37.7382	-1.68529	7.16681E-006	-0.453977	10
	3	10	70800.8	37.6843	-1.29626	1	37.7065	-1.97008	9.04338E-006	-0.453982	10
	4	12	63105.5	37.6675	-1.52723	1	37.6985	-2.32178	1.01024E-005	-0.454017	10
	5	14	56243.5	37.7192	-1.71663	1	37.7582	-2.60579	1.06293E-005	-0.45401	10
	6	16	50123.7	37.7289	-1.98968	1	37.7814	-3.01876	1.06706E-005	-0.454008	10
	7	18	44681	37.7607	-2.22523	1	37.8262	-3.37252	9.06588E-006	-0.454024	10
	8	20	39811.2	37.8347	-2.50182	1	37.9173	-3.78317	7.98275E-006	-0.45398	10
	9	22	35488.3	37.7877	-2.82809	1	37.8934	-4.28013	8.15791E-006	-0.453985	10
	10	24	31634.1	37.9085	-3.13707	1	38.0381	-4.73067	8.85572E-006	-0.454014	10
	11	26	28173.1	37.9452	-3.45416	1	38.102	-5.20131	8.739E-006	-0.453988	10
	12	28	25123.7	38.0673	-3.87636	1	38.2642	-5.81434	9.36994E-006	-0.453974	10
	13	30	22389.3	38.1195	-4.25514	1	38.3563	-6.36935	9.99041E-006	-0.454	10
	14	32	19954.4	38.2249	-4.70083	1	38.5129	-7.01093	7.5465E-006	-0.453987	10
	15	34	17778.2	38.3657	-5.26963	1	38.7259	-7.82078	8.22744E-006	-0.453986	10
	16	36	15852.9	38.5452	-5.78003	1	38.9762	-8.52822	7.94009E-006	-0.453975	10
	17	38	14122.3	38.6246	-6.43362	1	39.1567	-9.45682	7.31056E-006	-0.453982	10
	18	40	12587.2	38.8136	-7.11014	1	39.4594	-10.3807	7.40728E-006	-0.453991	10
	19	42	11221.1	38.9693	-7.84742	1	39.7516	-11.3856	7.04462E-006	-0.45398	10
	20	44	9998.2	39.146	-8.66442	1	40.0934	-12.4804	7.22541E-006	-0.453977	10
	21	46	8912.76	39.274	-9.5396	1	40.416	-13.6527	6.03103E-006	-0.453971	10
	22	48	7942.6	39.53	-10.4655	1	40.8919	-14.8287	7.08337E-006	-0.453979	10
	23	50	7078.05	39.7597	-11.5469	1	41.4024	-16.1942	6.61181E-006	-0.453978	10
	24	52	6311.1	39.9806	-12.758	1	41.9668	-17.6981	7.01713E-006	-0.453978	10
	25	54	5622.14	40.2981	-14.1352	1	42.7052	-19.3291	7.0965E-006	-0.453986	10
	26	56	5011.18	40.4459	-15.6147	1	43.3554	-21.1098	7.08916E-006	-0.453981	10
	27	58	4465.21	40.8128	-17.192	1	44.2859	-22.8428	7.27916E-006	-0.453982	10
	28	60	3980.93	41.1876	-19.0036	1	45.3603	-24.7681	5.94416E-006	-0.453968	10
	29	62	3548.18	41.5025	-20.9312	1	46.482	-26.7635	7.67963E-006	-0.453995	10
	30	63	3162.67	41.8328	-23.2945	1	47.8813	-29.1111	6.9421E-006	-0.453996	10
	31	65	2819.01	42.2424	-25.7236	1	49.4583	-31.3395	5.11416E-006	-0.453973	10
	32	67	2511.16	42.5966	-28.5167	1	51.2608	-33.8007	6.62188E-006	-0.453966	10
	33	69	2238.63	43.0765	-31.575	1	53.4094	-36.2413	6.51148E-006	-0.453964	10
	34	71	1995.37	43.5852	-34.9389	1	55.8605	-38.7165	6.68448E-006	-0.453961	10
	35	73	1778.51	44.07	-38.7007	1	58.6508	-41.2884	6.92091E-006	-0.453962	10
	36	75	1584.49	44.5575	-42.9671	1	61.8994	-43.959	7.20416E-006	-0.453957	10
	37	77	1412.76	45.2644	-47.6219	1	65.7016	-46.4539	5.95573E-006	-0.453949	10
	38	79	1259.04	45.9811	-52.7681	1	69.991	-48.9317	7.28465E-006	-0.453971	10
	39	81	1121.63	46.4369	-58.9459	1	75.04	-51.7694	7.42944E-006	-0.453973	10
	40	83	999.95	47.3046	-65.2064	1	80.558	-54.0407	7.94821E-006	-0.453966	10
	41	85	891.184	48.1738	-72.2087	1	86.8033	-56.2909	6.87355E-006	-0.45397	10
	42	87	794.163	48.9364	-80.6295	1	94.318	-58.7452	7.14987E-006	-0.453966	10
	43	89	707.867	49.9895	-89.6548	1	102.65	-60.857	5.34963E-006	-0.453969	10
	44	91	630.984	51.0456	-99.441	1	111.777	-62.8273	3.34674E-006	-0.453969	9
	45	93	562.189	52.1676	-110.808	1	122.474	-64.7892	2.96017E-006	-0.453975	9
	46	95	501.303	53.3791	-123.123	1	134.196	-66.5612	3.19923E-006	-0.453975	9
	47	97	446.614	54.7823	-137.089	1	147.63	-68.2178	3.61463E-006	-0.453971	9
	48	99	398.209	56.2316	-152.531	1	162.566	-69.7633	2.98368E-006	-0.453981	9
	49	101	354.821	57.8894	-169.887	1	179.48	-71.1834	2.73484E-006	-0.453973	9
	50	103	316.113	59.7097	-189.274	1	198.469	-72.4912	2.53728E-006	-0.453971	9
	51	105	281.926	61.7281	-210.662	1	219.519	-73.6684	2.34513E-006	-0.453982	9
	52	107	251.185	63.9605	-234.771	1	243.328	-74.7603	2.32713E-006	-0.45398	9
	53	109	223.946	66.4688	-261.487	1	269.802	-75.7377	2.38435E-006	-0.453975	9
	54	111	199.495	69.3669	-291.501	1	299.64	-76.6146	2.5946E-006	-0.453983	9
	55	113	177.836	72.5731	-324.82	1	332.829	-77.4055	2.67865E-006	-0.453984	9
	56	115	158.533	76.0853	-361.997	1	369.907	-78.1302	2.71043E-006	-0.453981	9
	57	117	141.263	80.1368	-403.566	1	411.446	-78.7688	2.70667E-006	-0.453979	9
	58	119	125.911	84.7345	-449.817	1	457.729	-79.3319	2.99812E-006	-0.453981	9
	59	121	112.198	90.609	-501.506	1	509.626	-79.7586	3.52459E-006	-0.45398	9
	60	123	100.009	95.93	-559.151	1	567.32	-80.2649	3.31454E-006	-0.453979	9
	61	125	89.1164	111.915	-622.602	1	632.58	-79.8097	7.16002E-006	-0.453978	9
	62	127	79.4083	113.474	-694.735	1	703.941	-80.7236	3.60962E-006	-0.453982	9
	63	129	70.788	120.367	-774.381	1	783.68	-81.1649	2.98909E-006	-0.453986	9
	64	131	63.0971	128.028	-864.349	1	873.78	-81.5746	2.6684E-006	-0.453987	9
	65	133	54.5476	142.636	-992.12	1	1002.32	-81.8187	2.56882E-006	-0.45399	9
	66	136	50.0083	150.23	-1077.5	1	1087.92	-82.0627	1.45353E-006	-0.453987	8
	67	138	46.1675	157.157	-1163.2	1	1173.77	-82.3055	1.28604E-006	-0.454	8
	68	140	40.0059	179.668	-1330.06	1	1342.14	-82.3069	1.42905E-006	-0.453993	8
	69	142	35.3046	200.946	-1499.66	1	1513.06	-82.3681	1.5466E-006	-0.453988	8
	70	144	31.5793	217.584	-1665.46	1	1679.62	-82.5568	1.23117E-006	-0.453989	8
	71	146	28.5748	237.25	-1830.74	1	1846.05	-82.6161	1.40389E-006	-0.453989	8
	72	148	24.9911	270.529	-2058.78	1	2076.48	-82.5141	1.5272E-006	-0.453994	8
	73	151	22.2195	311.24	-2328.81	1	2349.52	-82.3877	1.2334E-006	-0.453986	8
	74	153	20.0011	339.039	-2569.92	1	2592.19	-82.4846	1.21144E-006	-0.453991	8
	75	156	17.6486	385.673	-2891.34	1	2916.95	-82.4022	1.26934E-006	-0.453983	8
	76	158	15.7934	441.138	-3215.2	1	3245.32	-82.1876	1.24417E-006	-0.453983	8
	77	160	14.2828	489.017	-3538.16	1	3571.8	-82.1309	9.97709E-007	-0.453979	8
	78	162	12.5002	560.788	-4020.16	1	4059.09	-82.0588	1.05223E-006	-0.453983	8
	79	165	11.323	643.049	-4404.44	1	4451.13	-81.6935	1.14989E-006	-0.453985	8
	80	167	9.9987	777.418	-4948.36	1	5009.05	-81.0714	1.23581E-006	-0.453975	8
