EXPLAIN
TAG	EISPOT
TITLE	LABEL	Tomato_open	Test &Identifier
DATE	LABEL	5/14/2006	Date
TIME	LABEL	14:55:04	Time
NOTES	NOTES	1	&Notes...
	
PSTAT	PSTAT	300	Potentiostat
VDC	POTEN	1.00000E-001	T	DC &Voltage (V)
FREQINIT	QUANT	1.00000E+005	Initial Fre&q. (Hz)
FREQFINAL	QUANT	1.00000E+001	Final Fre&q. (Hz)
PTSPERDEC	QUANT	2.00000E+001	Points/&decade
VAC	QUANT	1.00000E+001	AC &Voltage (mV rms)
AREA	QUANT	1.00000E+000	&Area (cm²)
DENSITY	QUANT	7.87000E+000	&Density (gm/cm³)
EQUIV	QUANT	7.00000E+000	Equiv. &Wt
CONDIT	TWOPARAM	F	1.50000E+001	0.00000E+000	Conditionin&g	Time(s)	E(V)
DELAY	TWOPARAM	F	6.00000E+002	0.00000E+000	Init. De&lay	Time(s)	Stab.(mV/s)
SPEED	SELECTOR	1	&Optimize for:
ZGUESS	QUANT	1.00000E+002	E&stimated Z (ohms)
OCVCURVE	TABLE	39
	Pt	T	Vf	Vm	Ach	Over
	#	s	V vs. Ref.	V	V	bits
	0	0.258332	-4.97269E-001	4.36576E-006	3.36600E-004	......
	1	0.516663	-4.98470E-001	4.36576E-006	2.36600E-004	......
	2	0.774994	-4.99569E-001	4.36576E-006	2.36600E-004	......
	3	1.03333	-5.00269E-001	4.36576E-006	3.36600E-004	......
	4	1.29166	-5.00719E-001	4.36576E-006	2.36600E-004	......
	5	1.54999	-5.01419E-001	4.36576E-006	2.36600E-004	......
	6	1.80832	-4.99519E-001	4.36576E-006	1.36600E-004	......
	7	2.06665	-4.99169E-001	4.36576E-006	2.36600E-004	......
	8	2.32498	-5.00170E-001	4.36576E-006	2.36600E-004	......
	9	2.58332	-5.01269E-001	4.36576E-006	3.66000E-005	......
	10	2.84165	-5.02320E-001	4.36576E-006	1.36600E-004	......
	11	3.09998	-5.03919E-001	4.36576E-006	2.36600E-004	......
	12	3.35831	-5.07119E-001	4.36576E-006	2.36600E-004	......
	13	3.61664	-5.11119E-001	4.36576E-006	2.36600E-004	......
	14	3.87497	-5.13469E-001	4.36576E-006	2.36600E-004	......
	15	4.1333	-5.14169E-001	4.36576E-006	2.36600E-004	......
	16	4.39164	-5.14969E-001	4.36576E-006	3.36600E-004	......
	17	4.64997	-5.16419E-001	4.36576E-006	3.66000E-005	......
	18	4.9083	-5.16419E-001	4.36576E-006	2.36600E-004	......
	19	5.16663	-5.16119E-001	4.36576E-006	2.36600E-004	......
	20	5.42496	-5.15819E-001	4.36576E-006	2.36600E-004	......
	21	5.68329	-5.15619E-001	4.36576E-006	2.36600E-004	......
	22	5.94162	-5.14170E-001	4.36576E-006	2.36600E-004	......
	23	6.19996	-5.12469E-001	4.36576E-006	2.36600E-004	......
	24	6.45829	-5.11319E-001	4.36576E-006	2.36600E-004	......
	25	6.71662	-5.10419E-001	4.36576E-006	2.36600E-004	......
	26	6.97495	-5.10220E-001	4.36576E-006	3.36600E-004	......
	27	7.23328	-5.10269E-001	4.36576E-006	2.36600E-004	......
	28	7.49161	-5.10620E-001	4.36576E-006	2.36600E-004	......
	29	7.74995	-5.07519E-001	4.36576E-006	2.36600E-004	......
	30	8.00828	-5.04470E-001	4.36576E-006	1.36600E-004	......
	31	8.26661	-5.03519E-001	4.36576E-006	1.36600E-004	......
	32	8.52494	-5.03370E-001	4.36576E-006	2.36600E-004	......
	33	8.78327	-5.03770E-001	4.36576E-006	3.36600E-004	......
	34	9.0416	-5.02169E-001	4.36576E-006	2.36600E-004	......
	35	9.29993	-5.01669E-001	4.36576E-006	3.36600E-004	......
	36	9.5583	-5.01570E-001	4.36576E-006	3.36600E-004	......
	37	9.8166	-5.06969E-001	4.36576E-006	2.36600E-004	......
	38	10.0749	-5.10570E-001	4.36576E-006	2.36600E-004	......
EOC	QUANT	-0.51057	Open Circuit (V)
PSTATMODEL	IQUANT	32	Pstat Model
PSTATSECTION	LABEL	PStat0	Pstat Section
CTRLMODE	IQUANT	1	Control Mode
IESTAB	IQUANT	0	I/E Stability
CASPEED	IQUANT	1	Control Amp Speed
CONVENTION	IQUANT	1	Current Convention
ICHRANGE	IQUANT	2	Ich Range
ICHRANGEMODE	TOGGLE	F	Ich Auto Range
ICHOFFSETENABLE	TOGGLE	T	Ich Offset Enable
ICHOFFSET	QUANT	0	Ich Offset (V)
ICHFILTER	IQUANT	3	Ich Filter
VCHRANGE	IQUANT	2	Vch Range
VCHRANGEMODE	TOGGLE	F	Vch Auto Range
VCHOFFSETENABLE	TOGGLE	T	Vch Offset Enable
VCHOFFSET	QUANT	0	Vch Offset (V)
VCHFILTER	IQUANT	3	Vch Filter
ACHRANGE	IQUANT	0	Ach Range
IERANGELOWERLIMIT	IQUANT	3	I/E Range Lower Limit
IERANGEMODE	TOGGLE	F	I/E AutoRange
IERANGE	IQUANT	11	I/E Range
POSFEEDENABLE	TOGGLE	F	Positive Feedback IR Comp
POSFEEDRESISTANCE	QUANT	0	Positive Feedback Resistance (ohm)
FC350IDIVISOR	IQUANT	0	FC350 I Divisor
FC350VRANGE	IQUANT	0	FC350 V Range
FRAMEWORKVERSION	QUANT	4.35	Framework Version
ZCURVE	TABLE
	Pt	Time	Freq	Zreal	Zimag	Zsig	Zmod	Zphz	Idc	Vdc	IERange
	#	s	Hz	ohm	ohm	V	ohm	°	A	V	#
	0	4	100007	37.8983	-0.699736	1	37.9048	-1.05776	8.65322E-006	-0.410393	10
	1	6	89134.1	37.7399	-0.923015	1	37.7512	-1.40102	8.74353E-006	-0.410397	10
	2	8	79433.6	37.6838	-1.13768	1	37.7009	-1.72925	6.78463E-006	-0.410403	10
	3	10	70800.8	37.6852	-1.34083	1	37.709	-2.0377	7.39728E-006	-0.410414	10
	4	12	63105.5	37.6512	-1.54883	1	37.6831	-2.35561	8.56603E-006	-0.41043	10
	5	14	56243.5	37.6169	-1.73206	1	37.6568	-2.63631	7.12197E-006	-0.41042	10
	6	16	50123.7	37.6204	-1.99512	1	37.6733	-3.03571	8.06697E-006	-0.410419	10
	7	18	44681	37.6916	-2.26291	1	37.7595	-3.43578	1.02057E-005	-0.410407	10
	8	20	39811.2	37.6373	-2.60088	1	37.727	-3.95308	7.88197E-006	-0.410413	10
	9	22	35488.3	37.737	-2.83565	1	37.8434	-4.29727	1.03496E-005	-0.410433	10
	10	24	31634.1	37.7607	-3.21734	1	37.8975	-4.87003	7.87025E-006	-0.410402	10
	11	26	28173.1	37.8931	-3.50266	1	38.0547	-5.28114	8.88056E-006	-0.410413	10
	12	28	25123.7	37.9113	-3.92888	1	38.1144	-5.91664	9.55603E-006	-0.4104	10
	13	30	22389.3	38.0263	-4.40539	1	38.2807	-6.60831	6.92509E-006	-0.410418	10
	14	32	19954.4	38.1613	-4.85214	1	38.4685	-7.24617	1.00551E-005	-0.410423	10
	15	34	17778.2	38.2722	-5.30614	1	38.6383	-7.89329	8.41494E-006	-0.41042	10
	16	35	15852.9	38.3721	-5.90123	1	38.8232	-8.743	8.33478E-006	-0.410431	10
	17	37	14122.3	38.5073	-6.48069	1	39.0489	-9.5532	7.68713E-006	-0.410403	10
	18	39	12587.2	38.6548	-7.1535	1	39.3112	-10.4846	7.72291E-006	-0.410398	10
	19	41	11221.1	38.8742	-7.92574	1	39.6739	-11.5236	7.78603E-006	-0.410413	10
	20	43	9998.2	39.0438	-8.7131	1	40.0042	-12.5801	7.78072E-006	-0.410403	10
	21	45	8912.76	39.2213	-9.6791	1	40.398	-13.8625	6.84103E-006	-0.410408	10
	22	47	7942.6	39.4192	-10.6412	1	40.8302	-15.1069	8.07634E-006	-0.41041	10
	23	49	7078.05	39.5473	-11.7432	1	41.2539	-16.5383	7.59009E-006	-0.410409	10
	24	51	6311.1	39.8295	-13.0187	1	41.9032	-18.1005	7.35525E-006	-0.410408	10
	25	53	5622.14	40.0276	-14.3475	1	42.5213	-19.7198	8.42853E-006	-0.410409	10
	26	55	5011.18	40.3344	-15.8569	1	43.3394	-21.4616	8.00088E-006	-0.410415	10
	27	57	4465.21	40.6058	-17.5677	1	44.2431	-23.3952	7.57806E-006	-0.410401	10
	28	59	3980.93	40.9314	-19.4221	1	45.3056	-25.3846	8.71947E-006	-0.410387	10
	29	61	3548.18	41.2832	-21.452	1	46.5241	-27.4577	8.70228E-006	-0.410393	10
	30	63	3162.67	41.6467	-23.7382	1	47.9369	-29.6827	6.60593E-006	-0.410399	10
	31	65	2819.01	42.0853	-26.1633	1	49.5549	-31.8681	8.77259E-006	-0.410423	10
	32	67	2511.16	42.5209	-29.1499	1	51.5533	-34.4324	7.13749E-006	-0.410407	10
	33	69	2238.63	42.8411	-32.098	1	53.5317	-36.8418	7.9731E-006	-0.4104	10
	34	71	1995.37	43.317	-35.6057	1	56.0725	-39.4195	7.72437E-006	-0.410414	10
	35	73	1778.51	43.7817	-39.4188	1	58.9125	-41.9982	7.58046E-006	-0.410404	10
	36	75	1584.49	44.4253	-43.9082	1	62.4623	-44.6646	7.7898E-006	-0.410405	10
	37	77	1412.76	44.8069	-48.6513	1	66.1408	-47.3555	9.18031E-006	-0.410421	10
	38	79	1259.04	45.4403	-53.7398	1	70.3761	-49.7834	8.19482E-006	-0.410419	10
	39	81	1121.63	46.3144	-59.8605	1	75.6856	-52.2707	8.27002E-006	-0.410412	10
	40	83	999.95	47.0267	-66.3975	1	81.3643	-54.6916	7.83113E-006	-0.410413	10
	41	85	891.184	47.8084	-74.0062	1	88.1054	-57.1373	7.47238E-006	-0.410405	10
	42	87	794.163	49.0139	-82.3113	1	95.799	-59.2275	7.90394E-006	-0.41041	10
	43	89	707.867	49.9369	-91.6429	1	104.365	-61.4137	8.21292E-006	-0.410425	10
	44	91	630.984	50.946	-102.066	1	114.074	-63.474	3.83732E-006	-0.410414	9
	45	93	562.189	52.1328	-113.43	1	124.837	-65.3164	4.15607E-006	-0.410417	9
	46	95	501.303	53.3179	-125.791	1	136.625	-67.0299	3.63874E-006	-0.410409	9
	47	97	446.614	54.7269	-140.051	1	150.364	-68.6562	3.79418E-006	-0.410412	9
	48	99	398.209	56.2837	-155.848	1	165.7	-70.1431	3.97332E-006	-0.41041	9
	49	101	354.821	58.0449	-173.54	1	182.99	-71.5062	3.99857E-006	-0.410418	9
	50	103	316.113	59.9667	-193.304	1	202.392	-72.7651	3.86626E-006	-0.410413	9
	51	105	281.926	62.082	-215.136	1	223.914	-73.9034	3.63963E-006	-0.410424	9
	52	107	251.185	64.3893	-239.676	1	248.175	-74.9625	3.50429E-006	-0.410417	9
	53	109	223.946	66.9569	-266.912	1	275.182	-75.9175	3.31506E-006	-0.41042	9
	54	111	199.495	69.9675	-297.538	1	305.653	-76.767	3.49674E-006	-0.410417	9
	55	113	177.836	73.2934	-331.483	1	339.489	-77.5321	3.5662E-006	-0.410418	9
	56	115	158.533	77.1041	-369.364	1	377.326	-78.2089	3.72823E-006	-0.410413	9
	57	117	141.263	81.2103	-411.724	1	419.657	-78.8419	3.66118E-006	-0.410409	9
	58	119	125.911	85.6232	-458.796	1	466.717	-79.4287	3.46935E-006	-0.410411	9
	59	121	112.198	90.6542	-511.574	1	519.545	-79.9511	3.21135E-006	-0.410405	9
	60	123	100.009	96.439	-570.332	1	578.428	-80.4025	3.17827E-006	-0.410418	9
	61	125	89.1164	103.236	-635.952	1	644.277	-80.7795	3.38528E-006	-0.410413	9
	62	127	79.4083	110.841	-709.443	1	718.05	-81.1201	3.33923E-006	-0.410415	9
	63	129	70.788	118.848	-790.73	1	799.611	-81.4523	3.04367E-006	-0.410409	9
	64	131	63.0971	127.627	-881.541	1	890.732	-81.7621	2.82221E-006	-0.410419	9
	65	133	54.5476	141.016	-1012.37	1	1022.14	-82.0701	2.77649E-006	-0.410427	9
	66	135	50.0083	150.806	-1098.31	1	1108.61	-82.1818	2.02654E-006	-0.410425	8
	67	137	46.1675	160.851	-1184.62	1	1195.49	-82.2675	2.00441E-006	-0.410421	8
	68	139	40.0059	180.021	-1357.37	1	1369.25	-82.4452	1.94761E-006	-0.410419	8
	69	142	35.3046	203.842	-1527.75	1	1541.28	-82.4001	2.10858E-006	-0.41043	8
	70	144	31.5793	227.362	-1698.58	1	1713.73	-82.376	2.26185E-006	-0.410424	8
	71	146	28.5748	254.013	-1867.88	1	1885.07	-82.2559	2.06066E-006	-0.410427	8
	72	148	24.9911	289.612	-2121.38	1	2141.06	-82.226	2.29678E-006	-0.410434	8
	73	150	22.2195	327.078	-2369.63	1	2392.1	-82.1412	2.17066E-006	-0.410426	8
	74	153	20.0011	360.891	-2617.96	1	2642.71	-82.1511	2.08211E-006	-0.410425	8
	75	155	17.6486	431.86	-2940.85	1	2972.39	-81.6459	2.28096E-006	-0.410432	8
	76	157	15.7934	487.777	-3286.84	1	3322.83	-81.5587	2.1279E-006	-0.410428	8
	77	159	14.2828	563.394	-3597.21	1	3641.07	-81.0987	2.38991E-006	-0.410422	8
	78	162	12.5002	686.086	-4066.22	1	4123.69	-80.4228	2.39173E-006	-0.410432	8
	79	164	11.323	776.457	-4466.87	1	4533.85	-80.1391	2.44191E-006	-0.410429	8
	80	176	9.9987	902.571	-5031.04	1	5111.36	-79.8293	2.23306E-006	-0.410424	8
