EXPLAIN
TAG	EISPOT
TITLE	LABEL	Tomato_open	Test &Identifier
DATE	LABEL	5/14/2006	Date
TIME	LABEL	14:45:02	Time
NOTES	NOTES	1	&Notes...
	
PSTAT	PSTAT	300	Potentiostat
VDC	POTEN	1.00000E-001	T	DC &Voltage (V)
FREQINIT	QUANT	1.00000E+005	Initial Fre&q. (Hz)
FREQFINAL	QUANT	1.00000E+001	Final Fre&q. (Hz)
PTSPERDEC	QUANT	2.00000E+001	Points/&decade
VAC	QUANT	1.00000E+001	AC &Voltage (mV rms)
AREA	QUANT	1.00000E+000	&Area (cm²)
DENSITY	QUANT	7.87000E+000	&Density (gm/cm³)
EQUIV	QUANT	7.00000E+000	Equiv. &Wt
CONDIT	TWOPARAM	F	1.50000E+001	0.00000E+000	Conditionin&g	Time(s)	E(V)
DELAY	TWOPARAM	F	6.00000E+002	0.00000E+000	Init. De&lay	Time(s)	Stab.(mV/s)
SPEED	SELECTOR	1	&Optimize for:
ZGUESS	QUANT	1.00000E+002	E&stimated Z (ohms)
OCVCURVE	TABLE	39
	Pt	T	Vf	Vm	Ach	Over
	#	s	V vs. Ref.	V	V	bits
	0	0.258332	-5.27770E-001	4.12276E-006	1.36600E-004	......
	1	0.516663	-5.23469E-001	4.12276E-006	-1.63400E-004	......
	2	0.774994	-5.22469E-001	4.12276E-006	3.66000E-005	......
	3	1.03333	-5.20920E-001	4.12276E-006	-1.63400E-004	......
	4	1.29166	-5.19669E-001	4.12276E-006	3.66000E-005	......
	5	1.54999	-5.18969E-001	4.12276E-006	-1.63400E-004	......
	6	1.80832	-5.19170E-001	4.12276E-006	1.36600E-004	......
	7	2.06665	-5.19219E-001	4.12276E-006	-1.63400E-004	......
	8	2.32498	-5.19819E-001	4.12276E-006	1.36600E-004	......
	9	2.58332	-5.20669E-001	4.12276E-006	-6.34000E-005	......
	10	2.84165	-5.24570E-001	4.12276E-006	3.66000E-005	......
	11	3.09998	-5.29719E-001	4.12276E-006	-6.34000E-005	......
	12	3.35831	-5.30970E-001	4.12276E-006	3.66000E-005	......
	13	3.61664	-5.29469E-001	4.12276E-006	-1.63400E-004	......
	14	3.87497	-5.27470E-001	4.12276E-006	3.66000E-005	......
	15	4.1333	-5.25220E-001	4.12276E-006	-1.63400E-004	......
	16	4.39164	-5.24669E-001	4.12276E-006	3.66000E-005	......
	17	4.64997	-5.24520E-001	4.12276E-006	-6.34000E-005	......
	18	4.9083	-5.23919E-001	4.12276E-006	3.66000E-005	......
	19	5.16663	-5.23619E-001	4.12276E-006	3.66000E-005	......
	20	5.42496	-5.20619E-001	4.12276E-006	3.66000E-005	......
	21	5.68329	-5.19369E-001	4.12276E-006	-1.63400E-004	......
	22	5.94162	-5.19570E-001	4.12276E-006	3.66000E-005	......
	23	6.19996	-5.20669E-001	4.12276E-006	-1.63400E-004	......
	24	6.45829	-5.22569E-001	4.12276E-006	-6.34000E-005	......
	25	6.71662	-5.28669E-001	4.12276E-006	-1.63400E-004	......
	26	6.97495	-5.29619E-001	4.12276E-006	3.66000E-005	......
	27	7.23328	-5.28120E-001	4.12276E-006	-6.34000E-005	......
	28	7.49161	-5.27369E-001	4.12276E-006	-6.34000E-005	......
	29	7.74995	-5.26619E-001	4.12276E-006	-2.63400E-004	......
	30	8.00828	-5.25369E-001	4.12276E-006	3.66000E-005	......
	31	8.26661	-5.24319E-001	4.12276E-006	-1.63400E-004	......
	32	8.52494	-5.23669E-001	4.12276E-006	3.66000E-005	......
	33	8.78327	-5.23119E-001	4.12276E-006	-6.34000E-005	......
	34	9.0416	-5.24170E-001	4.12276E-006	3.66000E-005	......
	35	9.29993	-5.30869E-001	4.12276E-006	-6.34000E-005	......
	36	9.5583	-5.33669E-001	4.12276E-006	3.66000E-005	......
	37	9.8166	-5.33919E-001	4.12276E-006	-1.63400E-004	......
	38	10.0749	-5.32420E-001	4.12276E-006	3.66000E-005	......
EOC	QUANT	-0.53242	Open Circuit (V)
PSTATMODEL	IQUANT	32	Pstat Model
PSTATSECTION	LABEL	PStat0	Pstat Section
CTRLMODE	IQUANT	1	Control Mode
IESTAB	IQUANT	0	I/E Stability
CASPEED	IQUANT	1	Control Amp Speed
CONVENTION	IQUANT	1	Current Convention
ICHRANGE	IQUANT	2	Ich Range
ICHRANGEMODE	TOGGLE	F	Ich Auto Range
ICHOFFSETENABLE	TOGGLE	T	Ich Offset Enable
ICHOFFSET	QUANT	0	Ich Offset (V)
ICHFILTER	IQUANT	3	Ich Filter
VCHRANGE	IQUANT	2	Vch Range
VCHRANGEMODE	TOGGLE	F	Vch Auto Range
VCHOFFSETENABLE	TOGGLE	T	Vch Offset Enable
VCHOFFSET	QUANT	0	Vch Offset (V)
VCHFILTER	IQUANT	3	Vch Filter
ACHRANGE	IQUANT	0	Ach Range
IERANGELOWERLIMIT	IQUANT	3	I/E Range Lower Limit
IERANGEMODE	TOGGLE	F	I/E AutoRange
IERANGE	IQUANT	11	I/E Range
POSFEEDENABLE	TOGGLE	F	Positive Feedback IR Comp
POSFEEDRESISTANCE	QUANT	0	Positive Feedback Resistance (ohm)
FC350IDIVISOR	IQUANT	0	FC350 I Divisor
FC350VRANGE	IQUANT	0	FC350 V Range
FRAMEWORKVERSION	QUANT	4.35	Framework Version
ZCURVE	TABLE
	Pt	Time	Freq	Zreal	Zimag	Zsig	Zmod	Zphz	Idc	Vdc	IERange
	#	s	Hz	ohm	ohm	V	ohm	°	A	V	#
	0	4	100007	38.0389	-0.760067	1	38.0465	-1.14469	7.969E-006	-0.432444	10
	1	6	89134.1	37.8577	-0.905616	1	37.8685	-1.37034	6.65166E-006	-0.432444	10
	2	8	79433.6	37.7807	-1.17073	1	37.7988	-1.77488	8.31697E-006	-0.432448	10
	3	10	70800.8	37.7599	-1.34829	1	37.784	-2.04499	7.54025E-006	-0.432464	10
	4	12	63105.5	37.6795	-1.55584	1	37.7116	-2.36449	7.77353E-006	-0.432475	10
	5	14	56243.5	37.7597	-1.75561	1	37.8005	-2.66201	6.70728E-006	-0.432478	10
	6	15	50123.7	37.7627	-2.01332	1	37.8163	-3.05185	7.48713E-006	-0.432443	10
	7	17	44681	37.7755	-2.26191	1	37.8431	-3.42665	6.45603E-006	-0.432441	10
	8	19	39811.2	37.8591	-2.54573	1	37.9446	-3.84691	7.30416E-006	-0.43247	10
	9	21	35488.3	37.9094	-2.83374	1	38.0151	-4.27493	6.84869E-006	-0.432455	10
	10	23	31634.1	37.9102	-3.13562	1	38.0397	-4.72826	8.91009E-006	-0.432467	10
	11	25	28173.1	37.9921	-3.56656	1	38.1591	-5.36301	7.33384E-006	-0.432446	10
	12	27	25123.7	38.0555	-3.90678	1	38.2555	-5.86147	6.59509E-006	-0.432454	10
	13	29	22389.3	38.1697	-4.35454	1	38.4173	-6.50837	9.40213E-006	-0.432434	10
	14	31	19954.4	38.241	-4.79084	1	38.54	-7.14082	9.36478E-006	-0.43246	10
	15	33	17778.2	38.3687	-5.294	1	38.7322	-7.85589	7.73322E-006	-0.432455	10
	16	35	15852.9	38.5677	-5.8666	1	39.0114	-8.64905	8.48041E-006	-0.432467	10
	17	37	14122.3	38.6774	-6.45746	1	39.2128	-9.47849	7.70556E-006	-0.432458	10
	18	39	12587.2	38.7673	-7.09354	1	39.4109	-10.3691	7.3115E-006	-0.432456	10
	19	41	11221.1	38.9165	-7.86305	1	39.703	-11.4228	8.2015E-006	-0.43246	10
	20	43	9998.2	39.1368	-8.72511	1	40.0976	-12.5679	7.69556E-006	-0.432446	10
	21	45	8912.76	39.2929	-9.6002	1	40.4487	-13.7298	6.0751E-006	-0.432438	10
	22	47	7942.6	39.4798	-10.5898	1	40.8754	-15.0152	7.92181E-006	-0.43245	10
	23	49	7078.05	39.7573	-11.7193	1	41.4486	-16.4239	7.084E-006	-0.432449	10
	24	51	6311.1	39.9458	-12.9278	1	41.9856	-17.9333	7.44853E-006	-0.432445	10
	25	53	5622.14	40.2605	-14.3139	1	42.7293	-19.5719	7.31103E-006	-0.432449	10
	26	55	5011.18	40.4852	-15.7101	1	43.4265	-21.2085	7.56681E-006	-0.432458	10
	27	57	4465.21	40.7184	-17.4034	1	44.2817	-23.1423	7.01072E-006	-0.432447	10
	28	59	3980.93	41.0807	-19.218	1	45.3536	-25.0707	8.18088E-006	-0.43244	10
	29	61	3548.18	41.4526	-21.2663	1	46.5895	-27.1591	7.16213E-006	-0.432441	10
	30	63	3162.67	41.8001	-23.4903	1	47.9483	-29.3345	7.07447E-006	-0.432445	10
	31	65	2819.01	42.2539	-26.1233	1	49.6771	-31.7263	6.65931E-006	-0.432436	10
	32	67	2511.16	42.5526	-28.8271	1	51.3977	-34.1155	6.78176E-006	-0.432457	10
	33	69	2238.63	43.0074	-31.9042	1	53.5492	-36.5692	6.61613E-006	-0.432446	10
	34	71	1995.37	43.5369	-35.3808	1	56.1005	-39.0995	6.61298E-006	-0.432467	10
	35	73	1778.51	44.0052	-39.2339	1	58.9555	-41.7194	6.68157E-006	-0.432462	10
	36	75	1584.49	44.5509	-43.3905	1	62.1894	-44.244	6.22676E-006	-0.432465	10
	37	77	1412.76	45.0846	-48.1605	1	65.9701	-46.8894	7.52288E-006	-0.432475	10
	38	79	1259.04	45.6773	-53.6319	1	70.4471	-49.5796	5.81527E-006	-0.432467	10
	39	81	1121.63	46.4537	-59.6813	1	75.6294	-52.1041	6.34354E-006	-0.43246	10
	40	83	999.95	47.316	-65.8952	1	81.1233	-54.3198	6.20435E-006	-0.43246	10
	41	84	891.184	48.0307	-73.5469	1	87.8413	-56.853	6.12537E-006	-0.432458	10
	42	86	794.163	48.8064	-81.5609	1	95.049	-59.1035	5.9789E-006	-0.432456	10
	43	88	707.867	49.8304	-90.8721	1	103.638	-61.2615	7.18249E-006	-0.432451	10
	44	90	630.984	50.7868	-101.09	1	113.131	-63.3254	2.79162E-006	-0.432458	9
	45	92	562.189	52.0308	-112.207	1	123.683	-65.1226	2.71442E-006	-0.432456	9
	46	94	501.303	53.3477	-124.852	1	135.772	-66.8636	2.95485E-006	-0.432444	9
	47	96	446.614	54.7053	-139.008	1	149.385	-68.5184	2.9662E-006	-0.43245	9
	48	98	398.209	56.1833	-154.677	1	164.565	-70.0375	2.83176E-006	-0.432462	9
	49	100	354.821	57.8615	-172.244	1	181.703	-71.4314	2.77259E-006	-0.432445	9
	50	102	316.113	59.7203	-191.869	1	200.949	-72.711	2.70288E-006	-0.432449	9
	51	104	281.926	61.7453	-213.556	1	222.303	-73.8739	2.78081E-006	-0.432449	9
	52	106	251.185	64.0562	-237.959	1	246.43	-74.9337	2.74046E-006	-0.432446	9
	53	108	223.946	66.6512	-264.976	1	273.23	-75.8809	3.0701E-006	-0.432445	9
	54	110	199.495	69.5402	-295.374	1	303.449	-76.752	3.14401E-006	-0.432447	9
	55	112	177.836	72.7305	-329.027	1	336.97	-77.5354	3.16901E-006	-0.432448	9
	56	114	158.533	76.3383	-366.639	1	374.502	-78.2384	3.22957E-006	-0.432438	9
	57	116	141.263	80.2892	-408.677	1	416.489	-78.8852	3.21931E-006	-0.432438	9
	58	118	125.911	84.6112	-455.417	1	463.211	-79.4751	3.14038E-006	-0.432443	9
	59	120	112.198	89.4532	-507.875	1	515.693	-80.0108	2.87523E-006	-0.432445	9
	60	122	100.009	95.342	-566.185	1	574.156	-80.4415	3.02128E-006	-0.432451	9
	61	125	89.1164	101.482	-631.49	1	639.592	-80.8705	2.85484E-006	-0.432452	9
	62	127	79.4083	108.518	-704.45	1	712.759	-81.2427	2.81634E-006	-0.432448	9
	63	129	70.788	116.802	-784.96	1	793.603	-81.5365	2.82933E-006	-0.432445	9
	64	131	63.0971	125.598	-875.646	1	884.607	-81.8375	2.71396E-006	-0.432457	9
	65	133	54.5476	138.503	-1005.05	1	1014.55	-82.1536	2.65028E-006	-0.432456	9
	66	135	50.0083	147.182	-1090.6	1	1100.49	-82.3141	1.8175E-006	-0.432458	8
	67	137	46.1675	156.738	-1176.33	1	1186.73	-82.4104	1.78512E-006	-0.43246	8
	68	139	40.0059	176.388	-1348.4	1	1359.89	-82.5473	1.78709E-006	-0.43246	8
	69	141	35.3046	196.653	-1517.44	1	1530.12	-82.6159	1.87531E-006	-0.432461	8
	70	143	31.5793	212.323	-1687.06	1	1700.37	-82.8268	1.55843E-006	-0.432459	8
	71	145	28.5748	235.018	-1853.39	1	1868.23	-82.7732	1.62643E-006	-0.432463	8
	72	148	24.9911	268.779	-2106.78	1	2123.85	-82.7296	1.58704E-006	-0.432461	8
	73	150	22.2195	300.193	-2352.55	1	2371.62	-82.7282	1.63338E-006	-0.432459	8
	74	152	20.0011	335.284	-2600.61	1	2622.13	-82.6536	1.68086E-006	-0.432466	8
	75	155	17.6486	388.598	-2927.94	1	2953.62	-82.4399	1.74429E-006	-0.432456	8
	76	157	15.7934	451.045	-3247.16	1	3278.34	-82.092	1.8978E-006	-0.432462	8
	77	159	14.2828	513.578	-3578.71	1	3615.37	-81.8333	1.95929E-006	-0.432462	8
	78	161	12.5002	615.375	-4048.06	1	4094.57	-81.3562	1.98702E-006	-0.432457	8
	79	164	11.323	742.226	-4434.29	1	4495.98	-80.4977	2.48312E-006	-0.43246	8
	80	166	9.9987	860.838	-4997.25	1	5070.85	-80.226	2.22477E-006	-0.432454	8
