EXPLAIN
TAG	EISPOT
TITLE	LABEL	Tomato_open	Test &Identifier
DATE	LABEL	5/14/2006	Date
TIME	LABEL	13:45:18	Time
NOTES	NOTES	1	&Notes...
	
PSTAT	PSTAT	300	Potentiostat
VDC	POTEN	1.00000E-001	T	DC &Voltage (V)
FREQINIT	QUANT	1.00000E+005	Initial Fre&q. (Hz)
FREQFINAL	QUANT	1.00000E+001	Final Fre&q. (Hz)
PTSPERDEC	QUANT	2.00000E+001	Points/&decade
VAC	QUANT	1.00000E+001	AC &Voltage (mV rms)
AREA	QUANT	1.00000E+000	&Area (cm²)
DENSITY	QUANT	7.87000E+000	&Density (gm/cm³)
EQUIV	QUANT	7.00000E+000	Equiv. &Wt
CONDIT	TWOPARAM	F	1.50000E+001	0.00000E+000	Conditionin&g	Time(s)	E(V)
DELAY	TWOPARAM	F	6.00000E+002	0.00000E+000	Init. De&lay	Time(s)	Stab.(mV/s)
SPEED	SELECTOR	1	&Optimize for:
ZGUESS	QUANT	1.00000E+002	E&stimated Z (ohms)
OCVCURVE	TABLE	39
	Pt	T	Vf	Vm	Ach	Over
	#	s	V vs. Ref.	V	V	bits
	0	0.258332	-4.78419E-001	3.19944E-006	2.36600E-004	......
	1	0.516663	-4.79619E-001	3.19944E-006	-6.34000E-005	......
	2	0.774994	-4.79070E-001	3.19944E-006	2.36600E-004	......
	3	1.03333	-4.78119E-001	3.19944E-006	-6.34000E-005	......
	4	1.29166	-4.77270E-001	3.19944E-006	2.36600E-004	......
	5	1.54999	-4.75819E-001	3.19944E-006	3.66000E-005	......
	6	1.80832	-4.74620E-001	3.19944E-006	2.36600E-004	......
	7	2.06665	-4.74819E-001	3.19944E-006	-6.34000E-005	......
	8	2.32498	-4.76019E-001	3.19944E-006	3.36600E-004	......
	9	2.58332	-4.77819E-001	3.19944E-006	3.66000E-005	......
	10	2.84165	-4.78469E-001	3.19944E-006	3.66000E-005	......
	11	3.09998	-4.88619E-001	3.19944E-006	3.66000E-005	......
	12	3.35831	-4.93869E-001	3.19944E-006	2.36600E-004	......
	13	3.61664	-4.94819E-001	3.19944E-006	3.66000E-005	......
	14	3.87497	-4.93869E-001	3.19944E-006	2.36600E-004	......
	15	4.1333	-4.93219E-001	3.19944E-006	3.66000E-005	......
	16	4.39164	-4.94319E-001	3.19944E-006	3.36600E-004	......
	17	4.64997	-4.95119E-001	3.19944E-006	3.66000E-005	......
	18	4.9083	-5.00219E-001	3.19944E-006	2.36600E-004	......
	19	5.16663	-4.97019E-001	3.19944E-006	3.66000E-005	......
	20	5.42496	-4.94870E-001	3.19944E-006	2.36600E-004	......
	21	5.68329	-4.95319E-001	3.19944E-006	3.66000E-005	......
	22	5.94162	-4.96219E-001	3.19944E-006	2.36600E-004	......
	23	6.19996	-4.94319E-001	3.19944E-006	3.66000E-005	......
	24	6.45829	-4.94020E-001	3.19944E-006	3.36600E-004	......
	25	6.71662	-4.93869E-001	3.19944E-006	-6.34000E-005	......
	26	6.97495	-4.93219E-001	3.19944E-006	2.36600E-004	......
	27	7.23328	-4.95569E-001	3.19944E-006	-6.34000E-005	......
	28	7.49161	-4.98519E-001	3.19944E-006	2.36600E-004	......
	29	7.74995	-5.01170E-001	3.19944E-006	3.66000E-005	......
	30	8.00828	-4.99169E-001	3.19944E-006	2.36600E-004	......
	31	8.26661	-4.97269E-001	3.19944E-006	3.66000E-005	......
	32	8.52494	-4.97570E-001	3.19944E-006	2.36600E-004	......
	33	8.78327	-4.97069E-001	3.19944E-006	3.66000E-005	......
	34	9.0416	-4.94369E-001	3.19944E-006	1.36600E-004	......
	35	9.29993	-4.93469E-001	3.19944E-006	-6.34000E-005	......
	36	9.5583	-4.93719E-001	3.19944E-006	3.36600E-004	......
	37	9.8166	-4.94069E-001	3.19944E-006	3.66000E-005	......
	38	10.0749	-4.95369E-001	3.19944E-006	2.36600E-004	......
EOC	QUANT	-0.495369	Open Circuit (V)
PSTATMODEL	IQUANT	32	Pstat Model
PSTATSECTION	LABEL	PStat0	Pstat Section
CTRLMODE	IQUANT	1	Control Mode
IESTAB	IQUANT	0	I/E Stability
CASPEED	IQUANT	1	Control Amp Speed
CONVENTION	IQUANT	1	Current Convention
ICHRANGE	IQUANT	2	Ich Range
ICHRANGEMODE	TOGGLE	F	Ich Auto Range
ICHOFFSETENABLE	TOGGLE	T	Ich Offset Enable
ICHOFFSET	QUANT	0	Ich Offset (V)
ICHFILTER	IQUANT	3	Ich Filter
VCHRANGE	IQUANT	2	Vch Range
VCHRANGEMODE	TOGGLE	F	Vch Auto Range
VCHOFFSETENABLE	TOGGLE	T	Vch Offset Enable
VCHOFFSET	QUANT	0	Vch Offset (V)
VCHFILTER	IQUANT	3	Vch Filter
ACHRANGE	IQUANT	0	Ach Range
IERANGELOWERLIMIT	IQUANT	3	I/E Range Lower Limit
IERANGEMODE	TOGGLE	F	I/E AutoRange
IERANGE	IQUANT	11	I/E Range
POSFEEDENABLE	TOGGLE	F	Positive Feedback IR Comp
POSFEEDRESISTANCE	QUANT	0	Positive Feedback Resistance (ohm)
FC350IDIVISOR	IQUANT	0	FC350 I Divisor
FC350VRANGE	IQUANT	0	FC350 V Range
FRAMEWORKVERSION	QUANT	4.35	Framework Version
ZCURVE	TABLE
	Pt	Time	Freq	Zreal	Zimag	Zsig	Zmod	Zphz	Idc	Vdc	IERange
	#	s	Hz	ohm	ohm	V	ohm	°	A	V	#
	0	4	100007	35.0694	-1.01366	1	35.084	-1.65563	1.31176E-005	-0.395174	10
	1	6	89134.1	34.9139	-1.16028	1	34.9332	-1.90338	1.19117E-005	-0.395171	10
	2	8	79433.6	34.846	-1.41534	1	34.8747	-2.32592	1.20081E-005	-0.395189	10
	3	10	70800.8	34.8307	-1.65738	1	34.8701	-2.7243	1.61573E-005	-0.395185	10
	4	12	63105.5	34.8748	-1.89231	1	34.9261	-3.10582	1.09896E-005	-0.395189	10
	5	14	56243.5	34.8314	-2.26605	1	34.9051	-3.72228	1.04326E-005	-0.39518	10
	6	16	50123.7	34.8445	-2.47267	1	34.9321	-4.05909	1.04709E-005	-0.395161	10
	7	18	44681	34.9271	-2.85358	1	35.0435	-4.67074	1.44004E-005	-0.395187	10
	8	20	39811.2	34.9094	-3.11907	1	35.0485	-5.10568	1.46048E-005	-0.395185	10
	9	22	35488.3	34.9925	-3.54222	1	35.1714	-5.78025	1.3372E-005	-0.395183	10
	10	24	31634.1	35.0794	-3.92819	1	35.2987	-6.38936	1.06645E-005	-0.395193	10
	11	26	28173.1	35.1621	-4.40136	1	35.4365	-7.13479	8.989E-006	-0.395175	10
	12	28	25123.7	35.2631	-4.90248	1	35.6023	-7.91486	7.88072E-006	-0.395178	10
	13	30	22389.3	35.3716	-5.40285	1	35.7819	-8.68453	9.69478E-006	-0.395187	10
	14	32	19954.4	35.493	-5.99867	1	35.9964	-9.5929	8.46181E-006	-0.39518	10
	15	34	17778.2	35.6555	-6.66327	1	36.2728	-10.5853	8.28494E-006	-0.395171	10
	16	36	15852.9	35.8162	-7.32968	1	36.5586	-11.5657	7.65994E-006	-0.39518	10
	17	38	14122.3	35.9401	-8.10505	1	36.8426	-12.7085	8.08431E-006	-0.395167	10
	18	40	12587.2	36.179	-8.9718	1	37.2749	-13.9274	6.5201E-006	-0.395167	10
	19	42	11221.1	36.3904	-9.8311	1	37.695	-15.1179	6.20994E-006	-0.395176	10
	20	44	9998.2	36.5246	-10.948	1	38.1302	-16.6858	6.28978E-006	-0.395171	10
	21	46	8912.76	36.7338	-11.9957	1	38.6429	-18.0849	5.79838E-006	-0.395158	10
	22	48	7942.6	36.9388	-13.3591	1	39.2803	-19.8828	5.68431E-006	-0.395169	10
	23	50	7078.05	37.2356	-14.6379	1	40.0095	-21.4606	6.01634E-006	-0.395169	10
	24	52	6311.1	37.5341	-16.2221	1	40.8896	-23.3738	6.35744E-006	-0.39517	10
	25	54	5622.14	37.731	-17.9016	1	41.7624	-25.3822	6.55681E-006	-0.395174	10
	26	56	5011.18	38.0598	-19.8337	1	42.9177	-27.5249	6.04572E-006	-0.395173	10
	27	58	4465.21	38.411	-21.9368	1	44.2338	-29.731	5.94119E-006	-0.395171	10
	28	60	3980.93	38.7118	-24.2932	1	45.7029	-32.1099	6.15525E-006	-0.395155	10
	29	62	3548.18	39.1037	-26.9664	1	47.5004	-34.5906	5.76291E-006	-0.395176	10
	30	64	3162.67	39.4886	-29.8402	1	49.4954	-37.0771	6.94009E-006	-0.395188	10
	31	66	2819.01	39.9547	-33.0813	1	51.8724	-39.6237	5.57552E-006	-0.395152	10
	32	68	2511.16	40.3068	-36.6462	1	54.4755	-42.2765	6.2021E-006	-0.395157	10
	33	70	2238.63	40.9292	-40.7128	1	57.7299	-44.8481	6.10337E-006	-0.395162	10
	34	72	1995.37	41.4372	-45.0995	1	61.2455	-47.4233	6.34235E-006	-0.395165	10
	35	74	1778.51	41.9347	-50.1651	1	65.3839	-50.1066	6.11779E-006	-0.395167	10
	36	76	1584.49	42.5665	-55.5841	1	70.0107	-52.555	5.81729E-006	-0.395168	10
	37	78	1412.76	43.1144	-61.8585	1	75.4011	-55.1241	6.71232E-006	-0.395175	10
	38	80	1259.04	43.8946	-68.6916	1	81.5185	-57.4211	5.79209E-006	-0.395166	10
	39	82	1121.63	44.8314	-76.3935	1	88.5766	-59.5935	5.8358E-006	-0.395163	10
	40	84	999.95	45.5826	-85.0914	1	96.531	-61.8225	5.87487E-006	-0.395157	10
	41	86	891.184	46.5661	-94.5957	1	105.436	-63.7906	6.12545E-006	-0.395165	10
	42	88	794.163	47.894	-105.385	1	115.758	-65.5598	2.55282E-006	-0.395162	9
	43	90	707.867	49.2091	-117.433	1	127.326	-67.2643	2.47464E-006	-0.395156	9
	44	92	630.984	50.3622	-130.538	1	139.916	-68.9032	2.46178E-006	-0.395173	9
	45	94	562.189	51.5181	-146.022	1	154.844	-70.5667	2.4284E-006	-0.395177	9
	46	96	501.303	53.6891	-161.741	1	170.419	-71.6367	2.71315E-006	-0.395162	9
	47	98	446.614	55.5205	-180.142	1	188.504	-72.8705	2.69873E-006	-0.395163	9
	48	100	398.209	57.6187	-200.514	1	208.629	-73.9678	2.98162E-006	-0.395164	9
	49	102	354.821	60.0164	-223.316	1	231.24	-74.9572	3.3249E-006	-0.395164	9
	50	104	316.113	62.6549	-248.803	1	256.571	-75.8653	3.45801E-006	-0.395159	9
	51	106	281.926	65.5099	-276.914	1	284.558	-76.6902	3.04146E-006	-0.395167	9
	52	108	251.185	68.7554	-308.504	1	316.072	-77.436	3.04099E-006	-0.395166	9
	53	110	223.946	72.3816	-343.491	1	351.035	-78.1005	3.10062E-006	-0.395175	9
	54	112	199.495	76.4217	-382.76	1	390.315	-78.7088	2.83292E-006	-0.395171	9
	55	114	177.836	80.8294	-426.309	1	433.905	-79.264	2.72406E-006	-0.395164	9
	56	116	158.533	86.148	-474.685	1	482.439	-79.7137	2.92654E-006	-0.395158	9
	57	118	141.263	91.7656	-529.131	1	537.029	-80.1612	2.68681E-006	-0.395155	9
	58	120	125.911	97.88	-589.34	1	597.413	-80.5701	2.54499E-006	-0.395157	9
	59	122	112.198	104.454	-656.716	1	664.971	-80.9625	2.14877E-006	-0.395156	9
	60	124	100.009	112.14	-731.626	1	740.17	-81.2858	1.88763E-006	-0.395161	9
	61	126	89.1164	120.844	-815.365	1	824.271	-81.5697	1.89684E-006	-0.395168	9
	62	128	79.4083	130.856	-908.879	1	918.251	-81.8071	1.81801E-006	-0.395157	9
	63	130	70.788	141.849	-1012.74	1	1022.63	-82.0268	1.73007E-006	-0.395156	9
	64	132	63.0971	153.936	-1126.93	1	1137.39	-82.2216	1.08902E-006	-0.395161	8
	65	134	54.5476	174.416	-1292.16	1	1303.87	-82.3126	1.28814E-006	-0.395161	8
	66	136	50.0083	192.314	-1401.98	1	1415.1	-82.1893	1.73562E-006	-0.395162	8
	67	138	46.1675	209.299	-1510.35	1	1524.78	-82.1104	2.15877E-006	-0.395163	8
	68	141	40.0059	236.538	-1729.03	1	1745.14	-82.2101	1.98695E-006	-0.395168	8
	69	143	35.3046	264.254	-1947.33	1	1965.18	-82.2721	1.97986E-006	-0.395167	8
	70	145	31.5793	301.602	-2157.42	1	2178.4	-82.0418	2.32337E-006	-0.39516	8
	71	147	28.5748	331.491	-2369.44	1	2392.51	-82.0358	2.03423E-006	-0.395163	8
	72	149	24.9911	369.662	-2680.86	1	2706.23	-82.149	1.8576E-006	-0.39516	8
	73	151	22.2195	444.223	-2998.06	1	3030.79	-81.5718	1.84387E-006	-0.395163	8
	74	154	20.0011	496.318	-3310.82	1	3347.81	-81.4744	2.31153E-006	-0.395154	8
	75	156	17.6486	586.137	-3712.57	1	3758.55	-81.0283	2.03782E-006	-0.395156	8
	76	158	15.7934	658.871	-4096.21	1	4148.86	-80.8623	1.93461E-006	-0.395161	8
	77	161	14.2828	930.854	-4502.21	1	4597.44	-78.3184	3.52776E-006	-0.395158	8
	78	164	12.5002	1055.3	-5114.61	1	5222.34	-78.3417	2.88922E-006	-0.39516	8
	79	169	11.323	1013.43	-5571.6	1	5663.01	-79.691	1.91408E-006	-0.395164	8
	80	173	9.9987	1053.37	-6338.7	1	6425.63	-80.5647	1.79917E-006	-0.39517	8
