EXPLAIN
TAG	EISPOT
TITLE	LABEL	Tomato_open	Test &Identifier
DATE	LABEL	5/14/2006	Date
TIME	LABEL	13:50:17	Time
NOTES	NOTES	1	&Notes...
	
PSTAT	PSTAT	300	Potentiostat
VDC	POTEN	1.00000E-001	T	DC &Voltage (V)
FREQINIT	QUANT	1.00000E+005	Initial Fre&q. (Hz)
FREQFINAL	QUANT	1.00000E+001	Final Fre&q. (Hz)
PTSPERDEC	QUANT	2.00000E+001	Points/&decade
VAC	QUANT	1.00000E+001	AC &Voltage (mV rms)
AREA	QUANT	1.00000E+000	&Area (cm²)
DENSITY	QUANT	7.87000E+000	&Density (gm/cm³)
EQUIV	QUANT	7.00000E+000	Equiv. &Wt
CONDIT	TWOPARAM	F	1.50000E+001	0.00000E+000	Conditionin&g	Time(s)	E(V)
DELAY	TWOPARAM	F	6.00000E+002	0.00000E+000	Init. De&lay	Time(s)	Stab.(mV/s)
SPEED	SELECTOR	1	&Optimize for:
ZGUESS	QUANT	1.00000E+002	E&stimated Z (ohms)
OCVCURVE	TABLE	39
	Pt	T	Vf	Vm	Ach	Over
	#	s	V vs. Ref.	V	V	bits
	0	0.258332	-4.91019E-001	3.86094E-006	3.36600E-004	......
	1	0.516663	-4.90119E-001	3.86094E-006	3.36600E-004	......
	2	0.774994	-4.90819E-001	3.86094E-006	1.36600E-004	......
	3	1.03333	-4.89069E-001	3.86094E-006	3.36600E-004	......
	4	1.29166	-4.86519E-001	3.86094E-006	2.36600E-004	......
	5	1.54999	-4.87870E-001	3.86094E-006	3.36600E-004	......
	6	1.80832	-4.88919E-001	3.86094E-006	2.36600E-004	......
	7	2.06665	-4.88519E-001	3.86094E-006	3.36600E-004	......
	8	2.32498	-4.86619E-001	3.86094E-006	2.36600E-004	......
	9	2.58332	-4.86419E-001	3.86094E-006	3.36600E-004	......
	10	2.84165	-4.86970E-001	3.86094E-006	1.36600E-004	......
	11	3.09998	-4.88019E-001	3.86094E-006	2.36600E-004	......
	12	3.35831	-4.91320E-001	3.86094E-006	3.36600E-004	......
	13	3.61664	-4.94519E-001	3.86094E-006	4.36600E-004	......
	14	3.87497	-4.96069E-001	3.86094E-006	2.36600E-004	......
	15	4.1333	-4.97119E-001	3.86094E-006	3.36600E-004	......
	16	4.39164	-4.98919E-001	3.86094E-006	2.36600E-004	......
	17	4.64997	-5.00619E-001	3.86094E-006	2.36600E-004	......
	18	4.9083	-5.00969E-001	3.86094E-006	2.36600E-004	......
	19	5.16663	-5.00519E-001	3.86094E-006	3.36600E-004	......
	20	5.42496	-4.99370E-001	3.86094E-006	2.36600E-004	......
	21	5.68329	-4.99869E-001	3.86094E-006	2.36600E-004	......
	22	5.94162	-4.98169E-001	3.86094E-006	1.36600E-004	......
	23	6.19996	-4.97169E-001	3.86094E-006	4.36600E-004	......
	24	6.45829	-4.97869E-001	3.86094E-006	1.36600E-004	......
	25	6.71662	-4.99219E-001	3.86094E-006	2.36600E-004	......
	26	6.97495	-4.99669E-001	3.86094E-006	3.36600E-004	......
	27	7.23328	-4.99569E-001	3.86094E-006	3.36600E-004	......
	28	7.49161	-4.99619E-001	3.86094E-006	2.36600E-004	......
	29	7.74995	-4.99669E-001	3.86094E-006	3.36600E-004	......
	30	8.00828	-5.00719E-001	3.86094E-006	3.66000E-005	......
	31	8.26661	-5.01619E-001	3.86094E-006	3.36600E-004	......
	32	8.52494	-5.02369E-001	3.86094E-006	2.36600E-004	......
	33	8.78327	-5.02319E-001	3.86094E-006	2.36600E-004	......
	34	9.0416	-5.02369E-001	3.86094E-006	3.66000E-005	......
	35	9.29993	-4.99569E-001	3.86094E-006	2.36600E-004	......
	36	9.5583	-5.00069E-001	3.86094E-006	1.36600E-004	......
	37	9.8166	-5.00569E-001	3.86094E-006	3.36600E-004	......
	38	10.0749	-4.97769E-001	3.86094E-006	2.36600E-004	......
EOC	QUANT	-0.497769	Open Circuit (V)
PSTATMODEL	IQUANT	32	Pstat Model
PSTATSECTION	LABEL	PStat0	Pstat Section
CTRLMODE	IQUANT	1	Control Mode
IESTAB	IQUANT	0	I/E Stability
CASPEED	IQUANT	1	Control Amp Speed
CONVENTION	IQUANT	1	Current Convention
ICHRANGE	IQUANT	2	Ich Range
ICHRANGEMODE	TOGGLE	F	Ich Auto Range
ICHOFFSETENABLE	TOGGLE	T	Ich Offset Enable
ICHOFFSET	QUANT	0	Ich Offset (V)
ICHFILTER	IQUANT	3	Ich Filter
VCHRANGE	IQUANT	2	Vch Range
VCHRANGEMODE	TOGGLE	F	Vch Auto Range
VCHOFFSETENABLE	TOGGLE	T	Vch Offset Enable
VCHOFFSET	QUANT	0	Vch Offset (V)
VCHFILTER	IQUANT	3	Vch Filter
ACHRANGE	IQUANT	0	Ach Range
IERANGELOWERLIMIT	IQUANT	3	I/E Range Lower Limit
IERANGEMODE	TOGGLE	F	I/E AutoRange
IERANGE	IQUANT	11	I/E Range
POSFEEDENABLE	TOGGLE	F	Positive Feedback IR Comp
POSFEEDRESISTANCE	QUANT	0	Positive Feedback Resistance (ohm)
FC350IDIVISOR	IQUANT	0	FC350 I Divisor
FC350VRANGE	IQUANT	0	FC350 V Range
FRAMEWORKVERSION	QUANT	4.35	Framework Version
ZCURVE	TABLE
	Pt	Time	Freq	Zreal	Zimag	Zsig	Zmod	Zphz	Idc	Vdc	IERange
	#	s	Hz	ohm	ohm	V	ohm	°	A	V	#
	0	4	100007	35.0168	-0.97318	1	35.0303	-1.59194	7.3215E-006	-0.397627	10
	1	6	89134.1	34.8841	-1.22905	1	34.9058	-2.01783	7.87213E-006	-0.39764	10
	2	8	79433.6	34.8246	-1.44412	1	34.8545	-2.3746	1.05635E-005	-0.397665	10
	3	10	70800.8	34.7513	-1.65426	1	34.7907	-2.72538	9.59087E-006	-0.397638	10
	4	12	63105.5	34.7704	-1.94597	1	34.8248	-3.2033	8.02385E-006	-0.397642	10
	5	14	56243.5	34.7811	-2.21896	1	34.8518	-3.6504	9.94775E-006	-0.39764	10
	6	16	50123.7	34.7704	-2.53667	1	34.8628	-4.17261	1.11062E-005	-0.39766	10
	7	18	44681	34.8008	-2.84763	1	34.9171	-4.6779	1.0479E-005	-0.397649	10
	8	20	39811.2	34.8025	-3.14015	1	34.9439	-5.1557	1.03685E-005	-0.397666	10
	9	22	35488.3	34.9494	-3.53052	1	35.1273	-5.76834	1.05904E-005	-0.397653	10
	10	24	31634.1	35.0164	-3.94358	1	35.2378	-6.42562	7.01744E-006	-0.397637	10
	11	26	28173.1	35.0846	-4.38886	1	35.358	-7.13031	8.2776E-006	-0.397646	10
	12	28	25123.7	35.1987	-4.85961	1	35.5326	-7.86068	6.46181E-006	-0.397637	10
	13	30	22389.3	35.2691	-5.42915	1	35.6845	-8.75114	7.99556E-006	-0.397648	10
	14	32	19954.4	35.4374	-5.99685	1	35.9412	-9.6048	8.97384E-006	-0.397657	10
	15	34	17778.2	35.5599	-6.64942	1	36.1763	-10.5915	8.06681E-006	-0.397651	10
	16	36	15852.9	35.7376	-7.26376	1	36.4683	-11.489	6.78119E-006	-0.397636	10
	17	38	14122.3	35.8781	-8.13856	1	36.7896	-12.7807	7.31744E-006	-0.397651	10
	18	40	12587.2	35.9926	-8.9792	1	37.0958	-14.0078	6.42197E-006	-0.397655	10
	19	42	11221.1	36.2068	-9.906	1	37.5375	-15.3015	6.609E-006	-0.397647	10
	20	44	9998.2	36.4304	-10.9073	1	38.0282	-16.6678	6.57509E-006	-0.39765	10
	21	46	8912.76	36.6627	-12.0539	1	38.5934	-18.1997	5.19166E-006	-0.397637	10
	22	48	7942.6	36.9142	-13.3081	1	39.2399	-19.8249	6.0815E-006	-0.397652	10
	23	50	7078.05	37.0785	-14.6926	1	39.8834	-21.6163	6.17853E-006	-0.397653	10
	24	52	6311.1	37.4022	-16.1847	1	40.7537	-23.3991	7.05244E-006	-0.397649	10
	25	54	5622.14	37.6833	-18.0134	1	41.7673	-25.5487	7.17306E-006	-0.397644	10
	26	56	5011.18	38.0093	-19.8356	1	42.8738	-27.5583	6.54744E-006	-0.397656	10
	27	58	4465.21	38.2804	-21.9771	1	44.1405	-29.8605	6.3165E-006	-0.397644	10
	28	60	3980.93	38.6456	-24.2303	1	45.6134	-32.0872	6.36259E-006	-0.397636	10
	29	63	3548.18	38.9802	-26.9517	1	47.3904	-34.6608	6.66509E-006	-0.397641	10
	30	65	3162.67	39.428	-29.8028	1	49.4244	-37.0849	6.33369E-006	-0.397634	10
	31	67	2819.01	39.7943	-33.0721	1	51.7431	-39.7292	6.74304E-006	-0.397655	10
	32	69	2511.16	40.2847	-36.7262	1	54.513	-42.3544	6.52048E-006	-0.397641	10
	33	71	2238.63	40.7262	-40.7714	1	57.6275	-45.0318	6.12019E-006	-0.397653	10
	34	73	1995.37	41.3834	-45.1662	1	61.2582	-47.5026	6.01555E-006	-0.397649	10
	35	75	1778.51	41.8284	-50.1271	1	65.2866	-50.1568	6.58632E-006	-0.397652	10
	36	77	1584.49	42.5186	-55.7469	1	70.111	-52.667	6.33002E-006	-0.397656	10
	37	79	1412.76	43.1582	-62.0243	1	75.5622	-55.1687	6.89829E-006	-0.39766	10
	38	81	1259.04	43.8618	-69.1173	1	81.86	-57.6008	5.9159E-006	-0.397647	10
	39	83	1121.63	44.7235	-76.7274	1	88.8103	-59.7626	5.95857E-006	-0.397661	10
	40	85	999.95	45.5596	-85.1142	1	96.541	-61.8409	6.06049E-006	-0.39765	10
	41	87	891.184	46.4482	-94.8631	1	105.624	-63.9121	5.73041E-006	-0.397641	10
	42	89	794.163	47.6375	-105.321	1	115.594	-65.6624	1.99484E-006	-0.397649	9
	43	91	707.867	49.0831	-117.601	1	127.433	-67.3458	2.46688E-006	-0.397652	9
	44	93	630.984	50.2906	-130.799	1	140.134	-68.9689	2.04034E-006	-0.39765	9
	45	95	562.189	51.8829	-145.322	1	154.306	-70.3525	2.0474E-006	-0.397663	9
	46	97	501.303	53.4936	-162.211	1	170.804	-71.7486	1.78218E-006	-0.39765	9
	47	99	446.614	55.3152	-180.692	1	188.969	-72.9791	1.78696E-006	-0.397642	9
	48	101	398.209	57.3239	-201.137	1	209.146	-74.0925	1.86923E-006	-0.397636	9
	49	103	354.821	59.6095	-224.026	1	231.821	-75.0998	1.70256E-006	-0.397636	9
	50	105	316.113	62.1706	-249.581	1	257.208	-76.0123	1.65527E-006	-0.397637	9
	51	107	281.926	64.9934	-277.848	1	285.348	-76.8343	1.71512E-006	-0.397639	9
	52	109	251.185	68.1424	-309.569	1	316.98	-77.586	1.77257E-006	-0.397639	9
	53	111	223.946	71.831	-344.718	1	352.122	-78.2293	2.04042E-006	-0.397649	9
	54	113	199.495	76.5048	-384.105	1	391.65	-78.7354	3.06242E-006	-0.397647	9
	55	115	177.836	80.8842	-427.711	1	435.292	-79.2913	3.15137E-006	-0.397638	9
	56	117	158.533	86.1732	-476.294	1	484.026	-79.7447	2.93332E-006	-0.397636	9
	57	119	141.263	91.9422	-530.925	1	538.827	-80.1753	2.96808E-006	-0.397636	9
	58	121	125.911	98.112	-591.065	1	599.152	-80.5753	2.7579E-006	-0.397636	9
	59	123	112.198	105.005	-658.808	1	667.124	-80.944	2.55773E-006	-0.397644	9
	60	125	100.009	112.418	-733.973	1	742.532	-81.292	2.24947E-006	-0.397645	9
	61	127	89.1164	121.598	-817.911	1	826.901	-81.5439	2.17995E-006	-0.397649	9
	62	129	79.4083	132.095	-911.726	1	921.246	-81.7561	2.19813E-006	-0.397647	9
	63	131	70.788	144.26	-1015.07	1	1025.27	-81.9114	2.21316E-006	-0.397648	9
	64	133	63.0971	157.367	-1129.95	1	1140.85	-82.0715	1.62915E-006	-0.397645	8
	65	136	54.5476	175.929	-1295	1	1306.89	-82.2636	1.54819E-006	-0.397638	8
	66	138	50.0083	187.047	-1406.12	1	1418.5	-82.4228	1.36337E-006	-0.397638	8
	67	140	46.1675	198.243	-1516.12	1	1529.02	-82.5504	1.27044E-006	-0.39764	8
	68	142	40.0059	224.398	-1733.82	1	1748.28	-82.6255	1.22426E-006	-0.397644	8
	69	144	35.3046	249.67	-1950.33	1	1966.24	-82.705	1.1777E-006	-0.397641	8
	70	146	31.5793	274.429	-2165.52	1	2182.84	-82.7776	1.14951E-006	-0.397642	8
	71	149	28.5748	303.109	-2379.46	1	2398.69	-82.7404	1.11549E-006	-0.397646	8
	72	151	24.9911	345.678	-2700.5	1	2722.53	-82.7055	1.13304E-006	-0.397637	8
	73	153	22.2195	391.374	-3012.99	1	3038.3	-82.599	1.29717E-006	-0.39764	8
	74	155	20.0011	431.655	-3320.43	1	3348.37	-82.5931	1.20361E-006	-0.397643	8
	75	158	17.6486	500.245	-3737.18	1	3770.51	-82.3759	1.26372E-006	-0.397652	8
	76	160	15.7934	560.454	-4152.16	1	4189.82	-82.3127	1.18559E-006	-0.397652	8
	77	162	14.2828	638.597	-4548.15	1	4592.76	-82.0075	1.34713E-006	-0.39765	8
	78	165	12.5002	767.721	-5173.6	1	5230.26	-81.5594	1.3715E-006	-0.397644	8
	79	167	11.323	850.606	-5668.65	1	5732.11	-81.4662	1.55748E-006	-0.397644	8
	80	170	9.9987	1089.56	-6366.07	1	6458.64	-80.2878	1.91799E-006	-0.397651	8
