EXPLAIN
TAG	EISPOT
TITLE	LABEL	Tomato_open	Test &Identifier
DATE	LABEL	5/14/2006	Date
TIME	LABEL	13:35:24	Time
NOTES	NOTES	1	&Notes...
	
PSTAT	PSTAT	300	Potentiostat
VDC	POTEN	1.00000E-001	T	DC &Voltage (V)
FREQINIT	QUANT	1.00000E+005	Initial Fre&q. (Hz)
FREQFINAL	QUANT	1.00000E+001	Final Fre&q. (Hz)
PTSPERDEC	QUANT	2.00000E+001	Points/&decade
VAC	QUANT	1.00000E+001	AC &Voltage (mV rms)
AREA	QUANT	1.00000E+000	&Area (cm²)
DENSITY	QUANT	7.87000E+000	&Density (gm/cm³)
EQUIV	QUANT	7.00000E+000	Equiv. &Wt
CONDIT	TWOPARAM	F	1.50000E+001	0.00000E+000	Conditionin&g	Time(s)	E(V)
DELAY	TWOPARAM	F	6.00000E+002	0.00000E+000	Init. De&lay	Time(s)	Stab.(mV/s)
SPEED	SELECTOR	1	&Optimize for:
ZGUESS	QUANT	1.00000E+002	E&stimated Z (ohms)
OCVCURVE	TABLE	39
	Pt	T	Vf	Vm	Ach	Over
	#	s	V vs. Ref.	V	V	bits
	0	0.258332	-5.51069E-001	4.62176E-006	-1.63400E-004	......
	1	0.516663	-5.50770E-001	4.62176E-006	-1.63400E-004	......
	2	0.774994	-5.53269E-001	4.62176E-006	-1.63400E-004	......
	3	1.03333	-5.61669E-001	4.62176E-006	-2.63400E-004	......
	4	1.29166	-5.60769E-001	4.62176E-006	-1.63400E-004	......
	5	1.54999	-5.63419E-001	4.62176E-006	-1.63400E-004	......
	6	1.80832	-5.68869E-001	4.62176E-006	-1.63400E-004	......
	7	2.06665	-5.69369E-001	4.62176E-006	-1.63400E-004	......
	8	2.32498	-5.68519E-001	4.62176E-006	-1.63400E-004	......
	9	2.58332	-5.66769E-001	4.62176E-006	-1.63400E-004	......
	10	2.84165	-5.95319E-001	4.62176E-006	-6.34000E-005	......
	11	3.09998	-5.92719E-001	4.62176E-006	-1.63400E-004	......
	12	3.35831	-5.89069E-001	4.62176E-006	-6.34000E-005	......
	13	3.61664	-5.87120E-001	4.62176E-006	-6.34000E-005	......
	14	3.87497	-5.82469E-001	4.62176E-006	-1.63400E-004	......
	15	4.1333	-5.79870E-001	4.62176E-006	-6.34000E-005	......
	16	4.39164	-5.80719E-001	4.62176E-006	-6.34000E-005	......
	17	4.64997	-5.81419E-001	4.62176E-006	-1.63400E-004	......
	18	4.9083	-5.82669E-001	4.62176E-006	-1.63400E-004	......
	19	5.16663	-5.82219E-001	4.62176E-006	-1.63400E-004	......
	20	5.42496	-5.77269E-001	4.62176E-006	-6.34000E-005	......
	21	5.68329	-5.72869E-001	4.62176E-006	-1.63400E-004	......
	22	5.94162	-5.70520E-001	4.62176E-006	-1.63400E-004	......
	23	6.19996	-5.69019E-001	4.62176E-006	-1.63400E-004	......
	24	6.45829	-5.66469E-001	4.62176E-006	-1.63400E-004	......
	25	6.71662	-5.61819E-001	4.62176E-006	-2.63400E-004	......
	26	6.97495	-5.60619E-001	4.62176E-006	3.66000E-005	......
	27	7.23328	-5.66620E-001	4.62176E-006	-1.63400E-004	......
	28	7.49161	-5.98870E-001	4.62176E-006	-6.34000E-005	......
	29	7.74995	-6.05519E-001	4.62176E-006	-1.63400E-004	......
	30	8.00828	-6.08419E-001	4.62176E-006	-1.63400E-004	......
	31	8.26661	-6.03619E-001	4.62176E-006	-1.63400E-004	......
	32	8.52494	-6.00670E-001	4.62176E-006	-6.34000E-005	......
	33	8.78327	-5.88870E-001	4.62176E-006	-1.63400E-004	......
	34	9.0416	-5.81169E-001	4.62176E-006	-6.34000E-005	......
	35	9.29993	-5.82720E-001	4.62176E-006	-1.63400E-004	......
	36	9.5583	-5.86069E-001	4.62176E-006	-6.34000E-005	......
	37	9.8166	-5.70969E-001	4.62176E-006	-6.34000E-005	......
	38	10.0749	-5.69319E-001	4.62176E-006	-6.34000E-005	......
EOC	QUANT	-0.569319	Open Circuit (V)
PSTATMODEL	IQUANT	32	Pstat Model
PSTATSECTION	LABEL	PStat0	Pstat Section
CTRLMODE	IQUANT	1	Control Mode
IESTAB	IQUANT	0	I/E Stability
CASPEED	IQUANT	1	Control Amp Speed
CONVENTION	IQUANT	1	Current Convention
ICHRANGE	IQUANT	2	Ich Range
ICHRANGEMODE	TOGGLE	F	Ich Auto Range
ICHOFFSETENABLE	TOGGLE	T	Ich Offset Enable
ICHOFFSET	QUANT	0	Ich Offset (V)
ICHFILTER	IQUANT	3	Ich Filter
VCHRANGE	IQUANT	2	Vch Range
VCHRANGEMODE	TOGGLE	F	Vch Auto Range
VCHOFFSETENABLE	TOGGLE	T	Vch Offset Enable
VCHOFFSET	QUANT	0	Vch Offset (V)
VCHFILTER	IQUANT	3	Vch Filter
ACHRANGE	IQUANT	0	Ach Range
IERANGELOWERLIMIT	IQUANT	3	I/E Range Lower Limit
IERANGEMODE	TOGGLE	F	I/E AutoRange
IERANGE	IQUANT	11	I/E Range
POSFEEDENABLE	TOGGLE	F	Positive Feedback IR Comp
POSFEEDRESISTANCE	QUANT	0	Positive Feedback Resistance (ohm)
FC350IDIVISOR	IQUANT	0	FC350 I Divisor
FC350VRANGE	IQUANT	0	FC350 V Range
FRAMEWORKVERSION	QUANT	4.35	Framework Version
ZCURVE	TABLE
	Pt	Time	Freq	Zreal	Zimag	Zsig	Zmod	Zphz	Idc	Vdc	IERange
	#	s	Hz	ohm	ohm	V	ohm	°	A	V	#
	0	4	100007	35.3047	-0.99356	1	35.3186	-1.61201	2.54504E-005	-0.469107	10
	1	6	89134.1	35.2276	-1.14711	1	35.2462	-1.86506	1.70806E-005	-0.469105	10
	2	8	79433.6	35.1661	-1.38255	1	35.1933	-2.25141	1.17062E-005	-0.469101	10
	3	10	70800.8	35.181	-1.64001	1	35.2192	-2.66898	1.65842E-005	-0.469129	10
	4	12	63105.5	35.0948	-1.8975	1	35.1461	-3.09484	1.62107E-005	-0.469098	10
	5	14	56243.5	35.1344	-2.18285	1	35.2021	-3.55514	1.22793E-005	-0.469103	10
	6	16	50123.7	35.1346	-2.48829	1	35.2226	-4.05101	1.27353E-005	-0.469134	10
	7	18	44681	35.1427	-2.80337	1	35.2544	-4.56088	7.44009E-006	-0.469127	10
	8	20	39811.2	35.1684	-3.22232	1	35.3157	-5.23514	8.76728E-006	-0.469124	10
	9	22	35488.3	35.2608	-3.53706	1	35.4378	-5.72826	6.15556E-006	-0.469109	10
	10	24	31634.1	35.3477	-3.93527	1	35.5661	-6.35259	1.21993E-005	-0.469139	10
	11	26	28173.1	35.4502	-4.39308	1	35.7213	-7.06423	8.84025E-006	-0.469118	10
	12	28	25123.7	35.5637	-4.89133	1	35.8985	-7.83117	7.329E-006	-0.469105	10
	13	30	22389.3	35.6752	-5.35997	1	36.0756	-8.5444	6.96728E-006	-0.469129	10
	14	32	19954.4	35.76	-6.00272	1	36.2603	-9.5289	4.89916E-006	-0.469094	10
	15	34	17778.2	35.9546	-6.58502	1	36.5526	-10.3786	7.65838E-006	-0.469118	10
	16	36	15852.9	36.0674	-7.34991	1	36.8086	-11.5182	6.61259E-006	-0.469134	10
	17	38	14122.3	36.2293	-8.01052	1	37.1043	-12.4679	7.29166E-006	-0.469127	10
	18	40	12587.2	36.4298	-8.85679	1	37.491	-13.6646	6.89728E-006	-0.469117	10
	19	42	11221.1	36.6515	-9.8104	1	37.9417	-14.9849	6.20322E-006	-0.469107	10
	20	44	9998.2	36.8522	-10.8293	1	38.4104	-16.3758	5.70619E-006	-0.469104	10
	21	46	8912.76	37.0799	-11.9369	1	38.9539	-17.8446	6.06134E-006	-0.469115	10
	22	48	7942.6	37.278	-13.1701	1	39.536	-19.4581	6.10088E-006	-0.469115	10
	23	50	7078.05	37.5719	-14.5621	1	40.2952	-21.1853	5.38369E-006	-0.469112	10
	24	52	6311.1	37.7967	-16.0642	1	41.0688	-23.0263	5.51478E-006	-0.469115	10
	25	54	5622.14	38.0873	-17.7521	1	42.0212	-24.9898	5.03931E-006	-0.469112	10
	26	56	5011.18	38.3955	-19.6612	1	43.1367	-27.1157	6.02728E-006	-0.469127	10
	27	58	4465.21	38.7023	-21.8345	1	44.4366	-29.4302	5.59838E-006	-0.469118	10
	28	60	3980.93	38.9972	-24.0414	1	45.8123	-31.6535	4.29322E-006	-0.469103	10
	29	62	3548.18	39.4209	-26.6524	1	47.5853	-34.0626	5.21197E-006	-0.469102	10
	30	64	3162.67	39.842	-29.5737	1	49.6184	-36.5855	4.82681E-006	-0.469118	10
	31	65	2819.01	40.2155	-32.6945	1	51.8287	-39.1104	4.19437E-006	-0.469104	10
	32	67	2511.16	40.6385	-36.2341	1	54.4463	-41.7209	5.41121E-006	-0.469111	10
	33	69	2238.63	41.1599	-40.2085	1	57.5401	-44.3302	5.03915E-006	-0.469116	10
	34	71	1995.37	41.7712	-44.7426	1	61.2106	-46.9671	4.94298E-006	-0.469115	10
	35	73	1778.51	42.3477	-49.6605	1	65.2648	-49.5443	5.41952E-006	-0.469113	10
	36	75	1584.49	42.9676	-55.2595	1	69.9988	-52.1327	5.2447E-006	-0.469108	10
	37	77	1412.76	43.5191	-61.092	1	75.0076	-54.5357	4.20615E-006	-0.4691	10
	38	79	1259.04	44.2793	-68.0442	1	81.1829	-56.9462	5.99252E-006	-0.469115	10
	39	81	1121.63	45.2779	-75.7844	1	88.28	-59.1435	8.70327E-006	-0.469115	10
	40	83	999.95	46.3173	-84.5657	1	96.419	-61.2901	9.58362E-006	-0.469115	10
	41	85	891.184	47.2191	-93.6571	1	104.887	-63.2442	8.27171E-006	-0.469118	10
	42	87	794.163	48.566	-104.134	1	114.902	-64.9965	3.65968E-006	-0.469118	9
	43	89	707.867	49.9341	-115.6	1	125.924	-66.6378	3.8311E-006	-0.46912	9
	44	91	630.984	50.7928	-129.23	1	138.854	-68.5431	3.27021E-006	-0.469115	9
	45	93	562.189	52.9924	-143.996	1	153.437	-69.7957	3.31478E-006	-0.469117	9
	46	95	501.303	54.4375	-159.616	1	168.643	-71.1679	2.83393E-006	-0.469118	9
	47	97	446.614	56.2946	-177.748	1	186.45	-72.4265	2.60732E-006	-0.469111	9
	48	99	398.209	58.1423	-197.823	1	206.191	-73.6214	1.07387E-006	-0.46912	9
	49	101	354.821	60.4224	-220.35	1	228.484	-74.6658	7.73087E-007	-0.469111	9
	50	103	316.113	62.9768	-245.472	1	253.422	-75.6109	8.41915E-007	-0.469104	9
	51	105	281.926	65.7996	-273.204	1	281.016	-76.4585	7.23525E-007	-0.469105	9
	52	107	251.185	68.9508	-304.377	1	312.089	-77.2362	9.42212E-007	-0.469106	9
	53	109	223.946	72.695	-338.898	1	346.607	-77.8933	1.13462E-006	-0.469109	9
	54	111	199.495	77.1846	-377.673	1	385.48	-78.4496	1.68237E-006	-0.469106	9
	55	113	177.836	81.7829	-420.417	1	428.298	-78.9918	2.13984E-006	-0.469107	9
	56	115	158.533	86.283	-468.278	1	476.16	-79.56	1.30984E-006	-0.469102	9
	57	117	141.263	91.9013	-521.776	1	529.808	-80.0108	1.34942E-006	-0.469113	9
	58	119	125.911	98.18	-581.19	1	589.425	-80.4116	1.35548E-006	-0.469115	9
	59	121	112.198	105.361	-647.83	1	656.342	-80.7625	1.45711E-006	-0.469116	9
	60	124	100.009	113.467	-721.584	1	730.451	-81.0636	1.5242E-006	-0.469113	9
	61	126	89.1164	121.136	-804.26	1	813.332	-81.4346	9.17771E-007	-0.469111	9
	62	128	79.4083	130.378	-896.27	1	905.703	-81.7234	8.75583E-007	-0.469115	9
	63	130	70.788	139.76	-998.62	1	1008.35	-82.033	6.71323E-007	-0.469116	9
	64	132	63.0971	150.929	-1111.98	1	1122.17	-82.2705	-5.55475E-008	-0.469113	8
	65	134	54.5476	169.28	-1275.02	1	1286.21	-82.4373	4.38071E-008	-0.469115	8
	66	136	50.0083	187.348	-1383.46	1	1396.09	-82.2879	6.50079E-007	-0.469113	8
	67	138	46.1675	195.62	-1492.14	1	1504.91	-82.5311	2.40232E-007	-0.469118	8
	68	140	40.0059	224.514	-1708.98	1	1723.67	-82.5157	6.31132E-007	-0.469117	8
	69	142	35.3046	262.771	-1920.94	1	1938.83	-82.2107	9.29715E-007	-0.469117	8
	70	145	31.5793	278.801	-2129.36	1	2147.53	-82.5406	7.57493E-007	-0.469116	8
	71	147	28.5748	317.01	-2336.64	1	2358.05	-82.2739	1.03415E-006	-0.469115	8
	72	149	24.9911	386.845	-2653.45	1	2681.5	-81.7053	1.10111E-006	-0.469118	8
	73	151	22.2195	429.424	-2957.13	1	2988.14	-81.7374	1.27581E-006	-0.469117	8
	74	154	20.0011	541.012	-3269.95	1	3314.4	-80.6055	2.03246E-006	-0.469117	8
	75	156	17.6486	612.538	-3650.9	1	3701.93	-80.4758	2.30864E-006	-0.469112	8
	76	158	15.7934	668.719	-4048.45	1	4103.3	-80.6206	1.66149E-006	-0.469108	8
	77	160	14.2828	718.49	-4456.76	1	4514.3	-80.8419	1.52644E-006	-0.469109	8
	78	163	12.5002	822.514	-5056.79	1	5123.25	-80.7614	1.21906E-006	-0.46911	8
	79	166	11.323	981.96	-5554.45	1	5640.58	-79.9744	1.18622E-006	-0.469114	8
	80	169	9.9987	1064.14	-6273.6	1	6363.21	-80.373	1.05054E-006	-0.469117	8
