EXPLAIN
TAG	EISPOT
TITLE	LABEL	Tomato_open	Test &Identifier
DATE	LABEL	5/14/2006	Date
TIME	LABEL	13:40:15	Time
NOTES	NOTES	1	&Notes...
	
PSTAT	PSTAT	300	Potentiostat
VDC	POTEN	1.00000E-001	T	DC &Voltage (V)
FREQINIT	QUANT	1.00000E+005	Initial Fre&q. (Hz)
FREQFINAL	QUANT	1.00000E+001	Final Fre&q. (Hz)
PTSPERDEC	QUANT	2.00000E+001	Points/&decade
VAC	QUANT	1.00000E+001	AC &Voltage (mV rms)
AREA	QUANT	1.00000E+000	&Area (cm²)
DENSITY	QUANT	7.87000E+000	&Density (gm/cm³)
EQUIV	QUANT	7.00000E+000	Equiv. &Wt
CONDIT	TWOPARAM	F	1.50000E+001	0.00000E+000	Conditionin&g	Time(s)	E(V)
DELAY	TWOPARAM	F	6.00000E+002	0.00000E+000	Init. De&lay	Time(s)	Stab.(mV/s)
SPEED	SELECTOR	1	&Optimize for:
ZGUESS	QUANT	1.00000E+002	E&stimated Z (ohms)
OCVCURVE	TABLE	39
	Pt	T	Vf	Vm	Ach	Over
	#	s	V vs. Ref.	V	V	bits
	0	0.258332	-5.11569E-001	3.26684E-006	-6.34000E-005	......
	1	0.516663	-4.90920E-001	3.26684E-006	-1.63400E-004	......
	2	0.774994	-4.76069E-001	3.26684E-006	-1.63400E-004	......
	3	1.03333	-4.62669E-001	3.26684E-006	-6.34000E-005	......
	4	1.29166	-4.58419E-001	3.26684E-006	-1.63400E-004	......
	5	1.54999	-4.56669E-001	3.26684E-006	-1.63400E-004	......
	6	1.80832	-4.57569E-001	3.26684E-006	-1.63400E-004	......
	7	2.06665	-4.68320E-001	3.26684E-006	-6.34000E-005	......
	8	2.32498	-4.73069E-001	3.26684E-006	-1.63400E-004	......
	9	2.58332	-4.80669E-001	3.26684E-006	-2.63400E-004	......
	10	2.84165	-4.93569E-001	3.26684E-006	-6.34000E-005	......
	11	3.09998	-5.00369E-001	3.26684E-006	-6.34000E-005	......
	12	3.35831	-5.00419E-001	3.26684E-006	-1.63400E-004	......
	13	3.61664	-5.00870E-001	3.26684E-006	-1.63400E-004	......
	14	3.87497	-5.06619E-001	3.26684E-006	-1.63400E-004	......
	15	4.1333	-5.03069E-001	3.26684E-006	-1.63400E-004	......
	16	4.39164	-4.95819E-001	3.26684E-006	-6.34000E-005	......
	17	4.64997	-4.91969E-001	3.26684E-006	-1.63400E-004	......
	18	4.9083	-4.95420E-001	3.26684E-006	-2.63400E-004	......
	19	5.16663	-5.05969E-001	3.26684E-006	-1.63400E-004	......
	20	5.42496	-5.05470E-001	3.26684E-006	-1.63400E-004	......
	21	5.68329	-5.10419E-001	3.26684E-006	-1.63400E-004	......
	22	5.94162	-5.23569E-001	3.26684E-006	-2.63400E-004	......
	23	6.19996	-5.31819E-001	3.26684E-006	-6.34000E-005	......
	24	6.45829	-5.36219E-001	3.26684E-006	-3.63400E-004	......
	25	6.71662	-5.37669E-001	3.26684E-006	-1.63400E-004	......
	26	6.97495	-5.22869E-001	3.26684E-006	-6.34000E-005	......
	27	7.23328	-5.25819E-001	3.26684E-006	-6.34000E-005	......
	28	7.49161	-5.31869E-001	3.26684E-006	-1.63400E-004	......
	29	7.74995	-5.32219E-001	3.26684E-006	-6.34000E-005	......
	30	8.00828	-5.33819E-001	3.26684E-006	-6.34000E-005	......
	31	8.26661	-5.38870E-001	3.26684E-006	-6.34000E-005	......
	32	8.52494	-5.40969E-001	3.26684E-006	-1.63400E-004	......
	33	8.78327	-5.40670E-001	3.26684E-006	-1.63400E-004	......
	34	9.0416	-5.40670E-001	3.26684E-006	-6.34000E-005	......
	35	9.29993	-5.31969E-001	3.26684E-006	-2.63400E-004	......
	36	9.5583	-5.22070E-001	3.26684E-006	-6.34000E-005	......
	37	9.8166	-5.23369E-001	3.26684E-006	-6.34000E-005	......
	38	10.0749	-5.21469E-001	3.26684E-006	-1.63400E-004	......
EOC	QUANT	-0.521469	Open Circuit (V)
PSTATMODEL	IQUANT	32	Pstat Model
PSTATSECTION	LABEL	PStat0	Pstat Section
CTRLMODE	IQUANT	1	Control Mode
IESTAB	IQUANT	0	I/E Stability
CASPEED	IQUANT	1	Control Amp Speed
CONVENTION	IQUANT	1	Current Convention
ICHRANGE	IQUANT	2	Ich Range
ICHRANGEMODE	TOGGLE	F	Ich Auto Range
ICHOFFSETENABLE	TOGGLE	T	Ich Offset Enable
ICHOFFSET	QUANT	0	Ich Offset (V)
ICHFILTER	IQUANT	3	Ich Filter
VCHRANGE	IQUANT	2	Vch Range
VCHRANGEMODE	TOGGLE	F	Vch Auto Range
VCHOFFSETENABLE	TOGGLE	T	Vch Offset Enable
VCHOFFSET	QUANT	0	Vch Offset (V)
VCHFILTER	IQUANT	3	Vch Filter
ACHRANGE	IQUANT	0	Ach Range
IERANGELOWERLIMIT	IQUANT	3	I/E Range Lower Limit
IERANGEMODE	TOGGLE	F	I/E AutoRange
IERANGE	IQUANT	11	I/E Range
POSFEEDENABLE	TOGGLE	F	Positive Feedback IR Comp
POSFEEDRESISTANCE	QUANT	0	Positive Feedback Resistance (ohm)
FC350IDIVISOR	IQUANT	0	FC350 I Divisor
FC350VRANGE	IQUANT	0	FC350 V Range
FRAMEWORKVERSION	QUANT	4.35	Framework Version
ZCURVE	TABLE
	Pt	Time	Freq	Zreal	Zimag	Zsig	Zmod	Zphz	Idc	Vdc	IERange
	#	s	Hz	ohm	ohm	V	ohm	°	A	V	#
	0	5	100007	35.2097	-0.97147	1	35.2231	-1.58045	1.40003E-005	-0.42139	10
	1	7	89134.1	35.0457	-1.16114	1	35.0649	-1.89765	1.15348E-005	-0.421387	10
	2	9	79433.6	34.986	-1.3947	1	35.0137	-2.28286	1.1674E-005	-0.4214	10
	3	11	70800.8	34.9728	-1.69885	1	35.014	-2.78104	1.01104E-005	-0.421395	10
	4	13	63105.5	34.9471	-1.96928	1	35.0025	-3.22522	8.45963E-006	-0.421372	10
	5	15	56243.5	34.9565	-2.19313	1	35.0253	-3.58996	9.12135E-006	-0.421379	10
	6	17	50123.7	34.9643	-2.53845	1	35.0563	-4.15247	7.08072E-006	-0.42137	10
	7	19	44681	34.974	-2.81902	1	35.0874	-4.60826	9.49791E-006	-0.4214	10
	8	21	39811.2	34.9962	-3.12207	1	35.1352	-5.09795	6.06916E-006	-0.421383	10
	9	23	35488.3	35.064	-3.54903	1	35.2432	-5.77955	8.95744E-006	-0.421395	10
	10	25	31634.1	35.1862	-3.99286	1	35.4121	-6.47411	6.69416E-006	-0.421393	10
	11	27	28173.1	35.2195	-4.47582	1	35.5028	-7.24253	8.17478E-006	-0.421396	10
	12	29	25123.7	35.3681	-4.87067	1	35.7019	-7.8411	8.20525E-006	-0.421407	10
	13	31	22389.3	35.4737	-5.42867	1	35.8867	-8.70068	7.74634E-006	-0.421403	10
	14	33	19954.4	35.5839	-6.03019	1	36.0912	-9.6182	6.26603E-006	-0.421391	10
	15	35	17778.2	35.7536	-6.65163	1	36.3671	-10.5389	7.61244E-006	-0.421399	10
	16	37	15852.9	35.9408	-7.34262	1	36.6832	-11.5465	5.99431E-006	-0.421382	10
	17	39	14122.3	36.0874	-8.09395	1	36.9839	-12.6415	6.80619E-006	-0.421385	10
	18	41	12587.2	36.1907	-8.98174	1	37.2886	-13.9379	7.15853E-006	-0.421397	10
	19	43	11221.1	36.4299	-9.8854	1	37.7473	-15.1819	1.04576E-005	-0.42139	10
	20	45	9998.2	36.6404	-10.9016	1	38.2278	-16.5693	1.29128E-005	-0.421392	10
	21	47	8912.76	36.8882	-12.0229	1	38.7981	-18.0522	9.42947E-006	-0.421385	10
	22	49	7942.6	37.0926	-13.2797	1	39.3982	-19.6982	1.00238E-005	-0.4214	10
	23	51	7078.05	37.3581	-14.6774	1	40.1379	-21.449	8.35509E-006	-0.421403	10
	24	53	6311.1	37.6156	-16.1832	1	40.9491	-23.2786	8.04713E-006	-0.421399	10
	25	55	5622.14	37.8823	-17.8616	1	41.882	-25.244	6.8065E-006	-0.421392	10
	26	57	5011.18	38.2525	-19.7493	1	43.0498	-27.3067	7.36228E-006	-0.421397	10
	27	59	4465.21	38.5695	-21.9025	1	44.3545	-29.591	7.09025E-006	-0.421395	10
	28	61	3980.93	38.8502	-24.2109	1	45.7767	-31.9305	8.42166E-006	-0.421395	10
	29	63	3548.18	39.2475	-26.8092	1	47.53	-34.3363	7.15681E-006	-0.421409	10
	30	65	3162.67	39.6288	-29.7664	1	49.5629	-36.9113	7.31947E-006	-0.42139	10
	31	67	2819.01	40.043	-32.8269	1	51.7789	-39.3446	6.97226E-006	-0.42139	10
	32	68	2511.16	40.5908	-36.5234	1	54.6038	-41.9807	6.32801E-006	-0.421391	10
	33	71	2238.63	40.9708	-40.5295	1	57.6303	-44.6898	6.08565E-006	-0.421399	10
	34	73	1995.37	41.4739	-45.0327	1	61.2211	-47.3557	6.50107E-006	-0.421404	10
	35	75	1778.51	42.0727	-50.0511	1	65.3852	-49.9497	6.01446E-006	-0.4214	10
	36	77	1584.49	42.5794	-55.4263	1	69.8933	-52.4679	5.93512E-006	-0.421394	10
	37	79	1412.76	43.4859	-61.6939	1	75.4795	-54.8213	7.1267E-006	-0.421411	10
	38	81	1259.04	44.1306	-68.6352	1	81.5984	-57.2601	5.9298E-006	-0.421393	10
	39	82	1121.63	45.1756	-76.4536	1	88.8031	-59.4216	5.78541E-006	-0.421397	10
	40	85	999.95	45.662	-84.9287	1	96.426	-61.7352	5.98445E-006	-0.421408	10
	41	87	891.184	46.9362	-94.521	1	105.533	-63.5924	6.44313E-006	-0.421409	10
	42	88	794.163	48.145	-104.83	1	115.357	-65.3322	2.94096E-006	-0.421401	9
	43	90	707.867	48.9451	-116.872	1	126.707	-67.2764	3.15443E-006	-0.421391	9
	44	92	630.984	50.1423	-130.051	1	139.383	-68.9155	2.95154E-006	-0.421393	9
	45	94	562.189	52.8486	-145.07	1	154.396	-69.9834	2.56937E-006	-0.421401	9
	46	96	501.303	53.872	-161.052	1	169.823	-71.5049	2.21293E-006	-0.421387	9
	47	98	446.614	55.7289	-179.384	1	187.841	-72.7416	2.04542E-006	-0.421388	9
	48	100	398.209	57.7441	-199.639	1	207.822	-73.8679	2.06829E-006	-0.42139	9
	49	102	354.821	60.0863	-222.381	1	230.355	-74.88	2.09221E-006	-0.421382	9
	50	104	316.113	62.5844	-247.745	1	255.528	-75.8228	1.69188E-006	-0.421384	9
	51	106	281.926	65.342	-275.69	1	283.328	-76.6662	1.62674E-006	-0.421389	9
	52	108	251.185	68.5897	-307.213	1	314.777	-77.4143	1.76467E-006	-0.421387	9
	53	110	223.946	72.151	-342.066	1	349.592	-78.0893	1.87279E-006	-0.421391	9
	54	112	199.495	76.0312	-381.171	1	388.68	-78.7194	1.59574E-006	-0.421393	9
	55	114	177.836	80.2969	-424.527	1	432.054	-79.2894	1.43752E-006	-0.421392	9
	56	116	158.533	85.1494	-472.855	1	480.461	-79.7919	1.51315E-006	-0.421385	9
	57	118	141.263	91.05	-526.906	1	534.715	-80.196	1.76307E-006	-0.421386	9
	58	121	125.911	97.125	-586.76	1	594.744	-80.6011	1.60239E-006	-0.421388	9
	59	123	112.198	107.159	-653.864	1	662.587	-80.6927	3.19533E-006	-0.42138	9
	60	125	100.009	116.44	-728.068	1	737.321	-80.9136	3.58637E-006	-0.421385	9
	61	127	89.1164	127.824	-811.079	1	821.09	-81.044	4.08354E-006	-0.421386	9
	62	129	79.4083	140.601	-902.987	1	913.867	-81.1497	4.3382E-006	-0.421387	9
	63	131	70.788	156.821	-1007.08	1	1019.21	-81.149	4.15387E-006	-0.421384	9
	64	133	63.0971	167.698	-1119.83	1	1132.31	-81.4831	3.46699E-006	-0.421387	8
	65	135	54.5476	185.057	-1286.46	1	1299.71	-81.8142	2.19053E-006	-0.421383	8
	66	137	50.0083	202.599	-1393.21	1	1407.86	-81.7261	2.49582E-006	-0.421383	8
	67	139	46.1675	215.86	-1498.7	1	1514.17	-81.804	2.90212E-006	-0.421387	8
	68	142	40.0059	259.472	-1712.96	1	1732.5	-81.3866	2.7748E-006	-0.421381	8
	69	144	35.3046	265.828	-1932.34	1	1950.54	-82.1671	1.58672E-006	-0.421384	8
	70	146	31.5793	289.076	-2150.31	1	2169.65	-82.3434	1.30583E-006	-0.421381	8
	71	148	28.5748	316.555	-2360.34	1	2381.48	-82.3614	1.1801E-006	-0.42138	8
	72	150	24.9911	357.181	-2674.82	1	2698.56	-82.394	1.06765E-006	-0.421382	8
	73	152	22.2195	392.451	-2991.26	1	3016.89	-82.5255	9.64243E-007	-0.421387	8
	74	155	20.0011	459.6	-3297.54	1	3329.41	-82.0654	1.20243E-006	-0.421386	8
	75	157	17.6486	538.235	-3701.65	1	3740.58	-81.7269	1.42356E-006	-0.42139	8
	76	159	15.7934	632.898	-4138.65	1	4186.76	-81.3055	1.8056E-006	-0.421391	8
	77	161	14.2828	771.083	-4525.95	1	4591.17	-80.3314	2.63643E-006	-0.421396	8
	78	164	12.5002	855.757	-5113.4	1	5184.51	-80.4993	2.25444E-006	-0.421388	8
	79	169	11.323	896.365	-5629.09	1	5700.01	-80.9523	1.36992E-006	-0.421391	8
	80	172	9.9987	1078.98	-6310.31	1	6401.89	-80.297	1.24987E-006	-0.42139	8
