EXPLAIN
TAG	EISPOT
TITLE	LABEL	Tomato_open	Test &Identifier
DATE	LABEL	5/14/2006	Date
TIME	LABEL	13:55:17	Time
NOTES	NOTES	1	&Notes...
	
PSTAT	PSTAT	300	Potentiostat
VDC	POTEN	1.00000E-001	T	DC &Voltage (V)
FREQINIT	QUANT	1.00000E+005	Initial Fre&q. (Hz)
FREQFINAL	QUANT	1.00000E+001	Final Fre&q. (Hz)
PTSPERDEC	QUANT	2.00000E+001	Points/&decade
VAC	QUANT	1.00000E+001	AC &Voltage (mV rms)
AREA	QUANT	1.00000E+000	&Area (cm²)
DENSITY	QUANT	7.87000E+000	&Density (gm/cm³)
EQUIV	QUANT	7.00000E+000	Equiv. &Wt
CONDIT	TWOPARAM	F	1.50000E+001	0.00000E+000	Conditionin&g	Time(s)	E(V)
DELAY	TWOPARAM	F	6.00000E+002	0.00000E+000	Init. De&lay	Time(s)	Stab.(mV/s)
SPEED	SELECTOR	1	&Optimize for:
ZGUESS	QUANT	1.00000E+002	E&stimated Z (ohms)
OCVCURVE	TABLE	39
	Pt	T	Vf	Vm	Ach	Over
	#	s	V vs. Ref.	V	V	bits
	0	0.258332	-4.74669E-001	4.18284E-006	2.36600E-004	......
	1	0.516663	-4.75519E-001	4.18284E-006	3.66000E-005	......
	2	0.774994	-4.76019E-001	4.18284E-006	2.36600E-004	......
	3	1.03333	-4.76719E-001	4.18284E-006	3.66000E-005	......
	4	1.29166	-4.76869E-001	4.18284E-006	3.36600E-004	......
	5	1.54999	-4.76619E-001	4.18284E-006	2.36600E-004	......
	6	1.80832	-4.75819E-001	4.18284E-006	2.36600E-004	......
	7	2.06665	-4.73619E-001	4.18284E-006	-1.63400E-004	......
	8	2.32498	-4.72669E-001	4.18284E-006	2.36600E-004	......
	9	2.58332	-4.73669E-001	4.18284E-006	3.66000E-005	......
	10	2.84165	-4.75069E-001	4.18284E-006	3.36600E-004	......
	11	3.09998	-4.76269E-001	4.18284E-006	-6.34000E-005	......
	12	3.35831	-4.77119E-001	4.18284E-006	1.36600E-004	......
	13	3.61664	-4.77669E-001	4.18284E-006	3.66000E-005	......
	14	3.87497	-4.77919E-001	4.18284E-006	2.36600E-004	......
	15	4.1333	-4.78019E-001	4.18284E-006	3.66000E-005	......
	16	4.39164	-4.78119E-001	4.18284E-006	4.36600E-004	......
	17	4.64997	-4.78069E-001	4.18284E-006	2.36600E-004	......
	18	4.9083	-4.77969E-001	4.18284E-006	2.36600E-004	......
	19	5.16663	-4.77869E-001	4.18284E-006	-6.34000E-005	......
	20	5.42496	-4.77819E-001	4.18284E-006	2.36600E-004	......
	21	5.68329	-4.78069E-001	4.18284E-006	3.66000E-005	......
	22	5.94162	-4.78519E-001	4.18284E-006	2.36600E-004	......
	23	6.19996	-4.78170E-001	4.18284E-006	-6.34000E-005	......
	24	6.45829	-4.77769E-001	4.18284E-006	2.36600E-004	......
	25	6.71662	-4.78019E-001	4.18284E-006	-6.34000E-005	......
	26	6.97495	-4.78119E-001	4.18284E-006	1.36600E-004	......
	27	7.23328	-4.78019E-001	4.18284E-006	3.66000E-005	......
	28	7.49161	-4.77769E-001	4.18284E-006	2.36600E-004	......
	29	7.74995	-4.77270E-001	4.18284E-006	-6.34000E-005	......
	30	8.00828	-4.77169E-001	4.18284E-006	3.36600E-004	......
	31	8.26661	-4.76819E-001	4.18284E-006	1.36600E-004	......
	32	8.52494	-4.76319E-001	4.18284E-006	2.36600E-004	......
	33	8.78327	-4.75969E-001	4.18284E-006	-6.34000E-005	......
	34	9.0416	-4.75969E-001	4.18284E-006	1.36600E-004	......
	35	9.29993	-4.76419E-001	4.18284E-006	3.66000E-005	......
	36	9.5583	-4.77019E-001	4.18284E-006	2.36600E-004	......
	37	9.8166	-4.77019E-001	4.18284E-006	3.66000E-005	......
	38	10.0749	-4.77419E-001	4.18284E-006	2.36600E-004	......
EOC	QUANT	-0.477419	Open Circuit (V)
PSTATMODEL	IQUANT	32	Pstat Model
PSTATSECTION	LABEL	PStat0	Pstat Section
CTRLMODE	IQUANT	1	Control Mode
IESTAB	IQUANT	0	I/E Stability
CASPEED	IQUANT	1	Control Amp Speed
CONVENTION	IQUANT	1	Current Convention
ICHRANGE	IQUANT	2	Ich Range
ICHRANGEMODE	TOGGLE	F	Ich Auto Range
ICHOFFSETENABLE	TOGGLE	T	Ich Offset Enable
ICHOFFSET	QUANT	0	Ich Offset (V)
ICHFILTER	IQUANT	3	Ich Filter
VCHRANGE	IQUANT	2	Vch Range
VCHRANGEMODE	TOGGLE	F	Vch Auto Range
VCHOFFSETENABLE	TOGGLE	T	Vch Offset Enable
VCHOFFSET	QUANT	0	Vch Offset (V)
VCHFILTER	IQUANT	3	Vch Filter
ACHRANGE	IQUANT	0	Ach Range
IERANGELOWERLIMIT	IQUANT	3	I/E Range Lower Limit
IERANGEMODE	TOGGLE	F	I/E AutoRange
IERANGE	IQUANT	11	I/E Range
POSFEEDENABLE	TOGGLE	F	Positive Feedback IR Comp
POSFEEDRESISTANCE	QUANT	0	Positive Feedback Resistance (ohm)
FC350IDIVISOR	IQUANT	0	FC350 I Divisor
FC350VRANGE	IQUANT	0	FC350 V Range
FRAMEWORKVERSION	QUANT	4.35	Framework Version
ZCURVE	TABLE
	Pt	Time	Freq	Zreal	Zimag	Zsig	Zmod	Zphz	Idc	Vdc	IERange
	#	s	Hz	ohm	ohm	V	ohm	°	A	V	#
	0	4	100007	34.9065	-1.05307	1	34.9224	-1.72799	7.724E-006	-0.377601	10
	1	6	89134.1	34.8393	-1.14619	1	34.8581	-1.88431	5.35838E-006	-0.3776	10
	2	8	79433.6	34.7571	-1.43934	1	34.7869	-2.37135	5.81619E-006	-0.377608	10
	3	10	70800.8	34.683	-1.61876	1	34.7207	-2.67223	5.36869E-006	-0.37759	10
	4	12	63105.5	34.7186	-1.90092	1	34.7706	-3.13394	8.23759E-006	-0.377617	10
	5	14	56243.5	34.7342	-2.18216	1	34.8027	-3.59486	8.01431E-006	-0.377596	10
	6	16	50123.7	34.7466	-2.50586	1	34.8368	-4.12493	8.78088E-006	-0.37761	10
	7	18	44681	34.7692	-2.80368	1	34.8821	-4.61017	9.77337E-006	-0.377594	10
	8	20	39811.2	34.8367	-3.0936	1	34.9738	-5.07473	8.84462E-006	-0.37761	10
	9	22	35488.3	34.8798	-3.52956	1	35.058	-5.7782	8.47853E-006	-0.377601	10
	10	24	31634.1	34.9606	-3.96375	1	35.1846	-6.46842	8.2326E-006	-0.377612	10
	11	26	28173.1	35.0464	-4.37664	1	35.3186	-7.11831	7.21119E-006	-0.377606	10
	12	28	25123.7	35.1751	-4.91333	1	35.5166	-7.95175	7.64587E-006	-0.377591	10
	13	30	22389.3	35.2642	-5.43347	1	35.6803	-8.75918	1.07971E-005	-0.377601	10
	14	32	19954.4	35.3567	-5.96225	1	35.8559	-9.5718	1.04562E-005	-0.377597	10
	15	34	17778.2	35.5082	-6.65563	1	36.1265	-10.6163	9.82541E-006	-0.377608	10
	16	36	15852.9	35.6668	-7.32741	1	36.4117	-11.6094	7.264E-006	-0.377601	10
	17	38	14122.3	35.8416	-8.08474	1	36.7421	-12.7114	9.23509E-006	-0.377608	10
	18	40	12587.2	36.0355	-8.89303	1	37.1166	-13.8627	8.30103E-006	-0.377605	10
	19	42	11221.1	36.2079	-9.8926	1	37.535	-15.2812	7.584E-006	-0.377619	10
	20	44	9998.2	36.3946	-10.9078	1	37.994	-16.684	7.43838E-006	-0.377607	10
	21	46	8912.76	36.6281	-12.0526	1	38.5602	-18.2139	1.01081E-005	-0.37763	10
	22	48	7942.6	36.9	-13.2437	1	39.2047	-19.7435	7.86884E-006	-0.377618	10
	23	50	7078.05	37.1184	-14.7016	1	39.9239	-21.6072	7.49931E-006	-0.377613	10
	24	52	6311.1	37.4123	-16.2334	1	40.7823	-23.4563	7.76603E-006	-0.377614	10
	25	54	5622.14	37.634	-17.9433	1	41.6927	-25.4911	7.21681E-006	-0.377623	10
	26	56	5011.18	37.8557	-19.8239	1	42.7322	-27.6398	8.03181E-006	-0.377615	10
	27	58	4465.21	38.2678	-21.9592	1	44.1207	-29.8485	7.16822E-006	-0.377619	10
	28	60	3980.93	38.5349	-24.3557	1	45.5866	-32.2947	6.56931E-006	-0.3776	10
	29	62	3548.18	38.9093	-26.9534	1	47.3331	-34.7113	8.11416E-006	-0.377634	10
	30	64	3162.67	39.313	-29.8485	1	49.3604	-37.2077	8.53088E-006	-0.377635	10
	31	66	2819.01	39.8152	-33.1489	1	51.8083	-39.7798	9.4081E-006	-0.377619	10
	32	68	2511.16	40.1793	-36.7545	1	54.4543	-42.451	7.7851E-006	-0.377626	10
	33	70	2238.63	40.5989	-40.8313	1	57.5801	-45.1635	7.80879E-006	-0.377617	10
	34	72	1995.37	41.254	-45.1694	1	61.1733	-47.594	8.48443E-006	-0.377619	10
	35	74	1778.51	41.6434	-50.3535	1	65.3426	-50.4085	9.21099E-006	-0.377609	10
	36	76	1584.49	42.3513	-55.8575	1	70.0977	-52.8305	9.00478E-006	-0.377613	10
	37	78	1412.76	42.9742	-62.0435	1	75.473	-55.2917	6.8346E-006	-0.377609	10
	38	80	1259.04	43.9648	-69.1399	1	81.9343	-57.5484	7.23484E-006	-0.377628	10
	39	82	1121.63	44.7335	-76.6725	1	88.768	-59.7392	7.11248E-006	-0.377618	10
	40	84	999.95	45.5737	-85.3026	1	96.713	-61.8862	7.48482E-006	-0.377611	10
	41	86	891.184	46.7379	-94.9643	1	105.843	-63.7953	6.74615E-006	-0.377618	10
	42	88	794.163	47.5102	-105.708	1	115.894	-65.7985	4.03726E-006	-0.377614	9
	43	90	707.867	48.6321	-117.948	1	127.581	-67.5928	4.35731E-006	-0.377605	9
	44	92	630.984	50.3631	-130.61	1	139.984	-68.9135	4.19723E-006	-0.377614	9
	45	94	562.189	51.5027	-146.08	1	154.893	-70.5792	4.05959E-006	-0.377619	9
	46	96	501.303	53.6048	-162.424	1	171.042	-71.7356	4.32651E-006	-0.377608	9
	47	98	446.614	55.6085	-180.934	1	189.286	-72.9156	5.07917E-006	-0.377613	9
	48	100	398.209	57.7043	-201.388	1	209.492	-74.0112	5.13542E-006	-0.377608	9
	49	102	354.821	60.035	-224.303	1	232.199	-75.016	4.58934E-006	-0.377609	9
	50	104	316.113	62.6218	-249.867	1	257.595	-75.9303	4.13265E-006	-0.377607	9
	51	106	281.926	65.5898	-278.094	1	285.724	-76.729	4.15502E-006	-0.377608	9
	52	108	251.185	68.9392	-309.889	1	317.464	-77.458	3.84374E-006	-0.377605	9
	53	110	223.946	72.6023	-344.961	1	352.518	-78.1147	3.78468E-006	-0.377604	9
	54	112	199.495	76.8785	-384.496	1	392.106	-78.693	3.8939E-006	-0.377611	9
	55	114	177.836	81.8123	-428.139	1	435.885	-79.1819	3.99615E-006	-0.377611	9
	56	116	158.533	87.9388	-476.795	1	484.837	-79.55	4.55692E-006	-0.37761	9
	57	118	141.263	93.1696	-531.086	1	539.197	-80.0497	3.86168E-006	-0.37761	9
	58	120	125.911	98.706	-592.059	1	600.231	-80.5349	3.10971E-006	-0.377618	9
	59	122	112.198	105.83	-659.611	1	668.047	-80.885	2.89706E-006	-0.377618	9
	60	124	100.009	114.214	-734.822	1	743.645	-81.1652	2.83049E-006	-0.377623	9
	61	126	89.1164	123.69	-818.721	1	828.012	-81.4089	2.94004E-006	-0.377624	9
	62	129	79.4083	134.672	-912.191	1	922.079	-81.6017	2.95331E-006	-0.37762	9
	63	131	70.788	146.322	-1016.42	1	1026.9	-81.8081	2.72149E-006	-0.377618	9
	64	133	63.0971	158.643	-1131.15	1	1142.22	-82.0164	1.92191E-006	-0.377625	8
	65	135	54.5476	178.871	-1297.13	1	1309.4	-82.1486	1.94898E-006	-0.37763	8
	66	137	50.0083	192.971	-1407.79	1	1420.95	-82.1949	1.9039E-006	-0.377627	8
	67	139	46.1675	209.049	-1518.57	1	1532.89	-82.1618	2.03896E-006	-0.377626	8
	68	141	40.0059	253.343	-1734.38	1	1752.79	-81.6895	2.73176E-006	-0.37763	8
	69	143	35.3046	277.485	-1947.46	1	1967.13	-81.8908	3.06892E-006	-0.377632	8
	70	146	31.5793	313.693	-2157.29	1	2179.98	-81.7266	2.23566E-006	-0.377627	8
	71	148	28.5748	343.096	-2371.04	1	2395.74	-81.7663	2.35603E-006	-0.377626	8
	72	150	24.9911	397.779	-2700.08	1	2729.22	-81.6194	2.50174E-006	-0.377628	8
	73	152	22.2195	462.978	-3005.54	1	3040.99	-81.2429	2.60592E-006	-0.377625	8
	74	155	20.0011	553.99	-3263.23	1	3309.92	-80.3649	3.39971E-006	-0.377626	8
	75	157	17.6486	657.652	-3690.46	1	3748.6	-79.8958	3.23659E-006	-0.377631	8
	76	159	15.7934	712.622	-4130.49	1	4191.51	-80.2113	3.01421E-006	-0.377634	8
	77	162	14.2828	849.1	-4497.69	1	4577.13	-79.3092	2.95709E-006	-0.377632	8
	78	164	12.5002	979.78	-5130.23	1	5222.95	-79.1877	2.82231E-006	-0.377631	8
	79	167	11.323	1199.16	-5581.71	1	5709.07	-77.875	3.09526E-006	-0.377634	8
	80	169	9.9987	1555.02	-6231.43	1	6422.52	-75.9883	3.42843E-006	-0.37763	8
