EXPLAIN
TAG	EISPOT
TITLE	LABEL	Tomato_open	Test &Identifier
DATE	LABEL	5/12/2006	Date
TIME	LABEL	10:19:14	Time
NOTES	NOTES	1	&Notes...
	
PSTAT	PSTAT	300	Potentiostat
VDC	POTEN	1.00000E-001	T	DC &Voltage (V)
FREQINIT	QUANT	1.00000E+005	Initial Fre&q. (Hz)
FREQFINAL	QUANT	1.00000E+001	Final Fre&q. (Hz)
PTSPERDEC	QUANT	2.00000E+001	Points/&decade
VAC	QUANT	1.00000E+001	AC &Voltage (mV rms)
AREA	QUANT	1.00000E+000	&Area (cm²)
DENSITY	QUANT	7.87000E+000	&Density (gm/cm³)
EQUIV	QUANT	7.00000E+000	Equiv. &Wt
CONDIT	TWOPARAM	F	1.50000E+001	0.00000E+000	Conditionin&g	Time(s)	E(V)
DELAY	TWOPARAM	F	6.00000E+002	0.00000E+000	Init. De&lay	Time(s)	Stab.(mV/s)
SPEED	SELECTOR	1	&Optimize for:
ZGUESS	QUANT	1.00000E+002	E&stimated Z (ohms)
OCVCURVE	TABLE	39
	Pt	T	Vf	Vm	Ach	Over
	#	s	V vs. Ref.	V	V	bits
	0	0.258332	-5.82919E-001	7.13376E-006	2.36600E-004	......
	1	0.516663	-5.83369E-001	7.13376E-006	2.36600E-004	......
	2	0.774994	-5.80220E-001	7.13376E-006	2.36600E-004	......
	3	1.03333	-5.80669E-001	7.13376E-006	1.36600E-004	......
	4	1.29166	-5.82119E-001	7.13376E-006	3.36600E-004	......
	5	1.54999	-5.82469E-001	7.13376E-006	2.36600E-004	......
	6	1.80832	-5.82370E-001	7.13376E-006	3.36600E-004	......
	7	2.06665	-5.81270E-001	7.13376E-006	3.66000E-005	......
	8	2.32498	-5.82169E-001	7.13376E-006	3.36600E-004	......
	9	2.58332	-5.82969E-001	7.13376E-006	2.36600E-004	......
	10	2.84165	-5.83319E-001	7.13376E-006	2.36600E-004	......
	11	3.09998	-5.83470E-001	7.13376E-006	3.36600E-004	......
	12	3.35831	-5.84019E-001	7.13376E-006	3.36600E-004	......
	13	3.61664	-5.84269E-001	7.13376E-006	2.36600E-004	......
	14	3.87497	-5.85519E-001	7.13376E-006	3.36600E-004	......
	15	4.1333	-5.85669E-001	7.13376E-006	2.36600E-004	......
	16	4.39164	-5.85069E-001	7.13376E-006	3.36600E-004	......
	17	4.64997	-5.84119E-001	7.13376E-006	2.36600E-004	......
	18	4.9083	-5.83070E-001	7.13376E-006	3.36600E-004	......
	19	5.16663	-5.83369E-001	7.13376E-006	1.36600E-004	......
	20	5.42496	-5.83569E-001	7.13376E-006	3.36600E-004	......
	21	5.68329	-5.84769E-001	7.13376E-006	2.36600E-004	......
	22	5.94162	-5.84669E-001	7.13376E-006	2.36600E-004	......
	23	6.19996	-5.84119E-001	7.13376E-006	2.36600E-004	......
	24	6.45829	-5.84870E-001	7.13376E-006	3.36600E-004	......
	25	6.71662	-5.86169E-001	7.13376E-006	3.36600E-004	......
	26	6.97495	-5.85970E-001	7.13376E-006	3.36600E-004	......
	27	7.23328	-5.86019E-001	7.13376E-006	2.36600E-004	......
	28	7.49161	-5.86670E-001	7.13376E-006	3.36600E-004	......
	29	7.74995	-5.87020E-001	7.13376E-006	2.36600E-004	......
	30	8.00828	-5.86919E-001	7.13376E-006	3.36600E-004	......
	31	8.26661	-5.86269E-001	7.13376E-006	1.36600E-004	......
	32	8.52494	-5.86469E-001	7.13376E-006	2.36600E-004	......
	33	8.78327	-5.84969E-001	7.13376E-006	1.36600E-004	......
	34	9.0416	-5.84419E-001	7.13376E-006	3.36600E-004	......
	35	9.29993	-5.83070E-001	7.13376E-006	2.36600E-004	......
	36	9.5583	-5.84719E-001	7.13376E-006	3.36600E-004	......
	37	9.8166	-5.85719E-001	7.13376E-006	2.36600E-004	......
	38	10.0749	-5.85369E-001	7.13376E-006	3.36600E-004	......
EOC	QUANT	-0.585369	Open Circuit (V)
PSTATMODEL	IQUANT	32	Pstat Model
PSTATSECTION	LABEL	PStat0	Pstat Section
CTRLMODE	IQUANT	1	Control Mode
IESTAB	IQUANT	0	I/E Stability
CASPEED	IQUANT	1	Control Amp Speed
CONVENTION	IQUANT	1	Current Convention
ICHRANGE	IQUANT	2	Ich Range
ICHRANGEMODE	TOGGLE	F	Ich Auto Range
ICHOFFSETENABLE	TOGGLE	T	Ich Offset Enable
ICHOFFSET	QUANT	0	Ich Offset (V)
ICHFILTER	IQUANT	3	Ich Filter
VCHRANGE	IQUANT	2	Vch Range
VCHRANGEMODE	TOGGLE	F	Vch Auto Range
VCHOFFSETENABLE	TOGGLE	T	Vch Offset Enable
VCHOFFSET	QUANT	0	Vch Offset (V)
VCHFILTER	IQUANT	3	Vch Filter
ACHRANGE	IQUANT	0	Ach Range
IERANGELOWERLIMIT	IQUANT	3	I/E Range Lower Limit
IERANGEMODE	TOGGLE	F	I/E AutoRange
IERANGE	IQUANT	11	I/E Range
POSFEEDENABLE	TOGGLE	F	Positive Feedback IR Comp
POSFEEDRESISTANCE	QUANT	0	Positive Feedback Resistance (ohm)
FC350IDIVISOR	IQUANT	0	FC350 I Divisor
FC350VRANGE	IQUANT	0	FC350 V Range
FRAMEWORKVERSION	QUANT	4.35	Framework Version
ZCURVE	TABLE
	Pt	Time	Freq	Zreal	Zimag	Zsig	Zmod	Zphz	Idc	Vdc	IERange
	#	s	Hz	ohm	ohm	V	ohm	°	A	V	#
	0	5	100007	36.6863	-0.622703	1	36.6916	-0.97243	7.52775E-006	-0.485176	10
	1	7	89134.1	36.5364	-0.768464	1	36.5444	-1.20492	8.55806E-006	-0.485201	10
	2	8	79433.6	36.4932	-0.926053	1	36.5049	-1.45363	7.70353E-006	-0.485197	10
	3	10	70800.8	36.4488	-1.09325	1	36.4652	-1.71802	7.83541E-006	-0.485197	10
	4	12	63105.5	36.3864	-1.35313	1	36.4115	-2.12972	7.41431E-006	-0.485199	10
	5	14	56243.5	36.393	-1.56873	1	36.4268	-2.46823	8.10806E-006	-0.4852	10
	6	16	50123.7	36.357	-1.79959	1	36.4015	-2.8337	9.76806E-006	-0.485213	10
	7	18	44681	36.4055	-2.00122	1	36.4605	-3.1464	9.32494E-006	-0.485219	10
	8	20	39811.2	36.4915	-2.27895	1	36.5626	-3.57357	9.36119E-006	-0.485223	10
	9	22	35488.3	36.4566	-2.60457	1	36.5495	-4.08644	9.50072E-006	-0.485218	10
	10	24	31634.1	36.4582	-2.89954	1	36.5734	-4.54719	8.1315E-006	-0.485204	10
	11	26	28173.1	36.5078	-3.25708	1	36.6528	-5.0982	7.95025E-006	-0.4852	10
	12	28	25123.7	36.5678	-3.64578	1	36.7491	-5.69354	8.44931E-006	-0.485204	10
	13	30	22389.3	36.6433	-4.03534	1	36.8648	-6.28438	7.38119E-006	-0.485206	10
	14	32	19954.4	36.6896	-4.46767	1	36.9606	-6.94269	9.54697E-006	-0.485202	10
	15	34	17778.2	36.8006	-4.9971	1	37.1383	-7.73281	7.57134E-006	-0.485197	10
	16	36	15852.9	36.8809	-5.53488	1	37.2939	-8.53494	6.69963E-006	-0.485179	10
	17	38	14122.3	36.94	-6.16182	1	37.4504	-9.4701	7.54681E-006	-0.485198	10
	18	40	12587.2	37.0608	-6.81769	1	37.6827	-10.4236	7.29806E-006	-0.485197	10
	19	42	11221.1	37.1578	-7.6028	1	37.9276	-11.5636	7.66072E-006	-0.485199	10
	20	44	9998.2	37.2964	-8.42683	1	38.2366	-12.7318	7.29322E-006	-0.485191	10
	21	46	8912.76	37.4255	-9.36629	1	38.5797	-14.0505	6.67541E-006	-0.485182	10
	22	48	7942.6	37.5694	-10.3802	1	38.977	-15.4452	7.90697E-006	-0.485194	10
	23	50	7078.05	37.707	-11.5219	1	39.4281	-16.9913	7.58728E-006	-0.485199	10
	24	52	6311.1	37.9196	-12.7963	1	40.0205	-18.6474	7.58212E-006	-0.485203	10
	25	54	5622.14	38.0796	-14.1852	1	40.6359	-20.4311	8.04181E-006	-0.485208	10
	26	56	5011.18	38.2283	-15.6982	1	41.326	-22.3252	7.7365E-006	-0.485205	10
	27	58	4465.21	38.3847	-17.4544	1	42.1668	-24.4524	7.97041E-006	-0.485203	10
	28	60	3980.93	38.6195	-19.3993	1	43.2181	-26.6712	7.13713E-006	-0.485188	10
	29	62	3548.18	38.9421	-21.5465	1	44.5055	-28.9556	9.25869E-006	-0.485214	10
	30	64	3162.67	39.2628	-23.9345	1	45.9829	-31.3664	7.26463E-006	-0.485209	10
	31	66	2819.01	39.4665	-26.6348	1	47.6132	-34.0142	7.76494E-006	-0.485183	10
	32	68	2511.16	39.8082	-29.6212	1	49.6196	-36.6529	7.99052E-006	-0.4852	10
	33	70	2238.63	40.1791	-33.014	1	52.0027	-39.409	7.77003E-006	-0.48521	10
	34	72	1995.37	40.5968	-36.6076	1	54.6645	-42.0421	7.47165E-006	-0.485202	10
	35	74	1778.51	40.9418	-40.8384	1	57.8273	-44.9275	7.64026E-006	-0.485191	10
	36	76	1584.49	41.5799	-45.4433	1	61.5953	-47.542	7.34359E-006	-0.485199	10
	37	78	1412.76	42.186	-50.5469	1	65.838	-50.1519	7.14237E-006	-0.485198	10
	38	80	1259.04	42.7638	-56.5087	1	70.8659	-52.8828	7.83694E-006	-0.485204	10
	39	82	1121.63	43.4031	-62.7796	1	76.3223	-55.3417	7.06249E-006	-0.485196	10
	40	83	999.95	44.2387	-69.6349	1	82.499	-57.5724	7.6804E-006	-0.485196	10
	41	85	891.184	45.135	-77.5452	1	89.7242	-59.7986	6.96293E-006	-0.485188	10
	42	87	794.163	46.1333	-86.4163	1	97.959	-61.9045	7.81026E-006	-0.485193	10
	43	89	707.867	47.066	-96.022	1	106.936	-63.8877	8.21963E-006	-0.485201	10
	44	91	630.984	48.4069	-107.187	1	117.61	-65.6955	4.21571E-006	-0.485199	9
	45	93	562.189	49.8703	-119.344	1	129.345	-67.3214	4.58909E-006	-0.485205	9
	46	95	501.303	51.4496	-132.732	1	142.355	-68.8127	4.15593E-006	-0.485193	9
	47	97	446.614	53.1927	-147.824	1	157.103	-70.2094	4.08451E-006	-0.485197	9
	48	99	398.209	55.1302	-164.5	1	173.492	-71.472	3.89992E-006	-0.485202	9
	49	101	354.821	57.387	-183.164	1	191.943	-72.6037	3.89699E-006	-0.485201	9
	50	103	316.113	59.8955	-203.999	1	212.61	-73.6374	3.95065E-006	-0.485202	9
	51	105	281.926	62.7694	-226.94	1	235.461	-74.5391	3.94932E-006	-0.4852	9
	52	107	251.185	66.031	-252.736	1	261.219	-75.3579	4.12749E-006	-0.4852	9
	53	109	223.946	69.6857	-281.207	1	289.713	-76.082	4.04026E-006	-0.485202	9
	54	111	199.495	74.0579	-313.17	1	321.807	-76.6952	4.34968E-006	-0.485198	9
	55	113	177.836	78.6469	-348.534	1	357.297	-77.2841	3.93456E-006	-0.485201	9
	56	115	158.533	84.0639	-387.831	1	396.837	-77.7701	3.94921E-006	-0.485199	9
	57	117	141.263	90.4241	-431.86	1	441.225	-78.1741	4.15127E-006	-0.485195	9
	58	119	125.911	97.718	-480.703	1	490.534	-78.5094	4.17546E-006	-0.485196	9
	59	121	112.198	106.009	-535.195	1	545.593	-78.7961	4.26859E-006	-0.485199	9
	60	123	100.009	115.388	-595.296	1	606.375	-79.0302	4.18822E-006	-0.485201	9
	61	126	89.1164	126.717	-662.444	1	674.455	-79.1708	4.24264E-006	-0.485203	9
	62	128	79.4083	140.102	-736.983	1	750.181	-79.2364	4.30624E-006	-0.485196	9
	63	130	70.788	154.865	-819.895	1	834.393	-79.3038	4.37915E-006	-0.485197	9
	64	132	63.0971	172.542	-911.74	1	927.922	-79.2838	4.41339E-006	-0.485197	9
	65	134	54.5476	197.772	-1042.63	1	1061.22	-79.2594	4.12883E-006	-0.485193	9
	66	136	50.0083	216.888	-1128.68	1	1149.33	-79.1226	3.43287E-006	-0.485198	8
	67	138	46.1675	234.584	-1214.61	1	1237.06	-79.0688	3.33814E-006	-0.4852	8
	68	140	40.0059	275.695	-1385.24	1	1412.41	-78.7439	3.34193E-006	-0.485194	8
	69	142	35.3046	321.782	-1552.5	1	1585.5	-78.2903	3.56858E-006	-0.485192	8
	70	144	31.5793	364.787	-1718.77	1	1757.05	-78.0175	3.45078E-006	-0.485194	8
	71	147	28.5748	413.198	-1878.85	1	1923.75	-77.5969	3.38147E-006	-0.485198	8
	72	149	24.9911	487.232	-2118.9	1	2174.2	-77.0502	3.42718E-006	-0.485204	8
	73	151	22.2195	563.699	-2355.06	1	2421.58	-76.5391	3.47456E-006	-0.4852	8
	74	153	20.0011	647.572	-2586.75	1	2666.58	-75.9453	3.27982E-006	-0.485187	8
	75	156	17.6486	766.616	-2883.33	1	2983.51	-75.1108	3.25991E-006	-0.485187	8
	76	158	15.7934	900.455	-3173.05	1	3298.34	-74.157	3.33876E-006	-0.485185	8
	77	160	14.2828	1039.88	-3456.18	1	3609.23	-73.2547	3.47023E-006	-0.485192	8
	78	162	12.5002	1227.93	-3863.75	1	4054.18	-72.3694	3.59565E-006	-0.485187	8
	79	165	11.323	1457.15	-4162.7	1	4410.37	-70.7075	3.63493E-006	-0.485186	8
	80	168	9.9987	1701.55	-4597.29	1	4902.07	-69.6895	3.60755E-006	-0.485192	8
