EXPLAIN
TAG	EISPOT
TITLE	LABEL	Tomato_open	Test &Identifier
DATE	LABEL	5/12/2006	Date
TIME	LABEL	10:14:11	Time
NOTES	NOTES	1	&Notes...
	
PSTAT	PSTAT	300	Potentiostat
VDC	POTEN	1.00000E-001	T	DC &Voltage (V)
FREQINIT	QUANT	1.00000E+005	Initial Fre&q. (Hz)
FREQFINAL	QUANT	1.00000E+001	Final Fre&q. (Hz)
PTSPERDEC	QUANT	2.00000E+001	Points/&decade
VAC	QUANT	1.00000E+001	AC &Voltage (mV rms)
AREA	QUANT	1.00000E+000	&Area (cm²)
DENSITY	QUANT	7.87000E+000	&Density (gm/cm³)
EQUIV	QUANT	7.00000E+000	Equiv. &Wt
CONDIT	TWOPARAM	F	1.50000E+001	0.00000E+000	Conditionin&g	Time(s)	E(V)
DELAY	TWOPARAM	F	6.00000E+002	0.00000E+000	Init. De&lay	Time(s)	Stab.(mV/s)
SPEED	SELECTOR	1	&Optimize for:
ZGUESS	QUANT	1.00000E+002	E&stimated Z (ohms)
OCVCURVE	TABLE	39
	Pt	T	Vf	Vm	Ach	Over
	#	s	V vs. Ref.	V	V	bits
	0	0.258332	-5.57669E-001	5.81876E-006	3.36600E-004	......
	1	0.516663	-5.57220E-001	5.81876E-006	2.36600E-004	......
	2	0.774994	-5.58469E-001	5.81876E-006	3.36600E-004	......
	3	1.03333	-5.58270E-001	5.81876E-006	1.36600E-004	......
	4	1.29166	-5.58819E-001	5.81876E-006	2.36600E-004	......
	5	1.54999	-5.58019E-001	5.81876E-006	2.36600E-004	......
	6	1.80832	-5.57970E-001	5.81876E-006	3.36600E-004	......
	7	2.06665	-5.58819E-001	5.81876E-006	2.36600E-004	......
	8	2.32498	-5.58270E-001	5.81876E-006	3.36600E-004	......
	9	2.58332	-5.57619E-001	5.81876E-006	2.36600E-004	......
	10	2.84165	-5.58869E-001	5.81876E-006	3.36600E-004	......
	11	3.09998	-5.58020E-001	5.81876E-006	2.36600E-004	......
	12	3.35831	-5.59569E-001	5.81876E-006	3.36600E-004	......
	13	3.61664	-5.58469E-001	5.81876E-006	2.36600E-004	......
	14	3.87497	-5.58619E-001	5.81876E-006	4.36600E-004	......
	15	4.1333	-5.59269E-001	5.81876E-006	2.36600E-004	......
	16	4.39164	-5.58569E-001	5.81876E-006	4.36600E-004	......
	17	4.64997	-5.58369E-001	5.81876E-006	2.36600E-004	......
	18	4.9083	-5.58919E-001	5.81876E-006	2.36600E-004	......
	19	5.16663	-5.58720E-001	5.81876E-006	1.36600E-004	......
	20	5.42496	-5.58119E-001	5.81876E-006	3.36600E-004	......
	21	5.68329	-5.58270E-001	5.81876E-006	2.36600E-004	......
	22	5.94162	-5.59669E-001	5.81876E-006	2.36600E-004	......
	23	6.19996	-5.60070E-001	5.81876E-006	2.36600E-004	......
	24	6.45829	-5.60419E-001	5.81876E-006	3.36600E-004	......
	25	6.71662	-5.60419E-001	5.81876E-006	3.36600E-004	......
	26	6.97495	-5.60919E-001	5.81876E-006	2.36600E-004	......
	27	7.23328	-5.61119E-001	5.81876E-006	1.36600E-004	......
	28	7.49161	-5.59969E-001	5.81876E-006	3.36600E-004	......
	29	7.74995	-5.60470E-001	5.81876E-006	2.36600E-004	......
	30	8.00828	-5.60070E-001	5.81876E-006	3.36600E-004	......
	31	8.26661	-5.59070E-001	5.81876E-006	3.66000E-005	......
	32	8.52494	-5.58869E-001	5.81876E-006	2.36600E-004	......
	33	8.78327	-5.59419E-001	5.81876E-006	2.36600E-004	......
	34	9.0416	-5.58569E-001	5.81876E-006	4.36600E-004	......
	35	9.29993	-5.58469E-001	5.81876E-006	1.36600E-004	......
	36	9.5583	-5.59119E-001	5.81876E-006	2.36600E-004	......
	37	9.8166	-5.58819E-001	5.81876E-006	1.36600E-004	......
	38	10.0749	-5.58670E-001	5.81876E-006	4.36600E-004	......
EOC	QUANT	-0.55867	Open Circuit (V)
PSTATMODEL	IQUANT	32	Pstat Model
PSTATSECTION	LABEL	PStat0	Pstat Section
CTRLMODE	IQUANT	1	Control Mode
IESTAB	IQUANT	0	I/E Stability
CASPEED	IQUANT	1	Control Amp Speed
CONVENTION	IQUANT	1	Current Convention
ICHRANGE	IQUANT	2	Ich Range
ICHRANGEMODE	TOGGLE	F	Ich Auto Range
ICHOFFSETENABLE	TOGGLE	T	Ich Offset Enable
ICHOFFSET	QUANT	0	Ich Offset (V)
ICHFILTER	IQUANT	3	Ich Filter
VCHRANGE	IQUANT	2	Vch Range
VCHRANGEMODE	TOGGLE	F	Vch Auto Range
VCHOFFSETENABLE	TOGGLE	T	Vch Offset Enable
VCHOFFSET	QUANT	0	Vch Offset (V)
VCHFILTER	IQUANT	3	Vch Filter
ACHRANGE	IQUANT	0	Ach Range
IERANGELOWERLIMIT	IQUANT	3	I/E Range Lower Limit
IERANGEMODE	TOGGLE	F	I/E AutoRange
IERANGE	IQUANT	11	I/E Range
POSFEEDENABLE	TOGGLE	F	Positive Feedback IR Comp
POSFEEDRESISTANCE	QUANT	0	Positive Feedback Resistance (ohm)
FC350IDIVISOR	IQUANT	0	FC350 I Divisor
FC350VRANGE	IQUANT	0	FC350 V Range
FRAMEWORKVERSION	QUANT	4.35	Framework Version
ZCURVE	TABLE
	Pt	Time	Freq	Zreal	Zimag	Zsig	Zmod	Zphz	Idc	Vdc	IERange
	#	s	Hz	ohm	ohm	V	ohm	°	A	V	#
	0	5	100007	36.6946	-0.550147	1	36.6987	-0.858949	9.73837E-006	-0.458581	10
	1	7	89134.1	36.5603	-0.7471	1	36.5679	-1.17066	1.19023E-005	-0.458594	10
	2	8	79433.6	36.43	-0.919725	1	36.4416	-1.4462	1.47931E-005	-0.45862	10
	3	10	70800.8	36.3948	-1.11827	1	36.412	-1.75993	1.33159E-005	-0.458604	10
	4	12	63105.5	36.4042	-1.32037	1	36.4281	-2.07719	1.39793E-005	-0.458616	10
	5	14	56243.5	36.3627	-1.48418	1	36.393	-2.33729	1.14359E-005	-0.458602	10
	6	16	50123.7	36.3715	-1.77771	1	36.4149	-2.79819	1.19413E-005	-0.458607	10
	7	18	44681	36.3672	-2.01982	1	36.4233	-3.17892	9.70978E-006	-0.458599	10
	8	20	39811.2	36.3041	-2.30449	1	36.3772	-3.63212	1.00549E-005	-0.458606	10
	9	22	35488.3	36.336	-2.62028	1	36.4304	-4.1246	9.69338E-006	-0.458586	10
	10	24	31634.1	36.4723	-2.91727	1	36.5888	-4.57312	9.8751E-006	-0.458603	10
	11	26	28173.1	36.4566	-3.26441	1	36.6025	-5.11675	9.88072E-006	-0.458619	10
	12	28	25123.7	36.5879	-3.61891	1	36.7664	-5.64875	1.03893E-005	-0.458627	10
	13	30	22389.3	36.6452	-4.04074	1	36.8673	-6.29238	9.57103E-006	-0.458618	10
	14	32	19954.4	36.7186	-4.46748	1	36.9894	-6.93697	8.88275E-006	-0.458606	10
	15	34	17778.2	36.768	-5.03965	1	37.1118	-7.80467	8.09088E-006	-0.458602	10
	16	36	15852.9	36.9134	-5.57517	1	37.332	-8.58869	9.09338E-006	-0.458627	10
	17	38	14122.3	36.9155	-6.13626	1	37.422	-9.43767	8.06478E-006	-0.458604	10
	18	40	12587.2	37.0324	-6.77635	1	37.6473	-10.3695	8.0201E-006	-0.458611	10
	19	42	11221.1	37.1659	-7.60047	1	37.9351	-11.5577	7.94822E-006	-0.458614	10
	20	44	9998.2	37.273	-8.37078	1	38.2014	-12.6575	8.03588E-006	-0.458607	10
	21	46	8912.76	37.4565	-9.32588	1	38.6	-13.9812	7.82353E-006	-0.458619	10
	22	48	7942.6	37.5439	-10.3226	1	38.9372	-15.3734	7.9765E-006	-0.458614	10
	23	50	7078.05	37.7032	-11.4122	1	39.3926	-16.8403	7.98228E-006	-0.45861	10
	24	52	6311.1	37.8886	-12.6857	1	39.9559	-18.5114	8.31713E-006	-0.458612	10
	25	54	5622.14	38.0592	-14.1022	1	40.5878	-20.3314	8.14213E-006	-0.458613	10
	26	56	5011.18	38.2559	-15.7423	1	41.3683	-22.3672	8.11244E-006	-0.458615	10
	27	58	4465.21	38.4712	-17.3925	1	42.22	-24.3273	8.56103E-006	-0.458626	10
	28	60	3980.93	38.638	-19.3878	1	43.2295	-26.6466	9.269E-006	-0.458613	10
	29	62	3548.18	38.9544	-21.508	1	44.4977	-28.9046	6.92588E-006	-0.458596	10
	30	64	3162.67	39.2717	-23.8681	1	45.956	-31.2899	7.644E-006	-0.458587	10
	31	66	2819.01	39.5588	-26.5125	1	47.6216	-33.8302	8.53697E-006	-0.458626	10
	32	68	2511.16	39.8479	-29.5494	1	49.6087	-36.559	7.45037E-006	-0.458608	10
	33	70	2238.63	40.3379	-32.8704	1	52.0347	-39.1758	8.02429E-006	-0.45862	10
	34	71	1995.37	40.5153	-36.4273	1	54.4834	-41.9588	7.4219E-006	-0.458615	10
	35	73	1778.51	41.0683	-40.5899	1	57.742	-44.6643	8.20841E-006	-0.458611	10
	36	75	1584.49	41.6254	-45.1097	1	61.3804	-47.3005	7.37148E-006	-0.458608	10
	37	77	1412.76	42.0667	-50.3467	1	65.6079	-50.1199	8.8141E-006	-0.458613	10
	38	79	1259.04	42.8308	-56.0014	1	70.5028	-52.5906	7.40501E-006	-0.458612	10
	39	81	1121.63	43.399	-62.0485	1	75.7198	-55.0296	7.95734E-006	-0.458597	10
	40	83	999.95	44.2782	-69.3041	1	82.2412	-57.4256	7.41934E-006	-0.45862	10
	41	85	891.184	44.9744	-77.1166	1	89.273	-59.7492	7.91595E-006	-0.458625	10
	42	87	794.163	46.0171	-85.8421	1	97.398	-61.8057	7.04923E-006	-0.458622	10
	43	89	707.867	47.0472	-95.825	1	106.751	-63.8504	8.00727E-006	-0.458607	10
	44	91	630.984	48.5341	-106.639	1	117.164	-65.5284	4.65026E-006	-0.458623	9
	45	93	562.189	49.7511	-118.369	1	128.4	-67.2028	4.95434E-006	-0.458608	9
	46	95	501.303	51.4799	-132.002	1	141.685	-68.6945	4.57449E-006	-0.458621	9
	47	97	446.614	53.2165	-146.996	1	156.333	-70.0984	4.60713E-006	-0.458623	9
	48	99	398.209	55.1682	-163.606	1	172.657	-71.3658	4.73715E-006	-0.458622	9
	49	101	354.821	57.4431	-182.178	1	191.019	-72.4992	4.82438E-006	-0.458624	9
	50	103	316.113	59.9703	-202.885	1	211.563	-73.533	4.66002E-006	-0.458619	9
	51	105	281.926	62.8968	-225.738	1	234.337	-74.4307	4.84029E-006	-0.458622	9
	52	107	251.185	66.2071	-251.365	1	259.938	-75.244	4.87871E-006	-0.458623	9
	53	109	223.946	69.8449	-279.733	1	288.321	-75.9808	4.58857E-006	-0.458628	9
	54	111	199.495	74.0748	-311.487	1	320.174	-76.623	4.54426E-006	-0.458625	9
	55	113	177.836	79.0959	-346.639	1	355.549	-77.1464	4.79271E-006	-0.458626	9
	56	115	158.533	84.965	-385.808	1	395.053	-77.5802	5.13256E-006	-0.458621	9
	57	117	141.263	91.6195	-429.56	1	439.222	-77.96	5.38659E-006	-0.458626	9
	58	119	125.911	99.06	-477.855	1	488.015	-78.2884	5.34168E-006	-0.45863	9
	59	121	112.198	108.241	-531.941	1	542.842	-78.4983	5.44968E-006	-0.458628	9
	60	123	100.009	117.244	-591.883	1	603.383	-78.7955	4.92358E-006	-0.458626	9
	61	125	89.1164	128.54	-658.649	1	671.075	-78.9571	4.79473E-006	-0.458624	9
	62	127	79.4083	141.303	-732.956	1	746.453	-79.0881	4.61075E-006	-0.458627	9
	63	129	70.788	156.243	-815.154	1	829.993	-79.1495	4.61651E-006	-0.458628	9
	64	131	63.0971	174.992	-906.511	1	923.247	-79.0741	4.80018E-006	-0.458624	9
	65	133	54.5476	202.207	-1036.91	1	1056.44	-78.9653	4.61417E-006	-0.458626	9
	66	136	50.0083	221.811	-1121.65	1	1143.37	-78.8138	4.06743E-006	-0.458626	8
	67	138	46.1675	240.991	-1207.21	1	1231.03	-78.7107	3.96903E-006	-0.458634	8
	68	140	40.0059	283.603	-1375.9	1	1404.82	-78.3532	4.0732E-006	-0.458631	8
	69	142	35.3046	326.465	-1541.77	1	1575.96	-78.0444	4.00486E-006	-0.458629	8
	70	144	31.5793	373.953	-1705.6	1	1746.11	-77.6335	3.99139E-006	-0.458623	8
	71	146	28.5748	423.218	-1865.73	1	1913.12	-77.2194	3.9824E-006	-0.458621	8
	72	148	24.9911	505.079	-2102.89	1	2162.7	-76.4943	3.9643E-006	-0.458625	8
	73	151	22.2195	585.399	-2334.29	1	2406.57	-75.9215	3.91017E-006	-0.458623	8
	74	153	20.0011	674.656	-2555	1	2642.57	-75.2085	4.03956E-006	-0.45862	8
	75	156	17.6486	805.031	-2851.94	1	2963.38	-74.237	4.0895E-006	-0.458618	8
	76	158	15.7934	948.425	-3123.43	1	3264.25	-73.1092	4.2618E-006	-0.458615	8
	77	160	14.2828	1097.11	-3400.36	1	3572.96	-72.1179	4.13556E-006	-0.458625	8
	78	162	12.5002	1318.58	-3778.39	1	4001.86	-70.7621	4.20121E-006	-0.458621	8
	79	165	11.323	1493.67	-4090.36	1	4354.55	-69.9394	4.14801E-006	-0.458623	8
	80	167	9.9987	1819.29	-4484.73	1	4839.69	-67.9194	4.27608E-006	-0.458622	8
