EXPLAIN
TAG	EISPOT
TITLE	LABEL	Tomato_open	Test &Identifier
DATE	LABEL	5/12/2006	Date
TIME	LABEL	10:09:09	Time
NOTES	NOTES	1	&Notes...
	
PSTAT	PSTAT	300	Potentiostat
VDC	POTEN	1.00000E-001	T	DC &Voltage (V)
FREQINIT	QUANT	1.00000E+005	Initial Fre&q. (Hz)
FREQFINAL	QUANT	1.00000E+001	Final Fre&q. (Hz)
PTSPERDEC	QUANT	2.00000E+001	Points/&decade
VAC	QUANT	1.00000E+001	AC &Voltage (mV rms)
AREA	QUANT	1.00000E+000	&Area (cm²)
DENSITY	QUANT	7.87000E+000	&Density (gm/cm³)
EQUIV	QUANT	7.00000E+000	Equiv. &Wt
CONDIT	TWOPARAM	F	1.50000E+001	0.00000E+000	Conditionin&g	Time(s)	E(V)
DELAY	TWOPARAM	F	6.00000E+002	0.00000E+000	Init. De&lay	Time(s)	Stab.(mV/s)
SPEED	SELECTOR	1	&Optimize for:
ZGUESS	QUANT	1.00000E+002	E&stimated Z (ohms)
OCVCURVE	TABLE	39
	Pt	T	Vf	Vm	Ach	Over
	#	s	V vs. Ref.	V	V	bits
	0	0.258332	-5.72769E-001	4.94576E-006	2.36600E-004	......
	1	0.516663	-5.72369E-001	4.94576E-006	3.36600E-004	......
	2	0.774994	-5.70719E-001	4.94576E-006	2.36600E-004	......
	3	1.03333	-5.69719E-001	4.94576E-006	3.36600E-004	......
	4	1.29166	-5.65470E-001	4.94576E-006	3.66000E-005	......
	5	1.54999	-5.65319E-001	4.94576E-006	3.36600E-004	......
	6	1.80832	-5.66419E-001	4.94576E-006	2.36600E-004	......
	7	2.06665	-5.67270E-001	4.94576E-006	2.36600E-004	......
	8	2.32498	-5.67419E-001	4.94576E-006	2.36600E-004	......
	9	2.58332	-5.68519E-001	4.94576E-006	1.36600E-004	......
	10	2.84165	-5.67219E-001	4.94576E-006	2.36600E-004	......
	11	3.09998	-5.67270E-001	4.94576E-006	3.36600E-004	......
	12	3.35831	-5.68169E-001	4.94576E-006	3.36600E-004	......
	13	3.61664	-5.69820E-001	4.94576E-006	3.36600E-004	......
	14	3.87497	-5.72069E-001	4.94576E-006	3.66000E-005	......
	15	4.1333	-5.73669E-001	4.94576E-006	3.36600E-004	......
	16	4.39164	-5.72269E-001	4.94576E-006	1.36600E-004	......
	17	4.64997	-5.73919E-001	4.94576E-006	2.36600E-004	......
	18	4.9083	-5.74219E-001	4.94576E-006	3.66000E-005	......
	19	5.16663	-5.75019E-001	4.94576E-006	3.36600E-004	......
	20	5.42496	-5.74820E-001	4.94576E-006	1.36600E-004	......
	21	5.68329	-5.75319E-001	4.94576E-006	2.36600E-004	......
	22	5.94162	-5.75570E-001	4.94576E-006	1.36600E-004	......
	23	6.19996	-5.75870E-001	4.94576E-006	3.36600E-004	......
	24	6.45829	-5.76919E-001	4.94576E-006	3.36600E-004	......
	25	6.71662	-5.76869E-001	4.94576E-006	3.36600E-004	......
	26	6.97495	-5.75219E-001	4.94576E-006	2.36600E-004	......
	27	7.23328	-5.75969E-001	4.94576E-006	3.36600E-004	......
	28	7.49161	-5.76819E-001	4.94576E-006	2.36600E-004	......
	29	7.74995	-5.77770E-001	4.94576E-006	3.36600E-004	......
	30	8.00828	-5.77969E-001	4.94576E-006	2.36600E-004	......
	31	8.26661	-5.79470E-001	4.94576E-006	3.36600E-004	......
	32	8.52494	-5.80269E-001	4.94576E-006	4.36600E-004	......
	33	8.78327	-5.80669E-001	4.94576E-006	1.36600E-004	......
	34	9.0416	-5.78969E-001	4.94576E-006	2.36600E-004	......
	35	9.29993	-5.78219E-001	4.94576E-006	3.36600E-004	......
	36	9.5583	-5.78269E-001	4.94576E-006	2.36600E-004	......
	37	9.8166	-5.81519E-001	4.94576E-006	3.36600E-004	......
	38	10.0749	-5.79170E-001	4.94576E-006	2.36600E-004	......
EOC	QUANT	-0.57917	Open Circuit (V)
PSTATMODEL	IQUANT	32	Pstat Model
PSTATSECTION	LABEL	PStat0	Pstat Section
CTRLMODE	IQUANT	1	Control Mode
IESTAB	IQUANT	0	I/E Stability
CASPEED	IQUANT	1	Control Amp Speed
CONVENTION	IQUANT	1	Current Convention
ICHRANGE	IQUANT	2	Ich Range
ICHRANGEMODE	TOGGLE	F	Ich Auto Range
ICHOFFSETENABLE	TOGGLE	T	Ich Offset Enable
ICHOFFSET	QUANT	0	Ich Offset (V)
ICHFILTER	IQUANT	3	Ich Filter
VCHRANGE	IQUANT	2	Vch Range
VCHRANGEMODE	TOGGLE	F	Vch Auto Range
VCHOFFSETENABLE	TOGGLE	T	Vch Offset Enable
VCHOFFSET	QUANT	0	Vch Offset (V)
VCHFILTER	IQUANT	3	Vch Filter
ACHRANGE	IQUANT	0	Ach Range
IERANGELOWERLIMIT	IQUANT	3	I/E Range Lower Limit
IERANGEMODE	TOGGLE	F	I/E AutoRange
IERANGE	IQUANT	11	I/E Range
POSFEEDENABLE	TOGGLE	F	Positive Feedback IR Comp
POSFEEDRESISTANCE	QUANT	0	Positive Feedback Resistance (ohm)
FC350IDIVISOR	IQUANT	0	FC350 I Divisor
FC350VRANGE	IQUANT	0	FC350 V Range
FRAMEWORKVERSION	QUANT	4.35	Framework Version
ZCURVE	TABLE
	Pt	Time	Freq	Zreal	Zimag	Zsig	Zmod	Zphz	Idc	Vdc	IERange
	#	s	Hz	ohm	ohm	V	ohm	°	A	V	#
	0	4	100007	36.6413	-0.454547	1	36.6441	-0.710736	1.17365E-005	-0.47922	10
	1	6	89134.1	36.5011	-0.706801	1	36.5079	-1.10933	1.23192E-005	-0.479205	10
	2	8	79433.6	36.4286	-0.907609	1	36.4399	-1.42721	1.23718E-005	-0.479243	10
	3	10	70800.8	36.3934	-1.14086	1	36.4112	-1.79553	1.15929E-005	-0.479234	10
	4	12	63105.5	36.3269	-1.34975	1	36.3519	-2.12788	1.06015E-005	-0.479216	10
	5	14	56243.5	36.358	-1.58248	1	36.3924	-2.49222	1.10871E-005	-0.479211	10
	6	16	50123.7	36.3568	-1.77039	1	36.3999	-2.78781	1.01463E-005	-0.479235	10
	7	18	44681	36.3292	-2.04175	1	36.3865	-3.21671	1.12253E-005	-0.47924	10
	8	20	39811.2	36.3086	-2.29899	1	36.3814	-3.62302	9.41369E-006	-0.479242	10
	9	22	35488.3	36.3775	-2.59745	1	36.4701	-4.08413	9.24041E-006	-0.479231	10
	10	24	31634.1	36.4079	-2.87359	1	36.5212	-4.51286	8.479E-006	-0.479234	10
	11	26	28173.1	36.4771	-3.23454	1	36.6202	-5.06736	8.45916E-006	-0.479222	10
	12	28	25123.7	36.5403	-3.63021	1	36.7202	-5.67361	7.83306E-006	-0.479226	10
	13	29	22389.3	36.6031	-4.03473	1	36.8248	-6.29028	7.60509E-006	-0.4792	10
	14	31	19954.4	36.6411	-4.46708	1	36.9124	-6.95088	7.71853E-006	-0.479208	10
	15	33	17778.2	36.7618	-4.99757	1	37.0999	-7.74161	8.19947E-006	-0.479224	10
	16	35	15852.9	36.8447	-5.47577	1	37.2493	-8.4533	8.56822E-006	-0.479232	10
	17	37	14122.3	36.9189	-6.17784	1	37.4323	-9.49959	7.38588E-006	-0.479219	10
	18	39	12587.2	37.0378	-6.82033	1	37.6605	-10.4339	7.82525E-006	-0.479222	10
	19	41	11221.1	37.1798	-7.55857	1	37.9404	-11.4915	7.72775E-006	-0.479221	10
	20	43	9998.2	37.2693	-8.36803	1	38.1972	-12.6547	7.21494E-006	-0.479228	10
	21	45	8912.76	37.4409	-9.28343	1	38.5746	-13.9256	8.06494E-006	-0.479225	10
	22	47	7942.6	37.5354	-10.3177	1	38.9277	-15.3698	7.45619E-006	-0.479218	10
	23	49	7078.05	37.6609	-11.4601	1	39.3659	-16.9249	7.78619E-006	-0.479216	10
	24	51	6311.1	37.8622	-12.7202	1	39.9418	-18.5703	7.254E-006	-0.47922	10
	25	53	5622.14	38.0713	-14.1086	1	40.6014	-20.3338	7.77087E-006	-0.479219	10
	26	55	5011.18	38.3297	-15.5664	1	41.3701	-22.1029	7.24822E-006	-0.479216	10
	27	57	4465.21	38.48	-17.3983	1	42.2304	-24.3296	7.50463E-006	-0.479224	10
	28	59	3980.93	38.6898	-19.2713	1	43.2236	-26.4778	7.42775E-006	-0.479237	10
	29	61	3548.18	38.9962	-21.4308	1	44.497	-28.7914	7.34338E-006	-0.479229	10
	30	63	3162.67	39.2074	-23.7557	1	45.8427	-31.2116	6.63509E-006	-0.479203	10
	31	65	2819.01	39.5593	-26.4108	1	47.5654	-33.7281	7.74853E-006	-0.479219	10
	32	67	2511.16	39.9047	-29.4485	1	49.5943	-36.4262	7.34978E-006	-0.479218	10
	33	69	2238.63	40.1818	-32.6914	1	51.8006	-39.1314	7.72571E-006	-0.479222	10
	34	71	1995.37	40.7328	-36.2579	1	54.5325	-41.6736	7.11638E-006	-0.479203	10
	35	73	1778.51	41.1372	-40.4708	1	57.7075	-44.5321	7.66645E-006	-0.479217	10
	36	75	1584.49	41.6545	-45.0471	1	61.3542	-47.2408	6.70149E-006	-0.479216	10
	37	77	1412.76	42.2587	-50.0334	1	65.4915	-49.8152	8.26801E-006	-0.479228	10
	38	79	1259.04	42.7358	-55.6512	1	70.167	-52.4785	6.85295E-006	-0.479217	10
	39	81	1121.63	43.6134	-61.8953	1	75.7176	-54.8303	7.40754E-006	-0.479231	10
	40	83	999.95	44.4402	-69.1542	1	82.2024	-57.2742	7.95546E-006	-0.479221	10
	41	85	891.184	45.2244	-76.6268	1	88.9771	-59.4513	7.08765E-006	-0.479231	10
	42	87	794.163	46.4149	-85.5357	1	97.318	-61.514	7.41774E-006	-0.479232	10
	43	89	707.867	47.4135	-95.023	1	106.195	-63.4822	8.57852E-006	-0.479251	10
	44	91	630.984	48.3709	-105.673	1	116.217	-65.4045	4.29949E-006	-0.479226	9
	45	93	562.189	50.0457	-117.934	1	128.113	-67.0059	4.02817E-006	-0.479231	9
	46	95	501.303	51.598	-131.233	1	141.012	-68.5363	4.18409E-006	-0.47923	9
	47	97	446.614	53.371	-146.166	1	155.605	-69.9409	4.30415E-006	-0.479227	9
	48	99	398.209	55.3233	-162.638	1	171.79	-71.2136	4.12688E-006	-0.479231	9
	49	101	354.821	57.64	-181.103	1	190.055	-72.3452	4.3449E-006	-0.47923	9
	50	103	316.113	60.242	-201.697	1	210.501	-73.3704	4.30634E-006	-0.479233	9
	51	105	281.926	63.1479	-224.376	1	233.093	-74.2814	4.24274E-006	-0.479234	9
	52	107	251.185	66.4974	-249.849	1	258.547	-75.0962	4.2652E-006	-0.479236	9
	53	109	223.946	70.219	-278.02	1	286.75	-75.8253	4.04185E-006	-0.479242	9
	54	111	199.495	74.5199	-309.59	1	318.432	-76.4661	3.88524E-006	-0.47924	9
	55	113	177.836	79.5355	-344.572	1	353.633	-77.0024	4.03515E-006	-0.479237	9
	56	115	158.533	85.3436	-383.418	1	392.802	-77.4513	4.09024E-006	-0.479237	9
	57	117	141.263	91.6814	-426.826	1	436.561	-77.8772	3.96138E-006	-0.479242	9
	58	119	125.911	98.804	-474.936	1	485.104	-78.248	3.56496E-006	-0.479239	9
	59	121	112.198	107.274	-528.655	1	539.429	-78.5294	3.58036E-006	-0.479247	9
	60	123	100.009	117.197	-588.162	1	599.725	-78.7309	3.66034E-006	-0.479245	9
	61	125	89.1164	128.538	-654.498	1	667.001	-78.889	3.67639E-006	-0.479243	9
	62	127	79.4083	141.505	-728.218	1	741.839	-79.0035	3.62678E-006	-0.479244	9
	63	129	70.788	155.792	-810.195	1	825.037	-79.1155	3.43397E-006	-0.479242	9
	64	131	63.0971	174.326	-900.655	1	917.371	-79.0456	3.61625E-006	-0.479241	9
	65	133	54.5476	201.916	-1030.1	1	1049.71	-78.9098	3.53682E-006	-0.479237	9
	66	135	50.0083	222.19	-1114.77	1	1136.7	-78.7278	2.95514E-006	-0.479238	8
	67	137	46.1675	241.945	-1199.61	1	1223.77	-78.5972	3.00173E-006	-0.479234	8
	68	139	40.0059	283.831	-1367.3	1	1396.45	-78.2728	3.04297E-006	-0.479233	8
	69	142	35.3046	329.403	-1531.97	1	1566.99	-77.8651	3.12685E-006	-0.479231	8
	70	144	31.5793	375.473	-1695.92	1	1736.99	-77.5162	2.97557E-006	-0.479232	8
	71	146	28.5748	427.983	-1853.97	1	1902.73	-77.0012	2.98893E-006	-0.479235	8
	72	148	24.9911	501.192	-2090.28	1	2149.52	-76.5166	2.95113E-006	-0.479236	8
	73	150	22.2195	585.444	-2318.92	1	2391.68	-75.8309	2.91755E-006	-0.479238	8
	74	153	20.0011	675.036	-2542.84	1	2630.91	-75.1329	2.97091E-006	-0.479243	8
	75	155	17.6486	802.103	-2835.61	1	2946.87	-74.2055	2.97034E-006	-0.479239	8
	76	157	15.7934	952.64	-3115.79	1	3258.17	-72.9992	3.01578E-006	-0.47924	8
	77	159	14.2828	1077.67	-3391.57	1	3558.66	-72.3724	3.08147E-006	-0.479236	8
	78	162	12.5002	1284.83	-3788.55	1	4000.48	-71.2664	2.86835E-006	-0.479251	8
	79	164	11.323	1492.6	-4096.94	1	4360.36	-69.9822	2.85316E-006	-0.479242	8
	80	167	9.9987	1781.71	-4506.44	1	4845.87	-68.4276	2.93546E-006	-0.479244	8
