EXPLAIN
TAG	EISPOT
TITLE	LABEL	Tomato_open	Test &Identifier
DATE	LABEL	5/12/2006	Date
TIME	LABEL	10:24:07	Time
NOTES	NOTES	1	&Notes...
	
PSTAT	PSTAT	300	Potentiostat
VDC	POTEN	1.00000E-001	T	DC &Voltage (V)
FREQINIT	QUANT	1.00000E+005	Initial Fre&q. (Hz)
FREQFINAL	QUANT	1.00000E+001	Final Fre&q. (Hz)
PTSPERDEC	QUANT	2.00000E+001	Points/&decade
VAC	QUANT	1.00000E+001	AC &Voltage (mV rms)
AREA	QUANT	1.00000E+000	&Area (cm²)
DENSITY	QUANT	7.87000E+000	&Density (gm/cm³)
EQUIV	QUANT	7.00000E+000	Equiv. &Wt
CONDIT	TWOPARAM	F	1.50000E+001	0.00000E+000	Conditionin&g	Time(s)	E(V)
DELAY	TWOPARAM	F	6.00000E+002	0.00000E+000	Init. De&lay	Time(s)	Stab.(mV/s)
SPEED	SELECTOR	1	&Optimize for:
ZGUESS	QUANT	1.00000E+002	E&stimated Z (ohms)
OCVCURVE	TABLE	39
	Pt	T	Vf	Vm	Ach	Over
	#	s	V vs. Ref.	V	V	bits
	0	0.258332	-5.94270E-001	6.81376E-006	3.36600E-004	......
	1	0.516663	-5.93519E-001	6.81376E-006	2.36600E-004	......
	2	0.774994	-5.92969E-001	6.81376E-006	3.66000E-005	......
	3	1.03333	-5.93170E-001	6.81376E-006	3.36600E-004	......
	4	1.29166	-5.93619E-001	6.81376E-006	3.66000E-005	......
	5	1.54999	-5.94669E-001	6.81376E-006	3.36600E-004	......
	6	1.80832	-5.95469E-001	6.81376E-006	2.36600E-004	......
	7	2.06665	-5.95769E-001	6.81376E-006	2.36600E-004	......
	8	2.32498	-5.96469E-001	6.81376E-006	2.36600E-004	......
	9	2.58332	-5.97019E-001	6.81376E-006	2.36600E-004	......
	10	2.84165	-5.97669E-001	6.81376E-006	3.36600E-004	......
	11	3.09998	-5.98170E-001	6.81376E-006	2.36600E-004	......
	12	3.35831	-5.97919E-001	6.81376E-006	2.36600E-004	......
	13	3.61664	-5.98019E-001	6.81376E-006	3.36600E-004	......
	14	3.87497	-5.98419E-001	6.81376E-006	2.36600E-004	......
	15	4.1333	-5.97669E-001	6.81376E-006	2.36600E-004	......
	16	4.39164	-5.97869E-001	6.81376E-006	2.36600E-004	......
	17	4.64997	-5.97269E-001	6.81376E-006	3.36600E-004	......
	18	4.9083	-5.97369E-001	6.81376E-006	2.36600E-004	......
	19	5.16663	-5.98069E-001	6.81376E-006	2.36600E-004	......
	20	5.42496	-5.97669E-001	6.81376E-006	2.36600E-004	......
	21	5.68329	-5.98369E-001	6.81376E-006	3.36600E-004	......
	22	5.94162	-5.98719E-001	6.81376E-006	1.36600E-004	......
	23	6.19996	-5.98919E-001	6.81376E-006	2.36600E-004	......
	24	6.45829	-5.99469E-001	6.81376E-006	2.36600E-004	......
	25	6.71662	-5.99469E-001	6.81376E-006	2.36600E-004	......
	26	6.97495	-5.99169E-001	6.81376E-006	3.36600E-004	......
	27	7.23328	-5.99569E-001	6.81376E-006	3.36600E-004	......
	28	7.49161	-6.00320E-001	6.81376E-006	3.66000E-005	......
	29	7.74995	-5.99869E-001	6.81376E-006	3.36600E-004	......
	30	8.00828	-5.99769E-001	6.81376E-006	3.36600E-004	......
	31	8.26661	-5.99919E-001	6.81376E-006	3.36600E-004	......
	32	8.52494	-5.99319E-001	6.81376E-006	2.36600E-004	......
	33	8.78327	-5.99569E-001	6.81376E-006	2.36600E-004	......
	34	9.0416	-5.99819E-001	6.81376E-006	3.66000E-005	......
	35	9.29993	-5.99769E-001	6.81376E-006	3.36600E-004	......
	36	9.5583	-5.99669E-001	6.81376E-006	2.36600E-004	......
	37	9.8166	-5.99819E-001	6.81376E-006	3.36600E-004	......
	38	10.0749	-5.98469E-001	6.81376E-006	2.36600E-004	......
EOC	QUANT	-0.598469	Open Circuit (V)
PSTATMODEL	IQUANT	32	Pstat Model
PSTATSECTION	LABEL	PStat0	Pstat Section
CTRLMODE	IQUANT	1	Control Mode
IESTAB	IQUANT	0	I/E Stability
CASPEED	IQUANT	1	Control Amp Speed
CONVENTION	IQUANT	1	Current Convention
ICHRANGE	IQUANT	2	Ich Range
ICHRANGEMODE	TOGGLE	F	Ich Auto Range
ICHOFFSETENABLE	TOGGLE	T	Ich Offset Enable
ICHOFFSET	QUANT	0	Ich Offset (V)
ICHFILTER	IQUANT	3	Ich Filter
VCHRANGE	IQUANT	2	Vch Range
VCHRANGEMODE	TOGGLE	F	Vch Auto Range
VCHOFFSETENABLE	TOGGLE	T	Vch Offset Enable
VCHOFFSET	QUANT	0	Vch Offset (V)
VCHFILTER	IQUANT	3	Vch Filter
ACHRANGE	IQUANT	0	Ach Range
IERANGELOWERLIMIT	IQUANT	3	I/E Range Lower Limit
IERANGEMODE	TOGGLE	F	I/E AutoRange
IERANGE	IQUANT	11	I/E Range
POSFEEDENABLE	TOGGLE	F	Positive Feedback IR Comp
POSFEEDRESISTANCE	QUANT	0	Positive Feedback Resistance (ohm)
FC350IDIVISOR	IQUANT	0	FC350 I Divisor
FC350VRANGE	IQUANT	0	FC350 V Range
FRAMEWORKVERSION	QUANT	4.35	Framework Version
ZCURVE	TABLE
	Pt	Time	Freq	Zreal	Zimag	Zsig	Zmod	Zphz	Idc	Vdc	IERange
	#	s	Hz	ohm	ohm	V	ohm	°	A	V	#
	0	5	100007	36.6913	-0.629664	1	36.6967	-0.98316	1.01276E-005	-0.498368	10
	1	7	89134.1	36.5933	-0.72875	1	36.6006	-1.14089	7.97806E-006	-0.498374	10
	2	9	79433.6	36.4925	-0.901473	1	36.5036	-1.41509	9.68728E-006	-0.498385	10
	3	10	70800.8	36.411	-1.12947	1	36.4285	-1.77675	7.49384E-006	-0.498359	10
	4	12	63105.5	36.4464	-1.3301	1	36.4707	-2.09007	9.74494E-006	-0.498374	10
	5	14	56243.5	36.4204	-1.52314	1	36.4523	-2.39477	7.93916E-006	-0.498348	10
	6	16	50123.7	36.3903	-1.77763	1	36.4337	-2.79662	8.56744E-006	-0.498359	10
	7	18	44681	36.3862	-2.06569	1	36.4448	-3.24927	7.68072E-006	-0.498348	10
	8	20	39811.2	36.336	-2.31276	1	36.4095	-3.64193	7.89025E-006	-0.498369	10
	9	22	35488.3	36.4317	-2.57399	1	36.5225	-4.04137	8.33853E-006	-0.498358	10
	10	24	31634.1	36.5186	-2.94433	1	36.6371	-4.60953	8.14666E-006	-0.498373	10
	11	26	28173.1	36.5517	-3.23231	1	36.6943	-5.05358	8.24713E-006	-0.498357	10
	12	28	25123.7	36.5818	-3.5972	1	36.7583	-5.616	8.57885E-006	-0.498364	10
	13	30	22389.3	36.6456	-4.0631	1	36.8702	-6.32686	7.69338E-006	-0.498345	10
	14	32	19954.4	36.7135	-4.51024	1	36.9895	-7.00366	7.50353E-006	-0.498366	10
	15	34	17778.2	36.7551	-4.99925	1	37.0936	-7.74556	8.2365E-006	-0.498365	10
	16	36	15852.9	36.8872	-5.53388	1	37.3	-8.53197	8.37494E-006	-0.498346	10
	17	38	14122.3	36.9488	-6.18946	1	37.4636	-9.5096	8.31884E-006	-0.498368	10
	18	40	12587.2	37.1024	-6.86341	1	37.7319	-10.4804	8.44634E-006	-0.498357	10
	19	42	11221.1	37.2308	-7.60111	1	37.9988	-11.539	8.2376E-006	-0.498366	10
	20	44	9998.2	37.3393	-8.37296	1	38.2666	-12.6389	8.10931E-006	-0.498351	10
	21	46	8912.76	37.4247	-9.34953	1	38.5749	-14.0266	7.90322E-006	-0.498362	10
	22	48	7942.6	37.566	-10.3883	1	38.9759	-15.458	7.48634E-006	-0.498353	10
	23	50	7078.05	37.6977	-11.4915	1	39.4103	-16.953	7.61291E-006	-0.49836	10
	24	52	6311.1	37.8838	-12.7729	1	39.9791	-18.6321	7.43838E-006	-0.498371	10
	25	54	5622.14	38.044	-14.217	1	40.6137	-20.4906	8.32728E-006	-0.498353	10
	26	56	5011.18	38.2564	-15.8171	1	41.3973	-22.4626	7.79635E-006	-0.498357	10
	27	58	4465.21	38.4513	-17.4569	1	42.2285	-24.418	7.27275E-006	-0.498355	10
	28	60	3980.93	38.7298	-19.366	1	43.3017	-26.5663	8.64509E-006	-0.498362	10
	29	62	3548.18	38.9595	-21.6854	1	44.5881	-29.101	8.27103E-006	-0.498362	10
	30	64	3162.67	39.2161	-24.0509	1	46.0038	-31.5205	7.90916E-006	-0.498361	10
	31	66	2819.01	39.4493	-26.6549	1	47.6102	-34.0459	8.10322E-006	-0.498359	10
	32	68	2511.16	39.8321	-29.6938	1	49.6822	-36.7036	6.7434E-006	-0.49835	10
	33	70	2238.63	40.1841	-32.9917	1	51.9924	-39.3865	7.44287E-006	-0.498349	10
	34	72	1995.37	40.6518	-36.8336	1	54.857	-42.179	7.4506E-006	-0.498359	10
	35	74	1778.51	41.026	-40.8669	1	57.9071	-44.8887	7.35002E-006	-0.498369	10
	36	76	1584.49	41.5169	-45.5062	1	61.5992	-47.6247	7.35413E-006	-0.498354	10
	37	78	1412.76	41.9684	-50.6233	1	65.7577	-50.3402	8.49741E-006	-0.498373	10
	38	80	1259.04	42.6532	-56.4356	1	70.7409	-52.9186	6.85304E-006	-0.498373	10
	39	82	1121.63	43.5259	-62.9347	1	76.5197	-55.3321	7.5451E-006	-0.498359	10
	40	84	999.95	44.3769	-69.7994	1	82.712	-57.5527	7.01798E-006	-0.498359	10
	41	86	891.184	45.1035	-77.8423	1	89.9653	-59.911	7.43995E-006	-0.498363	10
	42	88	794.163	46.2896	-86.6161	1	98.209	-61.879	7.78141E-006	-0.498356	10
	43	90	707.867	47.1857	-96.515	1	107.432	-63.9463	6.52846E-006	-0.498369	10
	44	92	630.984	48.3382	-107.588	1	117.948	-65.806	4.22238E-006	-0.498357	9
	45	94	562.189	49.9325	-119.828	1	129.815	-67.3784	3.8136E-006	-0.49835	9
	46	96	501.303	51.3593	-133.256	1	142.811	-68.9224	4.05148E-006	-0.498362	9
	47	98	446.614	53.093	-148.427	1	157.637	-70.3176	4.14509E-006	-0.498366	9
	48	100	398.209	55.0595	-165.173	1	174.108	-71.5644	4.20706E-006	-0.498365	9
	49	102	354.821	57.3451	-183.948	1	192.679	-72.6853	4.44609E-006	-0.498372	9
	50	104	316.113	59.855	-204.859	1	213.424	-73.7129	4.20157E-006	-0.498367	9
	51	106	281.926	62.7174	-227.919	1	236.391	-74.6145	4.23784E-006	-0.498368	9
	52	108	251.185	66.0174	-253.838	1	262.282	-75.4217	4.35399E-006	-0.498368	9
	53	110	223.946	69.7878	-282.512	1	291.004	-76.1243	4.54304E-006	-0.498376	9
	54	112	199.495	74.0323	-314.626	1	323.219	-76.759	4.47601E-006	-0.498372	9
	55	114	177.836	78.9514	-350.159	1	358.949	-77.2938	4.54188E-006	-0.498369	9
	56	116	158.533	84.5792	-389.658	1	398.731	-77.7533	4.49034E-006	-0.498365	9
	57	118	141.263	91.0013	-433.738	1	443.182	-78.1508	4.63415E-006	-0.498361	9
	58	120	125.911	98.43	-482.719	1	492.652	-78.475	4.6739E-006	-0.498361	9
	59	122	112.198	106.475	-537.233	1	547.682	-78.7897	4.19769E-006	-0.49836	9
	60	124	100.009	116.531	-597.862	1	609.113	-78.9706	4.41258E-006	-0.498361	9
	61	126	89.1164	128.121	-665.262	1	677.487	-79.099	4.4025E-006	-0.498357	9
	62	128	79.4083	140.935	-740.294	1	753.59	-79.2211	4.32563E-006	-0.498358	9
	63	130	70.788	156.477	-823.241	1	837.98	-79.2379	4.34754E-006	-0.498357	9
	64	132	63.0971	174.588	-915.227	1	931.73	-79.2001	4.44312E-006	-0.498361	9
	65	134	54.5476	199.464	-1047.25	1	1066.07	-79.2163	4.1974E-006	-0.498361	9
	66	136	50.0083	218.678	-1133.74	1	1154.64	-79.0828	3.50818E-006	-0.498367	8
	67	138	46.1675	238.312	-1219.65	1	1242.71	-78.944	3.45753E-006	-0.498369	8
	68	140	40.0059	277.808	-1391.06	1	1418.53	-78.706	3.35548E-006	-0.498367	8
	69	142	35.3046	319.394	-1559.05	1	1591.43	-78.4223	3.2399E-006	-0.49837	8
	70	145	31.5793	363.206	-1725.58	1	1763.39	-78.1137	3.28852E-006	-0.498371	8
	71	147	28.5748	411.796	-1888.3	1	1932.68	-77.6977	3.31242E-006	-0.49837	8
	72	149	24.9911	489.098	-2130.63	1	2186.05	-77.0714	3.38396E-006	-0.498375	8
	73	151	22.2195	561.256	-2367.64	1	2433.26	-76.6641	3.18838E-006	-0.498374	8
	74	153	20.0011	655.274	-2597.62	1	2678.99	-75.842	3.25454E-006	-0.498375	8
	75	156	17.6486	769.908	-2898.7	1	2999.21	-75.1254	3.25191E-006	-0.498375	8
	76	158	15.7934	898.484	-3183.23	1	3307.6	-74.238	3.32759E-006	-0.498373	8
	77	160	14.2828	1033.05	-3467.74	1	3618.34	-73.4111	3.32313E-006	-0.498375	8
	78	163	12.5002	1248.82	-3872.58	1	4068.96	-72.1266	3.28568E-006	-0.498367	8
	79	165	11.323	1439.12	-4206	1	4445.4	-71.1111	3.29514E-006	-0.498365	8
	80	168	9.9987	1689.77	-4649.74	1	4947.27	-70.0283	3.28936E-006	-0.498373	8
