EXPLAIN
TAG	EISPOT
TITLE	LABEL	Tomato_open	Test &Identifier
DATE	LABEL	5/12/2006	Date
TIME	LABEL	10:04:07	Time
NOTES	NOTES	1	&Notes...
	
PSTAT	PSTAT	300	Potentiostat
VDC	POTEN	1.00000E-001	T	DC &Voltage (V)
FREQINIT	QUANT	1.00000E+005	Initial Fre&q. (Hz)
FREQFINAL	QUANT	1.00000E+001	Final Fre&q. (Hz)
PTSPERDEC	QUANT	2.00000E+001	Points/&decade
VAC	QUANT	1.00000E+001	AC &Voltage (mV rms)
AREA	QUANT	1.00000E+000	&Area (cm²)
DENSITY	QUANT	7.87000E+000	&Density (gm/cm³)
EQUIV	QUANT	7.00000E+000	Equiv. &Wt
CONDIT	TWOPARAM	F	1.50000E+001	0.00000E+000	Conditionin&g	Time(s)	E(V)
DELAY	TWOPARAM	F	6.00000E+002	0.00000E+000	Init. De&lay	Time(s)	Stab.(mV/s)
SPEED	SELECTOR	1	&Optimize for:
ZGUESS	QUANT	1.00000E+002	E&stimated Z (ohms)
OCVCURVE	TABLE	39
	Pt	T	Vf	Vm	Ach	Over
	#	s	V vs. Ref.	V	V	bits
	0	0.258332	-5.91020E-001	-1.04042E-003	2.36600E-004	......
	1	0.516663	-5.87519E-001	-1.04042E-003	4.36600E-004	......
	2	0.774994	-5.88969E-001	-1.04042E-003	2.36600E-004	......
	3	1.03333	-5.92869E-001	-1.04042E-003	3.36600E-004	......
	4	1.29166	-5.92319E-001	-1.04042E-003	2.36600E-004	......
	5	1.54999	-5.91469E-001	-1.04042E-003	3.36600E-004	......
	6	1.80832	-5.92120E-001	-1.04042E-003	3.36600E-004	......
	7	2.06665	-5.96269E-001	-1.04042E-003	3.36600E-004	......
	8	2.32498	-5.94819E-001	-1.04042E-003	3.36600E-004	......
	9	2.58332	-5.95519E-001	-1.04042E-003	2.36600E-004	......
	10	2.84165	-5.93269E-001	-1.04042E-003	2.36600E-004	......
	11	3.09998	-5.88019E-001	-1.04042E-003	4.36600E-004	......
	12	3.35831	-5.93069E-001	-1.04042E-003	1.36600E-004	......
	13	3.61664	-5.92819E-001	-1.04042E-003	4.36600E-004	......
	14	3.87497	-5.94319E-001	-1.04042E-003	3.66000E-005	......
	15	4.1333	-5.94819E-001	-1.04042E-003	3.36600E-004	......
	16	4.39164	-5.91020E-001	-1.04042E-003	1.36600E-004	......
	17	4.64997	-5.92269E-001	-1.04042E-003	2.36600E-004	......
	18	4.9083	-5.93619E-001	-1.04042E-003	3.36600E-004	......
	19	5.16663	-5.90119E-001	-1.04042E-003	3.36600E-004	......
	20	5.42496	-5.92969E-001	-1.04042E-003	2.36600E-004	......
	21	5.68329	-5.93019E-001	-1.04042E-003	3.36600E-004	......
	22	5.94162	-5.94169E-001	-1.04042E-003	2.36600E-004	......
	23	6.19996	-5.90069E-001	-1.04042E-003	2.36600E-004	......
	24	6.45829	-5.96070E-001	-1.04042E-003	1.36600E-004	......
	25	6.71662	-5.99319E-001	-1.04042E-003	2.36600E-004	......
	26	6.97495	-5.96070E-001	-1.04042E-003	2.36600E-004	......
	27	7.23328	-5.97470E-001	-1.04042E-003	3.36600E-004	......
	28	7.49161	-5.97070E-001	-1.04042E-003	3.36600E-004	......
	29	7.74995	-5.97269E-001	-1.04042E-003	3.36600E-004	......
	30	8.00828	-5.98069E-001	-1.04042E-003	4.36600E-004	......
	31	8.26661	-6.00069E-001	-1.04042E-003	2.36600E-004	......
	32	8.52494	-6.00969E-001	-1.04042E-003	2.36600E-004	......
	33	8.78327	-6.01020E-001	-1.04042E-003	4.36600E-004	......
	34	9.0416	-6.01619E-001	-1.04042E-003	2.36600E-004	......
	35	9.29993	-6.01969E-001	-1.04042E-003	2.36600E-004	......
	36	9.5583	-6.02470E-001	-1.04042E-003	2.36600E-004	......
	37	9.8166	-5.93769E-001	-1.04042E-003	3.36600E-004	......
	38	10.0749	-6.02520E-001	-1.04042E-003	2.36600E-004	......
EOC	QUANT	-0.60252	Open Circuit (V)
PSTATMODEL	IQUANT	32	Pstat Model
PSTATSECTION	LABEL	PStat0	Pstat Section
CTRLMODE	IQUANT	1	Control Mode
IESTAB	IQUANT	0	I/E Stability
CASPEED	IQUANT	1	Control Amp Speed
CONVENTION	IQUANT	1	Current Convention
ICHRANGE	IQUANT	2	Ich Range
ICHRANGEMODE	TOGGLE	F	Ich Auto Range
ICHOFFSETENABLE	TOGGLE	T	Ich Offset Enable
ICHOFFSET	QUANT	0	Ich Offset (V)
ICHFILTER	IQUANT	3	Ich Filter
VCHRANGE	IQUANT	2	Vch Range
VCHRANGEMODE	TOGGLE	F	Vch Auto Range
VCHOFFSETENABLE	TOGGLE	T	Vch Offset Enable
VCHOFFSET	QUANT	0	Vch Offset (V)
VCHFILTER	IQUANT	3	Vch Filter
ACHRANGE	IQUANT	0	Ach Range
IERANGELOWERLIMIT	IQUANT	3	I/E Range Lower Limit
IERANGEMODE	TOGGLE	F	I/E AutoRange
IERANGE	IQUANT	11	I/E Range
POSFEEDENABLE	TOGGLE	F	Positive Feedback IR Comp
POSFEEDRESISTANCE	QUANT	0	Positive Feedback Resistance (ohm)
FC350IDIVISOR	IQUANT	0	FC350 I Divisor
FC350VRANGE	IQUANT	0	FC350 V Range
FRAMEWORKVERSION	QUANT	4.35	Framework Version
ZCURVE	TABLE
	Pt	Time	Freq	Zreal	Zimag	Zsig	Zmod	Zphz	Idc	Vdc	IERange
	#	s	Hz	ohm	ohm	V	ohm	°	A	V	#
	0	4	100007	36.6317	-0.622419	1	36.637	-0.97343	1.82867E-005	-0.502448	10
	1	6	89134.1	36.4618	-0.75978	1	36.4697	-1.19374	1.5176E-005	-0.502427	10
	2	8	79433.6	36.3885	-0.949662	1	36.4008	-1.49496	1.23349E-005	-0.502458	10
	3	10	70800.8	36.3483	-1.13463	1	36.366	-1.78793	1.07067E-005	-0.502444	10
	4	12	63105.5	36.291	-1.35268	1	36.3162	-2.1346	9.97462E-006	-0.502438	10
	5	14	56243.5	36.288	-1.5427	1	36.3208	-2.43433	9.05494E-006	-0.502436	10
	6	16	50123.7	36.3369	-1.8176	1	36.3823	-2.86359	9.61806E-006	-0.502458	10
	7	18	44681	36.2779	-2.06622	1	36.3367	-3.25977	7.10119E-006	-0.50244	10
	8	20	39811.2	36.3862	-2.32904	1	36.4606	-3.66244	6.83587E-006	-0.502434	10
	9	22	35488.3	36.3343	-2.63336	1	36.4296	-4.14532	9.11244E-006	-0.502458	10
	10	24	31634.1	36.3822	-2.9302	1	36.5	-4.60463	6.07806E-006	-0.502456	10
	11	26	28173.1	36.4231	-3.23401	1	36.5664	-5.07398	7.34338E-006	-0.502457	10
	12	28	25123.7	36.479	-3.60476	1	36.6567	-5.64349	6.64728E-006	-0.50245	10
	13	30	22389.3	36.5552	-4.03457	1	36.7772	-6.2982	6.81431E-006	-0.502456	10
	14	32	19954.4	36.5944	-4.43683	1	36.8623	-6.91301	8.26947E-006	-0.502473	10
	15	34	17778.2	36.6959	-5.02687	1	37.0386	-7.80023	7.20853E-006	-0.502452	10
	16	36	15852.9	36.8502	-5.53359	1	37.2633	-8.53999	7.05603E-006	-0.502445	10
	17	38	14122.3	36.8893	-6.12507	1	37.3943	-9.42735	8.27884E-006	-0.502453	10
	18	39	12587.2	37.0074	-6.79062	1	37.6253	-10.3977	6.66994E-006	-0.502448	10
	19	41	11221.1	37.0926	-7.44617	1	37.8326	-11.351	6.71744E-006	-0.502448	10
	20	43	9998.2	37.2715	-8.31093	1	38.1869	-12.5704	7.03791E-006	-0.502444	10
	21	45	8912.76	37.4128	-9.22413	1	38.5331	-13.8501	7.20681E-006	-0.502464	10
	22	47	7942.6	37.5551	-10.2709	1	38.9342	-15.2957	6.60603E-006	-0.502462	10
	23	49	7078.05	37.7478	-11.3372	1	39.4135	-16.7172	6.9215E-006	-0.502465	10
	24	51	6311.1	37.8712	-12.6234	1	39.9197	-18.4345	7.31447E-006	-0.502452	10
	25	53	5622.14	38.0227	-13.9691	1	40.5075	-20.1728	7.39681E-006	-0.502461	10
	26	55	5011.18	38.2114	-15.5118	1	41.2399	-22.0946	7.07634E-006	-0.502465	10
	27	57	4465.21	38.4958	-17.2122	1	42.1685	-24.0903	6.80369E-006	-0.502463	10
	28	59	3980.93	38.8232	-19.0579	1	43.2487	-26.1459	8.03541E-006	-0.502476	10
	29	61	3548.18	39.0158	-21.2268	1	44.4164	-28.5487	5.62838E-006	-0.502444	10
	30	63	3162.67	39.3521	-23.5683	1	45.87	-30.9178	6.68353E-006	-0.502465	10
	31	65	2819.01	39.6459	-26.1307	1	47.4827	-33.389	7.12962E-006	-0.502466	10
	32	67	2511.16	40.0074	-29.199	1	49.5295	-36.1235	7.02931E-006	-0.502468	10
	33	69	2238.63	40.3686	-32.2568	1	51.6733	-38.6269	7.25845E-006	-0.502463	10
	34	71	1995.37	40.7852	-35.9699	1	54.3807	-41.4102	7.40613E-006	-0.502466	10
	35	73	1778.51	41.2179	-40.0422	1	57.4656	-44.1711	7.1608E-006	-0.502462	10
	36	75	1584.49	41.6828	-44.5014	1	60.974	-46.8732	6.89527E-006	-0.502471	10
	37	77	1412.76	42.268	-49.5296	1	65.1134	-49.5229	7.95193E-006	-0.502477	10
	38	79	1259.04	42.9478	-55.1115	1	69.8698	-52.0711	6.15488E-006	-0.502469	10
	39	81	1121.63	43.7011	-61.4233	1	75.3831	-54.5691	7.06466E-006	-0.50246	10
	40	83	999.95	44.5298	-68.2105	1	81.459	-56.8623	6.96047E-006	-0.502474	10
	41	85	891.184	45.4196	-75.7154	1	88.2936	-59.0416	6.90335E-006	-0.50247	10
	42	87	794.163	46.2878	-84.5503	1	96.391	-61.3011	7.20641E-006	-0.502457	10
	43	89	707.867	47.5882	-94.0665	1	105.419	-63.1652	8.31034E-006	-0.502467	10
	44	91	630.984	48.8938	-104.69	1	115.545	-64.9659	3.90051E-006	-0.502453	9
	45	93	562.189	50.3626	-116.299	1	126.735	-66.5853	3.60515E-006	-0.502445	9
	46	95	501.303	51.9262	-129.665	1	139.676	-68.1757	3.12809E-006	-0.50246	9
	47	97	446.614	53.7421	-144.386	1	154.063	-69.5841	3.27129E-006	-0.502453	9
	48	99	398.209	55.845	-160.649	1	170.078	-70.8314	3.44224E-006	-0.502455	9
	49	101	354.821	58.2048	-178.847	1	188.08	-71.9728	3.4616E-006	-0.502451	9
	50	103	316.113	60.8361	-199.151	1	208.235	-73.0133	3.2451E-006	-0.502447	9
	51	105	281.926	63.9463	-221.517	1	230.562	-73.8979	3.62446E-006	-0.502454	9
	52	107	251.185	67.487	-246.588	1	255.657	-74.6939	3.6847E-006	-0.502451	9
	53	109	223.946	71.5432	-274.33	1	283.506	-75.3833	3.82024E-006	-0.502455	9
	54	111	199.495	76.1065	-305.388	1	314.728	-76.0062	3.96779E-006	-0.502455	9
	55	113	177.836	81.1231	-339.767	1	349.317	-76.5714	3.52942E-006	-0.502459	9
	56	115	158.533	86.9898	-378.057	1	387.936	-77.042	3.42642E-006	-0.50246	9
	57	117	141.263	93.3755	-420.793	1	431.029	-77.4886	2.69646E-006	-0.502462	9
	58	119	125.911	101.051	-468.208	1	478.988	-77.8209	2.83701E-006	-0.502457	9
	59	121	112.198	109.72	-521.051	1	532.478	-78.1087	2.7258E-006	-0.502457	9
	60	123	100.009	119.857	-579.829	1	592.087	-78.3208	2.60892E-006	-0.502458	9
	61	125	89.1164	131.413	-644.906	1	658.159	-78.4825	2.64018E-006	-0.502457	9
	62	127	79.4083	145.967	-717.396	1	732.095	-78.4992	3.17009E-006	-0.502458	9
	63	129	70.788	162.738	-797.172	1	813.613	-78.462	3.37877E-006	-0.50246	9
	64	131	63.0971	183.154	-886.142	1	904.872	-78.3221	3.6325E-006	-0.502457	9
	65	133	54.5476	214.647	-1012.47	1	1034.98	-78.0304	3.80741E-006	-0.502461	9
	66	135	50.0083	234.421	-1095.84	1	1120.63	-77.9253	2.77212E-006	-0.502465	8
	67	137	46.1675	254.912	-1178.13	1	1205.39	-77.7911	2.57506E-006	-0.502463	8
	68	139	40.0059	302.312	-1342.17	1	1375.79	-77.3064	2.77966E-006	-0.502464	8
	69	142	35.3046	349.948	-1502.76	1	1542.97	-76.8911	2.87807E-006	-0.502461	8
	70	144	31.5793	400.582	-1662.18	1	1709.77	-76.4502	2.75761E-006	-0.502461	8
	71	146	28.5748	455.765	-1815.22	1	1871.56	-75.9055	2.69941E-006	-0.502462	8
	72	148	24.9911	533.714	-2046.67	1	2115.12	-75.3844	2.13725E-006	-0.502456	8
	73	150	22.2195	624.07	-2272.46	1	2356.59	-74.6438	2.17095E-006	-0.502469	8
	74	153	20.0011	706.489	-2487.4	1	2585.79	-74.144	1.99701E-006	-0.502463	8
	75	155	17.6486	855.568	-2770.7	1	2899.79	-72.8397	2.24995E-006	-0.502465	8
	76	157	15.7934	971.25	-3047.73	1	3198.75	-72.324	1.96877E-006	-0.502472	8
	77	159	14.2828	1096.25	-3320.75	1	3497.01	-71.7309	1.74569E-006	-0.502466	8
	78	162	12.5002	1342.62	-3692.34	1	3928.87	-70.0176	2.0363E-006	-0.502462	8
	79	164	11.323	1536.15	-3981.84	1	4267.88	-68.9039	2.21902E-006	-0.502465	8
	80	167	9.9987	1859.75	-4387.04	1	4764.96	-67.027	2.17394E-006	-0.502469	8
