EXPLAIN
TAG	EISPOT
TITLE	LABEL	Tomato_open	Test &Identifier
DATE	LABEL	5/10/2006	Date
TIME	LABEL	17:52:31	Time
NOTES	NOTES	1	&Notes...
	
PSTAT	PSTAT	300	Potentiostat
VDC	POTEN	1.00000E-001	T	DC &Voltage (V)
FREQINIT	QUANT	1.00000E+005	Initial Fre&q. (Hz)
FREQFINAL	QUANT	1.00000E+001	Final Fre&q. (Hz)
PTSPERDEC	QUANT	2.00000E+001	Points/&decade
VAC	QUANT	1.00000E+001	AC &Voltage (mV rms)
AREA	QUANT	1.00000E+000	&Area (cm²)
DENSITY	QUANT	7.87000E+000	&Density (gm/cm³)
EQUIV	QUANT	7.00000E+000	Equiv. &Wt
CONDIT	TWOPARAM	F	1.50000E+001	0.00000E+000	Conditionin&g	Time(s)	E(V)
DELAY	TWOPARAM	F	6.00000E+002	0.00000E+000	Init. De&lay	Time(s)	Stab.(mV/s)
SPEED	SELECTOR	1	&Optimize for:
ZGUESS	QUANT	1.00000E+002	E&stimated Z (ohms)
OCVCURVE	TABLE	39
	Pt	T	Vf	Vm	Ach	Over
	#	s	V vs. Ref.	V	V	bits
	0	0.258332	-6.23393E-001	7.61407E-006	1.54000E-005	......
	1	0.516663	-6.25443E-001	7.61407E-006	2.15400E-004	......
	2	0.774994	-6.26293E-001	7.61407E-006	1.54000E-005	......
	3	1.03333	-6.26543E-001	7.61407E-006	1.15400E-004	......
	4	1.29166	-6.26643E-001	7.61407E-006	-8.46000E-005	......
	5	1.54999	-6.26343E-001	7.61407E-006	2.15400E-004	......
	6	1.80832	-6.23743E-001	7.61407E-006	-8.46000E-005	......
	7	2.06665	-6.24093E-001	7.61407E-006	3.15400E-004	......
	8	2.32498	-6.23443E-001	7.61407E-006	1.54000E-005	......
	9	2.58332	-6.24443E-001	7.61407E-006	2.15400E-004	......
	10	2.84165	-6.24644E-001	7.61407E-006	1.54000E-005	......
	11	3.09998	-6.24994E-001	7.61407E-006	1.54000E-005	......
	12	3.35831	-6.25694E-001	7.61407E-006	1.54000E-005	......
	13	3.61664	-6.26043E-001	7.61407E-006	2.15400E-004	......
	14	3.87497	-6.25143E-001	7.61407E-006	1.54000E-005	......
	15	4.1333	-6.25794E-001	7.61407E-006	2.15400E-004	......
	16	4.39164	-6.24843E-001	7.61407E-006	1.54000E-005	......
	17	4.64997	-6.24243E-001	7.61407E-006	3.15400E-004	......
	18	4.9083	-6.24593E-001	7.61407E-006	1.15400E-004	......
	19	5.16663	-6.24843E-001	7.61407E-006	2.15400E-004	......
	20	5.42496	-6.24243E-001	7.61407E-006	-8.46000E-005	......
	21	5.68329	-6.24694E-001	7.61407E-006	3.15400E-004	......
	22	5.94162	-6.25044E-001	7.61407E-006	1.54000E-005	......
	23	6.19996	-6.25243E-001	7.61407E-006	2.15400E-004	......
	24	6.45829	-6.26393E-001	7.61407E-006	1.54000E-005	......
	25	6.71662	-6.26243E-001	7.61407E-006	3.15400E-004	......
	26	6.97495	-6.25843E-001	7.61407E-006	1.54000E-005	......
	27	7.23328	-6.25443E-001	7.61407E-006	2.15400E-004	......
	28	7.49161	-6.26043E-001	7.61407E-006	1.54000E-005	......
	29	7.74995	-6.25744E-001	7.61407E-006	2.15400E-004	......
	30	8.00828	-6.24043E-001	7.61407E-006	1.15400E-004	......
	31	8.26661	-6.20443E-001	7.61407E-006	1.15400E-004	......
	32	8.52494	-6.20393E-001	7.61407E-006	1.54000E-005	......
	33	8.78327	-6.18793E-001	7.61407E-006	3.15400E-004	......
	34	9.0416	-6.19493E-001	7.61407E-006	1.54000E-005	......
	35	9.29993	-6.20344E-001	7.61407E-006	2.15400E-004	......
	36	9.5583	-6.19943E-001	7.61407E-006	-8.46000E-005	......
	37	9.8166	-6.20794E-001	7.61407E-006	1.15400E-004	......
	38	10.0749	-6.20993E-001	7.61407E-006	1.54000E-005	......
EOC	QUANT	-0.620993	Open Circuit (V)
PSTATMODEL	IQUANT	32	Pstat Model
PSTATSECTION	LABEL	PStat0	Pstat Section
CTRLMODE	IQUANT	1	Control Mode
IESTAB	IQUANT	0	I/E Stability
CASPEED	IQUANT	1	Control Amp Speed
CONVENTION	IQUANT	1	Current Convention
ICHRANGE	IQUANT	2	Ich Range
ICHRANGEMODE	TOGGLE	F	Ich Auto Range
ICHOFFSETENABLE	TOGGLE	T	Ich Offset Enable
ICHOFFSET	QUANT	0	Ich Offset (V)
ICHFILTER	IQUANT	3	Ich Filter
VCHRANGE	IQUANT	2	Vch Range
VCHRANGEMODE	TOGGLE	F	Vch Auto Range
VCHOFFSETENABLE	TOGGLE	T	Vch Offset Enable
VCHOFFSET	QUANT	0	Vch Offset (V)
VCHFILTER	IQUANT	3	Vch Filter
ACHRANGE	IQUANT	0	Ach Range
IERANGELOWERLIMIT	IQUANT	3	I/E Range Lower Limit
IERANGEMODE	TOGGLE	F	I/E AutoRange
IERANGE	IQUANT	11	I/E Range
POSFEEDENABLE	TOGGLE	F	Positive Feedback IR Comp
POSFEEDRESISTANCE	QUANT	0	Positive Feedback Resistance (ohm)
FC350IDIVISOR	IQUANT	0	FC350 I Divisor
FC350VRANGE	IQUANT	0	FC350 V Range
FRAMEWORKVERSION	QUANT	4.35	Framework Version
ZCURVE	TABLE
	Pt	Time	Freq	Zreal	Zimag	Zsig	Zmod	Zphz	Idc	Vdc	IERange
	#	s	Hz	ohm	ohm	V	ohm	°	A	V	#
	0	4	100007	34.2678	-0.498943	1	34.2714	-0.834175	9.63687E-006	-0.521059	10
	1	6	89134.1	34.1106	-0.673205	1	34.1173	-1.13064	1.24033E-005	-0.521086	10
	2	8	79433.6	34.044	-0.882447	1	34.0555	-1.48482	1.15752E-005	-0.521093	10
	3	10	70800.8	33.9753	-1.11134	1	33.9935	-1.87348	9.31156E-006	-0.521079	10
	4	12	63105.5	34.0077	-1.27533	1	34.0316	-2.14765	9.78047E-006	-0.521074	10
	5	14	56243.5	33.9409	-1.51585	1	33.9747	-2.55721	9.47109E-006	-0.521078	10
	6	16	50123.7	33.9269	-1.78112	1	33.9737	-3.00519	1.21705E-005	-0.521101	10
	7	18	44681	33.9876	-1.97489	1	34.045	-3.32549	1.06386E-005	-0.521094	10
	8	20	39811.2	33.9776	-2.23073	1	34.0507	-3.75624	1.15406E-005	-0.521107	10
	9	21	35488.3	34.0239	-2.59284	1	34.1226	-4.35788	9.41718E-006	-0.521079	10
	10	23	31634.1	34.0213	-2.87604	1	34.1427	-4.83208	9.96703E-006	-0.521068	10
	11	25	28173.1	34.1025	-3.22933	1	34.2551	-5.40949	1.05745E-005	-0.521082	10
	12	27	25123.7	34.136	-3.62091	1	34.3275	-6.0549	9.67797E-006	-0.521095	10
	13	29	22389.3	34.227	-4.08187	1	34.4696	-6.80089	1.14673E-005	-0.521081	10
	14	31	19954.4	34.2835	-4.51129	1	34.5791	-7.49634	1.04441E-005	-0.521102	10
	15	33	17778.2	34.3229	-5.05219	1	34.6928	-8.37357	9.E-006	-0.521094	10
	16	35	15852.9	34.423	-5.62454	1	34.8795	-9.27982	7.51359E-006	-0.521077	10
	17	37	14122.3	34.5528	-6.22487	1	35.109	-10.2126	8.81765E-006	-0.521071	10
	18	39	12587.2	34.6611	-6.92688	1	35.3464	-11.3015	8.77484E-006	-0.521077	10
	19	41	11221.1	34.8417	-7.7043	1	35.6833	-12.4688	8.51187E-006	-0.521068	10
	20	43	9998.2	34.8921	-8.51995	1	35.9173	-13.722	8.25828E-006	-0.521077	10
	21	45	8912.76	34.9864	-9.41044	1	36.2298	-15.0548	7.25234E-006	-0.521067	10
	22	47	7942.6	35.2054	-10.484	1	36.7333	-16.5832	8.94437E-006	-0.521085	10
	23	49	7078.05	35.4002	-11.5807	1	37.2463	-18.1148	8.11125E-006	-0.521081	10
	24	51	6311.1	35.5414	-12.904	1	37.8114	-19.9544	7.83125E-006	-0.521096	10
	25	53	5622.14	35.7763	-14.3012	1	38.5288	-21.7886	7.34437E-006	-0.521081	10
	26	55	5011.18	35.9161	-15.9253	1	39.2885	-23.9126	7.66297E-006	-0.521075	10
	27	57	4465.21	36.2389	-17.6042	1	40.2885	-25.9097	7.46484E-006	-0.521088	10
	28	59	3980.93	36.5362	-19.5889	1	41.4563	-28.198	7.635E-006	-0.521099	10
	29	61	3548.18	36.7759	-21.647	1	42.6739	-30.4819	6.26453E-006	-0.521066	10
	30	63	3162.67	37.1331	-24.1469	1	44.2938	-33.0351	8.15562E-006	-0.521085	10
	31	65	2819.01	37.4363	-26.714	1	45.9904	-35.511	6.71391E-006	-0.521069	10
	32	67	2511.16	37.8388	-29.6836	1	48.0925	-38.1133	8.04703E-006	-0.52107	10
	33	69	2238.63	38.1987	-33.0873	1	50.5362	-40.8987	7.49725E-006	-0.521082	10
	34	71	1995.37	38.663	-36.7709	1	53.3566	-43.5632	8.01103E-006	-0.521082	10
	35	73	1778.51	39.1952	-40.8481	1	56.6112	-46.183	7.3383E-006	-0.52108	10
	36	75	1584.49	39.8447	-45.2795	1	60.3144	-48.6531	7.80317E-006	-0.521088	10
	37	77	1412.76	40.4584	-50.4385	1	64.66	-51.2657	7.01857E-006	-0.521103	10
	38	79	1259.04	41.0291	-55.9516	1	69.3828	-53.7476	8.21072E-006	-0.521087	10
	39	81	1121.63	41.6553	-62.2119	1	74.8699	-56.1949	7.68324E-006	-0.521102	10
	40	82	999.95	42.6914	-69.1761	1	81.2889	-58.3196	7.08247E-006	-0.521087	10
	41	84	891.184	43.5452	-76.5776	1	88.0926	-60.3756	7.5518E-006	-0.521094	10
	42	86	794.163	44.5644	-85.6613	1	96.56	-62.5147	6.93936E-006	-0.521092	10
	43	88	707.867	45.7354	-94.9222	1	105.366	-64.2743	7.779E-006	-0.521078	10
	44	90	630.984	46.9796	-105.877	1	115.832	-66.0722	5.63873E-006	-0.521079	9
	45	92	562.189	48.6369	-117.931	1	127.567	-67.5879	6.26978E-006	-0.521076	9
	46	94	501.303	50.0134	-131.013	1	140.235	-69.106	5.68045E-006	-0.521096	9
	47	96	446.614	51.7854	-145.873	1	154.792	-70.455	5.86491E-006	-0.521097	9
	48	98	398.209	53.7674	-162.303	1	170.977	-71.6711	5.98213E-006	-0.5211	9
	49	100	354.821	56.0887	-180.688	1	189.194	-72.7548	6.31441E-006	-0.521098	9
	50	102	316.113	58.5737	-201.202	1	209.555	-73.7687	5.86314E-006	-0.521102	9
	51	104	281.926	61.4702	-223.816	1	232.104	-74.6426	5.69833E-006	-0.521095	9
	52	106	251.185	64.7639	-249.254	1	257.531	-75.4349	5.75764E-006	-0.521096	9
	53	108	223.946	68.5219	-277.432	1	285.769	-76.1264	5.61427E-006	-0.521103	9
	54	110	199.495	73.0489	-309.092	1	317.607	-76.7031	6.07381E-006	-0.521097	9
	55	112	177.836	78.1841	-344.038	1	352.81	-77.1968	6.1542E-006	-0.521102	9
	56	114	158.533	84.0165	-382.984	1	392.091	-77.6268	6.01656E-006	-0.521092	9
	57	116	141.263	90.3745	-426.449	1	435.92	-78.0347	5.56966E-006	-0.5211	9
	58	118	125.911	97.79	-474.743	1	484.71	-78.3607	5.22548E-006	-0.521106	9
	59	120	112.198	106.918	-528.823	1	539.523	-78.5699	5.2441E-006	-0.521104	9
	60	122	100.009	117.449	-588.501	1	600.106	-78.7136	5.35787E-006	-0.521098	9
	61	124	89.1164	129.786	-655.008	1	667.742	-78.7924	5.37777E-006	-0.521094	9
	62	126	79.4083	144.231	-728.964	1	743.096	-78.8082	5.37403E-006	-0.521097	9
	63	129	70.788	161.185	-811.246	1	827.104	-78.7623	5.25825E-006	-0.521097	9
	64	130	63.0971	180.914	-902.597	1	920.55	-78.666	5.26475E-006	-0.521098	9
	65	133	54.5476	209.602	-1031.87	1	1052.94	-78.5178	4.88791E-006	-0.521092	9
	66	135	50.0083	232.257	-1116.65	1	1140.54	-78.2503	4.45951E-006	-0.521104	8
	67	137	46.1675	254.057	-1201.15	1	1227.72	-78.0573	4.56838E-006	-0.521101	8
	68	139	40.0059	302.859	-1367.96	1	1401.09	-77.5164	4.68093E-006	-0.521099	8
	69	141	35.3046	360.955	-1531.1	1	1573.07	-76.7348	4.92269E-006	-0.521107	8
	70	143	31.5793	410.304	-1693.72	1	1742.71	-76.3824	4.62202E-006	-0.521095	8
	71	145	28.5748	469.026	-1849.26	1	1907.81	-75.7682	4.76927E-006	-0.521095	8
	72	147	24.9911	558.945	-2079.87	1	2153.67	-74.9577	4.67156E-006	-0.521103	8
	73	150	22.2195	676.256	-2297.14	1	2394.61	-73.5961	5.14326E-006	-0.521096	8
	74	152	20.0011	792.507	-2503.91	1	2626.34	-72.437	5.39046E-006	-0.521095	8
	75	155	17.6486	934.322	-2788.11	1	2940.5	-71.4735	5.21934E-006	-0.521091	8
	76	157	15.7934	1099.17	-3042.54	1	3235	-70.1369	4.97735E-006	-0.521092	8
	77	159	14.2828	1231.28	-3318.17	1	3539.25	-69.6414	4.58906E-006	-0.521092	8
	78	161	12.5002	1488.12	-3667.82	1	3958.2	-67.9164	4.71849E-006	-0.521095	8
	79	164	11.323	1740.72	-3921.27	1	4290.28	-66.0627	4.76893E-006	-0.521087	8
	80	166	9.9987	2065.78	-4302.78	1	4772.98	-64.3541	4.74576E-006	-0.521095	8
