EXPLAIN
TAG	EISPOT
TITLE	LABEL	Tomato_open	Test &Identifier
DATE	LABEL	5/15/2006	Date
TIME	LABEL	11:49:58	Time
NOTES	NOTES	1	&Notes...
	
PSTAT	PSTAT	300	Potentiostat
VDC	POTEN	1.00000E-001	T	DC &Voltage (V)
FREQINIT	QUANT	1.00000E+005	Initial Fre&q. (Hz)
FREQFINAL	QUANT	1.00000E+001	Final Fre&q. (Hz)
PTSPERDEC	QUANT	2.00000E+001	Points/&decade
VAC	QUANT	1.00000E+001	AC &Voltage (mV rms)
AREA	QUANT	1.00000E+000	&Area (cm²)
DENSITY	QUANT	7.87000E+000	&Density (gm/cm³)
EQUIV	QUANT	7.00000E+000	Equiv. &Wt
CONDIT	TWOPARAM	F	1.50000E+001	0.00000E+000	Conditionin&g	Time(s)	E(V)
DELAY	TWOPARAM	F	6.00000E+002	0.00000E+000	Init. De&lay	Time(s)	Stab.(mV/s)
SPEED	SELECTOR	1	&Optimize for:
ZGUESS	QUANT	1.00000E+002	E&stimated Z (ohms)
OCVCURVE	TABLE	39
	Pt	T	Vf	Vm	Ach	Over
	#	s	V vs. Ref.	V	V	bits
	0	0.258332	-6.11820E-001	3.85777E-006	2.36600E-004	......
	1	0.516663	-6.10169E-001	3.85777E-006	2.36600E-004	......
	2	0.774994	-6.09269E-001	3.85777E-006	2.36600E-004	......
	3	1.03333	-6.11119E-001	3.85777E-006	2.36600E-004	......
	4	1.29166	-6.11019E-001	3.85777E-006	2.36600E-004	......
	5	1.54999	-6.11419E-001	3.85777E-006	2.36600E-004	......
	6	1.80832	-6.12669E-001	3.85777E-006	2.36600E-004	......
	7	2.06665	-6.14819E-001	3.85777E-006	2.36600E-004	......
	8	2.32498	-6.13569E-001	3.85777E-006	2.36600E-004	......
	9	2.58332	-6.15669E-001	3.85777E-006	2.36600E-004	......
	10	2.84165	-6.13519E-001	3.85777E-006	2.36600E-004	......
	11	3.09998	-6.12419E-001	3.85777E-006	3.66000E-005	......
	12	3.35831	-6.11919E-001	3.85777E-006	2.36600E-004	......
	13	3.61664	-6.11619E-001	3.85777E-006	2.36600E-004	......
	14	3.87497	-6.13119E-001	3.85777E-006	2.36600E-004	......
	15	4.1333	-6.09569E-001	3.85777E-006	3.36600E-004	......
	16	4.39164	-6.11519E-001	3.85777E-006	2.36600E-004	......
	17	4.64997	-6.10219E-001	3.85777E-006	2.36600E-004	......
	18	4.9083	-6.11169E-001	3.85777E-006	3.36600E-004	......
	19	5.16663	-6.12619E-001	3.85777E-006	2.36600E-004	......
	20	5.42496	-6.13519E-001	3.85777E-006	3.36600E-004	......
	21	5.68329	-6.15369E-001	3.85777E-006	2.36600E-004	......
	22	5.94162	-6.12119E-001	3.85777E-006	2.36600E-004	......
	23	6.19996	-6.15369E-001	3.85777E-006	2.36600E-004	......
	24	6.45829	-6.17669E-001	3.85777E-006	2.36600E-004	......
	25	6.71662	-6.19669E-001	3.85777E-006	2.36600E-004	......
	26	6.97495	-6.20119E-001	3.85777E-006	2.36600E-004	......
	27	7.23328	-6.19319E-001	3.85777E-006	2.36600E-004	......
	28	7.49161	-6.20719E-001	3.85777E-006	2.36600E-004	......
	29	7.74995	-6.19770E-001	3.85777E-006	3.36600E-004	......
	30	8.00828	-6.22919E-001	3.85777E-006	3.66000E-005	......
	31	8.26661	-6.23320E-001	3.85777E-006	2.36600E-004	......
	32	8.52494	-6.21369E-001	3.85777E-006	2.36600E-004	......
	33	8.78327	-6.24569E-001	3.85777E-006	3.66000E-005	......
	34	9.0416	-6.23069E-001	3.85777E-006	3.36600E-004	......
	35	9.29993	-6.25169E-001	3.85777E-006	2.36600E-004	......
	36	9.5583	-6.27519E-001	3.85777E-006	2.36600E-004	......
	37	9.8166	-6.26170E-001	3.85777E-006	1.36600E-004	......
	38	10.0749	-6.25870E-001	3.85777E-006	3.36600E-004	......
EOC	QUANT	-0.62587	Open Circuit (V)
PSTATMODEL	IQUANT	32	Pstat Model
PSTATSECTION	LABEL	PStat0	Pstat Section
CTRLMODE	IQUANT	1	Control Mode
IESTAB	IQUANT	0	I/E Stability
CASPEED	IQUANT	1	Control Amp Speed
CONVENTION	IQUANT	1	Current Convention
ICHRANGE	IQUANT	2	Ich Range
ICHRANGEMODE	TOGGLE	F	Ich Auto Range
ICHOFFSETENABLE	TOGGLE	T	Ich Offset Enable
ICHOFFSET	QUANT	0	Ich Offset (V)
ICHFILTER	IQUANT	3	Ich Filter
VCHRANGE	IQUANT	2	Vch Range
VCHRANGEMODE	TOGGLE	F	Vch Auto Range
VCHOFFSETENABLE	TOGGLE	T	Vch Offset Enable
VCHOFFSET	QUANT	0	Vch Offset (V)
VCHFILTER	IQUANT	3	Vch Filter
ACHRANGE	IQUANT	0	Ach Range
IERANGELOWERLIMIT	IQUANT	3	I/E Range Lower Limit
IERANGEMODE	TOGGLE	F	I/E AutoRange
IERANGE	IQUANT	11	I/E Range
POSFEEDENABLE	TOGGLE	F	Positive Feedback IR Comp
POSFEEDRESISTANCE	QUANT	0	Positive Feedback Resistance (ohm)
FC350IDIVISOR	IQUANT	0	FC350 I Divisor
FC350VRANGE	IQUANT	0	FC350 V Range
FRAMEWORKVERSION	QUANT	4.35	Framework Version
ZCURVE	TABLE
	Pt	Time	Freq	Zreal	Zimag	Zsig	Zmod	Zphz	Idc	Vdc	IERange
	#	s	Hz	ohm	ohm	V	ohm	°	A	V	#
	0	4	100007	36.0502	-0.770721	1	36.0584	-1.22475	1.26393E-005	-0.525777	10
	1	6	89134.1	35.9247	-0.911708	1	35.9363	-1.45376	1.18332E-005	-0.525799	10
	2	8	79433.6	35.8477	-1.21255	1	35.8682	-1.9373	1.16542E-005	-0.525797	10
	3	10	70800.8	35.7448	-1.37144	1	35.7711	-2.19723	1.11682E-005	-0.525784	10
	4	12	63105.5	35.7989	-1.626	1	35.8358	-2.6006	9.55103E-006	-0.525809	10
	5	14	56243.5	35.7471	-1.84458	1	35.7947	-2.95389	1.19507E-005	-0.525812	10
	6	16	50123.7	35.7402	-2.08905	1	35.8012	-3.34518	1.11223E-005	-0.525784	10
	7	18	44681	35.8272	-2.36437	1	35.9051	-3.77569	8.73259E-006	-0.525782	10
	8	20	39811.2	35.8107	-2.66663	1	35.9099	-4.25864	1.0364E-005	-0.525781	10
	9	22	35488.3	35.8885	-3.02095	1	36.0154	-4.81158	1.00571E-005	-0.525812	10
	10	24	31634.1	35.8905	-3.30471	1	36.0423	-5.26083	1.14038E-005	-0.525813	10
	11	26	28173.1	35.961	-3.76638	1	36.1577	-5.97909	1.0136E-005	-0.525801	10
	12	28	25123.7	36.0453	-4.13193	1	36.2814	-6.53937	1.10515E-005	-0.525806	10
	13	30	22389.3	36.122	-4.58374	1	36.4116	-7.23197	9.31759E-006	-0.525804	10
	14	32	19954.4	36.2111	-5.12219	1	36.5715	-8.05129	9.51619E-006	-0.525779	10
	15	34	17778.2	36.2961	-5.65937	1	36.7346	-8.86233	8.90353E-006	-0.525797	10
	16	36	15852.9	36.4385	-6.24418	1	36.9696	-9.7239	8.12416E-006	-0.525777	10
	17	38	14122.3	36.627	-6.91218	1	37.2735	-10.6871	9.3065E-006	-0.525784	10
	18	40	12587.2	36.7492	-7.70867	1	37.549	-11.8468	8.6401E-006	-0.525785	10
	19	42	11221.1	36.8259	-8.46937	1	37.7873	-12.9519	8.24713E-006	-0.525775	10
	20	44	9998.2	37.0667	-9.37475	1	38.2338	-14.1934	8.82806E-006	-0.525776	10
	21	46	8912.76	37.2266	-10.4335	1	38.6611	-15.6566	8.65619E-006	-0.525773	10
	22	48	7942.6	37.4175	-11.5199	1	39.1507	-17.1122	8.30525E-006	-0.525778	10
	23	50	7078.05	37.6195	-12.7082	1	39.708	-18.6654	8.19291E-006	-0.525779	10
	24	52	6311.1	37.9423	-14.0315	1	40.4537	-20.295	8.159E-006	-0.525788	10
	25	54	5622.14	38.1566	-15.5853	1	41.2168	-22.2179	7.77775E-006	-0.525782	10
	26	56	5011.18	38.4902	-17.3119	1	42.2042	-24.217	7.79713E-006	-0.525783	10
	27	58	4465.21	38.7881	-19.1885	1	43.2749	-26.3216	7.54478E-006	-0.525772	10
	28	60	3980.93	39.097	-21.2558	1	44.5015	-28.5315	7.67681E-006	-0.52579	10
	29	62	3548.18	39.5189	-23.4134	1	45.934	-30.6451	7.93541E-006	-0.525801	10
	30	64	3162.67	39.8787	-25.9217	1	47.563	-33.0244	8.66072E-006	-0.525766	10
	31	66	2819.01	40.2523	-28.7283	1	49.4527	-35.5157	6.31823E-006	-0.525774	10
	32	68	2511.16	40.8932	-31.7102	1	51.7474	-37.7914	7.62998E-006	-0.525771	10
	33	70	2238.63	41.3286	-35.1959	1	54.2845	-40.4181	6.75828E-006	-0.525778	10
	34	72	1995.37	41.7963	-39.0678	1	57.2121	-43.0675	7.05759E-006	-0.525781	10
	35	74	1778.51	42.4807	-43.2062	1	60.5919	-45.4851	6.93524E-006	-0.525774	10
	36	76	1584.49	43.1157	-48.1607	1	64.6407	-48.1636	7.25249E-006	-0.525781	10
	37	78	1412.76	43.8859	-53.3487	1	69.0801	-50.5585	5.88598E-006	-0.525778	10
	38	80	1259.04	44.6655	-59.0236	1	74.0189	-52.8838	6.57292E-006	-0.525774	10
	39	82	1121.63	45.2977	-65.7825	1	79.87	-55.4488	6.91626E-006	-0.525775	10
	40	83	999.95	46.4411	-72.746	1	86.3062	-57.4458	6.47924E-006	-0.525786	10
	41	85	891.184	47.3333	-81.0449	1	93.8547	-59.7135	6.54915E-006	-0.525775	10
	42	87	794.163	48.5468	-89.6765	1	101.974	-61.5709	6.8212E-006	-0.525787	10
	43	89	707.867	50.0415	-99.829	1	111.669	-63.3767	3.40095E-006	-0.52578	9
	44	91	630.984	51.2068	-110.688	1	121.959	-65.1737	3.12382E-006	-0.52578	9
	45	93	562.189	52.9973	-122.909	1	133.849	-66.6748	3.13674E-006	-0.525771	9
	46	95	501.303	54.5463	-136.904	1	147.37	-68.2762	2.64684E-006	-0.525768	9
	47	97	446.614	56.4124	-152.241	1	162.356	-69.6679	2.58368E-006	-0.525781	9
	48	99	398.209	58.5138	-169.21	1	179.041	-70.9243	2.80831E-006	-0.525771	9
	49	101	354.821	60.8853	-188.158	1	197.764	-72.0692	2.8597E-006	-0.525779	9
	50	103	316.113	63.4803	-209.317	1	218.731	-73.1289	2.86409E-006	-0.525777	9
	51	105	281.926	66.3376	-232.611	1	241.885	-74.0825	2.70321E-006	-0.525782	9
	52	107	251.185	69.5614	-258.751	1	267.938	-74.9527	2.52007E-006	-0.525779	9
	53	109	223.946	73.2096	-287.753	1	296.92	-75.7258	2.61754E-006	-0.525766	9
	54	111	199.495	77.3141	-320.193	1	329.395	-76.4251	2.65679E-006	-0.525781	9
	55	113	177.836	81.8975	-356.129	1	365.424	-77.0491	2.56201E-006	-0.525783	9
	56	115	158.533	86.9943	-396.152	1	405.592	-77.6145	2.67713E-006	-0.525783	9
	57	117	141.263	92.8389	-440.778	1	450.449	-78.1059	2.72023E-006	-0.525783	9
	58	119	125.911	99.184	-490.346	1	500.277	-78.5649	2.4859E-006	-0.525782	9
	59	121	112.198	106.479	-545.716	1	556.007	-78.9592	2.44566E-006	-0.525779	9
	60	123	100.009	114.334	-607.09	1	617.763	-79.3343	2.23698E-006	-0.525776	9
	61	126	89.1164	123.78	-675.864	1	687.106	-79.6217	1.96753E-006	-0.525776	9
	62	128	79.4083	134.686	-752.047	1	764.012	-79.8464	2.16172E-006	-0.525778	9
	63	130	70.788	146.869	-836.663	1	849.456	-80.0437	2.24646E-006	-0.525773	9
	64	132	63.0971	161.688	-931.093	1	945.027	-80.1486	2.39475E-006	-0.525779	9
	65	134	54.5476	181.758	-1065.8	1	1081.19	-80.3221	2.44892E-006	-0.525775	9
	66	136	50.0083	196.15	-1154.32	1	1170.87	-80.3561	1.83581E-006	-0.525782	8
	67	138	46.1675	214.075	-1243.37	1	1261.67	-80.231	2.21698E-006	-0.525779	8
	68	140	40.0059	250.178	-1419.44	1	1441.31	-80.0042	2.42967E-006	-0.525769	8
	69	142	35.3046	276.056	-1593.89	1	1617.62	-80.1741	2.02136E-006	-0.525771	8
	70	145	31.5793	309.275	-1769.05	1	1795.88	-80.0835	1.87959E-006	-0.52577	8
	71	147	28.5748	348.16	-1939.46	1	1970.47	-79.823	2.01309E-006	-0.525768	8
	72	149	24.9911	411.071	-2194.46	1	2232.63	-79.3902	2.06471E-006	-0.525782	8
	73	151	22.2195	477.394	-2440.69	1	2486.94	-78.9328	2.56434E-006	-0.525774	8
	74	153	20.0011	524.225	-2690.52	1	2741.11	-78.9745	2.10251E-006	-0.525785	8
	75	156	17.6486	631.422	-3015.67	1	3081.07	-78.1742	2.20661E-006	-0.525774	8
	76	158	15.7934	725.653	-3343.63	1	3421.47	-77.7552	2.0787E-006	-0.525775	8
	77	160	14.2828	803.037	-3657.92	1	3745.03	-77.6181	1.99408E-006	-0.525773	8
	78	162	12.5002	992.27	-4116.92	1	4234.81	-76.4489	2.10514E-006	-0.525783	8
	79	165	11.323	1121.26	-4493.86	1	4631.63	-75.9903	1.89332E-006	-0.525773	8
	80	168	9.9987	1313.72	-5038.03	1	5206.5	-75.385	1.85934E-006	-0.525774	8
