EXPLAIN
TAG	EISPOT
TITLE	LABEL	Tomato_open	Test &Identifier
DATE	LABEL	5/15/2006	Date
TIME	LABEL	11:59:50	Time
NOTES	NOTES	1	&Notes...
	
PSTAT	PSTAT	300	Potentiostat
VDC	POTEN	1.00000E-001	T	DC &Voltage (V)
FREQINIT	QUANT	1.00000E+005	Initial Fre&q. (Hz)
FREQFINAL	QUANT	1.00000E+001	Final Fre&q. (Hz)
PTSPERDEC	QUANT	2.00000E+001	Points/&decade
VAC	QUANT	1.00000E+001	AC &Voltage (mV rms)
AREA	QUANT	1.00000E+000	&Area (cm²)
DENSITY	QUANT	7.87000E+000	&Density (gm/cm³)
EQUIV	QUANT	7.00000E+000	Equiv. &Wt
CONDIT	TWOPARAM	F	1.50000E+001	0.00000E+000	Conditionin&g	Time(s)	E(V)
DELAY	TWOPARAM	F	6.00000E+002	0.00000E+000	Init. De&lay	Time(s)	Stab.(mV/s)
SPEED	SELECTOR	1	&Optimize for:
ZGUESS	QUANT	1.00000E+002	E&stimated Z (ohms)
OCVCURVE	TABLE	39
	Pt	T	Vf	Vm	Ach	Over
	#	s	V vs. Ref.	V	V	bits
	0	0.258332	-6.14969E-001	4.50476E-006	3.36600E-004	......
	1	0.516663	-6.15669E-001	4.50476E-006	1.36600E-004	......
	2	0.774994	-6.15819E-001	4.50476E-006	1.36600E-004	......
	3	1.03333	-6.14519E-001	4.50476E-006	1.36600E-004	......
	4	1.29166	-6.09469E-001	4.50476E-006	3.66000E-005	......
	5	1.54999	-6.09869E-001	4.50476E-006	1.36600E-004	......
	6	1.80832	-6.11269E-001	4.50476E-006	2.36600E-004	......
	7	2.06665	-6.11569E-001	4.50476E-006	4.36600E-004	......
	8	2.32498	-6.12069E-001	4.50476E-006	2.36600E-004	......
	9	2.58332	-6.11569E-001	4.50476E-006	3.36600E-004	......
	10	2.84165	-6.10370E-001	4.50476E-006	2.36600E-004	......
	11	3.09998	-6.09869E-001	4.50476E-006	2.36600E-004	......
	12	3.35831	-6.11019E-001	4.50476E-006	1.36600E-004	......
	13	3.61664	-6.11769E-001	4.50476E-006	1.36600E-004	......
	14	3.87497	-6.13569E-001	4.50476E-006	2.36600E-004	......
	15	4.1333	-6.16669E-001	4.50476E-006	2.36600E-004	......
	16	4.39164	-6.17920E-001	4.50476E-006	3.36600E-004	......
	17	4.64997	-6.16870E-001	4.50476E-006	2.36600E-004	......
	18	4.9083	-6.15969E-001	4.50476E-006	2.36600E-004	......
	19	5.16663	-6.16669E-001	4.50476E-006	1.36600E-004	......
	20	5.42496	-6.16769E-001	4.50476E-006	2.36600E-004	......
	21	5.68329	-6.16419E-001	4.50476E-006	3.66000E-005	......
	22	5.94162	-6.15619E-001	4.50476E-006	2.36600E-004	......
	23	6.19996	-6.18019E-001	4.50476E-006	3.66000E-005	......
	24	6.45829	-6.17719E-001	4.50476E-006	1.36600E-004	......
	25	6.71662	-6.17469E-001	4.50476E-006	3.66000E-005	......
	26	6.97495	-6.17319E-001	4.50476E-006	1.36600E-004	......
	27	7.23328	-6.16269E-001	4.50476E-006	2.36600E-004	......
	28	7.49161	-6.13819E-001	4.50476E-006	3.66000E-005	......
	29	7.74995	-6.14219E-001	4.50476E-006	2.36600E-004	......
	30	8.00828	-6.13469E-001	4.50476E-006	2.36600E-004	......
	31	8.26661	-6.12870E-001	4.50476E-006	2.36600E-004	......
	32	8.52494	-6.12969E-001	4.50476E-006	1.36600E-004	......
	33	8.78327	-6.12669E-001	4.50476E-006	2.36600E-004	......
	34	9.0416	-6.13469E-001	4.50476E-006	2.36600E-004	......
	35	9.29993	-6.13270E-001	4.50476E-006	3.36600E-004	......
	36	9.5583	-6.13419E-001	4.50476E-006	3.36600E-004	......
	37	9.8166	-6.13469E-001	4.50476E-006	2.36600E-004	......
	38	10.0749	-6.14119E-001	4.50476E-006	2.36600E-004	......
EOC	QUANT	-0.614119	Open Circuit (V)
PSTATMODEL	IQUANT	32	Pstat Model
PSTATSECTION	LABEL	PStat0	Pstat Section
CTRLMODE	IQUANT	1	Control Mode
IESTAB	IQUANT	0	I/E Stability
CASPEED	IQUANT	1	Control Amp Speed
CONVENTION	IQUANT	1	Current Convention
ICHRANGE	IQUANT	2	Ich Range
ICHRANGEMODE	TOGGLE	F	Ich Auto Range
ICHOFFSETENABLE	TOGGLE	T	Ich Offset Enable
ICHOFFSET	QUANT	0	Ich Offset (V)
ICHFILTER	IQUANT	3	Ich Filter
VCHRANGE	IQUANT	2	Vch Range
VCHRANGEMODE	TOGGLE	F	Vch Auto Range
VCHOFFSETENABLE	TOGGLE	T	Vch Offset Enable
VCHOFFSET	QUANT	0	Vch Offset (V)
VCHFILTER	IQUANT	3	Vch Filter
ACHRANGE	IQUANT	0	Ach Range
IERANGELOWERLIMIT	IQUANT	3	I/E Range Lower Limit
IERANGEMODE	TOGGLE	F	I/E AutoRange
IERANGE	IQUANT	11	I/E Range
POSFEEDENABLE	TOGGLE	F	Positive Feedback IR Comp
POSFEEDRESISTANCE	QUANT	0	Positive Feedback Resistance (ohm)
FC350IDIVISOR	IQUANT	0	FC350 I Divisor
FC350VRANGE	IQUANT	0	FC350 V Range
FRAMEWORKVERSION	QUANT	4.35	Framework Version
ZCURVE	TABLE
	Pt	Time	Freq	Zreal	Zimag	Zsig	Zmod	Zphz	Idc	Vdc	IERange
	#	s	Hz	ohm	ohm	V	ohm	°	A	V	#
	0	4	100007	35.7045	-0.813244	1	35.7138	-1.3048	9.92541E-006	-0.513997	10
	1	6	89134.1	35.5997	-0.95896	1	35.6127	-1.54302	1.01635E-005	-0.513986	10
	2	8	79433.6	35.5567	-1.16821	1	35.5759	-1.88176	1.02479E-005	-0.513981	10
	3	10	70800.8	35.5081	-1.39716	1	35.5356	-2.25329	1.02396E-005	-0.513981	10
	4	12	63105.5	35.4708	-1.60389	1	35.507	-2.589	8.74291E-006	-0.513995	10
	5	14	56243.5	35.4928	-1.81904	1	35.5394	-2.9339	8.83494E-006	-0.513986	10
	6	16	50123.7	35.4789	-2.06436	1	35.5389	-3.33003	1.0904E-005	-0.514016	10
	7	18	44681	35.5014	-2.36098	1	35.5798	-3.80479	8.44791E-006	-0.513986	10
	8	20	39811.2	35.547	-2.69568	1	35.6491	-4.33668	1.09393E-005	-0.513988	10
	9	22	35488.3	35.541	-3.03144	1	35.6701	-4.87519	1.02307E-005	-0.513989	10
	10	24	31634.1	35.6247	-3.3483	1	35.7817	-5.36935	1.05804E-005	-0.513979	10
	11	26	28173.1	35.6907	-3.7767	1	35.89	-6.04041	8.89619E-006	-0.513988	10
	12	28	25123.7	35.7384	-4.10181	1	35.973	-6.54737	7.95572E-006	-0.514012	10
	13	30	22389.3	35.8222	-4.63564	1	36.1209	-7.37349	8.10994E-006	-0.513993	10
	14	32	19954.4	35.9253	-5.12017	1	36.2883	-8.11133	6.48994E-006	-0.513991	10
	15	33	17778.2	36.0606	-5.67463	1	36.5044	-8.94294	8.21369E-006	-0.513989	10
	16	35	15852.9	36.1228	-6.32307	1	36.6721	-9.9287	8.144E-006	-0.513972	10
	17	37	14122.3	36.2652	-6.99047	1	36.9328	-10.9105	7.16478E-006	-0.513989	10
	18	39	12587.2	36.4031	-7.71192	1	37.211	-11.9612	8.03587E-006	-0.513992	10
	19	41	11221.1	36.5661	-8.5413	1	37.5504	-13.1477	7.26556E-006	-0.513993	10
	20	43	9998.2	36.7294	-9.43516	1	37.9219	-14.4068	7.66681E-006	-0.513979	10
	21	45	8912.76	36.9426	-10.4609	1	38.3951	-15.8103	7.27431E-006	-0.513984	10
	22	47	7942.6	37.08	-11.5509	1	38.8375	-17.3025	7.26478E-006	-0.513994	10
	23	49	7078.05	37.3759	-12.8401	1	39.52	-18.9596	7.37884E-006	-0.513994	10
	24	51	6311.1	37.5608	-14.1677	1	40.144	-20.6662	7.74447E-006	-0.513994	10
	25	53	5622.14	37.8415	-15.706	1	40.9714	-22.5408	7.31822E-006	-0.514001	10
	26	55	5011.18	38.1028	-17.3961	1	41.8861	-24.5394	7.95822E-006	-0.513997	10
	27	57	4465.21	38.485	-19.224	1	43.0192	-26.543	7.50041E-006	-0.513986	10
	28	59	3980.93	38.7222	-21.326	1	44.2064	-28.8435	6.36009E-006	-0.513983	10
	29	61	3548.18	39.1083	-23.593	1	45.6737	-31.1015	6.94119E-006	-0.513986	10
	30	63	3162.67	39.5422	-26.1013	1	47.38	-33.4283	6.92822E-006	-0.513975	10
	31	65	2819.01	39.943	-28.9471	1	49.3293	-35.9312	7.03775E-006	-0.513979	10
	32	67	2511.16	40.4304	-32.1561	1	51.6588	-38.4968	8.1011E-006	-0.513989	10
	33	69	2238.63	40.9049	-35.4645	1	54.1382	-40.9253	7.31163E-006	-0.513991	10
	34	71	1995.37	41.4457	-39.4683	1	57.2319	-43.6001	7.38626E-006	-0.513989	10
	35	73	1778.51	42.1573	-43.6529	1	60.6862	-45.9985	7.12356E-006	-0.513985	10
	36	75	1584.49	42.6708	-48.5018	1	64.6005	-48.6594	7.48063E-006	-0.513981	10
	37	77	1412.76	43.5612	-53.7185	1	69.1611	-50.9609	7.56463E-006	-0.513984	10
	38	79	1259.04	44.1648	-59.782	1	74.3264	-53.5444	6.52316E-006	-0.513992	10
	39	81	1121.63	45.0883	-66.3604	1	80.2288	-55.806	7.3649E-006	-0.513984	10
	40	83	999.95	45.8747	-73.822	1	86.9148	-58.1422	7.18688E-006	-0.513997	10
	41	84	891.184	47.0939	-81.6897	1	94.2923	-60.0367	7.16996E-006	-0.513989	10
	42	86	794.163	48.145	-90.6366	1	102.63	-62.0233	7.2088E-006	-0.513989	10
	43	88	707.867	49.4183	-100.687	1	112.161	-63.8577	3.94224E-006	-0.514011	9
	44	90	630.984	51.0861	-112.06	1	123.155	-65.4926	3.45657E-006	-0.514006	9
	45	92	562.189	52.5196	-124.54	1	135.161	-67.1345	3.45142E-006	-0.514001	9
	46	94	501.303	54.3246	-138.546	1	148.815	-68.5895	3.63057E-006	-0.514009	9
	47	96	446.614	56.2699	-154.076	1	164.03	-69.9373	3.66765E-006	-0.514011	9
	48	98	398.209	58.3881	-171.199	1	180.881	-71.1678	3.63151E-006	-0.514006	9
	49	100	354.821	60.7804	-190.361	1	199.829	-72.2923	3.1652E-006	-0.514005	9
	50	102	316.113	63.5121	-211.764	1	221.083	-73.305	3.4337E-006	-0.514011	9
	51	104	281.926	66.5845	-235.417	1	244.652	-74.2071	3.32292E-006	-0.514008	9
	52	106	251.185	69.8631	-261.834	1	270.995	-75.0603	3.21703E-006	-0.514015	9
	53	108	223.946	73.5005	-291.061	1	300.198	-75.8276	3.16595E-006	-0.514008	9
	54	110	199.495	77.7009	-323.873	1	333.063	-76.509	3.12724E-006	-0.514011	9
	55	112	177.836	82.3742	-360.105	1	369.406	-77.1152	3.06738E-006	-0.514011	9
	56	114	158.533	87.7113	-400.459	1	409.952	-77.6458	3.14538E-006	-0.514005	9
	57	116	141.263	93.6317	-445.599	1	455.33	-78.1333	3.02038E-006	-0.514003	9
	58	118	125.911	100.47	-495.64	1	505.721	-78.5409	3.12379E-006	-0.514012	9
	59	120	112.198	107.838	-551.561	1	562.004	-78.9374	2.78529E-006	-0.514003	9
	60	122	100.009	116.845	-613.719	1	624.743	-79.2206	3.03991E-006	-0.514005	9
	61	124	89.1164	127.575	-683.099	1	694.909	-79.4214	3.29506E-006	-0.514009	9
	62	126	79.4083	138.521	-759.938	1	772.459	-79.6696	3.30325E-006	-0.51401	9
	63	128	70.788	151.895	-845.39	1	858.927	-79.8141	3.26429E-006	-0.514005	9
	64	130	63.0971	166.435	-940.059	1	954.68	-79.96	3.35266E-006	-0.514007	9
	65	133	54.5476	188.542	-1076.16	1	1092.55	-80.0627	3.18861E-006	-0.514005	9
	66	135	50.0083	203.552	-1165.46	1	1183.1	-80.093	2.46106E-006	-0.514014	8
	67	137	46.1675	217.083	-1255.44	1	1274.07	-80.1897	2.15046E-006	-0.514012	8
	68	139	40.0059	248.229	-1434.07	1	1455.39	-80.1797	2.09989E-006	-0.514012	8
	69	141	35.3046	284.817	-1609.73	1	1634.73	-79.9662	2.27146E-006	-0.514017	8
	70	143	31.5793	323.169	-1782.78	1	1811.84	-79.7255	2.39642E-006	-0.514016	8
	71	145	28.5748	351.638	-1956.34	1	1987.7	-79.8103	2.05883E-006	-0.514006	8
	72	147	24.9911	409.935	-2213.31	1	2250.95	-79.507	2.18386E-006	-0.514017	8
	73	150	22.2195	467.468	-2468.72	1	2512.59	-79.2776	2.14777E-006	-0.514016	8
	74	152	20.0011	544.07	-2712.21	1	2766.24	-78.657	2.43945E-006	-0.514014	8
	75	155	17.6486	650.876	-3039.9	1	3108.79	-77.9148	2.59617E-006	-0.514013	8
	76	157	15.7934	779.833	-3353.54	1	3443.02	-76.9091	2.84089E-006	-0.514019	8
	77	159	14.2828	909.036	-3662.61	1	3773.74	-76.0612	3.06523E-006	-0.514023	8
	78	161	12.5002	1061.2	-4128.76	1	4262.96	-75.5854	2.82821E-006	-0.514012	8
	79	164	11.323	1203.56	-4520.53	1	4678.01	-75.0913	2.63469E-006	-0.51401	8
	80	166	9.9987	1370.27	-5045.01	1	5227.79	-74.8046	2.36356E-006	-0.514014	8
