EXPLAIN
TAG	EISPOT
TITLE	LABEL	Tomato_open	Test &Identifier
DATE	LABEL	5/15/2006	Date
TIME	LABEL	11:54:59	Time
NOTES	NOTES	1	&Notes...
	
PSTAT	PSTAT	300	Potentiostat
VDC	POTEN	1.00000E-001	T	DC &Voltage (V)
FREQINIT	QUANT	1.00000E+005	Initial Fre&q. (Hz)
FREQFINAL	QUANT	1.00000E+001	Final Fre&q. (Hz)
PTSPERDEC	QUANT	2.00000E+001	Points/&decade
VAC	QUANT	1.00000E+001	AC &Voltage (mV rms)
AREA	QUANT	1.00000E+000	&Area (cm²)
DENSITY	QUANT	7.87000E+000	&Density (gm/cm³)
EQUIV	QUANT	7.00000E+000	Equiv. &Wt
CONDIT	TWOPARAM	F	1.50000E+001	0.00000E+000	Conditionin&g	Time(s)	E(V)
DELAY	TWOPARAM	F	6.00000E+002	0.00000E+000	Init. De&lay	Time(s)	Stab.(mV/s)
SPEED	SELECTOR	1	&Optimize for:
ZGUESS	QUANT	1.00000E+002	E&stimated Z (ohms)
OCVCURVE	TABLE	39
	Pt	T	Vf	Vm	Ach	Over
	#	s	V vs. Ref.	V	V	bits
	0	0.258332	-6.17069E-001	4.50477E-006	2.36600E-004	......
	1	0.516663	-6.16569E-001	4.50477E-006	2.36600E-004	......
	2	0.774994	-6.18970E-001	4.50477E-006	2.36600E-004	......
	3	1.03333	-6.18620E-001	4.50477E-006	1.36600E-004	......
	4	1.29166	-6.18719E-001	4.50477E-006	2.36600E-004	......
	5	1.54999	-6.20470E-001	4.50477E-006	2.36600E-004	......
	6	1.80832	-6.21469E-001	4.50477E-006	1.36600E-004	......
	7	2.06665	-6.21870E-001	4.50477E-006	3.66000E-005	......
	8	2.32498	-6.22019E-001	4.50477E-006	1.36600E-004	......
	9	2.58332	-6.24070E-001	4.50477E-006	2.36600E-004	......
	10	2.84165	-6.21069E-001	4.50477E-006	2.36600E-004	......
	11	3.09998	-6.19219E-001	4.50477E-006	3.66000E-005	......
	12	3.35831	-6.18419E-001	4.50477E-006	2.36600E-004	......
	13	3.61664	-6.20070E-001	4.50477E-006	2.36600E-004	......
	14	3.87497	-6.20319E-001	4.50477E-006	2.36600E-004	......
	15	4.1333	-6.20319E-001	4.50477E-006	3.36600E-004	......
	16	4.39164	-6.20669E-001	4.50477E-006	2.36600E-004	......
	17	4.64997	-6.23619E-001	4.50477E-006	3.36600E-004	......
	18	4.9083	-6.23269E-001	4.50477E-006	2.36600E-004	......
	19	5.16663	-6.22570E-001	4.50477E-006	1.36600E-004	......
	20	5.42496	-6.23619E-001	4.50477E-006	2.36600E-004	......
	21	5.68329	-6.26019E-001	4.50477E-006	2.36600E-004	......
	22	5.94162	-6.26969E-001	4.50477E-006	2.36600E-004	......
	23	6.19996	-6.27819E-001	4.50477E-006	3.66000E-005	......
	24	6.45829	-6.30569E-001	4.50477E-006	2.36600E-004	......
	25	6.71662	-6.29919E-001	4.50477E-006	2.36600E-004	......
	26	6.97495	-6.28069E-001	4.50477E-006	2.36600E-004	......
	27	7.23328	-6.27069E-001	4.50477E-006	2.36600E-004	......
	28	7.49161	-6.27319E-001	4.50477E-006	2.36600E-004	......
	29	7.74995	-6.26019E-001	4.50477E-006	2.36600E-004	......
	30	8.00828	-6.25119E-001	4.50477E-006	3.66000E-005	......
	31	8.26661	-6.27270E-001	4.50477E-006	1.36600E-004	......
	32	8.52494	-6.26019E-001	4.50477E-006	3.36600E-004	......
	33	8.78327	-6.23619E-001	4.50477E-006	2.36600E-004	......
	34	9.0416	-6.20919E-001	4.50477E-006	2.36600E-004	......
	35	9.29993	-6.22369E-001	4.50477E-006	2.36600E-004	......
	36	9.5583	-6.24519E-001	4.50477E-006	3.66000E-005	......
	37	9.8166	-6.25569E-001	4.50477E-006	1.36600E-004	......
	38	10.0749	-6.24669E-001	4.50477E-006	1.36600E-004	......
EOC	QUANT	-0.624669	Open Circuit (V)
PSTATMODEL	IQUANT	32	Pstat Model
PSTATSECTION	LABEL	PStat0	Pstat Section
CTRLMODE	IQUANT	1	Control Mode
IESTAB	IQUANT	0	I/E Stability
CASPEED	IQUANT	1	Control Amp Speed
CONVENTION	IQUANT	1	Current Convention
ICHRANGE	IQUANT	2	Ich Range
ICHRANGEMODE	TOGGLE	F	Ich Auto Range
ICHOFFSETENABLE	TOGGLE	T	Ich Offset Enable
ICHOFFSET	QUANT	0	Ich Offset (V)
ICHFILTER	IQUANT	3	Ich Filter
VCHRANGE	IQUANT	2	Vch Range
VCHRANGEMODE	TOGGLE	F	Vch Auto Range
VCHOFFSETENABLE	TOGGLE	T	Vch Offset Enable
VCHOFFSET	QUANT	0	Vch Offset (V)
VCHFILTER	IQUANT	3	Vch Filter
ACHRANGE	IQUANT	0	Ach Range
IERANGELOWERLIMIT	IQUANT	3	I/E Range Lower Limit
IERANGEMODE	TOGGLE	F	I/E AutoRange
IERANGE	IQUANT	11	I/E Range
POSFEEDENABLE	TOGGLE	F	Positive Feedback IR Comp
POSFEEDRESISTANCE	QUANT	0	Positive Feedback Resistance (ohm)
FC350IDIVISOR	IQUANT	0	FC350 I Divisor
FC350VRANGE	IQUANT	0	FC350 V Range
FRAMEWORKVERSION	QUANT	4.35	Framework Version
ZCURVE	TABLE
	Pt	Time	Freq	Zreal	Zimag	Zsig	Zmod	Zphz	Idc	Vdc	IERange
	#	s	Hz	ohm	ohm	V	ohm	°	A	V	#
	0	4	100007	35.8724	-0.741272	1	35.88	-1.1838	9.60181E-006	-0.52481	10
	1	6	89134.1	35.7569	-0.91939	1	35.7687	-1.47288	9.81885E-006	-0.524822	10
	2	8	79433.6	35.6836	-1.17522	1	35.703	-1.88632	8.79291E-006	-0.524848	10
	3	10	70800.8	35.5844	-1.37113	1	35.6108	-2.20661	1.00378E-005	-0.524828	10
	4	12	63105.5	35.5797	-1.5924	1	35.6153	-2.56261	1.05432E-005	-0.524854	10
	5	14	56243.5	35.5859	-1.83595	1	35.6333	-2.95339	1.06257E-005	-0.524854	10
	6	16	50123.7	35.5767	-2.0121	1	35.6336	-3.23701	8.40322E-006	-0.524833	10
	7	18	44681	35.6248	-2.38635	1	35.7046	-3.83227	8.30963E-006	-0.524832	10
	8	20	39811.2	35.5894	-2.60894	1	35.6849	-4.19266	8.18197E-006	-0.524839	10
	9	22	35488.3	35.6835	-2.99081	1	35.8086	-4.79105	9.41853E-006	-0.524819	10
	10	24	31634.1	35.7808	-3.30677	1	35.9332	-5.28013	8.83587E-006	-0.524854	10
	11	26	28173.1	35.8081	-3.69904	1	35.9987	-5.89784	8.27384E-006	-0.524839	10
	12	28	25123.7	35.9175	-4.14851	1	36.1563	-6.58854	6.65822E-006	-0.524841	10
	13	30	22389.3	35.9426	-4.57998	1	36.2332	-7.26178	9.574E-006	-0.524863	10
	14	32	19954.4	36.0175	-5.14004	1	36.3824	-8.12182	6.77994E-006	-0.524831	10
	15	34	17778.2	36.1343	-5.6833	1	36.5785	-8.93841	7.78713E-006	-0.524834	10
	16	36	15852.9	36.2949	-6.26456	1	36.8316	-9.7929	7.35025E-006	-0.524865	10
	17	38	14122.3	36.3933	-6.97146	1	37.055	-10.8442	8.444E-006	-0.524843	10
	18	40	12587.2	36.5941	-7.71838	1	37.3992	-11.9102	7.27603E-006	-0.524835	10
	19	42	11221.1	36.77	-8.55033	1	37.751	-13.0907	7.42322E-006	-0.524836	10
	20	44	9998.2	36.8962	-9.43095	1	38.0825	-14.3382	7.65572E-006	-0.524836	10
	21	46	8912.76	37.0675	-10.3726	1	38.4914	-15.6333	8.3976E-006	-0.524856	10
	22	48	7942.6	37.2491	-11.5325	1	38.9935	-17.2028	6.26791E-006	-0.52484	10
	23	50	7078.05	37.582	-12.7466	1	39.6848	-18.7353	7.18588E-006	-0.524841	10
	24	52	6311.1	37.7281	-14.124	1	40.2852	-20.524	6.68166E-006	-0.524838	10
	25	54	5622.14	38.0028	-15.6081	1	41.0832	-22.3284	6.80963E-006	-0.524844	10
	26	55	5011.18	38.2762	-17.337	1	42.0195	-24.3678	6.53838E-006	-0.524827	10
	27	57	4465.21	38.6269	-19.1814	1	43.1274	-26.4082	6.86759E-006	-0.524836	10
	28	59	3980.93	38.9035	-21.2069	1	44.3082	-28.5954	5.54525E-006	-0.524827	10
	29	61	3548.18	39.351	-23.4345	1	45.8004	-30.7749	5.56463E-006	-0.52481	10
	30	63	3162.67	39.7279	-26.0077	1	47.4838	-33.2105	6.39947E-006	-0.524811	10
	31	65	2819.01	40.1447	-28.7961	1	49.4046	-35.6522	6.42416E-006	-0.524818	10
	32	67	2511.16	40.5429	-31.8944	1	51.5847	-38.1916	6.6093E-006	-0.524845	10
	33	69	2238.63	41.1085	-35.4296	1	54.2694	-40.7566	6.53376E-006	-0.524827	10
	34	71	1995.37	41.6266	-39.2275	1	57.1977	-43.3004	6.32218E-006	-0.524823	10
	35	73	1778.51	42.2427	-43.5158	1	60.6471	-45.8505	6.10476E-006	-0.524831	10
	36	75	1584.49	42.8718	-48.4227	1	64.6742	-48.4794	6.45556E-006	-0.524828	10
	37	77	1412.76	43.6163	-53.4984	1	69.0251	-50.8103	6.6033E-006	-0.524817	10
	38	79	1259.04	44.458	-59.5963	1	74.3521	-53.2776	6.18882E-006	-0.524826	10
	39	81	1121.63	45.3629	-66.0215	1	80.1039	-55.5073	6.56776E-006	-0.524828	10
	40	83	999.95	46.2004	-73.3467	1	86.6846	-57.7936	6.65713E-006	-0.524831	10
	41	85	891.184	47.1487	-81.5803	1	94.225	-59.9746	6.84118E-006	-0.524837	10
	42	87	794.163	48.0317	-90.766	1	102.691	-62.113	6.54652E-006	-0.524837	10
	43	89	707.867	49.3788	-100.601	1	112.066	-63.8565	3.38112E-006	-0.524852	9
	44	91	630.984	50.9099	-111.776	1	122.824	-65.5125	2.95148E-006	-0.524844	9
	45	93	562.189	52.7299	-123.704	1	134.473	-66.9134	2.8577E-006	-0.524835	9
	46	95	501.303	54.3809	-137.9	1	148.235	-68.4782	2.79812E-006	-0.524837	9
	47	97	446.614	56.2649	-153.341	1	163.338	-69.8506	2.77121E-006	-0.524836	9
	48	99	398.209	58.3578	-170.414	1	180.129	-71.0964	2.66115E-006	-0.524838	9
	49	101	354.821	60.7297	-189.507	1	199	-72.2313	2.56649E-006	-0.52484	9
	50	103	316.113	63.3195	-210.796	1	220.1	-73.2806	2.42142E-006	-0.524845	9
	51	105	281.926	66.2419	-234.273	1	243.458	-74.2115	2.51515E-006	-0.524838	9
	52	107	251.185	69.5267	-260.629	1	269.743	-75.0633	2.53404E-006	-0.524841	9
	53	109	223.946	73.1898	-289.764	1	298.865	-75.8245	2.69221E-006	-0.52484	9
	54	111	199.495	77.3223	-322.457	1	331.598	-76.5156	2.80671E-006	-0.524842	9
	55	113	177.836	81.8842	-358.577	1	367.808	-77.1366	2.79665E-006	-0.524838	9
	56	115	158.533	86.9367	-398.825	1	408.19	-77.7029	2.66737E-006	-0.524842	9
	57	117	141.263	92.7088	-443.835	1	453.415	-78.2016	2.6477E-006	-0.52485	9
	58	119	125.911	99.279	-493.618	1	503.502	-78.6281	2.73192E-006	-0.52484	9
	59	121	112.198	106.916	-549.352	1	559.66	-78.9867	2.8019E-006	-0.524838	9
	60	124	100.009	115.448	-611.251	1	622.058	-79.3044	2.77278E-006	-0.52484	9
	61	126	89.1164	125.258	-680.281	1	691.716	-79.5671	2.89564E-006	-0.524837	9
	62	128	79.4083	136.117	-756.902	1	769.044	-79.8052	2.73756E-006	-0.524846	9
	63	130	70.788	148.606	-841.968	1	854.982	-79.9905	2.84158E-006	-0.524845	9
	64	132	63.0971	162.434	-937.201	1	951.17	-80.1673	2.75819E-006	-0.524847	9
	65	134	54.5476	185.416	-1072.42	1	1088.33	-80.1908	2.91619E-006	-0.524846	9
	66	136	50.0083	199.921	-1161.89	1	1178.96	-80.237	2.19154E-006	-0.524846	8
	67	138	46.1675	215.335	-1250.46	1	1268.86	-80.2292	2.29665E-006	-0.524845	8
	68	140	40.0059	245.038	-1427.7	1	1448.58	-80.2611	2.17483E-006	-0.524844	8
	69	142	35.3046	278.771	-1604.05	1	1628.09	-80.1409	2.1011E-006	-0.524845	8
	70	145	31.5793	311.13	-1778.89	1	1805.89	-80.0792	1.89305E-006	-0.524843	8
	71	147	28.5748	344.068	-1950.31	1	1980.43	-79.995	1.88651E-006	-0.524846	8
	72	149	24.9911	401.767	-2206.47	1	2242.75	-79.6803	1.90179E-006	-0.52484	8
	73	151	22.2195	462.504	-2456.83	1	2499.98	-79.3387	2.07266E-006	-0.524836	8
	74	153	20.0011	532.467	-2705.49	1	2757.39	-78.8659	2.12609E-006	-0.524843	8
	75	156	17.6486	613.119	-3034.61	1	3095.93	-78.5776	2.09843E-006	-0.524846	8
	76	158	15.7934	703.648	-3352.12	1	3425.17	-78.1451	1.99283E-006	-0.524845	8
	77	160	14.2828	783.888	-3685.7	1	3768.14	-77.993	1.76886E-006	-0.524841	8
	78	162	12.5002	961.78	-4163.64	1	4273.27	-76.9932	1.85935E-006	-0.524853	8
	79	165	11.323	1078.53	-4551.54	1	4677.58	-76.6691	1.78686E-006	-0.524837	8
	80	168	9.9987	1267.09	-5107.44	1	5262.27	-76.0669	1.91177E-006	-0.52484	8
