EXPLAIN
TAG	EISPOT
TITLE	LABEL	Tomato_open	Test &Identifier
DATE	LABEL	5/10/2006	Date
TIME	LABEL	17:42:30	Time
NOTES	NOTES	1	&Notes...
	
PSTAT	PSTAT	300	Potentiostat
VDC	POTEN	1.00000E-001	T	DC &Voltage (V)
FREQINIT	QUANT	1.00000E+005	Initial Fre&q. (Hz)
FREQFINAL	QUANT	1.00000E+001	Final Fre&q. (Hz)
PTSPERDEC	QUANT	2.00000E+001	Points/&decade
VAC	QUANT	1.00000E+001	AC &Voltage (mV rms)
AREA	QUANT	1.00000E+000	&Area (cm²)
DENSITY	QUANT	7.87000E+000	&Density (gm/cm³)
EQUIV	QUANT	7.00000E+000	Equiv. &Wt
CONDIT	TWOPARAM	F	1.50000E+001	0.00000E+000	Conditionin&g	Time(s)	E(V)
DELAY	TWOPARAM	F	6.00000E+002	0.00000E+000	Init. De&lay	Time(s)	Stab.(mV/s)
SPEED	SELECTOR	1	&Optimize for:
ZGUESS	QUANT	1.00000E+002	E&stimated Z (ohms)
OCVCURVE	TABLE	39
	Pt	T	Vf	Vm	Ach	Over
	#	s	V vs. Ref.	V	V	bits
	0	0.258332	-6.29943E-001	8.13107E-006	3.15400E-004	......
	1	0.516663	-6.28043E-001	8.13107E-006	3.15400E-004	......
	2	0.774994	-6.30643E-001	8.13107E-006	2.15400E-004	......
	3	1.03333	-6.30343E-001	8.13107E-006	2.15400E-004	......
	4	1.29166	-6.27293E-001	8.13107E-006	2.15400E-004	......
	5	1.54999	-6.29294E-001	8.13107E-006	2.15400E-004	......
	6	1.80832	-6.29193E-001	8.13107E-006	1.54000E-005	......
	7	2.06665	-6.27893E-001	8.13107E-006	3.15400E-004	......
	8	2.32498	-6.26643E-001	8.13107E-006	2.15400E-004	......
	9	2.58332	-6.27843E-001	8.13107E-006	3.15400E-004	......
	10	2.84165	-6.26844E-001	8.13107E-006	2.15400E-004	......
	11	3.09998	-6.25843E-001	8.13107E-006	3.15400E-004	......
	12	3.35831	-6.29793E-001	8.13107E-006	2.15400E-004	......
	13	3.61664	-6.29393E-001	8.13107E-006	3.15400E-004	......
	14	3.87497	-6.27743E-001	8.13107E-006	2.15400E-004	......
	15	4.1333	-6.31293E-001	8.13107E-006	2.15400E-004	......
	16	4.39164	-6.30493E-001	8.13107E-006	2.15400E-004	......
	17	4.64997	-6.29493E-001	8.13107E-006	2.15400E-004	......
	18	4.9083	-6.33543E-001	8.13107E-006	2.15400E-004	......
	19	5.16663	-6.32443E-001	8.13107E-006	2.15400E-004	......
	20	5.42496	-6.30643E-001	8.13107E-006	2.15400E-004	......
	21	5.68329	-6.34344E-001	8.13107E-006	3.15400E-004	......
	22	5.94162	-6.32743E-001	8.13107E-006	1.15400E-004	......
	23	6.19996	-6.31643E-001	8.13107E-006	3.15400E-004	......
	24	6.45829	-6.32643E-001	8.13107E-006	2.15400E-004	......
	25	6.71662	-6.31743E-001	8.13107E-006	3.15400E-004	......
	26	6.97495	-6.28343E-001	8.13107E-006	2.15400E-004	......
	27	7.23328	-6.30744E-001	8.13107E-006	3.15400E-004	......
	28	7.49161	-6.29393E-001	8.13107E-006	2.15400E-004	......
	29	7.74995	-6.29843E-001	8.13107E-006	3.15400E-004	......
	30	8.00828	-6.27843E-001	8.13107E-006	2.15400E-004	......
	31	8.26661	-6.31444E-001	8.13107E-006	2.15400E-004	......
	32	8.52494	-6.31193E-001	8.13107E-006	3.15400E-004	......
	33	8.78327	-6.30643E-001	8.13107E-006	3.15400E-004	......
	34	9.0416	-6.30193E-001	8.13107E-006	3.15400E-004	......
	35	9.29993	-6.33893E-001	8.13107E-006	3.15400E-004	......
	36	9.5583	-6.33694E-001	8.13107E-006	2.15400E-004	......
	37	9.8166	-6.32243E-001	8.13107E-006	3.15400E-004	......
	38	10.0749	-6.32493E-001	8.13107E-006	2.15400E-004	......
EOC	QUANT	-0.632493	Open Circuit (V)
PSTATMODEL	IQUANT	32	Pstat Model
PSTATSECTION	LABEL	PStat0	Pstat Section
CTRLMODE	IQUANT	1	Control Mode
IESTAB	IQUANT	0	I/E Stability
CASPEED	IQUANT	1	Control Amp Speed
CONVENTION	IQUANT	1	Current Convention
ICHRANGE	IQUANT	2	Ich Range
ICHRANGEMODE	TOGGLE	F	Ich Auto Range
ICHOFFSETENABLE	TOGGLE	T	Ich Offset Enable
ICHOFFSET	QUANT	0	Ich Offset (V)
ICHFILTER	IQUANT	3	Ich Filter
VCHRANGE	IQUANT	2	Vch Range
VCHRANGEMODE	TOGGLE	F	Vch Auto Range
VCHOFFSETENABLE	TOGGLE	T	Vch Offset Enable
VCHOFFSET	QUANT	0	Vch Offset (V)
VCHFILTER	IQUANT	3	Vch Filter
ACHRANGE	IQUANT	0	Ach Range
IERANGELOWERLIMIT	IQUANT	3	I/E Range Lower Limit
IERANGEMODE	TOGGLE	F	I/E AutoRange
IERANGE	IQUANT	11	I/E Range
POSFEEDENABLE	TOGGLE	F	Positive Feedback IR Comp
POSFEEDRESISTANCE	QUANT	0	Positive Feedback Resistance (ohm)
FC350IDIVISOR	IQUANT	0	FC350 I Divisor
FC350VRANGE	IQUANT	0	FC350 V Range
FRAMEWORKVERSION	QUANT	4.35	Framework Version
ZCURVE	TABLE
	Pt	Time	Freq	Zreal	Zimag	Zsig	Zmod	Zphz	Idc	Vdc	IERange
	#	s	Hz	ohm	ohm	V	ohm	°	A	V	#
	0	4	100007	34.3603	-0.475503	1	34.3636	-0.792849	1.36472E-005	-0.532465	10
	1	6	89134.1	34.1611	-0.669358	1	34.1676	-1.12252	1.43097E-005	-0.532485	10
	2	8	79433.6	34.0713	-0.887492	1	34.0829	-1.49211	1.41717E-005	-0.53249	10
	3	10	70800.8	34.0457	-1.08675	1	34.0631	-1.82827	1.21659E-005	-0.532483	10
	4	12	63105.5	34.0342	-1.24802	1	34.0571	-2.10008	1.29245E-005	-0.532503	10
	5	14	56243.5	34.0366	-1.49279	1	34.0693	-2.51129	1.10006E-005	-0.532486	10
	6	16	50123.7	34.0088	-1.72995	1	34.0528	-2.912	1.06248E-005	-0.532483	10
	7	18	44681	34.0053	-1.96746	1	34.0622	-3.31129	1.20041E-005	-0.532505	10
	8	20	39811.2	34.0219	-2.21584	1	34.0939	-3.72641	9.685E-006	-0.532475	10
	9	22	35488.3	34.0587	-2.51956	1	34.1518	-4.23086	8.74328E-006	-0.532474	10
	10	24	31634.1	34.1078	-2.88951	1	34.2299	-4.84238	8.83813E-006	-0.532482	10
	11	26	28173.1	34.1654	-3.23967	1	34.3186	-5.41677	9.14312E-006	-0.532485	10
	12	28	25123.7	34.1912	-3.61147	1	34.3814	-6.02956	9.52703E-006	-0.532492	10
	13	30	22389.3	34.274	-4.02486	1	34.5095	-6.69768	9.01953E-006	-0.532477	10
	14	32	19954.4	34.3528	-4.44101	1	34.6386	-7.36615	7.88125E-006	-0.53249	10
	15	34	17778.2	34.4224	-5.00797	1	34.7847	-8.27766	8.14218E-006	-0.532503	10
	16	36	15852.9	34.4869	-5.55745	1	34.9319	-9.15431	8.30859E-006	-0.53251	10
	17	38	14122.3	34.634	-6.21896	1	35.1879	-10.1797	7.61875E-006	-0.532502	10
	18	40	12587.2	34.6742	-6.86142	1	35.3466	-11.1932	7.69625E-006	-0.532503	10
	19	42	11221.1	34.8707	-7.62247	1	35.6941	-12.3305	7.88078E-006	-0.532505	10
	20	44	9998.2	35.0141	-8.50401	1	36.0321	-13.6513	8.27406E-006	-0.532504	10
	21	46	8912.76	35.1381	-9.39489	1	36.3724	-14.969	7.71734E-006	-0.532513	10
	22	48	7942.6	35.2882	-10.367	1	36.7795	-16.3718	8.23437E-006	-0.532509	10
	23	50	7078.05	35.453	-11.5103	1	37.2747	-17.9867	7.79625E-006	-0.532498	10
	24	52	6311.1	35.6072	-12.7379	1	37.817	-19.6838	7.49219E-006	-0.532498	10
	25	54	5622.14	35.8328	-14.1886	1	38.5396	-21.6019	8.17031E-006	-0.532487	10
	26	56	5011.18	36.1291	-15.7298	1	39.4048	-23.5272	7.78937E-006	-0.532496	10
	27	58	4465.21	36.3167	-17.4529	1	40.2927	-25.6678	7.60922E-006	-0.532514	10
	28	60	3980.93	36.6582	-19.3248	1	41.4399	-27.7965	6.21906E-006	-0.53249	10
	29	62	3548.18	36.9768	-21.4561	1	42.751	-30.1248	7.52875E-006	-0.532484	10
	30	63	3162.67	37.2574	-23.7961	1	44.2083	-32.5662	7.03234E-006	-0.532526	10
	31	65	2819.01	37.5665	-26.4205	1	45.927	-35.1187	6.79047E-006	-0.53248	10
	32	67	2511.16	37.8818	-29.2994	1	47.8904	-37.7199	7.48656E-006	-0.5325	10
	33	69	2238.63	38.4077	-32.5776	1	50.3632	-40.3048	7.61906E-006	-0.532495	10
	34	71	1995.37	38.7952	-36.1417	1	53.0216	-42.972	7.49675E-006	-0.532499	10
	35	73	1778.51	39.356	-40.2395	1	56.286	-45.6359	7.96936E-006	-0.532497	10
	36	75	1584.49	40.0164	-44.5588	1	59.8899	-48.0743	7.49988E-006	-0.532492	10
	37	77	1412.76	40.4118	-49.6218	1	63.9956	-50.8408	7.2365E-006	-0.532515	10
	38	79	1259.04	41.1265	-55.1651	1	68.8083	-53.2948	7.20058E-006	-0.532492	10
	39	81	1121.63	42.0449	-61.1221	1	74.1868	-55.4765	7.79844E-006	-0.532501	10
	40	83	999.95	42.9311	-68.1419	1	80.5382	-57.788	6.87317E-006	-0.532497	10
	41	85	891.184	43.6879	-75.9703	1	87.6363	-60.0983	7.29272E-006	-0.532496	10
	42	87	794.163	44.549	-84.1408	1	95.207	-62.1007	7.24581E-006	-0.532498	10
	43	89	707.867	45.5412	-93.8352	1	104.303	-64.1112	8.53535E-006	-0.532513	10
	44	91	630.984	47.0203	-104.138	1	114.262	-65.7	5.69038E-006	-0.532491	9
	45	93	562.189	48.1995	-115.929	1	125.55	-67.424	6.03167E-006	-0.532499	9
	46	95	501.303	49.9604	-129.022	1	138.357	-68.8324	5.50647E-006	-0.532503	9
	47	97	446.614	51.6683	-143.653	1	152.662	-70.2176	5.2472E-006	-0.532508	9
	48	99	398.209	53.6109	-159.857	1	168.607	-71.4602	5.26395E-006	-0.53251	9
	49	101	354.821	55.8525	-178.017	1	186.573	-72.5809	5.31098E-006	-0.532502	9
	50	103	316.113	58.3802	-198.292	1	206.708	-73.5948	5.50795E-006	-0.532497	9
	51	105	281.926	61.2072	-220.611	1	228.944	-74.4936	5.03417E-006	-0.532506	9
	52	107	251.185	64.5176	-245.743	1	254.071	-75.2895	5.05905E-006	-0.532507	9
	53	109	223.946	68.3028	-273.556	1	281.954	-75.9807	5.27992E-006	-0.532497	9
	54	111	199.495	72.884	-304.869	1	313.46	-76.5549	5.38556E-006	-0.532505	9
	55	113	177.836	77.9719	-339.324	1	348.167	-77.0589	5.58934E-006	-0.532511	9
	56	115	158.533	83.7718	-377.77	1	386.946	-77.4968	5.50297E-006	-0.532511	9
	57	117	141.263	90.6417	-420.717	1	430.371	-77.8417	5.56945E-006	-0.532512	9
	58	119	125.911	98.451	-468.25	1	478.488	-78.1263	5.41103E-006	-0.532513	9
	59	121	112.198	107.984	-521.525	1	532.587	-78.3019	5.63243E-006	-0.532511	9
	60	123	100.009	119.027	-580.339	1	592.42	-78.4094	5.63754E-006	-0.53251	9
	61	125	89.1164	132.514	-646.105	1	659.554	-78.4096	5.75211E-006	-0.53251	9
	62	127	79.4083	147.586	-718.958	1	733.949	-78.3996	5.67337E-006	-0.532512	9
	63	129	70.788	165.542	-799.576	1	816.533	-78.3029	5.69275E-006	-0.532513	9
	64	131	63.0971	187.904	-889.089	1	908.728	-78.0665	5.61216E-006	-0.532508	9
	65	133	54.5476	219.95	-1015.8	1	1039.34	-77.7825	5.59418E-006	-0.532508	9
	66	135	50.0083	240.856	-1098.94	1	1125.03	-77.6379	4.75008E-006	-0.532519	8
	67	138	46.1675	269.666	-1180.97	1	1211.36	-77.1374	5.36268E-006	-0.532521	8
	68	140	40.0059	321.985	-1344.32	1	1382.34	-76.5305	5.15433E-006	-0.532515	8
	69	142	35.3046	373.987	-1504.53	1	1550.32	-76.0407	4.69841E-006	-0.532523	8
	70	144	31.5793	431.345	-1661.92	1	1716.99	-75.4502	4.67657E-006	-0.532522	8
	71	146	28.5748	495.367	-1812.51	1	1878.98	-74.7141	4.83884E-006	-0.532521	8
	72	148	24.9911	608.227	-2031.12	1	2120.23	-73.3294	4.8283E-006	-0.53253	8
	73	151	22.2195	716.542	-2246.42	1	2357.93	-72.3088	4.97668E-006	-0.53252	8
	74	153	20.0011	819.831	-2454.53	1	2587.83	-71.5303	4.6903E-006	-0.532516	8
	75	155	17.6486	969.99	-2715.13	1	2883.19	-70.3406	4.71383E-006	-0.532522	8
	76	158	15.7934	1157.35	-2954.25	1	3172.86	-68.6068	5.06778E-006	-0.532527	8
	77	160	14.2828	1335.46	-3174.81	1	3444.25	-67.1863	4.96056E-006	-0.53252	8
	78	162	12.5002	1607.59	-3511.04	1	3861.57	-65.3984	4.91575E-006	-0.532528	8
	79	165	11.323	1861.57	-3723.61	1	4163.02	-63.4379	5.00462E-006	-0.532525	8
	80	167	9.9987	2152.37	-4065.42	1	4600.04	-62.1017	4.77326E-006	-0.532526	8
