EXPLAIN
TAG	EISPOT
TITLE	LABEL	Tomato_open	Test &Identifier
DATE	LABEL	5/10/2006	Date
TIME	LABEL	17:57:20	Time
NOTES	NOTES	1	&Notes...
	
PSTAT	PSTAT	300	Potentiostat
VDC	POTEN	1.00000E-001	T	DC &Voltage (V)
FREQINIT	QUANT	1.00000E+005	Initial Fre&q. (Hz)
FREQFINAL	QUANT	1.00000E+001	Final Fre&q. (Hz)
PTSPERDEC	QUANT	2.00000E+001	Points/&decade
VAC	QUANT	1.00000E+001	AC &Voltage (mV rms)
AREA	QUANT	1.00000E+000	&Area (cm²)
DENSITY	QUANT	7.87000E+000	&Density (gm/cm³)
EQUIV	QUANT	7.00000E+000	Equiv. &Wt
CONDIT	TWOPARAM	F	1.50000E+001	0.00000E+000	Conditionin&g	Time(s)	E(V)
DELAY	TWOPARAM	F	6.00000E+002	0.00000E+000	Init. De&lay	Time(s)	Stab.(mV/s)
SPEED	SELECTOR	1	&Optimize for:
ZGUESS	QUANT	1.00000E+002	E&stimated Z (ohms)
OCVCURVE	TABLE	39
	Pt	T	Vf	Vm	Ach	Over
	#	s	V vs. Ref.	V	V	bits
	0	0.258332	-6.16744E-001	7.49107E-006	2.15400E-004	......
	1	0.516663	-6.17844E-001	7.49107E-006	2.15400E-004	......
	2	0.774994	-6.17643E-001	7.49107E-006	2.15400E-004	......
	3	1.03333	-6.17794E-001	7.49107E-006	2.15400E-004	......
	4	1.29166	-6.17293E-001	7.49107E-006	3.15400E-004	......
	5	1.54999	-6.17393E-001	7.49107E-006	2.15400E-004	......
	6	1.80832	-6.17043E-001	7.49107E-006	1.54000E-005	......
	7	2.06665	-6.16793E-001	7.49107E-006	3.15400E-004	......
	8	2.32498	-6.14393E-001	7.49107E-006	2.15400E-004	......
	9	2.58332	-6.13144E-001	7.49107E-006	3.15400E-004	......
	10	2.84165	-6.13594E-001	7.49107E-006	3.15400E-004	......
	11	3.09998	-6.13443E-001	7.49107E-006	1.15400E-004	......
	12	3.35831	-6.14843E-001	7.49107E-006	3.15400E-004	......
	13	3.61664	-6.14993E-001	7.49107E-006	2.15400E-004	......
	14	3.87497	-6.15243E-001	7.49107E-006	2.15400E-004	......
	15	4.1333	-6.14893E-001	7.49107E-006	2.15400E-004	......
	16	4.39164	-6.14443E-001	7.49107E-006	3.15400E-004	......
	17	4.64997	-6.15294E-001	7.49107E-006	3.15400E-004	......
	18	4.9083	-6.15344E-001	7.49107E-006	3.15400E-004	......
	19	5.16663	-6.15793E-001	7.49107E-006	3.15400E-004	......
	20	5.42496	-6.15593E-001	7.49107E-006	2.15400E-004	......
	21	5.68329	-6.15793E-001	7.49107E-006	2.15400E-004	......
	22	5.94162	-6.15743E-001	7.49107E-006	3.15400E-004	......
	23	6.19996	-6.15243E-001	7.49107E-006	3.15400E-004	......
	24	6.45829	-6.16044E-001	7.49107E-006	2.15400E-004	......
	25	6.71662	-6.16493E-001	7.49107E-006	3.15400E-004	......
	26	6.97495	-6.16943E-001	7.49107E-006	3.15400E-004	......
	27	7.23328	-6.16893E-001	7.49107E-006	3.15400E-004	......
	28	7.49161	-6.17043E-001	7.49107E-006	2.15400E-004	......
	29	7.74995	-6.17444E-001	7.49107E-006	2.15400E-004	......
	30	8.00828	-6.17794E-001	7.49107E-006	3.15400E-004	......
	31	8.26661	-6.16643E-001	7.49107E-006	2.15400E-004	......
	32	8.52494	-6.16793E-001	7.49107E-006	3.15400E-004	......
	33	8.78327	-6.17643E-001	7.49107E-006	2.15400E-004	......
	34	9.0416	-6.17043E-001	7.49107E-006	3.15400E-004	......
	35	9.29993	-6.17543E-001	7.49107E-006	3.15400E-004	......
	36	9.5583	-6.17593E-001	7.49107E-006	2.15400E-004	......
	37	9.8166	-6.17843E-001	7.49107E-006	2.15400E-004	......
	38	10.0749	-6.18043E-001	7.49107E-006	2.15400E-004	......
EOC	QUANT	-0.618043	Open Circuit (V)
PSTATMODEL	IQUANT	32	Pstat Model
PSTATSECTION	LABEL	PStat0	Pstat Section
CTRLMODE	IQUANT	1	Control Mode
IESTAB	IQUANT	0	I/E Stability
CASPEED	IQUANT	1	Control Amp Speed
CONVENTION	IQUANT	1	Current Convention
ICHRANGE	IQUANT	2	Ich Range
ICHRANGEMODE	TOGGLE	F	Ich Auto Range
ICHOFFSETENABLE	TOGGLE	T	Ich Offset Enable
ICHOFFSET	QUANT	0	Ich Offset (V)
ICHFILTER	IQUANT	3	Ich Filter
VCHRANGE	IQUANT	2	Vch Range
VCHRANGEMODE	TOGGLE	F	Vch Auto Range
VCHOFFSETENABLE	TOGGLE	T	Vch Offset Enable
VCHOFFSET	QUANT	0	Vch Offset (V)
VCHFILTER	IQUANT	3	Vch Filter
ACHRANGE	IQUANT	0	Ach Range
IERANGELOWERLIMIT	IQUANT	3	I/E Range Lower Limit
IERANGEMODE	TOGGLE	F	I/E AutoRange
IERANGE	IQUANT	11	I/E Range
POSFEEDENABLE	TOGGLE	F	Positive Feedback IR Comp
POSFEEDRESISTANCE	QUANT	0	Positive Feedback Resistance (ohm)
FC350IDIVISOR	IQUANT	0	FC350 I Divisor
FC350VRANGE	IQUANT	0	FC350 V Range
FRAMEWORKVERSION	QUANT	4.35	Framework Version
ZCURVE	TABLE
	Pt	Time	Freq	Zreal	Zimag	Zsig	Zmod	Zphz	Idc	Vdc	IERange
	#	s	Hz	ohm	ohm	V	ohm	°	A	V	#
	0	4	100007	34.2429	-0.526485	1	34.2469	-0.880854	1.07386E-005	-0.518019	10
	1	6	89134.1	34.1062	-0.685339	1	34.1131	-1.15116	1.09972E-005	-0.518015	10
	2	8	79433.6	34.0749	-0.876856	1	34.0862	-1.47408	1.0315E-005	-0.518019	10
	3	10	70800.8	33.9898	-1.09222	1	34.0073	-1.8405	1.16209E-005	-0.51802	10
	4	12	63105.5	34.0007	-1.3216	1	34.0264	-2.22595	1.20337E-005	-0.518009	10
	5	14	56243.5	33.9719	-1.50552	1	34.0052	-2.5375	1.0497E-005	-0.518003	10
	6	16	50123.7	33.9703	-1.71485	1	34.0135	-2.88989	9.80766E-006	-0.518001	10
	7	18	44681	33.9517	-1.96052	1	34.0083	-3.30483	9.86297E-006	-0.518003	10
	8	20	39811.2	34.0169	-2.28123	1	34.0933	-3.8366	1.03334E-005	-0.518	10
	9	22	35488.3	33.9788	-2.56683	1	34.0756	-4.32005	1.09031E-005	-0.518014	10
	10	24	31634.1	34.0615	-2.87857	1	34.183	-4.83064	1.18197E-005	-0.518027	10
	11	26	28173.1	34.0807	-3.23927	1	34.2343	-5.42949	1.06612E-005	-0.518024	10
	12	28	25123.7	34.1576	-3.60446	1	34.3472	-6.02381	1.11287E-005	-0.518028	10
	13	30	22389.3	34.2205	-4.05728	1	34.4602	-6.76159	1.00616E-005	-0.518015	10
	14	32	19954.4	34.3184	-4.52974	1	34.6161	-7.5191	9.40437E-006	-0.518003	10
	15	34	17778.2	34.347	-5.05773	1	34.7174	-8.37684	1.03477E-005	-0.518011	10
	16	36	15852.9	34.4898	-5.5816	1	34.9385	-9.19267	1.0935E-005	-0.518028	10
	17	38	14122.3	34.5884	-6.19936	1	35.1395	-10.1614	1.00506E-005	-0.518012	10
	18	40	12587.2	34.6115	-6.92969	1	35.2984	-11.3217	9.645E-006	-0.518014	10
	19	42	11221.1	34.7568	-7.69725	1	35.5989	-12.4872	9.34656E-006	-0.518005	10
	20	44	9998.2	34.8992	-8.5645	1	35.9347	-13.7883	9.20281E-006	-0.518002	10
	21	46	8912.76	35.0709	-9.47881	1	36.3292	-15.1243	8.05812E-006	-0.517999	10
	22	48	7942.6	35.2316	-10.5509	1	36.7776	-16.6715	9.37578E-006	-0.518008	10
	23	50	7078.05	35.3732	-11.7065	1	37.26	-18.3116	9.00703E-006	-0.518007	10
	24	52	6311.1	35.5356	-12.9413	1	37.8187	-20.0106	9.11531E-006	-0.518004	10
	25	53	5622.14	35.7593	-14.342	1	38.5282	-21.8543	9.16437E-006	-0.518002	10
	26	55	5011.18	35.9999	-15.9402	1	39.3711	-23.883	9.4689E-006	-0.518013	10
	27	57	4465.21	36.2137	-17.73	1	40.321	-26.086	9.56515E-006	-0.518012	10
	28	59	3980.93	36.5919	-19.644	1	41.5313	-28.2288	7.91015E-006	-0.517993	10
	29	61	3548.18	36.7783	-21.8174	1	42.7626	-30.677	1.02847E-005	-0.518016	10
	30	63	3162.67	37.0989	-24.2166	1	44.3031	-33.1348	1.03573E-005	-0.518012	10
	31	65	2819.01	37.4521	-26.8091	1	46.0585	-35.596	8.45344E-006	-0.517978	10
	32	67	2511.16	37.9082	-29.8458	1	48.2473	-38.214	9.05203E-006	-0.518002	10
	33	69	2238.63	38.2837	-33.1769	1	50.6591	-40.9124	9.40044E-006	-0.517989	10
	34	71	1995.37	38.6668	-36.8427	1	53.4088	-43.6162	9.3553E-006	-0.517997	10
	35	73	1778.51	39.2486	-40.9861	1	56.7479	-46.2406	9.15886E-006	-0.517982	10
	36	75	1584.49	39.7399	-45.4378	1	60.3643	-48.8271	9.16911E-006	-0.517983	10
	37	77	1412.76	40.4451	-50.6096	1	64.7853	-51.3696	9.2558E-006	-0.517984	10
	38	79	1259.04	41.0689	-56.2371	1	69.6367	-53.8601	8.90497E-006	-0.517981	10
	39	81	1121.63	41.93	-62.381	1	75.1633	-56.0926	9.23866E-006	-0.517986	10
	40	83	999.95	42.8643	-69.4943	1	81.6506	-58.3336	8.56171E-006	-0.517982	10
	41	85	891.184	43.6708	-77.1429	1	88.6463	-60.4857	8.03875E-006	-0.517979	10
	42	87	794.163	44.6124	-85.9199	1	96.812	-62.5602	8.6608E-006	-0.517984	10
	43	89	707.867	45.923	-95.218	1	105.713	-64.2522	7.60163E-006	-0.517979	10
	44	91	630.984	47.0637	-106.282	1	116.236	-66.1153	5.69794E-006	-0.518001	9
	45	93	562.189	48.4519	-118.457	1	127.983	-67.7543	5.65898E-006	-0.517985	9
	46	95	501.303	50.0628	-131.583	1	140.785	-69.1699	5.6483E-006	-0.518006	9
	47	97	446.614	51.8029	-146.479	1	155.369	-70.5237	5.65967E-006	-0.517999	9
	48	99	398.209	53.7767	-162.974	1	171.617	-71.7386	5.74483E-006	-0.517994	9
	49	101	354.821	56.0496	-181.436	1	189.896	-72.8329	5.91408E-006	-0.517995	9
	50	103	316.113	58.5959	-202.02	1	210.346	-73.8252	5.71667E-006	-0.517998	9
	51	105	281.926	61.474	-224.764	1	233.019	-74.7034	5.85378E-006	-0.517996	9
	52	107	251.185	64.8021	-250.261	1	258.515	-75.4828	5.74811E-006	-0.518001	9
	53	109	223.946	68.5654	-278.524	1	286.84	-76.1703	5.85969E-006	-0.518007	9
	54	111	199.495	72.9815	-310.32	1	318.787	-76.7656	6.1033E-006	-0.518005	9
	55	113	177.836	78.0894	-345.493	1	354.208	-77.2638	6.0753E-006	-0.518006	9
	56	115	158.533	83.6863	-384.516	1	393.518	-77.7216	5.95855E-006	-0.518001	9
	57	117	141.263	90.4662	-428.162	1	437.615	-78.0695	6.02659E-006	-0.517992	9
	58	119	125.911	98.505	-476.617	1	486.69	-78.3228	6.154E-006	-0.517999	9
	59	121	112.198	107.735	-530.812	1	541.635	-78.5269	6.22334E-006	-0.518001	9
	60	123	100.009	118.016	-590.502	1	602.18	-78.698	6.05899E-006	-0.517998	9
	61	125	89.1164	131.217	-657.636	1	670.599	-78.7161	6.35603E-006	-0.517996	9
	62	127	79.4083	146.424	-731.843	1	746.348	-78.6859	6.32525E-006	-0.517992	9
	63	129	70.788	163.424	-814.061	1	830.303	-78.6487	6.0173E-006	-0.517997	9
	64	131	63.0971	181.817	-904.963	1	923.047	-78.6399	5.33091E-006	-0.518001	9
	65	133	54.5476	211.743	-1034.9	1	1056.34	-78.4367	5.60849E-006	-0.517997	9
	66	135	50.0083	234.298	-1120.41	1	1144.65	-78.1886	4.90035E-006	-0.518005	8
	67	137	46.1675	257.304	-1205.01	1	1232.17	-77.9467	4.92155E-006	-0.518004	8
	68	139	40.0059	301.693	-1372.01	1	1404.79	-77.5985	4.7607E-006	-0.518003	8
	69	142	35.3046	350.363	-1537.81	1	1577.22	-77.1653	4.44055E-006	-0.517999	8
	70	144	31.5793	402.593	-1699.19	1	1746.24	-76.6706	4.38145E-006	-0.518003	8
	71	146	28.5748	460.626	-1859.92	1	1916.11	-76.09	4.35763E-006	-0.518004	8
	72	148	24.9911	557.82	-2089.47	1	2162.65	-75.0525	4.81572E-006	-0.517993	8
	73	150	22.2195	658.545	-2310.54	1	2402.56	-74.0915	4.99011E-006	-0.517993	8
	74	153	20.0011	770.8	-2528.21	1	2643.1	-73.0446	5.03783E-006	-0.517999	8
	75	155	17.6486	911.206	-2807.14	1	2951.32	-72.0164	4.86379E-006	-0.517992	8
	76	157	15.7934	1068.51	-3069.48	1	3250.14	-70.8066	4.99928E-006	-0.517996	8
	77	159	14.2828	1239.44	-3323.31	1	3546.91	-69.5467	5.14326E-006	-0.517991	8
	78	162	12.5002	1497.33	-3671.52	1	3965.1	-67.8132	5.1035E-006	-0.518	8
	79	164	11.323	1735.68	-3941.38	1	4306.63	-66.2326	4.93638E-006	-0.518002	8
	80	167	9.9987	2097.32	-4262.3	1	4750.36	-63.7999	5.17669E-006	-0.517998	8
