EXPLAIN
TAG	EISPOT
TITLE	LABEL	Tomato_open	Test &Identifier
DATE	LABEL	5/15/2006	Date
TIME	LABEL	11:39:47	Time
NOTES	NOTES	1	&Notes...
	
PSTAT	PSTAT	300	Potentiostat
VDC	POTEN	1.00000E-001	T	DC &Voltage (V)
FREQINIT	QUANT	1.00000E+005	Initial Fre&q. (Hz)
FREQFINAL	QUANT	1.00000E+001	Final Fre&q. (Hz)
PTSPERDEC	QUANT	2.00000E+001	Points/&decade
VAC	QUANT	1.00000E+001	AC &Voltage (mV rms)
AREA	QUANT	1.00000E+000	&Area (cm²)
DENSITY	QUANT	7.87000E+000	&Density (gm/cm³)
EQUIV	QUANT	7.00000E+000	Equiv. &Wt
CONDIT	TWOPARAM	F	1.50000E+001	0.00000E+000	Conditionin&g	Time(s)	E(V)
DELAY	TWOPARAM	F	6.00000E+002	0.00000E+000	Init. De&lay	Time(s)	Stab.(mV/s)
SPEED	SELECTOR	1	&Optimize for:
ZGUESS	QUANT	1.00000E+002	E&stimated Z (ohms)
OCVCURVE	TABLE	39
	Pt	T	Vf	Vm	Ach	Over
	#	s	V vs. Ref.	V	V	bits
	0	0.258332	-6.39319E-001	2.74744E-006	3.66000E-005	......
	1	0.516663	-6.40919E-001	2.74744E-006	-1.63400E-004	......
	2	0.774994	-6.36270E-001	2.74744E-006	3.66000E-005	......
	3	1.03333	-6.33319E-001	2.74744E-006	-6.34000E-005	......
	4	1.29166	-5.86519E-001	2.74744E-006	3.66000E-005	......
	5	1.54999	-5.70419E-001	2.74744E-006	-6.34000E-005	......
	6	1.80832	-5.73169E-001	2.74744E-006	3.66000E-005	......
	7	2.06665	-5.89919E-001	2.74744E-006	-1.63400E-004	......
	8	2.32498	-5.90869E-001	2.74744E-006	3.66000E-005	......
	9	2.58332	-5.85869E-001	2.74744E-006	-6.34000E-005	......
	10	2.84165	-5.85869E-001	2.74744E-006	3.66000E-005	......
	11	3.09998	-5.86670E-001	2.74744E-006	-6.34000E-005	......
	12	3.35831	-5.88269E-001	2.74744E-006	1.36600E-004	......
	13	3.61664	-5.91869E-001	2.74744E-006	-1.63400E-004	......
	14	3.87497	-5.98919E-001	2.74744E-006	2.36600E-004	......
	15	4.1333	-6.00370E-001	2.74744E-006	-1.63400E-004	......
	16	4.39164	-6.01319E-001	2.74744E-006	2.36600E-004	......
	17	4.64997	-5.99819E-001	2.74744E-006	3.66000E-005	......
	18	4.9083	-6.04270E-001	2.74744E-006	3.66000E-005	......
	19	5.16663	-6.07619E-001	2.74744E-006	-1.63400E-004	......
	20	5.42496	-6.13069E-001	2.74744E-006	3.66000E-005	......
	21	5.68329	-6.21220E-001	2.74744E-006	-1.63400E-004	......
	22	5.94162	-6.21019E-001	2.74744E-006	3.66000E-005	......
	23	6.19996	-6.24919E-001	2.74744E-006	-1.63400E-004	......
	24	6.45829	-6.21369E-001	2.74744E-006	2.36600E-004	......
	25	6.71662	-6.15669E-001	2.74744E-006	-6.34000E-005	......
	26	6.97495	-6.23819E-001	2.74744E-006	3.66000E-005	......
	27	7.23328	-6.41069E-001	2.74744E-006	-1.63400E-004	......
	28	7.49161	-6.25870E-001	2.74744E-006	3.66000E-005	......
	29	7.74995	-6.27069E-001	2.74744E-006	-6.34000E-005	......
	30	8.00828	-6.12170E-001	2.74744E-006	3.66000E-005	......
	31	8.26661	-6.08220E-001	2.74744E-006	-1.63400E-004	......
	32	8.52494	-6.11070E-001	2.74744E-006	2.36600E-004	......
	33	8.78327	-6.11419E-001	2.74744E-006	-1.63400E-004	......
	34	9.0416	-6.09069E-001	2.74744E-006	1.36600E-004	......
	35	9.29993	-6.07819E-001	2.74744E-006	-6.34000E-005	......
	36	9.5583	-6.08069E-001	2.74744E-006	1.36600E-004	......
	37	9.8166	-6.02019E-001	2.74744E-006	-1.63400E-004	......
	38	10.0749	-6.03219E-001	2.74744E-006	1.36600E-004	......
EOC	QUANT	-0.603219	Open Circuit (V)
PSTATMODEL	IQUANT	32	Pstat Model
PSTATSECTION	LABEL	PStat0	Pstat Section
CTRLMODE	IQUANT	1	Control Mode
IESTAB	IQUANT	0	I/E Stability
CASPEED	IQUANT	1	Control Amp Speed
CONVENTION	IQUANT	1	Current Convention
ICHRANGE	IQUANT	2	Ich Range
ICHRANGEMODE	TOGGLE	F	Ich Auto Range
ICHOFFSETENABLE	TOGGLE	T	Ich Offset Enable
ICHOFFSET	QUANT	0	Ich Offset (V)
ICHFILTER	IQUANT	3	Ich Filter
VCHRANGE	IQUANT	2	Vch Range
VCHRANGEMODE	TOGGLE	F	Vch Auto Range
VCHOFFSETENABLE	TOGGLE	T	Vch Offset Enable
VCHOFFSET	QUANT	0	Vch Offset (V)
VCHFILTER	IQUANT	3	Vch Filter
ACHRANGE	IQUANT	0	Ach Range
IERANGELOWERLIMIT	IQUANT	3	I/E Range Lower Limit
IERANGEMODE	TOGGLE	F	I/E AutoRange
IERANGE	IQUANT	11	I/E Range
POSFEEDENABLE	TOGGLE	F	Positive Feedback IR Comp
POSFEEDRESISTANCE	QUANT	0	Positive Feedback Resistance (ohm)
FC350IDIVISOR	IQUANT	0	FC350 I Divisor
FC350VRANGE	IQUANT	0	FC350 V Range
FRAMEWORKVERSION	QUANT	4.35	Framework Version
ZCURVE	TABLE
	Pt	Time	Freq	Zreal	Zimag	Zsig	Zmod	Zphz	Idc	Vdc	IERange
	#	s	Hz	ohm	ohm	V	ohm	°	A	V	#
	0	4	100007	37.2363	-0.734116	1	37.2435	-1.12945	7.67463E-006	-0.503218	10
	1	6	89134.1	37.0849	-0.922221	1	37.0964	-1.42453	7.40619E-006	-0.503205	10
	2	8	79433.6	37.044	-1.11794	1	37.0609	-1.72858	1.09984E-005	-0.50322	10
	3	10	70800.8	36.9423	-1.35367	1	36.9671	-2.09854	1.42257E-005	-0.50324	10
	4	12	63105.5	36.9544	-1.58313	1	36.9883	-2.45306	1.75038E-005	-0.503205	10
	5	14	56243.5	36.9446	-1.79576	1	36.9882	-2.78278	1.50295E-005	-0.503213	10
	6	16	50123.7	36.8825	-2.06347	1	36.9401	-3.20219	1.74449E-005	-0.503233	10
	7	18	44681	36.9104	-2.34563	1	36.9849	-3.63621	1.45123E-005	-0.503228	10
	8	20	39811.2	36.9163	-2.66792	1	37.0126	-4.13354	1.36778E-005	-0.503229	10
	9	22	35488.3	36.98	-2.98355	1	37.1002	-4.61263	1.10193E-005	-0.503233	10
	10	24	31634.1	37.0085	-3.30056	1	37.1554	-5.09637	1.11502E-005	-0.503229	10
	11	26	28173.1	37.0928	-3.66364	1	37.2733	-5.64079	6.39181E-006	-0.503227	10
	12	28	25123.7	37.0596	-4.07219	1	37.2827	-6.27063	7.81728E-006	-0.50321	10
	13	30	22389.3	37.2067	-4.55801	1	37.4848	-6.98422	6.54728E-006	-0.503226	10
	14	32	19954.4	37.2679	-5.07775	1	37.6122	-7.75877	5.32775E-006	-0.503223	10
	15	34	17778.2	37.3635	-5.525	1	37.7698	-8.41145	1.03234E-005	-0.503216	10
	16	36	15852.9	37.4383	-6.15968	1	37.9416	-9.3431	1.01513E-005	-0.503237	10
	17	38	14122.3	37.6122	-6.8432	1	38.2297	-10.3116	8.09978E-006	-0.503218	10
	18	40	12587.2	37.695	-7.53776	1	38.4412	-11.3081	7.13244E-006	-0.50321	10
	19	42	11221.1	37.8307	-8.36559	1	38.7446	-12.4693	5.64306E-006	-0.503217	10
	20	44	9998.2	38.0476	-9.18847	1	39.1414	-13.5769	5.15572E-006	-0.50321	10
	21	46	8912.76	38.2646	-10.2293	1	39.6083	-14.967	5.17259E-006	-0.5032	10
	22	47	7942.6	38.4655	-11.3145	1	40.095	-16.3911	4.39822E-006	-0.503224	10
	23	49	7078.05	38.6137	-12.466	1	40.5761	-17.8921	4.60635E-006	-0.503217	10
	24	51	6311.1	38.87	-13.8434	1	41.2616	-19.6031	4.10431E-006	-0.503205	10
	25	53	5622.14	39.1248	-15.212	1	41.978	-21.2465	4.34494E-006	-0.503212	10
	26	55	5011.18	39.4409	-16.8879	1	42.9044	-23.1798	4.39509E-006	-0.503236	10
	27	57	4465.21	39.8105	-18.712	1	43.9889	-25.1748	4.47635E-006	-0.503216	10
	28	59	3980.93	40.083	-20.7141	1	45.119	-27.329	3.45213E-006	-0.503203	10
	29	61	3548.18	40.4553	-22.9164	1	46.4951	-29.5299	4.93744E-006	-0.503203	10
	30	63	3162.67	40.8541	-25.2883	1	48.0474	-31.7571	4.21994E-006	-0.503212	10
	31	65	2819.01	41.2546	-28.0462	1	49.8852	-34.2092	9.40993E-006	-0.503237	10
	32	67	2511.16	41.7485	-31.049	1	52.0286	-36.6388	1.12958E-005	-0.503222	10
	33	69	2238.63	42.2147	-34.2023	1	54.3311	-39.0144	1.01493E-005	-0.503222	10
	34	71	1995.37	42.8581	-38.0381	1	57.3037	-41.5902	9.54927E-006	-0.503225	10
	35	73	1778.51	43.3609	-42.133	1	60.4596	-44.1771	7.81407E-006	-0.503219	10
	36	75	1584.49	44.0201	-46.6469	1	64.1382	-46.6595	6.75845E-006	-0.503199	10
	37	77	1412.76	44.7454	-51.9284	1	68.5471	-49.2493	6.1709E-006	-0.503201	10
	38	79	1259.04	45.6157	-57.557	1	73.4411	-51.6021	5.38018E-006	-0.503217	10
	39	81	1121.63	46.3184	-63.7854	1	78.8288	-54.0144	3.88762E-006	-0.50321	10
	40	83	999.95	47.1062	-70.8864	1	85.111	-56.3947	4.29368E-006	-0.503216	10
	41	85	891.184	48.3536	-78.6024	1	92.2844	-58.4016	3.80699E-006	-0.503205	10
	42	87	794.163	49.4854	-87.4872	1	100.513	-60.5062	6.97315E-006	-0.503216	10
	43	89	707.867	50.8044	-96.948	1	109.453	-62.3438	3.49998E-006	-0.503218	9
	44	91	630.984	51.9314	-108.034	1	119.867	-64.3266	4.02065E-006	-0.503216	9
	45	93	562.189	53.5044	-119.626	1	131.046	-65.9027	4.13448E-006	-0.50321	9
	46	95	501.303	55.4842	-133.126	1	144.225	-67.3746	4.0841E-006	-0.503223	9
	47	97	446.614	57.2678	-148.025	1	158.716	-68.8495	3.01418E-006	-0.503214	9
	48	99	398.209	59.2952	-164.481	1	174.842	-70.1758	2.76579E-006	-0.503215	9
	49	101	354.821	61.618	-182.894	1	192.995	-71.3811	2.98587E-006	-0.503211	9
	50	103	316.113	64.1917	-203.413	1	213.301	-72.4857	2.86526E-006	-0.503218	9
	51	105	281.926	66.8221	-226.108	1	235.775	-73.5359	1.98032E-006	-0.503227	9
	52	107	251.185	69.9385	-251.516	1	261.059	-74.4605	1.68307E-006	-0.503223	9
	53	109	223.946	73.475	-279.721	1	289.21	-75.2824	1.80123E-006	-0.503218	9
	54	111	199.495	77.8319	-311.197	1	320.783	-75.9581	2.61927E-006	-0.503219	9
	55	113	177.836	84.2149	-345.621	1	355.733	-76.306	6.02917E-006	-0.50322	9
	56	115	158.533	89.1424	-384.201	1	394.407	-76.9374	5.01409E-006	-0.503214	9
	57	117	141.263	94.2506	-427.896	1	438.153	-77.5781	3.85612E-006	-0.503224	9
	58	119	125.911	100.627	-475.789	1	486.314	-78.0582	3.1817E-006	-0.503222	9
	59	121	112.198	108.862	-529.788	1	540.857	-78.3884	3.98224E-006	-0.503219	9
	60	123	100.009	114.063	-589.477	1	600.411	-79.0487	2.08488E-006	-0.503223	9
	61	125	89.1164	133.539	-654.955	1	668.43	-78.4759	6.55135E-006	-0.503218	9
	62	127	79.4083	144.766	-728.43	1	742.676	-78.7596	6.0625E-006	-0.503225	9
	63	129	70.788	160.317	-809.165	1	824.894	-78.7933	6.33145E-006	-0.503226	9
	64	131	63.0971	177.043	-900.339	1	917.581	-78.8753	5.02927E-006	-0.503226	9
	65	133	54.5476	194.427	-1029.85	1	1048.04	-79.3089	4.3813E-006	-0.503228	9
	66	135	50.0083	200.272	-1118.76	1	1136.54	-79.8508	1.66451E-006	-0.503229	8
	67	137	46.1675	209.049	-1207.63	1	1225.59	-80.179	1.30926E-006	-0.503224	8
	68	140	40.0059	235.908	-1381.37	1	1401.37	-80.3086	9.13174E-007	-0.503228	8
	69	142	35.3046	259.055	-1553.3	1	1574.75	-80.5315	6.31734E-007	-0.503228	8
	70	144	31.5793	284.505	-1720.33	1	1743.7	-80.6096	3.56993E-007	-0.503222	8
	71	146	28.5748	310.119	-1889.92	1	1915.2	-80.6813	3.38677E-007	-0.50323	8
	72	148	24.9911	360.511	-2145.83	1	2175.91	-80.4631	5.60806E-007	-0.50323	8
	73	150	22.2195	447.835	-2389.78	1	2431.38	-79.3861	1.67282E-006	-0.503229	8
	74	153	20.0011	506.28	-2623.59	1	2672	-79.0778	1.73176E-006	-0.503229	8
	75	156	17.6486	564.42	-2959.39	1	3012.73	-79.2021	6.76895E-007	-0.503226	8
	76	158	15.7934	594.146	-3279.09	1	3332.49	-79.7299	6.88374E-007	-0.503216	8
	77	160	14.2828	661.673	-3604.03	1	3664.27	-79.5968	9.09931E-007	-0.503223	8
	78	162	12.5002	902.097	-4078.75	1	4177.32	-77.5286	1.55683E-006	-0.503231	8
	79	165	11.323	1051.74	-4411.75	1	4535.39	-76.5912	1.94914E-006	-0.50323	8
	80	167	9.9987	1192.82	-4965.77	1	5107.03	-76.493	1.98559E-006	-0.503227	8
