EXPLAIN
TAG	EISPOT
TITLE	LABEL	Tomato_open	Test &Identifier
DATE	LABEL	5/10/2006	Date
TIME	LABEL	17:37:30	Time
NOTES	NOTES	1	&Notes...
	
PSTAT	PSTAT	300	Potentiostat
VDC	POTEN	1.00000E-001	T	DC &Voltage (V)
FREQINIT	QUANT	1.00000E+005	Initial Fre&q. (Hz)
FREQFINAL	QUANT	1.00000E+001	Final Fre&q. (Hz)
PTSPERDEC	QUANT	2.00000E+001	Points/&decade
VAC	QUANT	1.00000E+001	AC &Voltage (mV rms)
AREA	QUANT	1.00000E+000	&Area (cm²)
DENSITY	QUANT	7.87000E+000	&Density (gm/cm³)
EQUIV	QUANT	7.00000E+000	Equiv. &Wt
CONDIT	TWOPARAM	F	1.50000E+001	0.00000E+000	Conditionin&g	Time(s)	E(V)
DELAY	TWOPARAM	F	6.00000E+002	0.00000E+000	Init. De&lay	Time(s)	Stab.(mV/s)
SPEED	SELECTOR	1	&Optimize for:
ZGUESS	QUANT	1.00000E+002	E&stimated Z (ohms)
OCVCURVE	TABLE	39
	Pt	T	Vf	Vm	Ach	Over
	#	s	V vs. Ref.	V	V	bits
	0	0.258332	-6.38394E-001	7.22884E-006	2.15400E-004	......
	1	0.516663	-6.38793E-001	7.22884E-006	2.15400E-004	......
	2	0.774994	-6.39693E-001	7.22884E-006	2.15400E-004	......
	3	1.03333	-6.37893E-001	7.22884E-006	1.54000E-005	......
	4	1.29166	-6.40194E-001	7.22884E-006	3.15400E-004	......
	5	1.54999	-6.38644E-001	7.22884E-006	-8.46000E-005	......
	6	1.80832	-6.38294E-001	7.22884E-006	2.15400E-004	......
	7	2.06665	-6.29344E-001	7.22884E-006	2.15400E-004	......
	8	2.32498	-6.27993E-001	7.22884E-006	2.15400E-004	......
	9	2.58332	-6.25843E-001	7.22884E-006	1.54000E-005	......
	10	2.84165	-6.24893E-001	7.22884E-006	2.15400E-004	......
	11	3.09998	-6.19594E-001	7.22884E-006	1.54000E-005	......
	12	3.35831	-6.20893E-001	7.22884E-006	2.15400E-004	......
	13	3.61664	-6.23643E-001	7.22884E-006	-8.46000E-005	......
	14	3.87497	-6.24994E-001	7.22884E-006	3.15400E-004	......
	15	4.1333	-6.27293E-001	7.22884E-006	1.54000E-005	......
	16	4.39164	-6.25243E-001	7.22884E-006	3.15400E-004	......
	17	4.64997	-6.26093E-001	7.22884E-006	1.54000E-005	......
	18	4.9083	-6.25793E-001	7.22884E-006	2.15400E-004	......
	19	5.16663	-6.27443E-001	7.22884E-006	1.54000E-005	......
	20	5.42496	-6.31243E-001	7.22884E-006	2.15400E-004	......
	21	5.68329	-6.34093E-001	7.22884E-006	-8.46000E-005	......
	22	5.94162	-6.32843E-001	7.22884E-006	2.15400E-004	......
	23	6.19996	-6.30044E-001	7.22884E-006	1.54000E-005	......
	24	6.45829	-6.31094E-001	7.22884E-006	2.15400E-004	......
	25	6.71662	-6.33943E-001	7.22884E-006	-8.46000E-005	......
	26	6.97495	-6.35044E-001	7.22884E-006	3.15400E-004	......
	27	7.23328	-6.35444E-001	7.22884E-006	1.15400E-004	......
	28	7.49161	-6.36043E-001	7.22884E-006	1.15400E-004	......
	29	7.74995	-6.33893E-001	7.22884E-006	1.15400E-004	......
	30	8.00828	-6.34593E-001	7.22884E-006	3.15400E-004	......
	31	8.26661	-6.32043E-001	7.22884E-006	1.54000E-005	......
	32	8.52494	-6.33244E-001	7.22884E-006	1.15400E-004	......
	33	8.78327	-6.33593E-001	7.22884E-006	-8.46000E-005	......
	34	9.0416	-6.32343E-001	7.22884E-006	2.15400E-004	......
	35	9.29993	-6.32143E-001	7.22884E-006	1.54000E-005	......
	36	9.5583	-6.35044E-001	7.22884E-006	2.15400E-004	......
	37	9.8166	-6.35243E-001	7.22884E-006	1.15400E-004	......
	38	10.0749	-6.38143E-001	7.22884E-006	2.15400E-004	......
EOC	QUANT	-0.638143	Open Circuit (V)
PSTATMODEL	IQUANT	32	Pstat Model
PSTATSECTION	LABEL	PStat0	Pstat Section
CTRLMODE	IQUANT	1	Control Mode
IESTAB	IQUANT	0	I/E Stability
CASPEED	IQUANT	1	Control Amp Speed
CONVENTION	IQUANT	1	Current Convention
ICHRANGE	IQUANT	2	Ich Range
ICHRANGEMODE	TOGGLE	F	Ich Auto Range
ICHOFFSETENABLE	TOGGLE	T	Ich Offset Enable
ICHOFFSET	QUANT	0	Ich Offset (V)
ICHFILTER	IQUANT	3	Ich Filter
VCHRANGE	IQUANT	2	Vch Range
VCHRANGEMODE	TOGGLE	F	Vch Auto Range
VCHOFFSETENABLE	TOGGLE	T	Vch Offset Enable
VCHOFFSET	QUANT	0	Vch Offset (V)
VCHFILTER	IQUANT	3	Vch Filter
ACHRANGE	IQUANT	0	Ach Range
IERANGELOWERLIMIT	IQUANT	3	I/E Range Lower Limit
IERANGEMODE	TOGGLE	F	I/E AutoRange
IERANGE	IQUANT	11	I/E Range
POSFEEDENABLE	TOGGLE	F	Positive Feedback IR Comp
POSFEEDRESISTANCE	QUANT	0	Positive Feedback Resistance (ohm)
FC350IDIVISOR	IQUANT	0	FC350 I Divisor
FC350VRANGE	IQUANT	0	FC350 V Range
FRAMEWORKVERSION	QUANT	4.35	Framework Version
ZCURVE	TABLE
	Pt	Time	Freq	Zreal	Zimag	Zsig	Zmod	Zphz	Idc	Vdc	IERange
	#	s	Hz	ohm	ohm	V	ohm	°	A	V	#
	0	4	100007	34.2378	-0.490723	1	34.2413	-0.821152	2.56698E-005	-0.538182	10
	1	6	89134.1	34.1177	-0.678548	1	34.1244	-1.13938	2.43144E-005	-0.538206	10
	2	8	79433.6	34.0655	-0.877279	1	34.0768	-1.4752	1.90244E-005	-0.538192	10
	3	10	70800.8	34.0509	-1.09348	1	34.0685	-1.83931	1.62761E-005	-0.538205	10
	4	12	63105.5	34.0251	-1.26765	1	34.0487	-2.13364	1.2553E-005	-0.538194	10
	5	14	56243.5	34.0575	-1.47755	1	34.0896	-2.48415	1.39819E-005	-0.538191	10
	6	16	50123.7	33.967	-1.75097	1	34.0121	-2.95093	1.29317E-005	-0.538188	10
	7	18	44681	34.0193	-1.95781	1	34.0756	-3.29374	1.21734E-005	-0.538202	10
	8	20	39811.2	34.0405	-2.28728	1	34.1173	-3.84408	1.56639E-005	-0.538192	10
	9	22	35488.3	34.0724	-2.51808	1	34.1654	-4.22669	1.39705E-005	-0.538219	10
	10	24	31634.1	34.1086	-2.88204	1	34.2301	-4.82979	9.05922E-006	-0.538179	10
	11	26	28173.1	34.1759	-3.23158	1	34.3284	-5.40166	1.07252E-005	-0.53819	10
	12	28	25123.7	34.2203	-3.55534	1	34.4045	-5.9315	1.3918E-005	-0.538187	10
	13	30	22389.3	34.3161	-3.99068	1	34.5474	-6.63322	1.41683E-005	-0.538183	10
	14	32	19954.4	34.3788	-4.48618	1	34.6703	-7.43468	1.49917E-005	-0.538188	10
	15	34	17778.2	34.4054	-4.95247	1	34.7601	-8.19114	1.52967E-005	-0.538194	10
	16	36	15852.9	34.5914	-5.48327	1	35.0233	-9.00733	1.41781E-005	-0.538192	10
	17	38	14122.3	34.6434	-6.09553	1	35.1756	-9.9791	1.32986E-005	-0.538198	10
	18	40	12587.2	34.7368	-6.81565	1	35.3991	-11.1009	1.27241E-005	-0.538209	10
	19	42	11221.1	34.8805	-7.52862	1	35.6837	-12.1799	1.13544E-005	-0.538201	10
	20	44	9998.2	35.0622	-8.27587	1	36.0257	-13.2807	1.02503E-005	-0.538209	10
	21	46	8912.76	35.2098	-9.248	1	36.4041	-14.7166	7.87953E-006	-0.53819	10
	22	48	7942.6	35.4308	-10.2802	1	36.8921	-16.1799	8.30656E-006	-0.5382	10
	23	49	7078.05	35.5381	-11.4103	1	37.3249	-17.8004	1.03631E-005	-0.538201	10
	24	51	6311.1	35.7415	-12.5745	1	37.889	-19.3829	1.20064E-005	-0.538192	10
	25	53	5622.14	35.9004	-13.9556	1	38.5175	-21.2427	1.30408E-005	-0.538197	10
	26	55	5011.18	36.1655	-15.4287	1	39.319	-23.1038	1.40708E-005	-0.538188	10
	27	57	4465.21	36.4223	-17.1406	1	40.2539	-25.202	1.4408E-005	-0.538198	10
	28	59	3980.93	36.7324	-19.0247	1	41.3667	-27.3808	1.55508E-005	-0.538217	10
	29	61	3548.18	36.9909	-21.0827	1	42.577	-29.6806	1.25772E-005	-0.538203	10
	30	63	3162.67	37.2842	-23.4352	1	44.0377	-32.1516	1.37908E-005	-0.538217	10
	31	65	2819.01	37.6793	-25.9345	1	45.742	-34.5394	1.38117E-005	-0.538212	10
	32	67	2511.16	38.1057	-28.8372	1	47.7873	-37.1174	1.14305E-005	-0.538205	10
	33	69	2238.63	38.5249	-31.9828	1	50.0706	-39.699	1.10532E-005	-0.538197	10
	34	71	1995.37	38.8977	-35.4974	1	52.6601	-42.3831	1.08188E-005	-0.538207	10
	35	73	1778.51	39.4748	-39.4834	1	55.8319	-45.0062	1.09644E-005	-0.538203	10
	36	75	1584.49	39.953	-43.7851	1	59.2737	-47.6201	1.10703E-005	-0.538209	10
	37	77	1412.76	40.6485	-48.6437	1	63.3917	-50.1166	1.07887E-005	-0.538194	10
	38	79	1259.04	41.4879	-54.0731	1	68.1553	-52.5026	1.32605E-005	-0.538195	10
	39	81	1121.63	42.0141	-60.0886	1	73.32	-55.0387	1.39711E-005	-0.538198	10
	40	83	999.95	43.0769	-67.1421	1	79.7727	-57.3166	1.51469E-005	-0.538194	10
	41	85	891.184	43.8129	-74.5382	1	86.4611	-59.5534	1.41622E-005	-0.538208	10
	42	87	794.163	44.8832	-82.6075	1	94.0133	-61.4834	1.45624E-005	-0.538199	10
	43	89	707.867	46.1328	-92.1984	1	103.096	-63.4182	1.50297E-005	-0.538192	10
	44	91	630.984	47.443	-102.684	1	113.114	-65.2018	1.36348E-005	-0.538193	9
	45	93	562.189	48.8006	-114.236	1	124.223	-66.8682	1.34043E-005	-0.538204	9
	46	95	501.303	50.3474	-126.911	1	136.533	-68.361	1.26149E-005	-0.538218	9
	47	97	446.614	52.2175	-141.301	1	150.641	-69.7184	1.30985E-005	-0.538223	9
	48	99	398.209	54.3277	-157.25	1	166.37	-70.9407	1.30944E-005	-0.53822	9
	49	101	354.821	56.7406	-175.083	1	184.048	-72.0436	1.27737E-005	-0.538219	9
	50	103	316.113	59.4961	-194.99	1	203.865	-73.0318	1.24976E-005	-0.538222	9
	51	105	281.926	62.6196	-216.948	1	225.805	-73.8998	1.14257E-005	-0.538221	9
	52	107	251.185	66.5446	-241.505	1	250.505	-74.5949	1.12741E-005	-0.538226	9
	53	109	223.946	69.9727	-268.724	1	277.684	-75.4049	8.90253E-006	-0.538227	9
	54	111	199.495	74.229	-299.389	1	308.453	-76.0751	7.88909E-006	-0.53822	9
	55	113	177.836	79.2267	-333.317	1	342.604	-76.6294	6.81094E-006	-0.538222	9
	56	115	158.533	85.2714	-371.076	1	380.748	-77.0584	6.42017E-006	-0.538217	9
	57	117	141.263	92.0164	-413.198	1	423.319	-77.4455	6.07108E-006	-0.538221	9
	58	119	125.911	100.927	-460.007	1	470.948	-77.6251	6.62366E-006	-0.53822	9
	59	121	112.198	110.591	-512.021	1	523.828	-77.8119	6.35347E-006	-0.538229	9
	60	123	100.009	122.222	-570.085	1	583.039	-77.8994	5.96321E-006	-0.538224	9
	61	125	89.1164	134.806	-634.407	1	648.572	-78.0036	5.86845E-006	-0.538224	9
	62	127	79.4083	151.005	-706.044	1	722.011	-77.9277	5.81052E-006	-0.538229	9
	63	129	70.788	169.626	-785.176	1	803.289	-77.8094	5.87557E-006	-0.538229	9
	64	131	63.0971	192.905	-872.66	1	893.727	-77.535	5.8069E-006	-0.538238	9
	65	133	54.5476	225.531	-996.86	1	1022.06	-77.252	5.78948E-006	-0.538233	9
	66	135	50.0083	251.845	-1077.82	1	1106.86	-76.8482	5.22654E-006	-0.538243	8
	67	137	46.1675	278.347	-1158.7	1	1191.66	-76.4922	5.37087E-006	-0.538241	8
	68	140	40.0059	336.071	-1318.95	1	1361.09	-75.7051	5.32951E-006	-0.538239	8
	69	142	35.3046	387.556	-1474.98	1	1525.05	-75.2781	4.83583E-006	-0.538237	8
	70	144	31.5793	448.555	-1625.98	1	1686.72	-74.5776	4.86241E-006	-0.538233	8
	71	146	28.5748	509.527	-1776.84	1	1848.46	-73.9992	4.81562E-006	-0.538232	8
	72	148	24.9911	634.916	-1984.76	1	2083.84	-72.2608	5.20634E-006	-0.538234	8
	73	150	22.2195	731.771	-2197.53	1	2316.17	-71.5824	4.6028E-006	-0.538239	8
	74	153	20.0011	844.205	-2392.95	1	2537.5	-70.5678	4.64548E-006	-0.538239	8
	75	155	17.6486	1003.93	-2640.7	1	2825.09	-69.1843	4.75343E-006	-0.538243	8
	76	157	15.7934	1205.12	-2853.91	1	3097.92	-67.1071	5.10214E-006	-0.538241	8
	77	159	14.2828	1421.82	-3070.08	1	3383.34	-65.1502	5.21205E-006	-0.538243	8
	78	162	12.5002	1701.19	-3358.43	1	3764.72	-63.1358	5.18987E-006	-0.538251	8
	79	164	11.323	1923.51	-3612.91	1	4093.05	-61.9692	5.02928E-006	-0.538237	8
	80	167	9.9987	2308.18	-3864.96	1	4501.73	-59.1541	5.14508E-006	-0.538236	8
