EXPLAIN
TAG	EISPOT
TITLE	LABEL	Tomato_open	Test &Identifier
DATE	LABEL	5/10/2006	Date
TIME	LABEL	17:47:33	Time
NOTES	NOTES	1	&Notes...
	
PSTAT	PSTAT	300	Potentiostat
VDC	POTEN	1.00000E-001	T	DC &Voltage (V)
FREQINIT	QUANT	1.00000E+005	Initial Fre&q. (Hz)
FREQFINAL	QUANT	1.00000E+001	Final Fre&q. (Hz)
PTSPERDEC	QUANT	2.00000E+001	Points/&decade
VAC	QUANT	1.00000E+001	AC &Voltage (mV rms)
AREA	QUANT	1.00000E+000	&Area (cm²)
DENSITY	QUANT	7.87000E+000	&Density (gm/cm³)
EQUIV	QUANT	7.00000E+000	Equiv. &Wt
CONDIT	TWOPARAM	F	1.50000E+001	0.00000E+000	Conditionin&g	Time(s)	E(V)
DELAY	TWOPARAM	F	6.00000E+002	0.00000E+000	Init. De&lay	Time(s)	Stab.(mV/s)
SPEED	SELECTOR	1	&Optimize for:
ZGUESS	QUANT	1.00000E+002	E&stimated Z (ohms)
OCVCURVE	TABLE	39
	Pt	T	Vf	Vm	Ach	Over
	#	s	V vs. Ref.	V	V	bits
	0	0.258332	-6.20843E-001	7.65907E-006	2.15400E-004	......
	1	0.516663	-6.19843E-001	7.65907E-006	1.54000E-005	......
	2	0.774994	-6.19493E-001	7.65907E-006	2.15400E-004	......
	3	1.03333	-6.19943E-001	7.65907E-006	2.15400E-004	......
	4	1.29166	-6.20643E-001	7.65907E-006	1.15400E-004	......
	5	1.54999	-6.20993E-001	7.65907E-006	1.54000E-005	......
	6	1.80832	-6.19594E-001	7.65907E-006	1.15400E-004	......
	7	2.06665	-6.19843E-001	7.65907E-006	1.54000E-005	......
	8	2.32498	-6.20243E-001	7.65907E-006	2.15400E-004	......
	9	2.58332	-6.20993E-001	7.65907E-006	1.54000E-005	......
	10	2.84165	-6.21444E-001	7.65907E-006	3.15400E-004	......
	11	3.09998	-6.21993E-001	7.65907E-006	1.54000E-005	......
	12	3.35831	-6.22594E-001	7.65907E-006	2.15400E-004	......
	13	3.61664	-6.22243E-001	7.65907E-006	1.54000E-005	......
	14	3.87497	-6.19694E-001	7.65907E-006	1.15400E-004	......
	15	4.1333	-6.19893E-001	7.65907E-006	1.54000E-005	......
	16	4.39164	-6.20344E-001	7.65907E-006	2.15400E-004	......
	17	4.64997	-6.19043E-001	7.65907E-006	-8.46000E-005	......
	18	4.9083	-6.18894E-001	7.65907E-006	2.15400E-004	......
	19	5.16663	-6.17143E-001	7.65907E-006	1.54000E-005	......
	20	5.42496	-6.17643E-001	7.65907E-006	2.15400E-004	......
	21	5.68329	-6.18593E-001	7.65907E-006	1.54000E-005	......
	22	5.94162	-6.18643E-001	7.65907E-006	2.15400E-004	......
	23	6.19996	-6.18093E-001	7.65907E-006	-8.46000E-005	......
	24	6.45829	-6.16744E-001	7.65907E-006	3.15400E-004	......
	25	6.71662	-6.16343E-001	7.65907E-006	-8.46000E-005	......
	26	6.97495	-6.18143E-001	7.65907E-006	1.15400E-004	......
	27	7.23328	-6.18793E-001	7.65907E-006	-8.46000E-005	......
	28	7.49161	-6.20143E-001	7.65907E-006	1.15400E-004	......
	29	7.74995	-6.20243E-001	7.65907E-006	-8.46000E-005	......
	30	8.00828	-6.17493E-001	7.65907E-006	2.15400E-004	......
	31	8.26661	-6.18643E-001	7.65907E-006	1.54000E-005	......
	32	8.52494	-6.20043E-001	7.65907E-006	3.15400E-004	......
	33	8.78327	-6.20793E-001	7.65907E-006	-8.46000E-005	......
	34	9.0416	-6.21543E-001	7.65907E-006	1.15400E-004	......
	35	9.29993	-6.22193E-001	7.65907E-006	1.54000E-005	......
	36	9.5583	-6.22243E-001	7.65907E-006	2.15400E-004	......
	37	9.8166	-6.21794E-001	7.65907E-006	1.54000E-005	......
	38	10.0749	-6.19843E-001	7.65907E-006	2.15400E-004	......
EOC	QUANT	-0.619843	Open Circuit (V)
PSTATMODEL	IQUANT	32	Pstat Model
PSTATSECTION	LABEL	PStat0	Pstat Section
CTRLMODE	IQUANT	1	Control Mode
IESTAB	IQUANT	0	I/E Stability
CASPEED	IQUANT	1	Control Amp Speed
CONVENTION	IQUANT	1	Current Convention
ICHRANGE	IQUANT	2	Ich Range
ICHRANGEMODE	TOGGLE	F	Ich Auto Range
ICHOFFSETENABLE	TOGGLE	T	Ich Offset Enable
ICHOFFSET	QUANT	0	Ich Offset (V)
ICHFILTER	IQUANT	3	Ich Filter
VCHRANGE	IQUANT	2	Vch Range
VCHRANGEMODE	TOGGLE	F	Vch Auto Range
VCHOFFSETENABLE	TOGGLE	T	Vch Offset Enable
VCHOFFSET	QUANT	0	Vch Offset (V)
VCHFILTER	IQUANT	3	Vch Filter
ACHRANGE	IQUANT	0	Ach Range
IERANGELOWERLIMIT	IQUANT	3	I/E Range Lower Limit
IERANGEMODE	TOGGLE	F	I/E AutoRange
IERANGE	IQUANT	11	I/E Range
POSFEEDENABLE	TOGGLE	F	Positive Feedback IR Comp
POSFEEDRESISTANCE	QUANT	0	Positive Feedback Resistance (ohm)
FC350IDIVISOR	IQUANT	0	FC350 I Divisor
FC350VRANGE	IQUANT	0	FC350 V Range
FRAMEWORKVERSION	QUANT	4.35	Framework Version
ZCURVE	TABLE
	Pt	Time	Freq	Zreal	Zimag	Zsig	Zmod	Zphz	Idc	Vdc	IERange
	#	s	Hz	ohm	ohm	V	ohm	°	A	V	#
	0	4	100007	34.2965	-0.516812	1	34.3004	-0.863321	9.85281E-006	-0.519797	10
	1	6	89134.1	34.1013	-0.696568	1	34.1084	-1.17019	1.18694E-005	-0.519836	10
	2	8	79433.6	34.0332	-0.899765	1	34.0451	-1.51442	1.27909E-005	-0.519837	10
	3	10	70800.8	34.039	-1.10868	1	34.0571	-1.86551	1.27727E-005	-0.519822	10
	4	12	63105.5	33.9208	-1.29892	1	33.9457	-2.19293	1.31258E-005	-0.519816	10
	5	14	56243.5	34.0172	-1.47755	1	34.0492	-2.48711	1.18286E-005	-0.519828	10
	6	16	50123.7	33.9202	-1.72833	1	33.9642	-2.91687	1.23656E-005	-0.519811	10
	7	18	44681	33.9915	-1.97251	1	34.0487	-3.32112	1.32478E-005	-0.519821	10
	8	20	39811.2	33.9873	-2.26678	1	34.0628	-3.81569	1.0258E-005	-0.519817	10
	9	22	35488.3	33.9936	-2.55818	1	34.0897	-4.30367	9.73047E-006	-0.519831	10
	10	24	31634.1	34.0345	-2.85969	1	34.1544	-4.8029	1.18058E-005	-0.519823	10
	11	26	28173.1	34.1277	-3.22535	1	34.2797	-5.3989	1.01991E-005	-0.519827	10
	12	28	25123.7	34.153	-3.65723	1	34.3483	-6.11214	8.75516E-006	-0.519809	10
	13	30	22389.3	34.224	-4.06084	1	34.464	-6.76679	8.2064E-006	-0.519821	10
	14	32	19954.4	34.2855	-4.48165	1	34.5772	-7.44724	9.04531E-006	-0.519842	10
	15	34	17778.2	34.4011	-5.06655	1	34.7722	-8.37821	9.72937E-006	-0.519833	10
	16	36	15852.9	34.4627	-5.59725	1	34.9143	-9.22512	8.73469E-006	-0.519846	10
	17	37	14122.3	34.5495	-6.21302	1	35.1037	-10.1945	8.7114E-006	-0.519813	10
	18	39	12587.2	34.6632	-6.92533	1	35.3483	-11.2983	8.41953E-006	-0.519821	10
	19	41	11221.1	34.7912	-7.65506	1	35.6234	-12.409	8.00437E-006	-0.519819	10
	20	43	9998.2	34.9106	-8.52698	1	35.9369	-13.7259	7.78094E-006	-0.519818	10
	21	45	8912.76	35.1216	-9.42623	1	36.3645	-15.0235	6.74719E-006	-0.519808	10
	22	47	7942.6	35.2831	-10.4736	1	36.8048	-16.5333	8.11875E-006	-0.51982	10
	23	49	7078.05	35.4099	-11.5845	1	37.2568	-18.1158	7.77062E-006	-0.51981	10
	24	51	6311.1	35.5845	-12.7737	1	37.8077	-19.7465	7.84141E-006	-0.519814	10
	25	53	5622.14	35.856	-14.2718	1	38.592	-21.704	7.82094E-006	-0.519812	10
	26	55	5011.18	36.0522	-15.7655	1	39.3485	-23.6196	8.2975E-006	-0.519821	10
	27	57	4465.21	36.2157	-17.6136	1	40.2718	-25.9361	7.78016E-006	-0.519805	10
	28	59	3980.93	36.5149	-19.575	1	41.4308	-28.195	6.75E-006	-0.519808	10
	29	61	3548.18	36.8129	-21.5922	1	42.678	-30.3932	9.50969E-006	-0.519822	10
	30	63	3162.67	37.2225	-24.0639	1	44.3236	-32.8823	7.26734E-006	-0.519824	10
	31	65	2819.01	37.4731	-26.5715	1	45.9377	-35.3398	9.20219E-006	-0.519811	10
	32	67	2511.16	37.8989	-29.5482	1	48.0565	-37.942	7.06781E-006	-0.5198	10
	33	69	2238.63	38.3131	-32.8065	1	50.4396	-40.5726	7.50359E-006	-0.519805	10
	34	71	1995.37	38.7397	-36.5	1	53.2261	-43.295	6.97661E-006	-0.51981	10
	35	73	1778.51	39.2145	-40.5046	1	56.3773	-45.9271	7.88285E-006	-0.519815	10
	36	75	1584.49	39.6786	-45.0288	1	60.0166	-48.6141	6.99946E-006	-0.519811	10
	37	77	1412.76	40.4451	-49.8462	1	64.1907	-50.9442	6.91049E-006	-0.519796	10
	38	79	1259.04	41.1885	-55.6573	1	69.2403	-53.4972	7.5538E-006	-0.519815	10
	39	81	1121.63	41.9657	-61.8797	1	74.7678	-55.8556	6.55513E-006	-0.519806	10
	40	83	999.95	42.6338	-68.7512	1	80.8973	-58.1963	6.44233E-006	-0.519804	10
	41	85	891.184	43.5267	-76.3726	1	87.9053	-60.3201	6.99839E-006	-0.519815	10
	42	86	794.163	44.457	-85.0388	1	95.958	-62.4001	6.88714E-006	-0.519812	10
	43	88	707.867	45.3867	-94.282	1	104.638	-64.2941	7.05156E-006	-0.519793	10
	44	90	630.984	46.8701	-105.081	1	115.06	-65.9614	4.99661E-006	-0.519802	9
	45	92	562.189	48.0723	-117.126	1	126.607	-67.6851	4.73206E-006	-0.519799	9
	46	94	501.303	49.901	-130.204	1	139.439	-69.0305	5.32013E-006	-0.519816	9
	47	96	446.614	51.6098	-144.943	1	153.857	-70.4007	5.12703E-006	-0.51982	9
	48	98	398.209	53.5349	-161.303	1	169.955	-71.6395	5.21395E-006	-0.519818	9
	49	100	354.821	55.7638	-179.616	1	188.074	-72.7525	5.37789E-006	-0.51982	9
	50	102	316.113	58.325	-200.026	1	208.356	-73.744	5.57091E-006	-0.519821	9
	51	104	281.926	61.1545	-222.596	1	230.843	-74.6379	5.67119E-006	-0.519818	9
	52	106	251.185	64.4177	-247.937	1	256.168	-75.4357	5.61214E-006	-0.519814	9
	53	108	223.946	68.1038	-275.927	1	284.207	-76.1355	5.40236E-006	-0.519809	9
	54	110	199.495	72.4217	-307.39	1	315.806	-76.7428	5.3543E-006	-0.519812	9
	55	112	177.836	78.3045	-342.194	1	351.039	-77.1109	6.53975E-006	-0.519814	9
	56	114	158.533	83.1013	-380.998	1	389.955	-77.6956	5.36597E-006	-0.519813	9
	57	116	141.263	89.5744	-424.275	1	433.627	-78.0786	5.46267E-006	-0.519817	9
	58	118	125.911	97.592	-472.327	1	482.304	-78.3258	5.45525E-006	-0.519817	9
	59	120	112.198	106.91	-526.251	1	537.001	-78.5164	5.60716E-006	-0.519816	9
	60	122	100.009	118.101	-585.754	1	597.541	-78.6007	5.92411E-006	-0.519821	9
	61	124	89.1164	131.038	-652.059	1	665.096	-78.6372	5.86623E-006	-0.519816	9
	62	126	79.4083	146.264	-725.574	1	740.169	-78.6028	5.85939E-006	-0.519815	9
	63	129	70.788	163.608	-807.091	1	823.507	-78.5407	5.63827E-006	-0.519816	9
	64	130	63.0971	185.883	-897.592	1	916.638	-78.3	5.62277E-006	-0.51982	9
	65	133	54.5476	213.196	-1026.63	1	1048.54	-78.2684	4.94307E-006	-0.519812	9
	66	135	50.0083	234.371	-1109.88	1	1134.35	-78.0761	4.61132E-006	-0.51982	8
	67	137	46.1675	256.452	-1195.17	1	1222.38	-77.8895	4.60183E-006	-0.519817	8
	68	139	40.0059	304.353	-1360.32	1	1393.95	-77.3885	4.61263E-006	-0.519813	8
	69	141	35.3046	357.802	-1523.19	1	1564.65	-76.7807	4.56184E-006	-0.519819	8
	70	143	31.5793	407.152	-1683.02	1	1731.57	-76.4005	4.18239E-006	-0.51981	8
	71	145	28.5748	469.5	-1835.92	1	1895	-75.6552	4.52588E-006	-0.519817	8
	72	147	24.9911	568.164	-2064.47	1	2141.23	-74.6125	4.75715E-006	-0.519812	8
	73	150	22.2195	672.637	-2282.72	1	2379.76	-73.5816	4.78901E-006	-0.519818	8
	74	152	20.0011	772.228	-2495.36	1	2612.12	-72.8045	4.74603E-006	-0.519813	8
	75	155	17.6486	927.842	-2769	1	2920.32	-71.4749	4.70933E-006	-0.519818	8
	76	157	15.7934	1064.4	-3039.69	1	3220.66	-70.7014	4.39536E-006	-0.519817	8
	77	159	14.2828	1246.87	-3287.89	1	3516.37	-69.2318	4.61031E-006	-0.519819	8
	78	161	12.5002	1541.74	-3602.32	1	3918.37	-66.8298	5.07331E-006	-0.519812	8
	79	164	11.323	1754.8	-3878.81	1	4257.28	-65.6577	4.93163E-006	-0.519824	8
	80	166	9.9987	2087.32	-4231.22	1	4718.07	-63.7422	4.82401E-006	-0.519825	8
