EXPLAIN
TAG	EISPOT
TITLE	LABEL	Tomato_open	Test &Identifier
DATE	LABEL	5/15/2006	Date
TIME	LABEL	11:44:56	Time
NOTES	NOTES	1	&Notes...
	
PSTAT	PSTAT	300	Potentiostat
VDC	POTEN	1.00000E-001	T	DC &Voltage (V)
FREQINIT	QUANT	1.00000E+005	Initial Fre&q. (Hz)
FREQFINAL	QUANT	1.00000E+001	Final Fre&q. (Hz)
PTSPERDEC	QUANT	2.00000E+001	Points/&decade
VAC	QUANT	1.00000E+001	AC &Voltage (mV rms)
AREA	QUANT	1.00000E+000	&Area (cm²)
DENSITY	QUANT	7.87000E+000	&Density (gm/cm³)
EQUIV	QUANT	7.00000E+000	Equiv. &Wt
CONDIT	TWOPARAM	F	1.50000E+001	0.00000E+000	Conditionin&g	Time(s)	E(V)
DELAY	TWOPARAM	F	6.00000E+002	0.00000E+000	Init. De&lay	Time(s)	Stab.(mV/s)
SPEED	SELECTOR	1	&Optimize for:
ZGUESS	QUANT	1.00000E+002	E&stimated Z (ohms)
OCVCURVE	TABLE	39
	Pt	T	Vf	Vm	Ach	Over
	#	s	V vs. Ref.	V	V	bits
	0	0.258332	-6.23269E-001	4.59176E-006	2.36600E-004	......
	1	0.516663	-6.23569E-001	4.59176E-006	2.36600E-004	......
	2	0.774994	-6.24269E-001	4.59176E-006	1.36600E-004	......
	3	1.03333	-6.22369E-001	4.59176E-006	2.36600E-004	......
	4	1.29166	-6.21870E-001	4.59176E-006	3.36600E-004	......
	5	1.54999	-6.21719E-001	4.59176E-006	3.66000E-005	......
	6	1.80832	-6.20819E-001	4.59176E-006	3.36600E-004	......
	7	2.06665	-6.22220E-001	4.59176E-006	2.36600E-004	......
	8	2.32498	-6.23669E-001	4.59176E-006	2.36600E-004	......
	9	2.58332	-6.23069E-001	4.59176E-006	1.36600E-004	......
	10	2.84165	-6.22819E-001	4.59176E-006	2.36600E-004	......
	11	3.09998	-6.22220E-001	4.59176E-006	2.36600E-004	......
	12	3.35831	-6.23019E-001	4.59176E-006	1.36600E-004	......
	13	3.61664	-6.24720E-001	4.59176E-006	2.36600E-004	......
	14	3.87497	-6.26170E-001	4.59176E-006	1.36600E-004	......
	15	4.1333	-6.25069E-001	4.59176E-006	2.36600E-004	......
	16	4.39164	-6.26269E-001	4.59176E-006	2.36600E-004	......
	17	4.64997	-6.27469E-001	4.59176E-006	1.36600E-004	......
	18	4.9083	-6.22519E-001	4.59176E-006	1.36600E-004	......
	19	5.16663	-6.21669E-001	4.59176E-006	3.36600E-004	......
	20	5.42496	-6.24770E-001	4.59176E-006	2.36600E-004	......
	21	5.68329	-6.25069E-001	4.59176E-006	2.36600E-004	......
	22	5.94162	-6.24669E-001	4.59176E-006	2.36600E-004	......
	23	6.19996	-6.25569E-001	4.59176E-006	2.36600E-004	......
	24	6.45829	-6.26019E-001	4.59176E-006	3.36600E-004	......
	25	6.71662	-6.27270E-001	4.59176E-006	2.36600E-004	......
	26	6.97495	-6.28619E-001	4.59176E-006	2.36600E-004	......
	27	7.23328	-6.28519E-001	4.59176E-006	1.36600E-004	......
	28	7.49161	-6.27219E-001	4.59176E-006	3.36600E-004	......
	29	7.74995	-6.26170E-001	4.59176E-006	3.36600E-004	......
	30	8.00828	-6.26219E-001	4.59176E-006	3.66000E-005	......
	31	8.26661	-6.27019E-001	4.59176E-006	2.36600E-004	......
	32	8.52494	-6.27419E-001	4.59176E-006	2.36600E-004	......
	33	8.78327	-6.26269E-001	4.59176E-006	3.66000E-005	......
	34	9.0416	-6.27869E-001	4.59176E-006	2.36600E-004	......
	35	9.29993	-6.30019E-001	4.59176E-006	2.36600E-004	......
	36	9.5583	-6.29269E-001	4.59176E-006	2.36600E-004	......
	37	9.8166	-6.27769E-001	4.59176E-006	1.36600E-004	......
	38	10.0749	-6.27319E-001	4.59176E-006	2.36600E-004	......
EOC	QUANT	-0.627319	Open Circuit (V)
PSTATMODEL	IQUANT	32	Pstat Model
PSTATSECTION	LABEL	PStat0	Pstat Section
CTRLMODE	IQUANT	1	Control Mode
IESTAB	IQUANT	0	I/E Stability
CASPEED	IQUANT	1	Control Amp Speed
CONVENTION	IQUANT	1	Current Convention
ICHRANGE	IQUANT	2	Ich Range
ICHRANGEMODE	TOGGLE	F	Ich Auto Range
ICHOFFSETENABLE	TOGGLE	T	Ich Offset Enable
ICHOFFSET	QUANT	0	Ich Offset (V)
ICHFILTER	IQUANT	3	Ich Filter
VCHRANGE	IQUANT	2	Vch Range
VCHRANGEMODE	TOGGLE	F	Vch Auto Range
VCHOFFSETENABLE	TOGGLE	T	Vch Offset Enable
VCHOFFSET	QUANT	0	Vch Offset (V)
VCHFILTER	IQUANT	3	Vch Filter
ACHRANGE	IQUANT	0	Ach Range
IERANGELOWERLIMIT	IQUANT	3	I/E Range Lower Limit
IERANGEMODE	TOGGLE	F	I/E AutoRange
IERANGE	IQUANT	11	I/E Range
POSFEEDENABLE	TOGGLE	F	Positive Feedback IR Comp
POSFEEDRESISTANCE	QUANT	0	Positive Feedback Resistance (ohm)
FC350IDIVISOR	IQUANT	0	FC350 I Divisor
FC350VRANGE	IQUANT	0	FC350 V Range
FRAMEWORKVERSION	QUANT	4.35	Framework Version
ZCURVE	TABLE
	Pt	Time	Freq	Zreal	Zimag	Zsig	Zmod	Zphz	Idc	Vdc	IERange
	#	s	Hz	ohm	ohm	V	ohm	°	A	V	#
	0	4	100007	36.3088	-0.772865	1	36.317	-1.21941	1.05101E-005	-0.527242	10
	1	6	89134.1	36.175	-0.934287	1	36.1871	-1.47944	8.74056E-006	-0.527241	10
	2	8	79433.6	36.0358	-1.17847	1	36.0551	-1.87306	1.1842E-005	-0.527273	10
	3	10	70800.8	36.0324	-1.41294	1	36.0601	-2.24559	9.30306E-006	-0.527266	10
	4	12	63105.5	36.0293	-1.61394	1	36.0655	-2.56487	1.06673E-005	-0.527239	10
	5	14	56243.5	36.0549	-1.82559	1	36.1011	-2.89862	9.60509E-006	-0.527283	10
	6	16	50123.7	36.0714	-2.09771	1	36.1323	-3.32826	9.50338E-006	-0.52725	10
	7	18	44681	36.0302	-2.35891	1	36.1073	-3.74582	8.00712E-006	-0.527262	10
	8	20	39811.2	36.1035	-2.69042	1	36.2036	-4.26178	7.78306E-006	-0.527251	10
	9	22	35488.3	36.1593	-2.97279	1	36.2813	-4.69992	8.55806E-006	-0.52724	10
	10	23	31634.1	36.1954	-3.28515	1	36.3442	-5.18604	9.37541E-006	-0.527268	10
	11	25	28173.1	36.2687	-3.71525	1	36.4585	-5.84879	8.01431E-006	-0.527254	10
	12	27	25123.7	36.3411	-4.164	1	36.5789	-6.5365	9.44634E-006	-0.527272	10
	13	29	22389.3	36.3616	-4.58563	1	36.6496	-7.18773	6.33713E-006	-0.527239	10
	14	31	19954.4	36.4991	-5.08272	1	36.8513	-7.92779	8.9865E-006	-0.527268	10
	15	33	17778.2	36.5706	-5.65612	1	37.0054	-8.79187	6.76572E-006	-0.527253	10
	16	35	15852.9	36.7105	-6.1975	1	37.2299	-9.5824	6.09869E-006	-0.527265	10
	17	37	14122.3	36.8395	-6.95458	1	37.4902	-10.6905	7.00353E-006	-0.527272	10
	18	39	12587.2	37.0015	-7.61767	1	37.7775	-11.6332	7.12322E-006	-0.527252	10
	19	41	11221.1	37.1628	-8.44053	1	38.1093	-12.7961	6.79697E-006	-0.527266	10
	20	43	9998.2	37.3239	-9.31684	1	38.4692	-14.0158	7.64009E-006	-0.527262	10
	21	45	8912.76	37.4669	-10.3377	1	38.8669	-15.425	6.83338E-006	-0.52728	10
	22	47	7942.6	37.7294	-11.4045	1	39.4154	-16.8185	7.05369E-006	-0.527272	10
	23	49	7078.05	37.9284	-12.6117	1	39.9702	-18.3927	6.81181E-006	-0.527266	10
	24	51	6311.1	38.1536	-13.9631	1	40.6283	-20.1012	6.82166E-006	-0.527264	10
	25	53	5622.14	38.415	-15.4514	1	41.406	-21.9112	6.94572E-006	-0.527274	10
	26	55	5011.18	38.7666	-17.1323	1	42.3836	-23.8423	6.56338E-006	-0.52725	10
	27	57	4465.21	39.0505	-18.9339	1	43.3986	-25.8667	6.79556E-006	-0.527249	10
	28	59	3980.93	39.288	-20.9726	1	44.5354	-28.094	5.16728E-006	-0.527259	10
	29	61	3548.18	39.8274	-23.1455	1	46.0645	-30.1629	6.35822E-006	-0.527245	10
	30	63	3162.67	40.187	-25.6567	1	47.6788	-32.5555	7.47697E-006	-0.527277	10
	31	65	2819.01	40.5546	-28.4455	1	49.5361	-35.0463	6.75135E-006	-0.52725	10
	32	67	2511.16	41.0191	-31.5861	1	51.7711	-37.5975	6.49879E-006	-0.527261	10
	33	69	2238.63	41.6206	-34.8909	1	54.3107	-39.9734	6.36752E-006	-0.527263	10
	34	71	1995.37	42.1227	-38.6341	1	57.1569	-42.5264	6.58996E-006	-0.527263	10
	35	73	1778.51	42.7352	-42.9815	1	60.6111	-45.1647	6.7608E-006	-0.527265	10
	36	75	1584.49	43.3967	-47.5918	1	64.4069	-47.6398	6.54713E-006	-0.52726	10
	37	77	1412.76	44.0688	-52.8287	1	68.7963	-50.1657	6.75912E-006	-0.527249	10
	38	79	1259.04	44.8676	-58.7129	1	73.8939	-52.6134	6.33201E-006	-0.527258	10
	39	81	1121.63	45.6443	-65.0473	1	79.4642	-54.9423	6.18368E-006	-0.527271	10
	40	83	999.95	46.6786	-71.9639	1	85.777	-57.031	6.34066E-006	-0.527262	10
	41	85	891.184	47.5513	-80.2206	1	93.2549	-59.3424	6.59724E-006	-0.527273	10
	42	87	794.163	48.9017	-88.9349	1	101.493	-61.1954	6.7634E-006	-0.527259	10
	43	89	707.867	50.2382	-98.741	1	110.786	-63.0335	2.87457E-006	-0.527262	9
	44	91	630.984	51.1071	-109.882	1	121.186	-65.0565	3.27574E-006	-0.527269	9
	45	93	562.189	53.034	-121.983	1	133.013	-66.5022	3.22134E-006	-0.527256	9
	46	95	501.303	54.8195	-135.6	1	146.262	-67.9878	3.19154E-006	-0.527266	9
	47	97	446.614	56.7516	-150.762	1	161.09	-69.3721	3.53317E-006	-0.527269	9
	48	99	398.209	58.7902	-167.522	1	177.539	-70.662	3.29601E-006	-0.527271	9
	49	101	354.821	61.2578	-186.266	1	196.081	-71.7954	3.69549E-006	-0.527269	9
	50	103	316.113	63.6231	-207.205	1	216.753	-72.9307	2.20343E-006	-0.52727	9
	51	105	281.926	66.4877	-230.293	1	239.699	-73.8961	2.10498E-006	-0.527272	9
	52	107	251.185	69.756	-256.242	1	265.568	-74.7716	2.26085E-006	-0.527275	9
	53	109	223.946	73.3769	-284.907	1	294.205	-75.5575	2.38195E-006	-0.527279	9
	54	111	199.495	77.4413	-317.01	1	326.332	-76.2723	2.38209E-006	-0.527274	9
	55	113	177.836	82.0886	-352.58	1	362.01	-76.8937	2.50488E-006	-0.527281	9
	56	115	158.533	87.1961	-392.108	1	401.687	-77.4627	2.61448E-006	-0.52727	9
	57	117	141.263	92.8214	-436.384	1	446.146	-77.9918	2.44888E-006	-0.527271	9
	58	119	125.911	98.956	-485.424	1	495.408	-78.4778	2.10987E-006	-0.527269	9
	59	121	112.198	106.749	-540.395	1	550.838	-78.8257	2.29214E-006	-0.527267	9
	60	123	100.009	114.605	-601.113	1	611.94	-79.2058	2.15372E-006	-0.527269	9
	61	125	89.1164	123.558	-669.161	1	680.473	-79.5384	1.93951E-006	-0.527275	9
	62	127	79.4083	134.182	-744.694	1	756.686	-79.7858	2.04428E-006	-0.527275	9
	63	129	70.788	146.749	-828.488	1	841.385	-79.9554	2.23075E-006	-0.527278	9
	64	131	63.0971	160.51	-922.283	1	936.146	-80.1274	2.14332E-006	-0.527273	9
	65	133	54.5476	181.621	-1055.22	1	1070.73	-80.2341	2.28191E-006	-0.527274	9
	66	135	50.0083	195.314	-1143.07	1	1159.63	-80.3036	1.69409E-006	-0.527277	8
	67	137	46.1675	209.495	-1231.2	1	1248.9	-80.3433	1.61963E-006	-0.527278	8
	68	139	40.0059	237.671	-1406.84	1	1426.78	-80.411	1.56632E-006	-0.527271	8
	69	142	35.3046	267.035	-1580.67	1	1603.07	-80.4111	1.40242E-006	-0.527276	8
	70	144	31.5793	300.372	-1752.02	1	1777.59	-80.2716	1.4241E-006	-0.527277	8
	71	146	28.5748	334.44	-1923.89	1	1952.74	-80.1385	1.34752E-006	-0.527278	8
	72	148	24.9911	407.705	-2169.05	1	2207.03	-79.3546	2.02692E-006	-0.527283	8
	73	150	22.2195	474.591	-2423.51	1	2469.54	-78.9201	2.03596E-006	-0.527278	8
	74	153	20.0011	519.286	-2673.24	1	2723.21	-79.007	1.7456E-006	-0.527277	8
	75	155	17.6486	605.285	-3007.99	1	3068.28	-78.6226	1.75521E-006	-0.527264	8
	76	157	15.7934	682.489	-3318.7	1	3388.15	-78.3792	1.43855E-006	-0.527272	8
	77	159	14.2828	772.261	-3642.92	1	3723.88	-78.0311	1.48316E-006	-0.52726	8
	78	162	12.5002	945.312	-4094.73	1	4202.43	-77.0004	1.6276E-006	-0.52726	8
	79	164	11.323	1069.77	-4499.64	1	4625.06	-76.6265	1.33514E-006	-0.527269	8
	80	167	9.9987	1303.62	-4999.19	1	5166.37	-75.3847	1.54855E-006	-0.52727	8
