EXPLAIN
TAG	EISPOT
TITLE	LABEL	Tomato_open	Test &Identifier
DATE	LABEL	5/12/2006	Date
TIME	LABEL	18:15:20	Time
NOTES	NOTES	1	&Notes...
	
PSTAT	PSTAT	300	Potentiostat
VDC	POTEN	1.00000E-001	T	DC &Voltage (V)
FREQINIT	QUANT	1.00000E+005	Initial Fre&q. (Hz)
FREQFINAL	QUANT	1.00000E+001	Final Fre&q. (Hz)
PTSPERDEC	QUANT	2.00000E+001	Points/&decade
VAC	QUANT	1.00000E+001	AC &Voltage (mV rms)
AREA	QUANT	1.00000E+000	&Area (cm²)
DENSITY	QUANT	7.87000E+000	&Density (gm/cm³)
EQUIV	QUANT	7.00000E+000	Equiv. &Wt
CONDIT	TWOPARAM	F	1.50000E+001	0.00000E+000	Conditionin&g	Time(s)	E(V)
DELAY	TWOPARAM	F	6.00000E+002	0.00000E+000	Init. De&lay	Time(s)	Stab.(mV/s)
SPEED	SELECTOR	1	&Optimize for:
ZGUESS	QUANT	1.00000E+002	E&stimated Z (ohms)
OCVCURVE	TABLE	39
	Pt	T	Vf	Vm	Ach	Over
	#	s	V vs. Ref.	V	V	bits
	0	0.258332	-5.77519E-001	3.98184E-006	3.66000E-005	......
	1	0.516663	-5.77420E-001	3.98184E-006	3.36600E-004	......
	2	0.774994	-5.73420E-001	3.98184E-006	1.36600E-004	......
	3	1.03333	-5.73869E-001	3.98184E-006	2.36600E-004	......
	4	1.29166	-5.73070E-001	3.98184E-006	2.36600E-004	......
	5	1.54999	-5.74969E-001	3.98184E-006	3.36600E-004	......
	6	1.80832	-5.76620E-001	3.98184E-006	2.36600E-004	......
	7	2.06665	-5.76069E-001	3.98184E-006	3.36600E-004	......
	8	2.32498	-5.69269E-001	3.98184E-006	2.36600E-004	......
	9	2.58332	-5.73119E-001	3.98184E-006	3.36600E-004	......
	10	2.84165	-5.76769E-001	3.98184E-006	3.36600E-004	......
	11	3.09998	-5.77719E-001	3.98184E-006	3.36600E-004	......
	12	3.35831	-5.77919E-001	3.98184E-006	2.36600E-004	......
	13	3.61664	-5.73419E-001	3.98184E-006	3.36600E-004	......
	14	3.87497	-5.79419E-001	3.98184E-006	2.36600E-004	......
	15	4.1333	-5.81919E-001	3.98184E-006	3.36600E-004	......
	16	4.39164	-5.82269E-001	3.98184E-006	2.36600E-004	......
	17	4.64997	-5.76119E-001	3.98184E-006	3.36600E-004	......
	18	4.9083	-5.70219E-001	3.98184E-006	2.36600E-004	......
	19	5.16663	-5.67620E-001	3.98184E-006	2.36600E-004	......
	20	5.42496	-5.65969E-001	3.98184E-006	2.36600E-004	......
	21	5.68329	-5.65870E-001	3.98184E-006	3.36600E-004	......
	22	5.94162	-5.67469E-001	3.98184E-006	2.36600E-004	......
	23	6.19996	-5.68669E-001	3.98184E-006	2.36600E-004	......
	24	6.45829	-5.70019E-001	3.98184E-006	3.66000E-005	......
	25	6.71662	-5.66269E-001	3.98184E-006	4.36600E-004	......
	26	6.97495	-5.69569E-001	3.98184E-006	2.36600E-004	......
	27	7.23328	-5.81319E-001	3.98184E-006	3.36600E-004	......
	28	7.49161	-5.69669E-001	3.98184E-006	2.36600E-004	......
	29	7.74995	-5.66819E-001	3.98184E-006	3.36600E-004	......
	30	8.00828	-5.59619E-001	3.98184E-006	2.36600E-004	......
	31	8.26661	-5.57970E-001	3.98184E-006	1.36600E-004	......
	32	8.52494	-5.75769E-001	3.98184E-006	2.36600E-004	......
	33	8.78327	-5.86219E-001	3.98184E-006	3.66000E-005	......
	34	9.0416	-5.89819E-001	3.98184E-006	2.36600E-004	......
	35	9.29993	-5.92169E-001	3.98184E-006	2.36600E-004	......
	36	9.5583	-5.90569E-001	3.98184E-006	2.36600E-004	......
	37	9.8166	-5.92969E-001	3.98184E-006	3.36600E-004	......
	38	10.0749	-5.90519E-001	3.98184E-006	3.66000E-005	......
EOC	QUANT	-0.590519	Open Circuit (V)
PSTATMODEL	IQUANT	32	Pstat Model
PSTATSECTION	LABEL	PStat0	Pstat Section
CTRLMODE	IQUANT	1	Control Mode
IESTAB	IQUANT	0	I/E Stability
CASPEED	IQUANT	1	Control Amp Speed
CONVENTION	IQUANT	1	Current Convention
ICHRANGE	IQUANT	2	Ich Range
ICHRANGEMODE	TOGGLE	F	Ich Auto Range
ICHOFFSETENABLE	TOGGLE	T	Ich Offset Enable
ICHOFFSET	QUANT	0	Ich Offset (V)
ICHFILTER	IQUANT	3	Ich Filter
VCHRANGE	IQUANT	2	Vch Range
VCHRANGEMODE	TOGGLE	F	Vch Auto Range
VCHOFFSETENABLE	TOGGLE	T	Vch Offset Enable
VCHOFFSET	QUANT	0	Vch Offset (V)
VCHFILTER	IQUANT	3	Vch Filter
ACHRANGE	IQUANT	0	Ach Range
IERANGELOWERLIMIT	IQUANT	3	I/E Range Lower Limit
IERANGEMODE	TOGGLE	F	I/E AutoRange
IERANGE	IQUANT	11	I/E Range
POSFEEDENABLE	TOGGLE	F	Positive Feedback IR Comp
POSFEEDRESISTANCE	QUANT	0	Positive Feedback Resistance (ohm)
FC350IDIVISOR	IQUANT	0	FC350 I Divisor
FC350VRANGE	IQUANT	0	FC350 V Range
FRAMEWORKVERSION	QUANT	4.35	Framework Version
ZCURVE	TABLE
	Pt	Time	Freq	Zreal	Zimag	Zsig	Zmod	Zphz	Idc	Vdc	IERange
	#	s	Hz	ohm	ohm	V	ohm	°	A	V	#
	0	4	100007	138.268	-1.26979	1	138.274	-0.526164	2.78784E-006	-0.490444	9
	1	6	89134.1	137.694	-1.17956	1	137.699	-0.490814	3.17703E-006	-0.490463	9
	2	8	79433.6	137.159	-1.7967	1	137.171	-0.750495	3.07431E-006	-0.490466	9
	3	10	70800.8	137.03	-2.1073	1	137.046	-0.881048	2.77851E-006	-0.490436	9
	4	12	63105.5	136.685	-2.55698	1	136.709	-1.07171	3.08548E-006	-0.490449	9
	5	14	56243.5	136.656	-2.72778	1	136.683	-1.14353	2.87851E-006	-0.490434	9
	6	16	50123.7	136.436	-3.35182	1	136.478	-1.4073	2.76368E-006	-0.490437	9
	7	17	44681	136.388	-3.83794	1	136.442	-1.61187	3.21588E-006	-0.490463	9
	8	19	39811.2	136.306	-4.35007	1	136.375	-1.82792	2.93182E-006	-0.490459	9
	9	21	35488.3	136.426	-4.88282	1	136.513	-2.0498	3.20871E-006	-0.490463	9
	10	23	31634.1	136.553	-5.47505	1	136.662	-2.29603	3.18781E-006	-0.490472	9
	11	25	28173.1	136.606	-5.82537	1	136.73	-2.44181	2.97335E-006	-0.490454	9
	12	27	25123.7	136.775	-6.60124	1	136.934	-2.76316	2.90128E-006	-0.490432	9
	13	29	22389.3	136.79	-7.37429	1	136.988	-3.08581	2.82696E-006	-0.49047	9
	14	31	19954.4	136.912	-8.10958	1	137.152	-3.38978	3.05824E-006	-0.490468	9
	15	33	17778.2	137.245	-8.77832	1	137.525	-3.65972	3.11142E-006	-0.490458	9
	16	35	15852.9	137.459	-9.8189	1	137.81	-4.08578	3.0741E-006	-0.490448	9
	17	37	14122.3	137.589	-10.662	1	138.002	-4.43108	2.96178E-006	-0.490452	9
	18	39	12587.2	138.242	-11.6518	1	138.733	-4.8178	3.00143E-006	-0.490454	9
	19	41	11221.1	137.994	-12.8845	1	138.595	-5.33422	2.8652E-006	-0.490463	9
	20	43	9998.2	138.828	-14.2457	1	139.557	-5.85885	3.17037E-006	-0.490449	9
	21	45	8912.76	138.847	-15.9009	1	139.755	-6.53311	3.15929E-006	-0.490448	9
	22	47	7942.6	139.012	-17.2136	1	140.074	-7.05887	2.91799E-006	-0.490466	9
	23	49	7078.05	139.436	-18.867	1	140.706	-7.70589	3.00321E-006	-0.490446	9
	24	51	6311.1	139.96	-20.9098	1	141.513	-8.49706	2.94132E-006	-0.490455	9
	25	53	5622.14	140.645	-22.9406	1	142.504	-9.26393	2.82854E-006	-0.490451	9
	26	55	5011.18	141.086	-25.3314	1	143.342	-10.1787	2.47246E-006	-0.490452	9
	27	57	4465.21	141.677	-27.9009	1	144.398	-11.1409	2.57353E-006	-0.490446	9
	28	59	3980.93	142.253	-30.7849	1	145.546	-12.2111	2.68265E-006	-0.490452	9
	29	61	3548.18	142.94	-33.7852	1	146.879	-13.2983	2.89179E-006	-0.490457	9
	30	63	3162.67	143.504	-37.0424	1	148.208	-14.4737	2.76865E-006	-0.490458	9
	31	65	2819.01	144.376	-41.0768	1	150.106	-15.8817	2.53595E-006	-0.49043	9
	32	66	2511.16	145.079	-45.3734	1	152.009	-17.3671	2.75746E-006	-0.490454	9
	33	68	2238.63	146.352	-50.1006	1	154.69	-18.8976	3.0614E-006	-0.49045	9
	34	70	1995.37	147.301	-54.8739	1	157.19	-20.4318	2.82699E-006	-0.490446	9
	35	72	1778.51	148.277	-60.7662	1	160.246	-22.2846	2.69009E-006	-0.490459	9
	36	74	1584.49	149.684	-67.2964	1	164.116	-24.2082	2.40248E-006	-0.49045	9
	37	76	1412.76	150.769	-73.9304	1	167.92	-26.1212	2.2952E-006	-0.490435	9
	38	78	1259.04	152.425	-81.7333	1	172.956	-28.2011	2.35795E-006	-0.490442	9
	39	80	1121.63	154.136	-90.4528	1	178.717	-30.406	2.35979E-006	-0.490449	9
	40	82	999.95	156.154	-99.917	1	185.385	-32.6135	2.5262E-006	-0.490445	9
	41	84	891.184	157.881	-110.405	1	192.654	-34.9648	2.59845E-006	-0.490444	9
	42	86	794.163	160.189	-122.198	1	201.476	-37.3377	2.57398E-006	-0.490445	9
	43	88	707.867	162.233	-134.729	1	210.882	-39.7085	2.86532E-006	-0.49046	9
	44	90	630.984	164.528	-149.162	1	222.079	-42.1955	2.60353E-006	-0.490449	9
	45	92	562.189	167.101	-164.481	1	234.472	-44.5472	2.75788E-006	-0.490455	9
	46	94	501.303	170.249	-182.513	1	249.591	-46.9911	2.62045E-006	-0.490442	9
	47	96	446.614	173.397	-202.139	1	266.321	-49.3766	2.33765E-006	-0.490442	9
	48	98	398.209	176.868	-223.796	1	285.249	-51.6803	2.38248E-006	-0.49044	9
	49	100	354.821	180.739	-248.011	1	306.881	-53.9172	2.71142E-006	-0.49044	9
	50	102	316.113	185.099	-274.85	1	331.367	-56.0415	2.87718E-006	-0.490444	9
	51	104	281.926	189.793	-304.403	1	358.724	-58.0567	2.8574E-006	-0.490448	9
	52	106	251.185	194.941	-337.534	1	389.784	-59.9916	2.85224E-006	-0.490443	9
	53	108	223.946	200.687	-374.081	1	424.514	-61.7873	2.80835E-006	-0.490452	9
	54	110	199.495	207.176	-414.921	1	463.769	-63.4664	2.77887E-006	-0.490444	9
	55	112	177.836	214.217	-460.205	1	507.62	-65.039	2.76134E-006	-0.490448	9
	56	114	158.533	222.097	-510.408	1	556.636	-66.4844	2.72488E-006	-0.490451	9
	57	116	141.263	230.58	-566.44	1	611.573	-67.8503	2.5782E-006	-0.490462	9
	58	118	125.911	240.478	-628.371	1	672.815	-69.0581	2.59482E-006	-0.490456	9
	59	120	112.198	251.6	-697.494	1	741.485	-70.1646	2.54426E-006	-0.490455	9
	60	122	100.009	263.744	-774.023	1	817.724	-71.1837	2.58623E-006	-0.490451	9
	61	124	89.1164	277.847	-859.089	1	902.902	-72.0777	2.70916E-006	-0.490449	9
	62	126	79.4083	294.09	-953.98	1	998.29	-72.8668	2.87271E-006	-0.49045	9
	63	128	70.788	312.153	-1058.62	1	1103.68	-73.5709	2.84669E-006	-0.490449	9
	64	130	63.0971	330.827	-1174.28	1	1219.99	-74.266	1.86426E-006	-0.490454	8
	65	132	54.5476	359.576	-1340.71	1	1388.09	-74.9867	1.93986E-006	-0.490453	8
	66	134	50.0083	377.896	-1450.9	1	1499.3	-75.4013	1.79657E-006	-0.490458	8
	67	136	46.1675	400.622	-1559.58	1	1610.22	-75.5935	1.89819E-006	-0.490462	8
	68	138	40.0059	441.603	-1777.6	1	1831.63	-76.0486	1.80653E-006	-0.490455	8
	69	141	35.3046	483.365	-1990.28	1	2048.13	-76.3492	1.70395E-006	-0.490461	8
	70	143	31.5793	523.501	-2205.02	1	2266.31	-76.6445	1.78475E-006	-0.490462	8
	71	145	28.5748	579.922	-2407.87	1	2476.72	-76.4585	1.95559E-006	-0.49046	8
	72	147	24.9911	650.496	-2719.6	1	2796.32	-76.5483	1.98144E-006	-0.490463	8
	73	149	22.2195	713.49	-3023.14	1	3106.2	-76.7207	1.61037E-006	-0.490465	8
	74	151	20.0011	773.608	-3311.01	1	3400.19	-76.8489	1.64982E-006	-0.490474	8
	75	154	17.6486	870.525	-3720.25	1	3820.74	-76.8299	1.68189E-006	-0.490468	8
	76	156	15.7934	1003.88	-4068.27	1	4190.29	-76.1387	1.81215E-006	-0.49047	8
	77	158	14.2828	1101.98	-4500.47	1	4633.42	-76.2414	1.78788E-006	-0.490473	8
	78	161	12.5002	1277.58	-5055.91	1	5214.83	-75.8188	1.84502E-006	-0.490466	8
	79	163	11.323	1475.63	-5497.25	1	5691.85	-74.9743	1.78789E-006	-0.490464	8
	80	166	9.9987	1722.5	-6149.9	1	6386.57	-74.3532	1.86107E-006	-0.490465	8
