EXPLAIN
TAG	EISPOT
TITLE	LABEL	Tomato_open	Test &Identifier
DATE	LABEL	5/12/2006	Date
TIME	LABEL	18:25:18	Time
NOTES	NOTES	1	&Notes...
	
PSTAT	PSTAT	300	Potentiostat
VDC	POTEN	1.00000E-001	T	DC &Voltage (V)
FREQINIT	QUANT	1.00000E+005	Initial Fre&q. (Hz)
FREQFINAL	QUANT	1.00000E+001	Final Fre&q. (Hz)
PTSPERDEC	QUANT	2.00000E+001	Points/&decade
VAC	QUANT	1.00000E+001	AC &Voltage (mV rms)
AREA	QUANT	1.00000E+000	&Area (cm²)
DENSITY	QUANT	7.87000E+000	&Density (gm/cm³)
EQUIV	QUANT	7.00000E+000	Equiv. &Wt
CONDIT	TWOPARAM	F	1.50000E+001	0.00000E+000	Conditionin&g	Time(s)	E(V)
DELAY	TWOPARAM	F	6.00000E+002	0.00000E+000	Init. De&lay	Time(s)	Stab.(mV/s)
SPEED	SELECTOR	1	&Optimize for:
ZGUESS	QUANT	1.00000E+002	E&stimated Z (ohms)
OCVCURVE	TABLE	39
	Pt	T	Vf	Vm	Ach	Over
	#	s	V vs. Ref.	V	V	bits
	0	0.258332	-5.55269E-001	4.85704E-006	2.36600E-004	......
	1	0.516663	-5.64169E-001	4.85704E-006	2.36600E-004	......
	2	0.774994	-5.56219E-001	4.85704E-006	3.66000E-005	......
	3	1.03333	-5.53369E-001	4.85704E-006	4.36600E-004	......
	4	1.29166	-5.51319E-001	4.85704E-006	2.36600E-004	......
	5	1.54999	-5.52219E-001	4.85704E-006	3.36600E-004	......
	6	1.80832	-5.43169E-001	4.85704E-006	2.36600E-004	......
	7	2.06665	-5.30869E-001	4.85704E-006	2.36600E-004	......
	8	2.32498	-5.26670E-001	4.85704E-006	3.36600E-004	......
	9	2.58332	-5.36869E-001	4.85704E-006	3.36600E-004	......
	10	2.84165	-5.58569E-001	4.85704E-006	3.66000E-005	......
	11	3.09998	-5.75719E-001	4.85704E-006	2.36600E-004	......
	12	3.35831	-5.85220E-001	4.85704E-006	3.36600E-004	......
	13	3.61664	-5.96819E-001	4.85704E-006	3.36600E-004	......
	14	3.87497	-5.97719E-001	4.85704E-006	2.36600E-004	......
	15	4.1333	-6.01269E-001	4.85704E-006	2.36600E-004	......
	16	4.39164	-6.00119E-001	4.85704E-006	2.36600E-004	......
	17	4.64997	-6.00370E-001	4.85704E-006	2.36600E-004	......
	18	4.9083	-6.02019E-001	4.85704E-006	2.36600E-004	......
	19	5.16663	-6.05619E-001	4.85704E-006	3.36600E-004	......
	20	5.42496	-6.06919E-001	4.85704E-006	3.36600E-004	......
	21	5.68329	-6.04819E-001	4.85704E-006	2.36600E-004	......
	22	5.94162	-6.06470E-001	4.85704E-006	2.36600E-004	......
	23	6.19996	-6.04819E-001	4.85704E-006	1.36600E-004	......
	24	6.45829	-6.05269E-001	4.85704E-006	2.36600E-004	......
	25	6.71662	-6.06369E-001	4.85704E-006	2.36600E-004	......
	26	6.97495	-6.08069E-001	4.85704E-006	2.36600E-004	......
	27	7.23328	-6.09469E-001	4.85704E-006	3.36600E-004	......
	28	7.49161	-6.10070E-001	4.85704E-006	2.36600E-004	......
	29	7.74995	-6.08719E-001	4.85704E-006	3.36600E-004	......
	30	8.00828	-6.08769E-001	4.85704E-006	2.36600E-004	......
	31	8.26661	-6.07769E-001	4.85704E-006	2.36600E-004	......
	32	8.52494	-6.06569E-001	4.85704E-006	3.66000E-005	......
	33	8.78327	-6.04719E-001	4.85704E-006	4.36600E-004	......
	34	9.0416	-6.07269E-001	4.85704E-006	3.36600E-004	......
	35	9.29993	-5.85270E-001	4.85704E-006	2.36600E-004	......
	36	9.5583	-5.70469E-001	4.85704E-006	3.66000E-005	......
	37	9.8166	-5.72869E-001	4.85704E-006	3.36600E-004	......
	38	10.0749	-5.84170E-001	4.85704E-006	2.36600E-004	......
EOC	QUANT	-0.58417	Open Circuit (V)
PSTATMODEL	IQUANT	32	Pstat Model
PSTATSECTION	LABEL	PStat0	Pstat Section
CTRLMODE	IQUANT	1	Control Mode
IESTAB	IQUANT	0	I/E Stability
CASPEED	IQUANT	1	Control Amp Speed
CONVENTION	IQUANT	1	Current Convention
ICHRANGE	IQUANT	2	Ich Range
ICHRANGEMODE	TOGGLE	F	Ich Auto Range
ICHOFFSETENABLE	TOGGLE	T	Ich Offset Enable
ICHOFFSET	QUANT	0	Ich Offset (V)
ICHFILTER	IQUANT	3	Ich Filter
VCHRANGE	IQUANT	2	Vch Range
VCHRANGEMODE	TOGGLE	F	Vch Auto Range
VCHOFFSETENABLE	TOGGLE	T	Vch Offset Enable
VCHOFFSET	QUANT	0	Vch Offset (V)
VCHFILTER	IQUANT	3	Vch Filter
ACHRANGE	IQUANT	0	Ach Range
IERANGELOWERLIMIT	IQUANT	3	I/E Range Lower Limit
IERANGEMODE	TOGGLE	F	I/E AutoRange
IERANGE	IQUANT	11	I/E Range
POSFEEDENABLE	TOGGLE	F	Positive Feedback IR Comp
POSFEEDRESISTANCE	QUANT	0	Positive Feedback Resistance (ohm)
FC350IDIVISOR	IQUANT	0	FC350 I Divisor
FC350VRANGE	IQUANT	0	FC350 V Range
FRAMEWORKVERSION	QUANT	4.35	Framework Version
ZCURVE	TABLE
	Pt	Time	Freq	Zreal	Zimag	Zsig	Zmod	Zphz	Idc	Vdc	IERange
	#	s	Hz	ohm	ohm	V	ohm	°	A	V	#
	0	4	100007	131.482	-1.20868	1	131.488	-0.526689	3.51382E-006	-0.484211	9
	1	6	89134.1	130.634	-1.24439	1	130.64	-0.54577	3.82526E-006	-0.484233	9
	2	8	79433.6	130.371	-1.82452	1	130.384	-0.801792	3.42618E-006	-0.484229	9
	3	10	70800.8	130.273	-2.25043	1	130.293	-0.98967	3.36329E-006	-0.484234	9
	4	12	63105.5	129.968	-2.46813	1	129.992	-1.08793	3.4136E-006	-0.484213	9
	5	14	56243.5	129.813	-2.80827	1	129.844	-1.23929	3.51798E-006	-0.484225	9
	6	16	50123.7	129.851	-3.2304	1	129.891	-1.42509	3.8654E-006	-0.484235	9
	7	18	44681	129.826	-3.67227	1	129.878	-1.62024	3.21056E-006	-0.484207	9
	8	20	39811.2	129.716	-4.35303	1	129.789	-1.92201	3.23307E-006	-0.484217	9
	9	22	35488.3	129.76	-4.84218	1	129.85	-2.13708	3.5151E-006	-0.484238	9
	10	24	31634.1	130.049	-5.3287	1	130.158	-2.34636	3.21237E-006	-0.48421	9
	11	26	28173.1	130.192	-5.99634	1	130.33	-2.63704	3.26404E-006	-0.484225	9
	12	27	25123.7	130.267	-6.60423	1	130.434	-2.90227	3.01724E-006	-0.484222	9
	13	29	22389.3	130.544	-7.41268	1	130.754	-3.24993	3.37603E-006	-0.484237	9
	14	31	19954.4	130.424	-7.9575	1	130.667	-3.49143	3.50857E-006	-0.484233	9
	15	33	17778.2	130.671	-8.90217	1	130.974	-3.89734	3.20807E-006	-0.484225	9
	16	35	15852.9	131.132	-9.7348	1	131.493	-4.24566	3.34653E-006	-0.484241	9
	17	37	14122.3	131.317	-10.6865	1	131.752	-4.65241	3.21535E-006	-0.484216	9
	18	39	12587.2	131.572	-11.5786	1	132.081	-5.02918	3.21823E-006	-0.484228	9
	19	41	11221.1	131.803	-12.8186	1	132.425	-5.55488	3.25465E-006	-0.484225	9
	20	43	9998.2	132.114	-14.016	1	132.856	-6.05586	3.17029E-006	-0.484225	9
	21	45	8912.76	132.411	-15.5596	1	133.322	-6.70211	2.88293E-006	-0.484219	9
	22	47	7942.6	132.784	-17.0306	1	133.872	-7.30874	3.05002E-006	-0.484226	9
	23	49	7078.05	133.291	-18.8115	1	134.612	-8.03314	3.06059E-006	-0.484233	9
	24	51	6311.1	133.693	-20.8252	1	135.305	-8.85376	2.61337E-006	-0.484221	9
	25	53	5622.14	134.052	-22.8208	1	135.98	-9.6614	3.11423E-006	-0.484218	9
	26	55	5011.18	134.754	-25.2051	1	137.091	-10.5945	3.46081E-006	-0.484214	9
	27	57	4465.21	135.405	-27.8498	1	138.24	-11.6223	3.41499E-006	-0.484213	9
	28	59	3980.93	135.966	-30.5568	1	139.357	-12.6662	3.10623E-006	-0.484204	9
	29	61	3548.18	136.553	-33.6473	1	140.638	-13.8421	3.21643E-006	-0.484203	9
	30	63	3162.67	137.316	-37.1357	1	142.249	-15.1331	3.11243E-006	-0.484201	9
	31	65	2819.01	138.298	-41.055	1	144.263	-16.534	3.20282E-006	-0.484234	9
	32	67	2511.16	139.159	-45.29	1	146.343	-18.0278	3.23568E-006	-0.484213	9
	33	69	2238.63	140.143	-49.8492	1	148.745	-19.5806	3.12229E-006	-0.484213	9
	34	71	1995.37	141.056	-54.967	1	151.388	-21.2899	3.15385E-006	-0.484217	9
	35	73	1778.51	142.142	-60.7566	1	154.583	-23.1435	3.10956E-006	-0.48422	9
	36	75	1584.49	143.697	-67.0187	1	158.557	-25.0038	3.17953E-006	-0.484227	9
	37	76	1412.76	144.779	-73.9997	1	162.594	-27.0726	3.20037E-006	-0.484227	9
	38	78	1259.04	146.261	-82.0909	1	167.724	-29.3038	3.0609E-006	-0.484219	9
	39	80	1121.63	148.122	-90.443	1	173.552	-31.4081	3.0127E-006	-0.484226	9
	40	82	999.95	149.769	-99.612	1	179.87	-33.6282	3.01107E-006	-0.484222	9
	41	84	891.184	151.628	-110.63	1	187.697	-36.115	2.93712E-006	-0.484218	9
	42	86	794.163	154.092	-122.008	1	196.546	-38.3717	2.9657E-006	-0.484217	9
	43	88	707.867	156.163	-135.049	1	206.459	-40.8531	3.03359E-006	-0.484221	9
	44	90	630.984	158.881	-149.394	1	218.087	-43.2373	3.05096E-006	-0.484211	9
	45	92	562.189	161.108	-164.884	1	230.526	-45.6636	2.93078E-006	-0.48423	9
	46	94	501.303	164.334	-182.731	1	245.756	-48.0343	3.00809E-006	-0.484206	9
	47	96	446.614	167.512	-202.396	1	262.725	-50.3872	3.01643E-006	-0.484206	9
	48	98	398.209	170.957	-224.118	1	281.878	-52.6637	3.12071E-006	-0.484216	9
	49	100	354.821	174.83	-248.252	1	303.636	-54.8451	3.05353E-006	-0.484212	9
	50	102	316.113	179.049	-275.178	1	328.301	-56.9494	2.91198E-006	-0.484213	9
	51	104	281.926	183.638	-304.775	1	355.824	-58.9295	2.73474E-006	-0.48422	9
	52	106	251.185	188.795	-337.931	1	387.093	-60.8088	2.64599E-006	-0.484222	9
	53	108	223.946	194.413	-374.612	1	422.055	-62.5719	2.65024E-006	-0.484217	9
	54	110	199.495	200.84	-415.741	1	461.712	-64.2153	2.77951E-006	-0.484217	9
	55	112	177.836	207.926	-461.189	1	505.894	-65.7319	2.99356E-006	-0.48422	9
	56	114	158.533	215.724	-511.478	1	555.11	-67.1316	2.7966E-006	-0.484222	9
	57	116	141.263	224.67	-568.007	1	610.826	-68.4192	2.94844E-006	-0.484227	9
	58	118	125.911	234.107	-630.144	1	672.226	-69.6193	2.50895E-006	-0.484221	9
	59	120	112.198	245.158	-699.469	1	741.188	-70.6849	2.91941E-006	-0.484222	9
	60	122	100.009	257.305	-776.333	1	817.863	-71.663	2.94829E-006	-0.484226	9
	61	124	89.1164	270.461	-861.737	1	903.183	-72.5752	2.73101E-006	-0.484225	9
	62	126	79.4083	286.137	-957.29	1	999.14	-73.3585	2.77757E-006	-0.484226	9
	63	128	70.788	303.875	-1062.6	1	1105.2	-74.0409	2.71129E-006	-0.484224	9
	64	130	63.0971	323.074	-1179.05	1	1222.51	-74.6764	1.96892E-006	-0.484225	8
	65	132	54.5476	351.343	-1347.2	1	1392.26	-75.3831	1.89738E-006	-0.484219	8
	66	134	50.0083	372.421	-1456.39	1	1503.25	-75.656	2.05195E-006	-0.484223	8
	67	136	46.1675	394.575	-1568.05	1	1616.93	-75.8757	2.27479E-006	-0.484224	8
	68	139	40.0059	437.974	-1784.97	1	1837.92	-76.2139	2.07354E-006	-0.484219	8
	69	141	35.3046	476.648	-2002.35	1	2058.3	-76.6103	1.85509E-006	-0.484219	8
	70	143	31.5793	513.607	-2215.82	1	2274.56	-76.9498	1.80358E-006	-0.48422	8
	71	145	28.5748	562.521	-2430.68	1	2494.92	-76.9697	1.79164E-006	-0.484222	8
	72	147	24.9911	617.509	-2735.26	1	2804.1	-77.2783	1.63343E-006	-0.484221	8
	73	149	22.2195	680.579	-3039.6	1	3114.86	-77.3794	1.56495E-006	-0.48422	8
	74	152	20.0011	741.457	-3357.89	1	3438.78	-77.5483	1.38518E-006	-0.484218	8
	75	154	17.6486	826.295	-3752.91	1	3842.8	-77.583	1.49161E-006	-0.484222	8
	76	156	15.7934	918.918	-4178.08	1	4277.93	-77.596	1.36006E-006	-0.484223	8
	77	158	14.2828	1072.89	-4513.16	1	4638.93	-76.6276	1.69839E-006	-0.48422	8
	78	161	12.5002	1259.57	-5089.82	1	5243.35	-76.1003	1.7964E-006	-0.484223	8
	79	163	11.323	1375.68	-5628.53	1	5794.21	-76.2655	1.68725E-006	-0.484224	8
	80	166	9.9987	1613.34	-6244.9	1	6449.94	-75.5147	1.68417E-006	-0.484216	8
