EXPLAIN
TAG	EISPOT
TITLE	LABEL	Tomato_open	Test &Identifier
DATE	LABEL	5/12/2006	Date
TIME	LABEL	18:20:23	Time
NOTES	NOTES	1	&Notes...
	
PSTAT	PSTAT	300	Potentiostat
VDC	POTEN	1.00000E-001	T	DC &Voltage (V)
FREQINIT	QUANT	1.00000E+005	Initial Fre&q. (Hz)
FREQFINAL	QUANT	1.00000E+001	Final Fre&q. (Hz)
PTSPERDEC	QUANT	2.00000E+001	Points/&decade
VAC	QUANT	1.00000E+001	AC &Voltage (mV rms)
AREA	QUANT	1.00000E+000	&Area (cm²)
DENSITY	QUANT	7.87000E+000	&Density (gm/cm³)
EQUIV	QUANT	7.00000E+000	Equiv. &Wt
CONDIT	TWOPARAM	F	1.50000E+001	0.00000E+000	Conditionin&g	Time(s)	E(V)
DELAY	TWOPARAM	F	6.00000E+002	0.00000E+000	Init. De&lay	Time(s)	Stab.(mV/s)
SPEED	SELECTOR	1	&Optimize for:
ZGUESS	QUANT	1.00000E+002	E&stimated Z (ohms)
OCVCURVE	TABLE	39
	Pt	T	Vf	Vm	Ach	Over
	#	s	V vs. Ref.	V	V	bits
	0	0.258332	-5.62919E-001	3.96234E-006	2.36600E-004	......
	1	0.516663	-5.63020E-001	3.96234E-006	1.36600E-004	......
	2	0.774994	-5.61669E-001	3.96234E-006	2.36600E-004	......
	3	1.03333	-5.63819E-001	3.96234E-006	2.36600E-004	......
	4	1.29166	-5.65470E-001	3.96234E-006	2.36600E-004	......
	5	1.54999	-5.64369E-001	3.96234E-006	1.36600E-004	......
	6	1.80832	-5.61919E-001	3.96234E-006	2.36600E-004	......
	7	2.06665	-5.65719E-001	3.96234E-006	2.36600E-004	......
	8	2.32498	-5.64070E-001	3.96234E-006	3.36600E-004	......
	9	2.58332	-5.61619E-001	3.96234E-006	1.36600E-004	......
	10	2.84165	-5.61269E-001	3.96234E-006	2.36600E-004	......
	11	3.09998	-5.55169E-001	3.96234E-006	2.36600E-004	......
	12	3.35831	-5.51870E-001	3.96234E-006	2.36600E-004	......
	13	3.61664	-5.53670E-001	3.96234E-006	3.36600E-004	......
	14	3.87497	-5.56369E-001	3.96234E-006	3.36600E-004	......
	15	4.1333	-5.53069E-001	3.96234E-006	2.36600E-004	......
	16	4.39164	-5.58519E-001	3.96234E-006	3.36600E-004	......
	17	4.64997	-5.55669E-001	3.96234E-006	2.36600E-004	......
	18	4.9083	-5.58919E-001	3.96234E-006	3.36600E-004	......
	19	5.16663	-5.55969E-001	3.96234E-006	2.36600E-004	......
	20	5.42496	-5.60470E-001	3.96234E-006	3.36600E-004	......
	21	5.68329	-5.62019E-001	3.96234E-006	2.36600E-004	......
	22	5.94162	-5.59020E-001	3.96234E-006	2.36600E-004	......
	23	6.19996	-5.58320E-001	3.96234E-006	2.36600E-004	......
	24	6.45829	-5.57270E-001	3.96234E-006	3.36600E-004	......
	25	6.71662	-5.57570E-001	3.96234E-006	2.36600E-004	......
	26	6.97495	-5.61170E-001	3.96234E-006	3.36600E-004	......
	27	7.23328	-5.63469E-001	3.96234E-006	2.36600E-004	......
	28	7.49161	-5.63519E-001	3.96234E-006	2.36600E-004	......
	29	7.74995	-5.63119E-001	3.96234E-006	2.36600E-004	......
	30	8.00828	-5.63320E-001	3.96234E-006	3.36600E-004	......
	31	8.26661	-5.62720E-001	3.96234E-006	2.36600E-004	......
	32	8.52494	-5.62320E-001	3.96234E-006	3.36600E-004	......
	33	8.78327	-5.60169E-001	3.96234E-006	2.36600E-004	......
	34	9.0416	-5.60070E-001	3.96234E-006	2.36600E-004	......
	35	9.29993	-5.61219E-001	3.96234E-006	3.36600E-004	......
	36	9.5583	-5.63069E-001	3.96234E-006	2.36600E-004	......
	37	9.8166	-5.63969E-001	3.96234E-006	2.36600E-004	......
	38	10.0749	-5.64469E-001	3.96234E-006	2.36600E-004	......
EOC	QUANT	-0.564469	Open Circuit (V)
PSTATMODEL	IQUANT	32	Pstat Model
PSTATSECTION	LABEL	PStat0	Pstat Section
CTRLMODE	IQUANT	1	Control Mode
IESTAB	IQUANT	0	I/E Stability
CASPEED	IQUANT	1	Control Amp Speed
CONVENTION	IQUANT	1	Current Convention
ICHRANGE	IQUANT	2	Ich Range
ICHRANGEMODE	TOGGLE	F	Ich Auto Range
ICHOFFSETENABLE	TOGGLE	T	Ich Offset Enable
ICHOFFSET	QUANT	0	Ich Offset (V)
ICHFILTER	IQUANT	3	Ich Filter
VCHRANGE	IQUANT	2	Vch Range
VCHRANGEMODE	TOGGLE	F	Vch Auto Range
VCHOFFSETENABLE	TOGGLE	T	Vch Offset Enable
VCHOFFSET	QUANT	0	Vch Offset (V)
VCHFILTER	IQUANT	3	Vch Filter
ACHRANGE	IQUANT	0	Ach Range
IERANGELOWERLIMIT	IQUANT	3	I/E Range Lower Limit
IERANGEMODE	TOGGLE	F	I/E AutoRange
IERANGE	IQUANT	11	I/E Range
POSFEEDENABLE	TOGGLE	F	Positive Feedback IR Comp
POSFEEDRESISTANCE	QUANT	0	Positive Feedback Resistance (ohm)
FC350IDIVISOR	IQUANT	0	FC350 I Divisor
FC350VRANGE	IQUANT	0	FC350 V Range
FRAMEWORKVERSION	QUANT	4.35	Framework Version
ZCURVE	TABLE
	Pt	Time	Freq	Zreal	Zimag	Zsig	Zmod	Zphz	Idc	Vdc	IERange
	#	s	Hz	ohm	ohm	V	ohm	°	A	V	#
	0	4	100007	133.907	-0.808843	1	133.909	-0.346083	1.89779E-006	-0.464334	9
	1	6	89134.1	133.228	-1.33644	1	133.235	-0.574725	2.16227E-006	-0.464347	9
	2	8	79433.6	132.877	-1.97527	1	132.892	-0.851659	2.22165E-006	-0.464352	9
	3	10	70800.8	132.606	-2.19143	1	132.624	-0.946779	2.38678E-006	-0.464317	9
	4	12	63105.5	132.415	-2.47917	1	132.438	-1.07261	3.55609E-006	-0.464332	9
	5	14	56243.5	132.603	-3.0178	1	132.638	-1.30372	3.66123E-006	-0.464318	9
	6	16	50123.7	132.179	-3.29963	1	132.22	-1.43	3.76674E-006	-0.464324	9
	7	18	44681	132.217	-3.85179	1	132.273	-1.66869	3.69401E-006	-0.464351	9
	8	20	39811.2	132.27	-4.31467	1	132.34	-1.86833	3.67284E-006	-0.46432	9
	9	22	35488.3	132.341	-4.71502	1	132.425	-2.04047	3.93045E-006	-0.464341	9
	10	24	31634.1	132.382	-5.28412	1	132.488	-2.28578	3.77951E-006	-0.464325	9
	11	26	28173.1	132.364	-6.06181	1	132.502	-2.62212	3.88618E-006	-0.464324	9
	12	28	25123.7	132.402	-6.64459	1	132.568	-2.87298	3.77199E-006	-0.464347	9
	13	30	22389.3	132.626	-7.26197	1	132.825	-3.13411	3.77726E-006	-0.464342	9
	14	31	19954.4	132.842	-7.9084	1	133.077	-3.40694	3.99892E-006	-0.46436	9
	15	33	17778.2	133.083	-8.93748	1	133.383	-3.84205	3.62098E-006	-0.464348	9
	16	35	15852.9	133.304	-9.6832	1	133.655	-4.15467	3.84768E-006	-0.46436	9
	17	37	14122.3	133.473	-10.5491	1	133.889	-4.51899	3.5019E-006	-0.464348	9
	18	39	12587.2	133.673	-11.7806	1	134.191	-5.03647	3.77007E-006	-0.464334	9
	19	41	11221.1	134.215	-13.0388	1	134.847	-5.54879	3.63762E-006	-0.464342	9
	20	43	9998.2	134.632	-14.162	1	135.374	-6.00489	3.62284E-006	-0.464337	9
	21	45	8912.76	134.874	-15.4331	1	135.754	-6.52775	3.70099E-006	-0.464335	9
	22	47	7942.6	135.245	-17.0124	1	136.311	-7.16953	3.4941E-006	-0.464338	9
	23	49	7078.05	135.602	-18.7472	1	136.892	-7.87133	3.43278E-006	-0.464335	9
	24	51	6311.1	135.842	-20.9166	1	137.443	-8.7535	3.46101E-006	-0.464334	9
	25	53	5622.14	136.638	-22.9116	1	138.546	-9.5188	3.45242E-006	-0.464324	9
	26	55	5011.18	137	-25.0128	1	139.264	-10.3469	3.60329E-006	-0.464343	9
	27	57	4465.21	137.685	-27.7084	1	140.445	-11.3785	3.50148E-006	-0.464329	9
	28	59	3980.93	138.439	-30.6733	1	141.796	-12.4929	3.74024E-006	-0.464348	9
	29	61	3548.18	138.961	-33.6781	1	142.984	-13.6233	3.60207E-006	-0.464352	9
	30	63	3162.67	139.59	-36.9941	1	144.409	-14.8433	3.54795E-006	-0.464336	9
	31	65	2819.01	140.57	-41.0954	1	146.454	-16.2962	3.56218E-006	-0.464347	9
	32	67	2511.16	141.388	-45.2016	1	148.438	-17.729	3.45506E-006	-0.464327	9
	33	69	2238.63	142.434	-49.8738	1	150.913	-19.2979	3.23585E-006	-0.464335	9
	34	71	1995.37	143.08	-55.1051	1	153.324	-21.0635	3.33345E-006	-0.464328	9
	35	73	1778.51	144.479	-61.0237	1	156.838	-22.8977	3.42042E-006	-0.464327	9
	36	75	1584.49	145.608	-66.905	1	160.244	-24.6781	3.43845E-006	-0.464335	9
	37	77	1412.76	147.219	-73.8748	1	164.715	-26.6475	3.37312E-006	-0.464334	9
	38	79	1259.04	148.821	-81.4606	1	169.657	-28.6952	3.29779E-006	-0.46433	9
	39	80	1121.63	150.12	-90.3488	1	175.211	-31.0413	3.3712E-006	-0.464327	9
	40	82	999.95	151.954	-99.614	1	181.694	-33.247	3.43034E-006	-0.464329	9
	41	84	891.184	153.944	-110.456	1	189.471	-35.6597	3.51818E-006	-0.464335	9
	42	86	794.163	156.098	-121.662	1	197.91	-37.9328	3.44015E-006	-0.464338	9
	43	88	707.867	158.188	-134.577	1	207.688	-40.3892	3.54163E-006	-0.464343	9
	44	90	630.984	160.687	-149.209	1	219.28	-42.8789	3.44309E-006	-0.464328	9
	45	92	562.189	163.335	-165.3	1	232.385	-45.3426	3.42407E-006	-0.464341	9
	46	94	501.303	166.471	-182.542	1	247.051	-47.6364	3.50868E-006	-0.464331	9
	47	96	446.614	169.669	-202.187	1	263.946	-49.9977	3.60529E-006	-0.464334	9
	48	98	398.209	173.151	-223.863	1	283.013	-52.2792	3.57131E-006	-0.464334	9
	49	100	354.821	177.044	-248.043	1	304.745	-54.4821	3.52204E-006	-0.464332	9
	50	102	316.113	181.264	-274.921	1	329.299	-56.6019	3.47634E-006	-0.464331	9
	51	104	281.926	186.011	-304.493	1	356.814	-58.5797	3.59687E-006	-0.464333	9
	52	106	251.185	191.295	-337.698	1	388.116	-60.4698	3.54323E-006	-0.464332	9
	53	108	223.946	197.022	-374.292	1	422.98	-62.2383	3.55095E-006	-0.464332	9
	54	110	199.495	203.461	-415.268	1	462.432	-63.8974	3.47063E-006	-0.464334	9
	55	112	177.836	210.522	-460.547	1	506.382	-65.4342	3.3759E-006	-0.464335	9
	56	114	158.533	218.656	-510.87	1	555.696	-66.8287	3.45671E-006	-0.464341	9
	57	116	141.263	227.353	-566.915	1	610.804	-68.1475	3.28304E-006	-0.464345	9
	58	118	125.911	237.239	-629.089	1	672.336	-69.3378	3.28634E-006	-0.464342	9
	59	120	112.198	248.328	-698.078	1	740.931	-70.418	3.22538E-006	-0.464345	9
	60	122	100.009	261.654	-774.779	1	817.768	-71.3395	3.54244E-006	-0.464341	9
	61	124	89.1164	276.61	-860.195	1	903.575	-72.174	3.66835E-006	-0.464337	9
	62	126	79.4083	290.883	-954.46	1	997.8	-73.0508	3.47802E-006	-0.464337	9
	63	128	70.788	309.735	-1059.67	1	1104.01	-73.7068	3.40411E-006	-0.464339	9
	64	130	63.0971	329.347	-1175.97	1	1221.22	-74.3544	2.61868E-006	-0.464336	8
	65	132	54.5476	359.97	-1343.24	1	1390.64	-74.998	2.5685E-006	-0.464341	8
	66	134	50.0083	380.719	-1452.63	1	1501.69	-75.3137	2.64012E-006	-0.464346	8
	67	137	46.1675	400.234	-1563.31	1	1613.73	-75.6397	2.57588E-006	-0.464346	8
	68	139	40.0059	446.078	-1778.83	1	1833.91	-75.9222	2.64526E-006	-0.464345	8
	69	141	35.3046	490.881	-1995.03	1	2054.54	-76.1769	2.62095E-006	-0.464346	8
	70	143	31.5793	537.21	-2203.13	1	2267.68	-76.2964	2.63599E-006	-0.464341	8
	71	145	28.5748	581.492	-2412.26	1	2481.36	-76.447	2.6287E-006	-0.464338	8
	72	147	24.9911	662.698	-2726.77	1	2806.15	-76.34	2.54336E-006	-0.464336	8
	73	149	22.2195	706.014	-3023.53	1	3104.86	-76.8566	2.21791E-006	-0.464338	8
	74	152	20.0011	828.731	-3328.64	1	3430.26	-76.0193	2.44247E-006	-0.464335	8
	75	154	17.6486	931.189	-3738.05	1	3852.29	-76.0117	2.35248E-006	-0.464336	8
	76	156	15.7934	1049.37	-4127.69	1	4259	-75.7361	2.65048E-006	-0.464334	8
	77	159	14.2828	1193.81	-4490.86	1	4646.83	-75.1133	2.78879E-006	-0.464339	8
	78	161	12.5002	1380.45	-5047.65	1	5233.01	-74.7045	2.75727E-006	-0.464326	8
	79	163	11.323	1634.79	-5497.67	1	5735.58	-73.4396	2.84699E-006	-0.464326	8
	80	166	9.9987	1829.63	-6124.16	1	6391.63	-73.3661	2.61247E-006	-0.464324	8
