EXPLAIN
TAG	EISPOT
TITLE	LABEL	Tomato_open	Test &Identifier
DATE	LABEL	5/12/2006	Date
TIME	LABEL	18:05:16	Time
NOTES	NOTES	1	&Notes...
	
PSTAT	PSTAT	300	Potentiostat
VDC	POTEN	1.00000E-001	T	DC &Voltage (V)
FREQINIT	QUANT	1.00000E+005	Initial Fre&q. (Hz)
FREQFINAL	QUANT	1.00000E+001	Final Fre&q. (Hz)
PTSPERDEC	QUANT	2.00000E+001	Points/&decade
VAC	QUANT	1.00000E+001	AC &Voltage (mV rms)
AREA	QUANT	1.00000E+000	&Area (cm²)
DENSITY	QUANT	7.87000E+000	&Density (gm/cm³)
EQUIV	QUANT	7.00000E+000	Equiv. &Wt
CONDIT	TWOPARAM	F	1.50000E+001	0.00000E+000	Conditionin&g	Time(s)	E(V)
DELAY	TWOPARAM	F	6.00000E+002	0.00000E+000	Init. De&lay	Time(s)	Stab.(mV/s)
SPEED	SELECTOR	1	&Optimize for:
ZGUESS	QUANT	1.00000E+002	E&stimated Z (ohms)
OCVCURVE	TABLE	39
	Pt	T	Vf	Vm	Ach	Over
	#	s	V vs. Ref.	V	V	bits
	0	0.258332	-5.31569E-001	5.02376E-006	3.36600E-004	......
	1	0.516663	-5.33119E-001	5.02376E-006	-6.34000E-005	......
	2	0.774994	-5.35069E-001	5.02376E-006	1.36600E-004	......
	3	1.03333	-5.32070E-001	5.02376E-006	3.66000E-005	......
	4	1.29166	-5.27219E-001	5.02376E-006	2.36600E-004	......
	5	1.54999	-5.24219E-001	5.02376E-006	3.66000E-005	......
	6	1.80832	-5.23619E-001	5.02376E-006	3.66000E-005	......
	7	2.06665	-5.24870E-001	5.02376E-006	-6.34000E-005	......
	8	2.32498	-5.24870E-001	5.02376E-006	1.36600E-004	......
	9	2.58332	-5.21670E-001	5.02376E-006	3.66000E-005	......
	10	2.84165	-5.17370E-001	5.02376E-006	1.36600E-004	......
	11	3.09998	-5.11819E-001	5.02376E-006	-6.34000E-005	......
	12	3.35831	-5.09769E-001	5.02376E-006	1.36600E-004	......
	13	3.61664	-5.11069E-001	5.02376E-006	-6.34000E-005	......
	14	3.87497	-5.06970E-001	5.02376E-006	1.36600E-004	......
	15	4.1333	-5.04019E-001	5.02376E-006	-6.34000E-005	......
	16	4.39164	-5.00069E-001	5.02376E-006	2.36600E-004	......
	17	4.64997	-5.04070E-001	5.02376E-006	3.66000E-005	......
	18	4.9083	-5.03919E-001	5.02376E-006	2.36600E-004	......
	19	5.16663	-5.02769E-001	5.02376E-006	3.66000E-005	......
	20	5.42496	-5.04770E-001	5.02376E-006	2.36600E-004	......
	21	5.68329	-5.07169E-001	5.02376E-006	3.66000E-005	......
	22	5.94162	-5.05619E-001	5.02376E-006	2.36600E-004	......
	23	6.19996	-5.08669E-001	5.02376E-006	3.66000E-005	......
	24	6.45829	-5.05769E-001	5.02376E-006	2.36600E-004	......
	25	6.71662	-5.06769E-001	5.02376E-006	-6.34000E-005	......
	26	6.97495	-5.03670E-001	5.02376E-006	2.36600E-004	......
	27	7.23328	-5.02769E-001	5.02376E-006	2.36600E-004	......
	28	7.49161	-5.01719E-001	5.02376E-006	2.36600E-004	......
	29	7.74995	-4.99719E-001	5.02376E-006	3.66000E-005	......
	30	8.00828	-4.97919E-001	5.02376E-006	3.36600E-004	......
	31	8.26661	-4.96819E-001	5.02376E-006	3.66000E-005	......
	32	8.52494	-4.97669E-001	5.02376E-006	2.36600E-004	......
	33	8.78327	-4.97619E-001	5.02376E-006	3.66000E-005	......
	34	9.0416	-4.98369E-001	5.02376E-006	2.36600E-004	......
	35	9.29993	-4.98669E-001	5.02376E-006	-6.34000E-005	......
	36	9.5583	-4.98519E-001	5.02376E-006	2.36600E-004	......
	37	9.8166	-4.98219E-001	5.02376E-006	3.66000E-005	......
	38	10.0749	-4.99169E-001	5.02376E-006	2.36600E-004	......
EOC	QUANT	-0.499169	Open Circuit (V)
PSTATMODEL	IQUANT	32	Pstat Model
PSTATSECTION	LABEL	PStat0	Pstat Section
CTRLMODE	IQUANT	1	Control Mode
IESTAB	IQUANT	0	I/E Stability
CASPEED	IQUANT	1	Control Amp Speed
CONVENTION	IQUANT	1	Current Convention
ICHRANGE	IQUANT	2	Ich Range
ICHRANGEMODE	TOGGLE	F	Ich Auto Range
ICHOFFSETENABLE	TOGGLE	T	Ich Offset Enable
ICHOFFSET	QUANT	0	Ich Offset (V)
ICHFILTER	IQUANT	3	Ich Filter
VCHRANGE	IQUANT	2	Vch Range
VCHRANGEMODE	TOGGLE	F	Vch Auto Range
VCHOFFSETENABLE	TOGGLE	T	Vch Offset Enable
VCHOFFSET	QUANT	0	Vch Offset (V)
VCHFILTER	IQUANT	3	Vch Filter
ACHRANGE	IQUANT	0	Ach Range
IERANGELOWERLIMIT	IQUANT	3	I/E Range Lower Limit
IERANGEMODE	TOGGLE	F	I/E AutoRange
IERANGE	IQUANT	11	I/E Range
POSFEEDENABLE	TOGGLE	F	Positive Feedback IR Comp
POSFEEDRESISTANCE	QUANT	0	Positive Feedback Resistance (ohm)
FC350IDIVISOR	IQUANT	0	FC350 I Divisor
FC350VRANGE	IQUANT	0	FC350 V Range
FRAMEWORKVERSION	QUANT	4.35	Framework Version
ZCURVE	TABLE
	Pt	Time	Freq	Zreal	Zimag	Zsig	Zmod	Zphz	Idc	Vdc	IERange
	#	s	Hz	ohm	ohm	V	ohm	°	A	V	#
	0	4	100007	157.62	-0.894188	1	157.622	-0.325039	1.7631E-006	-0.399092	9
	1	6	89134.1	156.788	-1.39229	1	156.794	-0.508777	2.28253E-006	-0.399125	9
	2	8	79433.6	156.261	-1.88161	1	156.272	-0.689891	3.8771E-006	-0.399122	9
	3	10	70800.8	155.917	-2.54655	1	155.938	-0.935713	3.00052E-006	-0.399096	9
	4	12	63105.5	155.753	-2.77508	1	155.778	-1.02074	2.6027E-006	-0.399135	9
	5	14	56243.5	156.032	-2.98319	1	156.06	-1.09531	2.35674E-006	-0.399092	9
	6	15	50123.7	155.676	-3.86258	1	155.724	-1.42131	2.2449E-006	-0.399099	9
	7	17	44681	155.653	-4.08967	1	155.706	-1.50506	2.20599E-006	-0.399118	9
	8	19	39811.2	155.822	-4.40995	1	155.884	-1.62111	2.05462E-006	-0.399126	9
	9	21	35488.3	155.593	-5.01952	1	155.674	-1.84775	2.02557E-006	-0.399125	9
	10	23	31634.1	155.608	-5.69543	1	155.712	-2.09616	2.47579E-006	-0.399137	9
	11	25	28173.1	156.11	-6.16731	1	156.232	-2.26236	2.65543E-006	-0.39912	9
	12	27	25123.7	155.9	-6.88366	1	156.052	-2.52821	2.94187E-006	-0.39911	9
	13	29	22389.3	156.122	-7.65943	1	156.31	-2.80871	3.11249E-006	-0.399126	9
	14	31	19954.4	156.277	-8.59285	1	156.513	-3.14723	3.29787E-006	-0.399135	9
	15	33	17778.2	156.92	-9.27216	1	157.193	-3.38159	2.74188E-006	-0.399117	9
	16	35	15852.9	156.89	-10.3269	1	157.229	-3.76591	2.81568E-006	-0.399122	9
	17	37	14122.3	157.131	-11.4538	1	157.548	-4.16908	3.30692E-006	-0.39912	9
	18	39	12587.2	157.343	-12.1654	1	157.812	-4.4212	3.18698E-006	-0.39912	9
	19	41	11221.1	157.651	-13.7113	1	158.246	-4.97067	3.52585E-006	-0.399111	9
	20	43	9998.2	158.189	-14.8378	1	158.883	-5.35858	3.06315E-006	-0.399117	9
	21	45	8912.76	158.508	-16.2318	1	159.337	-5.8469	3.23274E-006	-0.399115	9
	22	47	7942.6	158.986	-18.009	1	160.003	-6.46259	3.11281E-006	-0.399109	9
	23	49	7078.05	159.232	-19.8463	1	160.464	-7.10458	3.10904E-006	-0.399119	9
	24	51	6311.1	159.628	-21.681	1	161.093	-7.73471	2.9029E-006	-0.399113	9
	25	53	5622.14	160.481	-23.9189	1	162.253	-8.47725	3.13027E-006	-0.399122	9
	26	55	5011.18	161.099	-26.2968	1	163.231	-9.27085	3.20048E-006	-0.399114	9
	27	57	4465.21	161.651	-28.8308	1	164.202	-10.1125	3.2332E-006	-0.399118	9
	28	59	3980.93	162.339	-31.7861	1	165.422	-11.0784	3.14954E-006	-0.39912	9
	29	61	3548.18	163.032	-35.0522	1	166.758	-12.134	3.22148E-006	-0.399127	9
	30	63	3162.67	163.901	-38.5674	1	168.378	-13.2413	3.55171E-006	-0.399128	9
	31	65	2819.01	164.799	-42.4891	1	170.189	-14.4573	3.52026E-006	-0.399109	9
	32	67	2511.16	165.825	-46.8941	1	172.328	-15.7906	3.57282E-006	-0.399112	9
	33	68	2238.63	167.101	-51.5174	1	174.862	-17.1346	3.6241E-006	-0.399125	9
	34	70	1995.37	168.152	-56.7119	1	177.458	-18.6375	3.92251E-006	-0.399131	9
	35	72	1778.51	169.625	-62.6545	1	180.826	-20.2728	3.81043E-006	-0.399127	9
	36	74	1584.49	170.84	-69.1103	1	184.289	-22.0249	3.49403E-006	-0.399125	9
	37	76	1412.76	172.349	-76.1456	1	188.421	-23.8364	3.85968E-006	-0.399115	9
	38	78	1259.04	174.153	-84.3053	1	193.486	-25.831	4.16517E-006	-0.399124	9
	39	80	1121.63	175.921	-92.63	1	198.818	-27.7687	3.68323E-006	-0.399117	9
	40	82	999.95	178.133	-102.175	1	205.356	-29.8381	3.87056E-006	-0.39913	9
	41	84	891.184	180.04	-112.687	1	212.398	-32.0424	3.64606E-006	-0.399117	9
	42	86	794.163	182.115	-123.829	1	220.226	-34.2136	3.78099E-006	-0.399117	9
	43	88	707.867	185.112	-136.871	1	230.217	-36.4792	3.85142E-006	-0.399138	9
	44	90	630.984	187.771	-151.109	1	241.023	-38.8255	3.5416E-006	-0.399125	9
	45	92	562.189	190.685	-166.776	1	253.328	-41.1734	3.77268E-006	-0.399127	9
	46	94	501.303	194.188	-184.557	1	267.9	-43.5433	3.36429E-006	-0.399118	9
	47	96	446.614	197.721	-204.043	1	284.125	-45.9015	3.58593E-006	-0.399125	9
	48	98	398.209	201.557	-225.51	1	302.457	-48.2102	3.66238E-006	-0.399125	9
	49	100	354.821	205.842	-249.398	1	323.373	-50.4652	3.69674E-006	-0.399123	9
	50	102	316.113	210.544	-275.956	1	347.103	-52.6578	3.77834E-006	-0.39912	9
	51	104	281.926	215.617	-305.191	1	373.674	-54.7588	3.58982E-006	-0.399117	9
	52	106	251.185	221.255	-337.867	1	403.866	-56.7809	3.62996E-006	-0.399116	9
	53	108	223.946	227.515	-373.926	1	437.703	-58.6815	3.70938E-006	-0.39912	9
	54	110	199.495	234.502	-414.302	1	476.064	-60.4894	3.81982E-006	-0.399111	9
	55	112	177.836	242.019	-458.871	1	518.783	-62.1918	3.59134E-006	-0.399112	9
	56	114	158.533	250.431	-508.231	1	566.581	-63.7682	3.61069E-006	-0.399109	9
	57	116	141.263	259.808	-563.282	1	620.311	-65.239	3.52018E-006	-0.399115	9
	58	118	125.911	270.423	-624.409	1	680.452	-66.5833	3.57136E-006	-0.399112	9
	59	120	112.198	282.124	-692.113	1	747.406	-67.8228	3.43455E-006	-0.399109	9
	60	122	100.009	294.983	-767.325	1	822.072	-68.9718	3.42387E-006	-0.399114	9
	61	124	89.1164	309.589	-850.842	1	905.416	-70.0055	3.4249E-006	-0.399111	9
	62	126	79.4083	326.665	-943.467	1	998.42	-70.9022	3.54408E-006	-0.399107	9
	63	128	70.788	345.428	-1046.36	1	1101.9	-71.7307	3.55534E-006	-0.399108	9
	64	130	63.0971	367.981	-1159.05	1	1216.06	-72.3861	2.93395E-006	-0.399107	8
	65	132	54.5476	399.336	-1321.43	1	1380.45	-73.1852	3.01903E-006	-0.399105	8
	66	134	50.0083	418.698	-1428.84	1	1488.93	-73.6677	2.83355E-006	-0.399112	8
	67	136	46.1675	441.103	-1534.75	1	1596.88	-73.9648	2.91519E-006	-0.399111	8
	68	139	40.0059	483.852	-1746.31	1	1812.1	-74.5135	2.85089E-006	-0.399112	8
	69	141	35.3046	527.578	-1954.91	1	2024.84	-74.8972	2.70125E-006	-0.399114	8
	70	143	31.5793	570.039	-2160.95	1	2234.87	-75.2225	2.68797E-006	-0.399108	8
	71	145	28.5748	615.755	-2361.89	1	2440.84	-75.388	2.757E-006	-0.399107	8
	72	147	24.9911	692.862	-2663.64	1	2752.28	-75.4194	2.65027E-006	-0.39911	8
	73	149	22.2195	763.897	-2952.84	1	3050.05	-75.4956	2.70224E-006	-0.399114	8
	74	152	20.0011	823.404	-3255.68	1	3358.19	-75.8068	2.64443E-006	-0.399111	8
	75	154	17.6486	929.435	-3638.24	1	3755.08	-75.6695	2.46804E-006	-0.39911	8
	76	156	15.7934	1055.88	-4010.92	1	4147.57	-75.2515	2.52284E-006	-0.399108	8
	77	158	14.2828	1146.36	-4380.8	1	4528.31	-75.3358	2.39271E-006	-0.39911	8
	78	161	12.5002	1328.01	-4937.13	1	5112.62	-74.9447	2.35977E-006	-0.399106	8
	79	163	11.323	1484.56	-5396.42	1	5596.9	-74.6184	2.43325E-006	-0.399115	8
	80	166	9.9987	1696.67	-6021.54	1	6256.01	-74.2639	2.53968E-006	-0.399105	8
