EXPLAIN
TAG	EISPOT
TITLE	LABEL	Tomato_open	Test &Identifier
DATE	LABEL	5/12/2006	Date
TIME	LABEL	18:10:17	Time
NOTES	NOTES	1	&Notes...
	
PSTAT	PSTAT	300	Potentiostat
VDC	POTEN	1.00000E-001	T	DC &Voltage (V)
FREQINIT	QUANT	1.00000E+005	Initial Fre&q. (Hz)
FREQFINAL	QUANT	1.00000E+001	Final Fre&q. (Hz)
PTSPERDEC	QUANT	2.00000E+001	Points/&decade
VAC	QUANT	1.00000E+001	AC &Voltage (mV rms)
AREA	QUANT	1.00000E+000	&Area (cm²)
DENSITY	QUANT	7.87000E+000	&Density (gm/cm³)
EQUIV	QUANT	7.00000E+000	Equiv. &Wt
CONDIT	TWOPARAM	F	1.50000E+001	0.00000E+000	Conditionin&g	Time(s)	E(V)
DELAY	TWOPARAM	F	6.00000E+002	0.00000E+000	Init. De&lay	Time(s)	Stab.(mV/s)
SPEED	SELECTOR	1	&Optimize for:
ZGUESS	QUANT	1.00000E+002	E&stimated Z (ohms)
OCVCURVE	TABLE	39
	Pt	T	Vf	Vm	Ach	Over
	#	s	V vs. Ref.	V	V	bits
	0	0.258332	-5.22070E-001	4.63934E-006	2.36600E-004	......
	1	0.516663	-5.37069E-001	4.63934E-006	2.36600E-004	......
	2	0.774994	-5.48919E-001	4.63934E-006	3.36600E-004	......
	3	1.03333	-5.54669E-001	4.63934E-006	1.36600E-004	......
	4	1.29166	-5.55319E-001	4.63934E-006	2.36600E-004	......
	5	1.54999	-5.66369E-001	4.63934E-006	2.36600E-004	......
	6	1.80832	-5.60119E-001	4.63934E-006	2.36600E-004	......
	7	2.06665	-5.66769E-001	4.63934E-006	3.36600E-004	......
	8	2.32498	-5.67869E-001	4.63934E-006	3.36600E-004	......
	9	2.58332	-5.68770E-001	4.63934E-006	3.36600E-004	......
	10	2.84165	-5.70169E-001	4.63934E-006	2.36600E-004	......
	11	3.09998	-5.67219E-001	4.63934E-006	2.36600E-004	......
	12	3.35831	-5.67020E-001	4.63934E-006	3.36600E-004	......
	13	3.61664	-5.68269E-001	4.63934E-006	1.36600E-004	......
	14	3.87497	-5.57019E-001	4.63934E-006	2.36600E-004	......
	15	4.1333	-5.58619E-001	4.63934E-006	2.36600E-004	......
	16	4.39164	-5.57869E-001	4.63934E-006	1.36600E-004	......
	17	4.64997	-5.49419E-001	4.63934E-006	2.36600E-004	......
	18	4.9083	-5.47919E-001	4.63934E-006	2.36600E-004	......
	19	5.16663	-5.42069E-001	4.63934E-006	2.36600E-004	......
	20	5.42496	-5.52069E-001	4.63934E-006	3.36600E-004	......
	21	5.68329	-5.59370E-001	4.63934E-006	2.36600E-004	......
	22	5.94162	-5.63619E-001	4.63934E-006	2.36600E-004	......
	23	6.19996	-5.67620E-001	4.63934E-006	1.36600E-004	......
	24	6.45829	-5.63819E-001	4.63934E-006	3.36600E-004	......
	25	6.71662	-5.67620E-001	4.63934E-006	3.36600E-004	......
	26	6.97495	-5.70419E-001	4.63934E-006	3.36600E-004	......
	27	7.23328	-5.72469E-001	4.63934E-006	2.36600E-004	......
	28	7.49161	-5.63469E-001	4.63934E-006	3.36600E-004	......
	29	7.74995	-5.66769E-001	4.63934E-006	2.36600E-004	......
	30	8.00828	-5.65669E-001	4.63934E-006	2.36600E-004	......
	31	8.26661	-5.62319E-001	4.63934E-006	3.36600E-004	......
	32	8.52494	-5.67319E-001	4.63934E-006	2.36600E-004	......
	33	8.78327	-5.69869E-001	4.63934E-006	3.66000E-005	......
	34	9.0416	-5.71220E-001	4.63934E-006	3.36600E-004	......
	35	9.29993	-5.72319E-001	4.63934E-006	1.36600E-004	......
	36	9.5583	-5.73919E-001	4.63934E-006	3.36600E-004	......
	37	9.8166	-5.74870E-001	4.63934E-006	2.36600E-004	......
	38	10.0749	-5.75069E-001	4.63934E-006	2.36600E-004	......
EOC	QUANT	-0.575069	Open Circuit (V)
PSTATMODEL	IQUANT	32	Pstat Model
PSTATSECTION	LABEL	PStat0	Pstat Section
CTRLMODE	IQUANT	1	Control Mode
IESTAB	IQUANT	0	I/E Stability
CASPEED	IQUANT	1	Control Amp Speed
CONVENTION	IQUANT	1	Current Convention
ICHRANGE	IQUANT	2	Ich Range
ICHRANGEMODE	TOGGLE	F	Ich Auto Range
ICHOFFSETENABLE	TOGGLE	T	Ich Offset Enable
ICHOFFSET	QUANT	0	Ich Offset (V)
ICHFILTER	IQUANT	3	Ich Filter
VCHRANGE	IQUANT	2	Vch Range
VCHRANGEMODE	TOGGLE	F	Vch Auto Range
VCHOFFSETENABLE	TOGGLE	T	Vch Offset Enable
VCHOFFSET	QUANT	0	Vch Offset (V)
VCHFILTER	IQUANT	3	Vch Filter
ACHRANGE	IQUANT	0	Ach Range
IERANGELOWERLIMIT	IQUANT	3	I/E Range Lower Limit
IERANGEMODE	TOGGLE	F	I/E AutoRange
IERANGE	IQUANT	11	I/E Range
POSFEEDENABLE	TOGGLE	F	Positive Feedback IR Comp
POSFEEDRESISTANCE	QUANT	0	Positive Feedback Resistance (ohm)
FC350IDIVISOR	IQUANT	0	FC350 I Divisor
FC350VRANGE	IQUANT	0	FC350 V Range
FRAMEWORKVERSION	QUANT	4.35	Framework Version
ZCURVE	TABLE
	Pt	Time	Freq	Zreal	Zimag	Zsig	Zmod	Zphz	Idc	Vdc	IERange
	#	s	Hz	ohm	ohm	V	ohm	°	A	V	#
	0	4	100007	147.368	-1.19742	1	147.373	-0.465537	2.18934E-006	-0.474987	9
	1	6	89134.1	147.083	-1.25832	1	147.089	-0.490163	2.39298E-006	-0.474985	9
	2	8	79433.6	146.576	-1.77561	1	146.587	-0.694044	2.73696E-006	-0.474984	9
	3	10	70800.8	146.125	-2.17734	1	146.141	-0.853674	2.84767E-006	-0.475002	9
	4	12	63105.5	145.861	-2.72962	1	145.887	-1.0721	2.99912E-006	-0.475007	9
	5	14	56243.5	145.903	-2.85828	1	145.931	-1.1223	3.03156E-006	-0.474997	9
	6	16	50123.7	145.639	-3.42928	1	145.68	-1.34886	3.40087E-006	-0.475016	9
	7	18	44681	145.653	-3.67853	1	145.7	-1.44672	3.11803E-006	-0.475016	9
	8	20	39811.2	145.671	-4.25601	1	145.733	-1.67351	2.94818E-006	-0.475015	9
	9	22	35488.3	145.434	-4.885	1	145.516	-1.92379	2.75856E-006	-0.474996	9
	10	23	31634.1	145.25	-5.25653	1	145.345	-2.07261	2.61735E-006	-0.474977	9
	11	25	28173.1	145.517	-6.20872	1	145.65	-2.44313	2.71538E-006	-0.475004	9
	12	27	25123.7	145.68	-6.71454	1	145.835	-2.63895	2.7679E-006	-0.475016	9
	13	29	22389.3	145.803	-7.41477	1	145.992	-2.91125	2.7699E-006	-0.474992	9
	14	31	19954.4	145.773	-7.97371	1	145.991	-3.13093	2.98988E-006	-0.474996	9
	15	33	17778.2	145.885	-8.92159	1	146.157	-3.49957	2.97001E-006	-0.474992	9
	16	35	15852.9	146.22	-9.8454	1	146.551	-3.85207	2.69538E-006	-0.474967	9
	17	37	14122.3	146.457	-10.7454	1	146.851	-4.1962	2.56052E-006	-0.474991	9
	18	39	12587.2	146.56	-11.961	1	147.047	-4.66568	2.53806E-006	-0.474994	9
	19	41	11221.1	146.8	-13.0937	1	147.383	-5.09696	2.68065E-006	-0.474987	9
	20	43	9998.2	147.048	-14.329	1	147.745	-5.56557	2.87926E-006	-0.474985	9
	21	45	8912.76	147.382	-15.7284	1	148.219	-6.09145	2.62435E-006	-0.47497	9
	22	47	7942.6	147.789	-17.506	1	148.822	-6.75538	2.88401E-006	-0.47499	9
	23	49	7078.05	147.974	-18.7798	1	149.161	-7.23287	2.82179E-006	-0.474989	9
	24	51	6311.1	148.41	-20.7423	1	149.852	-7.95634	2.86032E-006	-0.474997	9
	25	53	5622.14	148.869	-22.9817	1	150.633	-8.77578	2.78317E-006	-0.47499	9
	26	55	5011.18	149.331	-25.4479	1	151.484	-9.671	2.55443E-006	-0.474978	9
	27	57	4465.21	149.609	-27.8121	1	152.173	-10.531	2.44204E-006	-0.474985	9
	28	59	3980.93	150.405	-30.6517	1	153.497	-11.5188	2.60773E-006	-0.474992	9
	29	61	3548.18	151.163	-33.9541	1	154.93	-12.6596	2.35009E-006	-0.474978	9
	30	63	3162.67	151.726	-37.122	1	156.201	-13.7482	2.59052E-006	-0.474998	9
	31	65	2819.01	152.494	-40.9974	1	157.909	-15.048	2.40028E-006	-0.474968	9
	32	67	2511.16	153.174	-45.4892	1	159.786	-16.5402	2.36854E-006	-0.474984	9
	33	69	2238.63	154.258	-50.0489	1	162.174	-17.9756	2.38324E-006	-0.474986	9
	34	71	1995.37	155.042	-55.309	1	164.612	-19.6331	2.47813E-006	-0.47498	9
	35	73	1778.51	156.488	-60.7072	1	167.851	-21.203	2.48276E-006	-0.474991	9
	36	75	1584.49	157.487	-67.1855	1	171.219	-23.1036	2.36951E-006	-0.474983	9
	37	76	1412.76	158.974	-74.0581	1	175.378	-24.9784	2.49195E-006	-0.475002	9
	38	78	1259.04	160.437	-81.7979	1	180.086	-27.0145	2.36621E-006	-0.474984	9
	39	80	1121.63	162.021	-90.5599	1	185.612	-29.2026	2.3621E-006	-0.474992	9
	40	82	999.95	163.711	-99.829	1	191.748	-31.3743	2.57034E-006	-0.474998	9
	41	84	891.184	165.447	-110.461	1	198.932	-33.7292	2.78356E-006	-0.474999	9
	42	86	794.163	167.699	-122.179	1	207.487	-36.0757	2.62817E-006	-0.474998	9
	43	88	707.867	169.64	-134.799	1	216.676	-38.4713	2.36049E-006	-0.474984	9
	44	90	630.984	172.656	-148.935	1	228.017	-40.7813	2.51218E-006	-0.474988	9
	45	92	562.189	174.685	-165	1	240.292	-43.3669	2.68467E-006	-0.475013	9
	46	94	501.303	178.039	-182.439	1	254.916	-45.6994	2.50268E-006	-0.474992	9
	47	96	446.614	181.196	-202.041	1	271.39	-48.1133	2.64303E-006	-0.47499	9
	48	98	398.209	184.678	-223.649	1	290.043	-50.4517	2.69751E-006	-0.474992	9
	49	100	354.821	188.598	-247.754	1	311.37	-52.7204	2.76881E-006	-0.474989	9
	50	102	316.113	192.854	-274.563	1	335.526	-54.9156	2.65667E-006	-0.474989	9
	51	104	281.926	197.483	-304.053	1	362.557	-56.9962	2.37901E-006	-0.47499	9
	52	106	251.185	202.85	-337.077	1	393.407	-58.9608	2.65506E-006	-0.474994	9
	53	108	223.946	208.542	-373.491	1	427.768	-60.8228	2.45103E-006	-0.47499	9
	54	110	199.495	214.993	-414.263	1	466.729	-62.5717	2.54995E-006	-0.474996	9
	55	112	177.836	222.35	-459.32	1	510.308	-64.1691	2.73746E-006	-0.474999	9
	56	114	158.533	230.422	-509.251	1	558.955	-65.6545	2.65225E-006	-0.475002	9
	57	116	141.263	239.285	-565.054	1	613.631	-67.0487	2.67972E-006	-0.474995	9
	58	118	125.911	249.333	-626.848	1	674.615	-68.3095	2.71335E-006	-0.474998	9
	59	120	112.198	260.4	-695.609	1	742.752	-69.4767	2.65921E-006	-0.47501	9
	60	122	100.009	273.174	-771.712	1	818.635	-70.5069	2.748E-006	-0.475004	9
	61	124	89.1164	286.979	-856.303	1	903.112	-71.4721	2.74248E-006	-0.475004	9
	62	126	79.4083	302.658	-950.73	1	997.74	-72.3415	2.68754E-006	-0.475002	9
	63	128	70.788	319.962	-1054.78	1	1102.24	-73.125	2.72314E-006	-0.475004	9
	64	130	63.0971	340.048	-1169.12	1	1217.57	-73.7825	2.02804E-006	-0.475008	8
	65	132	54.5476	370.196	-1334.68	1	1385.07	-74.4978	1.92929E-006	-0.475005	8
	66	134	50.0083	391.313	-1443.64	1	1495.74	-74.8339	1.98339E-006	-0.475003	8
	67	136	46.1675	411.568	-1552.16	1	1605.79	-75.1493	1.93925E-006	-0.475003	8
	68	139	40.0059	455.958	-1766.85	1	1824.74	-75.5298	1.9563E-006	-0.475	8
	69	141	35.3046	495.13	-1978.4	1	2039.41	-75.9493	1.87732E-006	-0.475002	8
	70	143	31.5793	538.358	-2189.65	1	2254.86	-76.187	1.80787E-006	-0.474993	8
	71	145	28.5748	583.683	-2397.91	1	2467.93	-76.3195	1.75772E-006	-0.474994	8
	72	147	24.9911	651.683	-2709.36	1	2786.63	-76.4755	1.86664E-006	-0.474994	8
	73	149	22.2195	723.694	-3006.51	1	3092.39	-76.4659	1.74048E-006	-0.474993	8
	74	152	20.0011	800.425	-3308.97	1	3404.4	-76.4016	1.78375E-006	-0.47499	8
	75	154	17.6486	917.583	-3700.49	1	3812.55	-76.0737	1.91549E-006	-0.474995	8
	76	156	15.7934	1020.1	-4096.49	1	4221.59	-76.0167	1.74343E-006	-0.474995	8
	77	159	14.2828	1124.03	-4466.92	1	4606.17	-75.8757	1.87127E-006	-0.474994	8
	78	161	12.5002	1321.74	-5021.7	1	5192.73	-75.2539	1.90302E-006	-0.474991	8
	79	163	11.323	1505.2	-5487.77	1	5690.46	-74.662	1.83858E-006	-0.474992	8
	80	166	9.9987	1699.49	-6097.79	1	6330.19	-74.4265	1.83761E-006	-0.474994	8
