EXPLAIN
TAG	EISPOT
TITLE	LABEL	Tomato_open	Test &Identifier
DATE	LABEL	5/10/2006	Date
TIME	LABEL	13:51:09	Time
NOTES	NOTES	1	&Notes...
	
PSTAT	PSTAT	300	Potentiostat
VDC	POTEN	1.00000E-001	T	DC &Voltage (V)
FREQINIT	QUANT	1.00000E+005	Initial Fre&q. (Hz)
FREQFINAL	QUANT	1.00000E+001	Final Fre&q. (Hz)
PTSPERDEC	QUANT	2.00000E+001	Points/&decade
VAC	QUANT	1.00000E+001	AC &Voltage (mV rms)
AREA	QUANT	1.00000E+000	&Area (cm²)
DENSITY	QUANT	7.87000E+000	&Density (gm/cm³)
EQUIV	QUANT	7.00000E+000	Equiv. &Wt
CONDIT	TWOPARAM	F	1.50000E+001	0.00000E+000	Conditionin&g	Time(s)	E(V)
DELAY	TWOPARAM	F	6.00000E+002	0.00000E+000	Init. De&lay	Time(s)	Stab.(mV/s)
SPEED	SELECTOR	1	&Optimize for:
ZGUESS	QUANT	1.00000E+002	E&stimated Z (ohms)
OCVCURVE	TABLE	39
	Pt	T	Vf	Vm	Ach	Over
	#	s	V vs. Ref.	V	V	bits
	0	0.258332	-5.79943E-001	3.53254E-006	1.54000E-005	......
	1	0.516663	-5.79843E-001	3.53254E-006	2.15400E-004	......
	2	0.774994	-5.79643E-001	3.53254E-006	1.54000E-005	......
	3	1.03333	-5.79843E-001	3.53254E-006	2.15400E-004	......
	4	1.29166	-5.79593E-001	3.53254E-006	2.15400E-004	......
	5	1.54999	-5.79843E-001	3.53254E-006	3.15400E-004	......
	6	1.80832	-5.79444E-001	3.53254E-006	-8.46000E-005	......
	7	2.06665	-5.79744E-001	3.53254E-006	3.15400E-004	......
	8	2.32498	-5.79643E-001	3.53254E-006	1.54000E-005	......
	9	2.58332	-5.79794E-001	3.53254E-006	3.15400E-004	......
	10	2.84165	-5.78443E-001	3.53254E-006	1.54000E-005	......
	11	3.09998	-5.78443E-001	3.53254E-006	3.15400E-004	......
	12	3.35831	-5.80293E-001	3.53254E-006	1.54000E-005	......
	13	3.61664	-5.81443E-001	3.53254E-006	3.15400E-004	......
	14	3.87497	-5.81393E-001	3.53254E-006	1.54000E-005	......
	15	4.1333	-5.81743E-001	3.53254E-006	2.15400E-004	......
	16	4.39164	-5.81043E-001	3.53254E-006	1.54000E-005	......
	17	4.64997	-5.80343E-001	3.53254E-006	2.15400E-004	......
	18	4.9083	-5.80343E-001	3.53254E-006	1.15400E-004	......
	19	5.16663	-5.80844E-001	3.53254E-006	1.15400E-004	......
	20	5.42496	-5.81293E-001	3.53254E-006	1.54000E-005	......
	21	5.68329	-5.81743E-001	3.53254E-006	2.15400E-004	......
	22	5.94162	-5.82093E-001	3.53254E-006	1.15400E-004	......
	23	6.19996	-5.79044E-001	3.53254E-006	2.15400E-004	......
	24	6.45829	-5.75893E-001	3.53254E-006	1.54000E-005	......
	25	6.71662	-5.76693E-001	3.53254E-006	3.15400E-004	......
	26	6.97495	-5.78943E-001	3.53254E-006	1.15400E-004	......
	27	7.23328	-5.80844E-001	3.53254E-006	2.15400E-004	......
	28	7.49161	-5.80793E-001	3.53254E-006	2.15400E-004	......
	29	7.74995	-5.81043E-001	3.53254E-006	1.15400E-004	......
	30	8.00828	-5.80943E-001	3.53254E-006	1.54000E-005	......
	31	8.26661	-5.80643E-001	3.53254E-006	3.15400E-004	......
	32	8.52494	-5.81393E-001	3.53254E-006	1.54000E-005	......
	33	8.78327	-5.81244E-001	3.53254E-006	2.15400E-004	......
	34	9.0416	-5.81843E-001	3.53254E-006	1.54000E-005	......
	35	9.29993	-5.82594E-001	3.53254E-006	2.15400E-004	......
	36	9.5583	-5.82393E-001	3.53254E-006	1.54000E-005	......
	37	9.8166	-5.82793E-001	3.53254E-006	2.15400E-004	......
	38	10.0749	-5.82543E-001	3.53254E-006	1.54000E-005	......
EOC	QUANT	-0.582543	Open Circuit (V)
PSTATMODEL	IQUANT	32	Pstat Model
PSTATSECTION	LABEL	PStat0	Pstat Section
CTRLMODE	IQUANT	1	Control Mode
IESTAB	IQUANT	0	I/E Stability
CASPEED	IQUANT	1	Control Amp Speed
CONVENTION	IQUANT	1	Current Convention
ICHRANGE	IQUANT	2	Ich Range
ICHRANGEMODE	TOGGLE	F	Ich Auto Range
ICHOFFSETENABLE	TOGGLE	T	Ich Offset Enable
ICHOFFSET	QUANT	0	Ich Offset (V)
ICHFILTER	IQUANT	3	Ich Filter
VCHRANGE	IQUANT	2	Vch Range
VCHRANGEMODE	TOGGLE	F	Vch Auto Range
VCHOFFSETENABLE	TOGGLE	T	Vch Offset Enable
VCHOFFSET	QUANT	0	Vch Offset (V)
VCHFILTER	IQUANT	3	Vch Filter
ACHRANGE	IQUANT	0	Ach Range
IERANGELOWERLIMIT	IQUANT	3	I/E Range Lower Limit
IERANGEMODE	TOGGLE	F	I/E AutoRange
IERANGE	IQUANT	11	I/E Range
POSFEEDENABLE	TOGGLE	F	Positive Feedback IR Comp
POSFEEDRESISTANCE	QUANT	0	Positive Feedback Resistance (ohm)
FC350IDIVISOR	IQUANT	0	FC350 I Divisor
FC350VRANGE	IQUANT	0	FC350 V Range
FRAMEWORKVERSION	QUANT	4.35	Framework Version
ZCURVE	TABLE
	Pt	Time	Freq	Zreal	Zimag	Zsig	Zmod	Zphz	Idc	Vdc	IERange
	#	s	Hz	ohm	ohm	V	ohm	°	A	V	#
	0	3	100007	472.196	-0.376201	1	472.196	-0.045648	2.51759E-006	-0.482348	9
	1	5	89134.1	469.963	-2.45248	1	469.969	-0.298992	2.63089E-006	-0.482375	9
	2	7	79433.6	468.347	-2.91862	1	468.356	-0.357048	8.77125E-006	-0.48237	10
	3	9	70800.8	467.527	-1.18438	1	467.528	-0.145147	3.0072E-006	-0.482384	9
	4	11	63105.5	466.769	-2.25644	1	466.775	-0.276975	2.97939E-006	-0.482388	9
	5	13	56243.5	466.93	-2.19076	1	466.935	-0.268821	3.09305E-006	-0.482379	9
	6	15	50123.7	465.987	-3.72319	1	466.001	-0.457778	2.90091E-006	-0.482338	9
	7	17	44681	465.966	-3.49149	1	465.979	-0.42931	3.00505E-006	-0.482349	9
	8	19	39811.2	466.284	-3.15413	1	466.295	-0.387565	3.24452E-006	-0.482385	9
	9	21	35488.3	465.959	-4.09369	1	465.977	-0.50336	3.40389E-006	-0.482378	9
	10	23	31634.1	466.276	-4.68955	1	466.3	-0.57623	3.22666E-006	-0.482349	9
	11	25	28173.1	465.734	-5.35559	1	465.765	-0.658829	3.22319E-006	-0.482363	9
	12	27	25123.7	466.51	-5.40275	1	466.541	-0.663525	3.15202E-006	-0.482326	9
	13	29	22389.3	466.358	-6.31669	1	466.4	-0.776008	3.30294E-006	-0.482375	9
	14	31	19954.4	466.635	-6.75491	1	466.684	-0.829343	3.05148E-006	-0.482339	9
	15	33	17778.2	466.463	-8.31187	1	466.537	-1.02084	3.24148E-006	-0.482355	9
	16	35	15852.9	466.669	-8.6802	1	466.749	-1.0656	3.38739E-006	-0.482329	9
	17	37	14122.3	467.741	-9.28686	1	467.833	-1.13744	3.60789E-006	-0.482356	9
	18	39	12587.2	467.791	-9.23199	1	467.882	-1.1306	3.50306E-006	-0.482368	9
	19	41	11221.1	468.929	-10.2128	1	469.041	-1.24764	3.54475E-006	-0.482358	9
	20	43	9998.2	469.082	-12.3898	1	469.246	-1.51299	3.49064E-006	-0.482356	9
	21	45	8912.76	469.267	-12.9828	1	469.447	-1.58475	3.60252E-006	-0.482349	9
	22	47	7942.6	470.384	-13.5772	1	470.58	-1.65333	3.67409E-006	-0.482354	9
	23	49	7078.05	470.652	-15.2126	1	470.898	-1.85129	3.60772E-006	-0.482358	9
	24	51	6311.1	470.713	-17.1427	1	471.025	-2.08571	3.63008E-006	-0.482357	9
	25	53	5622.14	471.273	-18.4484	1	471.634	-2.24174	3.69689E-006	-0.482354	9
	26	55	5011.18	471.451	-19.5461	1	471.856	-2.37409	3.85248E-006	-0.482342	9
	27	57	4465.21	471.686	-21.931	1	472.195	-2.66205	3.87309E-006	-0.482341	9
	28	59	3980.93	471.806	-23.3914	1	472.386	-2.83832	8.19375E-006	-0.48237	10
	29	61	3548.18	473.134	-26.5635	1	473.879	-3.21342	3.58308E-006	-0.482366	9
	30	63	3162.67	473.249	-29.0049	1	474.137	-3.5072	3.63339E-006	-0.482336	9
	31	65	2819.01	474.022	-32.1594	1	475.112	-3.88121	3.73569E-006	-0.482332	9
	32	67	2511.16	475.139	-35.4673	1	476.461	-4.26899	3.86878E-006	-0.482347	9
	33	69	2238.63	475.776	-39.0679	1	477.378	-4.69426	3.85328E-006	-0.482337	9
	34	71	1995.37	476.605	-42.9146	1	478.534	-5.14517	3.9093E-006	-0.482338	9
	35	73	1778.51	478.193	-47.4152	1	480.538	-5.66265	3.81475E-006	-0.482345	9
	36	75	1584.49	478.677	-53.0364	1	481.606	-6.32247	3.88284E-006	-0.482348	9
	37	77	1412.76	480.27	-58.3475	1	483.801	-6.92686	3.9163E-006	-0.482359	9
	38	79	1259.04	481.585	-64.4338	1	485.877	-7.62064	3.89683E-006	-0.482354	9
	39	81	1121.63	482.21	-71.7408	1	487.518	-8.4621	3.94068E-006	-0.482347	9
	40	83	999.95	484.722	-77.9773	1	490.954	-9.13888	3.8388E-006	-0.482341	9
	41	85	891.184	486.29	-86.3165	1	493.892	-10.0652	3.84711E-006	-0.482347	9
	42	87	794.163	487.968	-95.81	1	497.285	-11.1085	3.95245E-006	-0.482342	9
	43	89	707.867	489.743	-105.244	1	500.923	-12.1282	4.17537E-006	-0.482379	9
	44	91	630.984	491.67	-116.626	1	505.313	-13.3441	4.00669E-006	-0.482357	9
	45	93	562.189	494.125	-129.115	1	510.716	-14.644	4.0107E-006	-0.482371	9
	46	96	501.303	496.879	-142.302	1	516.854	-15.9813	3.95994E-006	-0.482357	9
	47	98	446.614	499.476	-157.488	1	523.716	-17.5004	3.9475E-006	-0.482359	9
	48	100	398.209	502.32	-174.195	1	531.667	-19.1256	4.04984E-006	-0.482361	9
	49	102	354.821	505.34	-192.712	1	540.838	-20.8744	3.92684E-006	-0.482352	9
	50	103	316.113	508.684	-213.313	1	551.599	-22.7504	3.86208E-006	-0.482356	9
	51	105	281.926	512.159	-235.991	1	563.914	-24.7392	3.76698E-006	-0.482365	9
	52	108	251.185	515.978	-261.407	1	578.417	-26.8678	3.86967E-006	-0.48236	9
	53	110	223.946	520.019	-289.454	1	595.15	-29.1012	3.89106E-006	-0.482367	9
	54	111	199.495	524.47	-321.013	1	614.913	-31.4696	4.05561E-006	-0.482364	9
	55	113	177.836	529.207	-355.851	1	637.723	-33.9178	4.06395E-006	-0.482369	9
	56	116	158.533	534.36	-394.607	1	664.27	-36.4447	4.0405E-006	-0.482367	9
	57	118	141.263	540.011	-438.106	1	695.377	-39.0521	4.06685E-006	-0.482365	9
	58	120	125.911	546.137	-486.3	1	731.268	-41.683	4.11139E-006	-0.482367	9
	59	122	112.198	552.738	-540.247	1	772.907	-44.3452	4.05714E-006	-0.482363	9
	60	124	100.009	560.096	-600.287	1	821.007	-46.9837	4.07882E-006	-0.482369	9
	61	126	89.1164	568.222	-667.297	1	876.448	-49.5847	4.09043E-006	-0.482375	9
	62	128	79.4083	577.138	-742.153	1	940.148	-52.1295	4.08895E-006	-0.482371	9
	63	130	70.788	587.466	-825.242	1	1012.99	-54.554	4.14984E-006	-0.48237	9
	64	132	63.0971	597.953	-917.419	1	1095.08	-56.9046	3.16811E-006	-0.482379	8
	65	134	54.5476	614.014	-1050.44	1	1216.73	-59.6924	3.22879E-006	-0.482369	8
	66	136	50.0083	625.537	-1138.74	1	1299.24	-61.219	3.1765E-006	-0.482372	8
	67	138	46.1675	636.642	-1227.09	1	1382.41	-62.5787	3.13255E-006	-0.482365	8
	68	140	40.0059	659.982	-1402.03	1	1549.6	-64.7921	3.23593E-006	-0.482368	8
	69	143	35.3046	684.302	-1577.15	1	1719.21	-66.5447	3.36697E-006	-0.482369	8
	70	145	31.5793	712.136	-1750.37	1	1889.69	-67.8611	3.28845E-006	-0.482366	8
	71	147	28.5748	731.984	-1924.65	1	2059.15	-69.1772	3.31618E-006	-0.482365	8
	72	149	24.9911	772.608	-2178.69	1	2311.63	-70.4745	3.23007E-006	-0.482364	8
	73	151	22.2195	816.887	-2427.66	1	2561.41	-71.4024	3.32457E-006	-0.482368	8
	74	154	20.0011	853.217	-2682.69	1	2815.11	-72.357	3.07932E-006	-0.482368	8
	75	156	17.6486	918.086	-3015.36	1	3152.03	-73.0661	3.14969E-006	-0.48236	8
	76	158	15.7934	958.2	-3347.5	1	3481.94	-74.0265	2.82117E-006	-0.482362	8
	77	160	14.2828	1056.09	-3677.6	1	3826.24	-73.9776	3.11437E-006	-0.482357	8
	78	163	12.5002	1148.42	-4172.51	1	4327.66	-74.6113	3.14421E-006	-0.482366	8
	79	165	11.323	1245.56	-4574.65	1	4741.18	-74.769	3.1024E-006	-0.48237	8
	80	168	9.9987	1359.08	-5088.46	1	5266.83	-75.046	3.1274E-006	-0.482366	8
