EXPLAIN
TAG	EISPOT
TITLE	LABEL	Tomato_open	Test &Identifier
DATE	LABEL	5/10/2006	Date
TIME	LABEL	14:06:14	Time
NOTES	NOTES	1	&Notes...
	
PSTAT	PSTAT	300	Potentiostat
VDC	POTEN	1.00000E-001	T	DC &Voltage (V)
FREQINIT	QUANT	1.00000E+005	Initial Fre&q. (Hz)
FREQFINAL	QUANT	1.00000E+001	Final Fre&q. (Hz)
PTSPERDEC	QUANT	2.00000E+001	Points/&decade
VAC	QUANT	1.00000E+001	AC &Voltage (mV rms)
AREA	QUANT	1.00000E+000	&Area (cm²)
DENSITY	QUANT	7.87000E+000	&Density (gm/cm³)
EQUIV	QUANT	7.00000E+000	Equiv. &Wt
CONDIT	TWOPARAM	F	1.50000E+001	0.00000E+000	Conditionin&g	Time(s)	E(V)
DELAY	TWOPARAM	F	6.00000E+002	0.00000E+000	Init. De&lay	Time(s)	Stab.(mV/s)
SPEED	SELECTOR	1	&Optimize for:
ZGUESS	QUANT	1.00000E+002	E&stimated Z (ohms)
OCVCURVE	TABLE	39
	Pt	T	Vf	Vm	Ach	Over
	#	s	V vs. Ref.	V	V	bits
	0	0.258332	-5.55943E-001	5.13774E-006	-2.84600E-004	......
	1	0.516663	-5.57643E-001	5.13774E-006	-8.46000E-005	......
	2	0.774994	-5.57094E-001	5.13774E-006	-8.46000E-005	......
	3	1.03333	-5.55643E-001	5.13774E-006	-1.84600E-004	......
	4	1.29166	-5.56943E-001	5.13774E-006	-1.84600E-004	......
	5	1.54999	-5.56543E-001	5.13774E-006	-1.84600E-004	......
	6	1.80832	-5.54993E-001	5.13774E-006	-1.84600E-004	......
	7	2.06665	-5.54393E-001	5.13774E-006	-1.84600E-004	......
	8	2.32498	-5.53944E-001	5.13774E-006	-1.84600E-004	......
	9	2.58332	-5.52243E-001	5.13774E-006	-1.84600E-004	......
	10	2.84165	-5.50843E-001	5.13774E-006	-2.84600E-004	......
	11	3.09998	-5.50343E-001	5.13774E-006	-1.84600E-004	......
	12	3.35831	-5.50994E-001	5.13774E-006	-1.84600E-004	......
	13	3.61664	-5.53493E-001	5.13774E-006	-8.46000E-005	......
	14	3.87497	-5.55093E-001	5.13774E-006	-1.84600E-004	......
	15	4.1333	-5.54543E-001	5.13774E-006	-1.84600E-004	......
	16	4.39164	-5.56843E-001	5.13774E-006	-1.84600E-004	......
	17	4.64997	-5.55243E-001	5.13774E-006	-1.84600E-004	......
	18	4.9083	-5.52043E-001	5.13774E-006	-1.84600E-004	......
	19	5.16663	-5.52243E-001	5.13774E-006	-8.46000E-005	......
	20	5.42496	-5.53093E-001	5.13774E-006	-1.84600E-004	......
	21	5.68329	-5.52893E-001	5.13774E-006	-8.46000E-005	......
	22	5.94162	-5.54493E-001	5.13774E-006	-1.84600E-004	......
	23	6.19996	-5.56193E-001	5.13774E-006	-3.84600E-004	......
	24	6.45829	-5.54244E-001	5.13774E-006	-8.46000E-005	......
	25	6.71662	-5.54043E-001	5.13774E-006	-1.84600E-004	......
	26	6.97495	-5.54393E-001	5.13774E-006	-8.46000E-005	......
	27	7.23328	-5.49593E-001	5.13774E-006	-1.84600E-004	......
	28	7.49161	-5.48193E-001	5.13774E-006	-1.84600E-004	......
	29	7.74995	-5.50743E-001	5.13774E-006	-1.84600E-004	......
	30	8.00828	-5.54043E-001	5.13774E-006	-1.84600E-004	......
	31	8.26661	-5.53193E-001	5.13774E-006	-1.84600E-004	......
	32	8.52494	-5.53144E-001	5.13774E-006	-1.84600E-004	......
	33	8.78327	-5.52393E-001	5.13774E-006	-1.84600E-004	......
	34	9.0416	-5.53043E-001	5.13774E-006	-1.84600E-004	......
	35	9.29993	-5.50143E-001	5.13774E-006	-8.46000E-005	......
	36	9.5583	-5.48743E-001	5.13774E-006	-8.46000E-005	......
	37	9.8166	-5.52993E-001	5.13774E-006	-1.84600E-004	......
	38	10.0749	-5.51793E-001	5.13774E-006	-1.84600E-004	......
EOC	QUANT	-0.551793	Open Circuit (V)
PSTATMODEL	IQUANT	32	Pstat Model
PSTATSECTION	LABEL	PStat0	Pstat Section
CTRLMODE	IQUANT	1	Control Mode
IESTAB	IQUANT	0	I/E Stability
CASPEED	IQUANT	1	Control Amp Speed
CONVENTION	IQUANT	1	Current Convention
ICHRANGE	IQUANT	2	Ich Range
ICHRANGEMODE	TOGGLE	F	Ich Auto Range
ICHOFFSETENABLE	TOGGLE	T	Ich Offset Enable
ICHOFFSET	QUANT	0	Ich Offset (V)
ICHFILTER	IQUANT	3	Ich Filter
VCHRANGE	IQUANT	2	Vch Range
VCHRANGEMODE	TOGGLE	F	Vch Auto Range
VCHOFFSETENABLE	TOGGLE	T	Vch Offset Enable
VCHOFFSET	QUANT	0	Vch Offset (V)
VCHFILTER	IQUANT	3	Vch Filter
ACHRANGE	IQUANT	0	Ach Range
IERANGELOWERLIMIT	IQUANT	3	I/E Range Lower Limit
IERANGEMODE	TOGGLE	F	I/E AutoRange
IERANGE	IQUANT	11	I/E Range
POSFEEDENABLE	TOGGLE	F	Positive Feedback IR Comp
POSFEEDRESISTANCE	QUANT	0	Positive Feedback Resistance (ohm)
FC350IDIVISOR	IQUANT	0	FC350 I Divisor
FC350VRANGE	IQUANT	0	FC350 V Range
FRAMEWORKVERSION	QUANT	4.35	Framework Version
ZCURVE	TABLE
	Pt	Time	Freq	Zreal	Zimag	Zsig	Zmod	Zphz	Idc	Vdc	IERange
	#	s	Hz	ohm	ohm	V	ohm	°	A	V	#
	0	4	100007	504.565	-0.133795	1	504.565	-0.015193	3.16588E-006	-0.451477	9
	1	6	89134.1	501.738	-1.99797	1	501.742	-0.228156	2.9905E-006	-0.45145	9
	2	8	79433.6	500.79	-0.604971	1	500.79	-0.069215	2.89077E-006	-0.451474	9
	3	11	70800.8	498.64	-8.02566	1	498.704	-0.922102	8.10494E-006	-0.451469	10
	4	13	63105.5	498.698	-1.96694	1	498.702	-0.225981	3.13136E-006	-0.451524	9
	5	15	56243.5	498.935	-2.62772	1	498.942	-0.301755	3.24616E-006	-0.451497	9
	6	17	50123.7	497.728	-3.33701	1	497.739	-0.384133	3.289E-006	-0.451515	9
	7	19	44681	497.462	-3.76393	1	497.476	-0.433507	3.12481E-006	-0.451477	9
	8	21	39811.2	497.584	-3.29122	1	497.595	-0.378972	2.97284E-006	-0.451463	9
	9	24	35488.3	496.968	-4.34277	1	496.987	-0.500668	3.2924E-006	-0.451492	9
	10	26	31634.1	498.025	-4.85425	1	498.049	-0.558444	3.23859E-006	-0.451519	9
	11	29	28173.1	498.196	-5.34523	1	498.225	-0.614713	3.12779E-006	-0.451483	9
	12	31	25123.7	498.154	-5.73607	1	498.187	-0.659712	3.18368E-006	-0.451473	9
	13	33	22389.3	496.788	-6.59699	1	496.832	-0.760802	3.23706E-006	-0.451514	9
	14	35	19954.4	498.139	-7.06877	1	498.189	-0.812992	3.087E-006	-0.451459	9
	15	37	17778.2	497.802	-8.48348	1	497.874	-0.97633	3.14541E-006	-0.451488	9
	16	39	15852.9	498.564	-8.70208	1	498.64	-0.99995	3.0738E-006	-0.45146	9
	17	41	14122.3	498.37	-9.5007	1	498.461	-1.09213	3.06609E-006	-0.451477	9
	18	43	12587.2	499.082	-9.08505	1	499.165	-1.04287	3.03308E-006	-0.451479	9
	19	45	11221.1	499.499	-10.8007	1	499.615	-1.23871	3.17307E-006	-0.451481	9
	20	47	9998.2	499.457	-12.65	1	499.617	-1.45085	3.17827E-006	-0.451486	9
	21	49	8912.76	500.209	-12.576	1	500.367	-1.4402	3.2042E-006	-0.451513	9
	22	52	7942.6	499.076	-13.6786	1	499.264	-1.56996	3.10402E-006	-0.451474	9
	23	54	7078.05	500.908	-15.5223	1	501.148	-1.77493	3.13833E-006	-0.451471	9
	24	56	6311.1	500.241	-16.4164	1	500.51	-1.8796	3.16747E-006	-0.451477	9
	25	58	5622.14	501.498	-18.5692	1	501.841	-2.12055	3.16375E-006	-0.451466	9
	26	60	5011.18	501.194	-19.6012	1	501.577	-2.23964	3.18583E-006	-0.451475	9
	27	61	4465.21	501.458	-21.4337	1	501.916	-2.4475	3.15183E-006	-0.451487	9
	28	63	3980.93	503.102	-24.191	1	503.683	-2.75287	3.20404E-006	-0.451494	9
	29	65	3548.18	502.935	-26.2196	1	503.618	-2.98431	2.97181E-006	-0.45147	9
	30	67	3162.67	503.244	-29.4938	1	504.107	-3.35412	3.26627E-006	-0.451516	9
	31	69	2819.01	504.105	-31.919	1	505.114	-3.62303	3.1055E-006	-0.451467	9
	32	72	2511.16	504.175	-34.9289	1	505.383	-3.96308	3.0427E-006	-0.451486	9
	33	74	2238.63	505.662	-38.8192	1	507.15	-4.38994	3.12436E-006	-0.451475	9
	34	76	1995.37	506.014	-42.8435	1	507.824	-4.83961	3.14582E-006	-0.451478	9
	35	78	1778.51	507.684	-46.8156	1	509.838	-5.26858	3.07161E-006	-0.451476	9
	36	80	1584.49	507.802	-52.444	1	510.503	-5.8964	3.07837E-006	-0.451476	9
	37	82	1412.76	508.639	-58.3607	1	511.976	-6.54543	3.12084E-006	-0.451503	9
	38	84	1259.04	510.82	-63.9006	1	514.802	-7.13032	3.06345E-006	-0.451476	9
	39	86	1121.63	510.415	-70.7885	1	515.3	-7.89588	3.20468E-006	-0.451473	9
	40	88	999.95	512.473	-79.0206	1	518.529	-8.76567	3.14187E-006	-0.451469	9
	41	90	891.184	513.951	-86.9069	1	521.247	-9.5977	3.06009E-006	-0.451468	9
	42	92	794.163	515.793	-96.067	1	524.664	-10.5505	3.05144E-006	-0.451463	9
	43	94	707.867	518.451	-106.099	1	529.196	-11.5656	3.14172E-006	-0.451465	9
	44	96	630.984	519.908	-117.477	1	533.015	-12.7326	3.04678E-006	-0.45147	9
	45	98	562.189	521.992	-129.443	1	537.802	-13.9272	3.1627E-006	-0.451482	9
	46	100	501.303	524.817	-143.187	1	543.999	-15.2607	2.90747E-006	-0.451485	9
	47	102	446.614	527.341	-158.52	1	550.652	-16.7309	2.96186E-006	-0.451481	9
	48	104	398.209	530.104	-175.34	1	558.35	-18.3024	3.0565E-006	-0.451474	9
	49	106	354.821	533.058	-194.103	1	567.298	-20.0081	2.94647E-006	-0.451475	9
	50	108	316.113	536.25	-214.95	1	577.727	-21.8429	2.92304E-006	-0.451478	9
	51	110	281.926	539.709	-237.808	1	589.779	-23.7794	2.8361E-006	-0.451479	9
	52	112	251.185	543.409	-263.474	1	603.914	-25.8667	2.82913E-006	-0.451473	9
	53	114	223.946	547.462	-291.811	1	620.378	-28.0587	2.88859E-006	-0.451471	9
	54	116	199.495	551.699	-323.552	1	639.576	-30.3901	2.97081E-006	-0.451472	9
	55	118	177.836	556.421	-358.691	1	662.014	-32.8074	2.90457E-006	-0.451472	9
	56	120	158.533	561.377	-397.82	1	688.044	-35.3234	2.90576E-006	-0.451474	9
	57	122	141.263	566.808	-441.542	1	718.492	-37.9185	2.71206E-006	-0.451478	9
	58	124	125.911	572.746	-490.271	1	753.926	-40.5635	2.86493E-006	-0.451475	9
	59	126	112.198	579.215	-544.56	1	795.007	-43.2336	2.8523E-006	-0.451474	9
	60	128	100.009	586.261	-604.891	1	842.374	-45.896	2.67587E-006	-0.451478	9
	61	130	89.1164	594.259	-672.532	1	897.465	-48.5357	2.86351E-006	-0.451473	9
	62	132	79.4083	602.896	-747.891	1	960.64	-51.1267	2.87916E-006	-0.451477	9
	63	134	70.788	612.413	-831.73	1	1032.87	-53.6353	2.72022E-006	-0.45148	9
	64	136	63.0971	622.609	-924.485	1	1114.59	-56.0411	1.81637E-006	-0.451492	8
	65	138	54.5476	638.146	-1058.45	1	1235.94	-58.9139	1.90393E-006	-0.451485	8
	66	140	50.0083	648.558	-1147.54	1	1318.13	-60.526	1.89994E-006	-0.451486	8
	67	142	46.1675	659.109	-1236.6	1	1401.29	-61.9424	1.93818E-006	-0.451484	8
	68	144	40.0059	680.541	-1413.34	1	1568.65	-64.2886	1.91785E-006	-0.451479	8
	69	147	35.3046	701.247	-1588.26	1	1736.18	-66.1776	1.84185E-006	-0.451485	8
	70	149	31.5793	725.277	-1763.23	1	1906.57	-67.6409	1.96862E-006	-0.451485	8
	71	151	28.5748	747.945	-1937.05	1	2076.44	-68.8872	1.95815E-006	-0.451479	8
	72	153	24.9911	785.294	-2196.7	1	2332.84	-70.3286	1.97418E-006	-0.451477	8
	73	155	22.2195	821.093	-2454.52	1	2588.21	-71.5037	1.99814E-006	-0.451489	8
	74	158	20.0011	863.029	-2708.57	1	2842.74	-72.3266	1.98025E-006	-0.451494	8
	75	160	17.6486	918.169	-3046.7	1	3182.04	-73.229	2.02194E-006	-0.451486	8
	76	162	15.7934	971.73	-3381.63	1	3518.47	-73.9677	1.98597E-006	-0.451488	8
	77	164	14.2828	1026.25	-3713.42	1	3852.62	-74.5513	1.8904E-006	-0.451494	8
	78	167	12.5002	1127.26	-4209.08	1	4357.42	-75.0071	1.94788E-006	-0.451491	8
	79	169	11.323	1212.4	-4615.19	1	4771.78	-75.2812	1.93729E-006	-0.451487	8
	80	172	9.9987	1337.87	-5189.07	1	5358.76	-75.5425	1.94153E-006	-0.45149	8
