EXPLAIN
TAG	EISPOT
TITLE	LABEL	Tomato_open	Test &Identifier
DATE	LABEL	5/10/2006	Date
TIME	LABEL	14:11:10	Time
NOTES	NOTES	1	&Notes...
	
PSTAT	PSTAT	300	Potentiostat
VDC	POTEN	1.00000E-001	T	DC &Voltage (V)
FREQINIT	QUANT	1.00000E+005	Initial Fre&q. (Hz)
FREQFINAL	QUANT	1.00000E+001	Final Fre&q. (Hz)
PTSPERDEC	QUANT	2.00000E+001	Points/&decade
VAC	QUANT	1.00000E+001	AC &Voltage (mV rms)
AREA	QUANT	1.00000E+000	&Area (cm²)
DENSITY	QUANT	7.87000E+000	&Density (gm/cm³)
EQUIV	QUANT	7.00000E+000	Equiv. &Wt
CONDIT	TWOPARAM	F	1.50000E+001	0.00000E+000	Conditionin&g	Time(s)	E(V)
DELAY	TWOPARAM	F	6.00000E+002	0.00000E+000	Init. De&lay	Time(s)	Stab.(mV/s)
SPEED	SELECTOR	1	&Optimize for:
ZGUESS	QUANT	1.00000E+002	E&stimated Z (ohms)
OCVCURVE	TABLE	39
	Pt	T	Vf	Vm	Ach	Over
	#	s	V vs. Ref.	V	V	bits
	0	0.258332	-5.39793E-001	4.34964E-006	1.15400E-004	......
	1	0.516663	-5.40893E-001	4.34964E-006	2.15400E-004	......
	2	0.774994	-5.40393E-001	4.34964E-006	2.15400E-004	......
	3	1.03333	-5.39693E-001	4.34964E-006	2.15400E-004	......
	4	1.29166	-5.36843E-001	4.34964E-006	3.15400E-004	......
	5	1.54999	-5.37493E-001	4.34964E-006	2.15400E-004	......
	6	1.80832	-5.37843E-001	4.34964E-006	1.15400E-004	......
	7	2.06665	-5.37193E-001	4.34964E-006	2.15400E-004	......
	8	2.32498	-5.38144E-001	4.34964E-006	3.15400E-004	......
	9	2.58332	-5.37543E-001	4.34964E-006	2.15400E-004	......
	10	2.84165	-5.36644E-001	4.34964E-006	2.15400E-004	......
	11	3.09998	-5.33493E-001	4.34964E-006	3.15400E-004	......
	12	3.35831	-5.35693E-001	4.34964E-006	3.15400E-004	......
	13	3.61664	-5.37543E-001	4.34964E-006	3.15400E-004	......
	14	3.87497	-5.38144E-001	4.34964E-006	2.15400E-004	......
	15	4.1333	-5.37493E-001	4.34964E-006	2.15400E-004	......
	16	4.39164	-5.38794E-001	4.34964E-006	2.15400E-004	......
	17	4.64997	-5.32344E-001	4.34964E-006	2.15400E-004	......
	18	4.9083	-5.32943E-001	4.34964E-006	1.15400E-004	......
	19	5.16663	-5.33593E-001	4.34964E-006	2.15400E-004	......
	20	5.42496	-5.33444E-001	4.34964E-006	2.15400E-004	......
	21	5.68329	-5.34993E-001	4.34964E-006	3.15400E-004	......
	22	5.94162	-5.34243E-001	4.34964E-006	2.15400E-004	......
	23	6.19996	-5.33493E-001	4.34964E-006	3.15400E-004	......
	24	6.45829	-5.33143E-001	4.34964E-006	2.15400E-004	......
	25	6.71662	-5.34043E-001	4.34964E-006	4.15400E-004	......
	26	6.97495	-5.36443E-001	4.34964E-006	3.15400E-004	......
	27	7.23328	-5.38993E-001	4.34964E-006	2.15400E-004	......
	28	7.49161	-5.42493E-001	4.34964E-006	2.15400E-004	......
	29	7.74995	-5.42444E-001	4.34964E-006	2.15400E-004	......
	30	8.00828	-5.40393E-001	4.34964E-006	3.15400E-004	......
	31	8.26661	-5.39494E-001	4.34964E-006	3.15400E-004	......
	32	8.52494	-5.43293E-001	4.34964E-006	2.15400E-004	......
	33	8.78327	-5.37193E-001	4.34964E-006	3.15400E-004	......
	34	9.0416	-5.34443E-001	4.34964E-006	2.15400E-004	......
	35	9.29993	-5.34844E-001	4.34964E-006	2.15400E-004	......
	36	9.5583	-5.39743E-001	4.34964E-006	3.15400E-004	......
	37	9.8166	-5.38343E-001	4.34964E-006	3.15400E-004	......
	38	10.0749	-5.38444E-001	4.34964E-006	2.15400E-004	......
EOC	QUANT	-0.538444	Open Circuit (V)
PSTATMODEL	IQUANT	32	Pstat Model
PSTATSECTION	LABEL	PStat0	Pstat Section
CTRLMODE	IQUANT	1	Control Mode
IESTAB	IQUANT	0	I/E Stability
CASPEED	IQUANT	1	Control Amp Speed
CONVENTION	IQUANT	1	Current Convention
ICHRANGE	IQUANT	2	Ich Range
ICHRANGEMODE	TOGGLE	F	Ich Auto Range
ICHOFFSETENABLE	TOGGLE	T	Ich Offset Enable
ICHOFFSET	QUANT	0	Ich Offset (V)
ICHFILTER	IQUANT	3	Ich Filter
VCHRANGE	IQUANT	2	Vch Range
VCHRANGEMODE	TOGGLE	F	Vch Auto Range
VCHOFFSETENABLE	TOGGLE	T	Vch Offset Enable
VCHOFFSET	QUANT	0	Vch Offset (V)
VCHFILTER	IQUANT	3	Vch Filter
ACHRANGE	IQUANT	0	Ach Range
IERANGELOWERLIMIT	IQUANT	3	I/E Range Lower Limit
IERANGEMODE	TOGGLE	F	I/E AutoRange
IERANGE	IQUANT	11	I/E Range
POSFEEDENABLE	TOGGLE	F	Positive Feedback IR Comp
POSFEEDRESISTANCE	QUANT	0	Positive Feedback Resistance (ohm)
FC350IDIVISOR	IQUANT	0	FC350 I Divisor
FC350VRANGE	IQUANT	0	FC350 V Range
FRAMEWORKVERSION	QUANT	4.35	Framework Version
ZCURVE	TABLE
	Pt	Time	Freq	Zreal	Zimag	Zsig	Zmod	Zphz	Idc	Vdc	IERange
	#	s	Hz	ohm	ohm	V	ohm	°	A	V	#
	0	4	100007	502.832	0.357271	1	502.832	0.04071	2.80773E-006	-0.438235	9
	1	6	89134.1	500.603	-1.60016	1	500.606	-0.183143	2.8617E-006	-0.438233	9
	2	8	79433.6	499.352	-0.373433	1	499.353	-0.042848	2.90908E-006	-0.438263	9
	3	11	70800.8	499.01	-1.29584	1	499.012	-0.148786	2.577E-006	-0.438237	9
	4	13	63105.5	497.23	-2.511	1	497.236	-0.28934	2.6626E-006	-0.438229	9
	5	15	56243.5	497.434	-2.26191	1	497.439	-0.260532	2.83169E-006	-0.438238	9
	6	17	50123.7	496.734	-1.96018	1	496.737	-0.226097	2.71334E-006	-0.438234	9
	7	19	44681	496.2	-3.7606	1	496.215	-0.434225	2.95705E-006	-0.438257	9
	8	21	39811.2	495.925	-4.35413	1	495.944	-0.503034	2.79798E-006	-0.438251	9
	9	23	35488.3	495.848	-4.5068	1	495.869	-0.520751	2.65921E-006	-0.438228	9
	10	25	31634.1	495.788	-4.8275	1	495.812	-0.557873	2.91186E-006	-0.438282	9
	11	27	28173.1	495.921	-4.70729	1	495.943	-0.543836	2.84314E-006	-0.438257	9
	12	29	25123.7	496.307	-5.73345	1	496.34	-0.661864	2.70258E-006	-0.43825	9
	13	31	22389.3	496.4	-6.44103	1	496.441	-0.7434	2.75845E-006	-0.43822	9
	14	33	19954.4	495.814	-6.9181	1	495.862	-0.799397	2.75748E-006	-0.438264	9
	15	35	17778.2	496.529	-7.36951	1	496.584	-0.850324	2.74139E-006	-0.438243	9
	16	37	15852.9	497.202	-8.21037	1	497.27	-0.946048	2.84073E-006	-0.438242	9
	17	39	14122.3	497.325	-8.70795	1	497.401	-1.00312	2.77725E-006	-0.438247	9
	18	41	12587.2	497.558	-9.8026	1	497.655	-1.12866	2.78427E-006	-0.43825	9
	19	43	11221.1	497.885	-9.9851	1	497.986	-1.14892	2.82156E-006	-0.438251	9
	20	45	9998.2	497.815	-11.0939	1	497.938	-1.27664	2.78012E-006	-0.438262	9
	21	47	8912.76	498.079	-12.776	1	498.243	-1.46935	2.59601E-006	-0.438231	9
	22	49	7942.6	499.636	-13.4702	1	499.818	-1.54432	2.70943E-006	-0.438259	9
	23	51	7078.05	499.155	-15.7847	1	499.405	-1.81125	2.77579E-006	-0.438251	9
	24	53	6311.1	499.87	-16.2653	1	500.134	-1.8637	2.83727E-006	-0.438249	9
	25	55	5622.14	499.527	-18.1045	1	499.855	-2.07568	2.92477E-006	-0.438263	9
	26	57	5011.18	500.704	-18.7032	1	501.054	-2.13922	2.86975E-006	-0.43826	9
	27	59	4465.21	500.178	-20.8135	1	500.611	-2.38283	2.90009E-006	-0.43826	9
	28	62	3980.93	501.608	-23.9012	1	502.177	-2.72804	2.81378E-006	-0.438241	9
	29	64	3548.18	501.675	-26.8538	1	502.393	-3.06402	2.89182E-006	-0.438237	9
	30	66	3162.67	502.187	-28.1943	1	502.978	-3.21338	2.67947E-006	-0.438252	9
	31	67	2819.01	503.057	-32.4417	1	504.102	-3.68984	2.74733E-006	-0.438266	9
	32	70	2511.16	503.273	-35.1975	1	504.502	-4.0006	2.6793E-006	-0.438247	9
	33	72	2238.63	504.019	-38.5012	1	505.488	-4.36825	2.77655E-006	-0.438247	9
	34	74	1995.37	505.054	-42.9654	1	506.878	-4.8625	2.75629E-006	-0.438253	9
	35	76	1778.51	505.473	-47.3038	1	507.681	-5.34635	2.72695E-006	-0.438248	9
	36	78	1584.49	506.22	-51.7102	1	508.855	-5.83252	2.71594E-006	-0.438253	9
	37	80	1412.76	507.689	-57.826	1	510.972	-6.498	2.6635E-006	-0.438262	9
	38	82	1259.04	508.317	-64.2858	1	512.366	-7.20782	2.72004E-006	-0.438241	9
	39	84	1121.63	509.484	-71.7948	1	514.518	-8.02111	2.7675E-006	-0.438242	9
	40	86	999.95	511.345	-77.7363	1	517.22	-8.64411	2.75135E-006	-0.438232	9
	41	88	891.184	512.897	-86.0659	1	520.068	-9.5257	2.77726E-006	-0.438231	9
	42	90	794.163	514.941	-95.773	1	523.772	-10.536	2.69722E-006	-0.43823	9
	43	92	707.867	516.386	-106.149	1	527.183	-11.616	2.88072E-006	-0.438265	9
	44	94	630.984	518.939	-116.444	1	531.842	-12.647	2.7471E-006	-0.438232	9
	45	96	562.189	520.713	-129.069	1	536.47	-13.9213	2.81739E-006	-0.438247	9
	46	98	501.303	523.111	-142.946	1	542.291	-15.2836	2.78627E-006	-0.438246	9
	47	100	446.614	525.526	-158.295	1	548.849	-16.7629	2.73527E-006	-0.438252	9
	48	102	398.209	528.267	-175.115	1	556.535	-18.3398	2.77141E-006	-0.438246	9
	49	104	354.821	531.261	-193.868	1	565.529	-20.0481	2.82E-006	-0.438244	9
	50	106	316.113	534.378	-214.672	1	575.886	-21.8864	2.73439E-006	-0.438244	9
	51	108	281.926	537.799	-237.592	1	587.943	-23.8352	2.80653E-006	-0.438246	9
	52	110	251.185	541.504	-263.266	1	602.109	-25.9279	2.80222E-006	-0.438241	9
	53	112	223.946	545.47	-291.64	1	618.539	-28.1316	2.77997E-006	-0.43824	9
	54	114	199.495	549.739	-323.403	1	637.811	-30.4676	2.76328E-006	-0.438242	9
	55	116	177.836	554.339	-358.533	1	660.18	-32.8938	2.79647E-006	-0.438236	9
	56	118	158.533	559.279	-397.644	1	686.231	-35.4126	2.80249E-006	-0.438239	9
	57	120	141.263	564.682	-441.475	1	716.775	-38.0187	2.71553E-006	-0.438245	9
	58	122	125.911	570.423	-490.082	1	752.039	-40.6677	2.72333E-006	-0.438249	9
	59	124	112.198	576.869	-544.337	1	793.146	-43.338	2.63389E-006	-0.438245	9
	60	126	100.009	583.862	-604.957	1	840.755	-46.0166	2.69646E-006	-0.438253	9
	61	128	89.1164	591.656	-672.64	1	895.824	-48.6651	2.73446E-006	-0.43825	9
	62	130	79.4083	600.103	-748.001	1	958.97	-51.2607	2.777E-006	-0.438246	9
	63	132	70.788	609.528	-831.779	1	1031.2	-53.766	2.83807E-006	-0.438244	9
	64	134	63.0971	619.388	-924.53	1	1112.83	-56.1799	1.73625E-006	-0.438242	8
	65	136	54.5476	634.319	-1058.71	1	1234.19	-59.0724	1.72871E-006	-0.438248	8
	66	138	50.0083	644.335	-1147.73	1	1316.23	-60.6902	1.70209E-006	-0.438243	8
	67	140	46.1675	654.605	-1236.59	1	1399.17	-62.1049	1.71916E-006	-0.43825	8
	68	142	40.0059	675.276	-1414.11	1	1567.06	-64.4742	1.78114E-006	-0.43824	8
	69	145	35.3046	696.187	-1589.76	1	1735.51	-66.3504	1.78524E-006	-0.438245	8
	70	147	31.5793	718.153	-1764.56	1	1905.1	-67.8543	1.84566E-006	-0.438241	8
	71	149	28.5748	738.321	-1938.48	1	2074.33	-69.1494	1.82454E-006	-0.438243	8
	72	151	24.9911	772.768	-2197.76	1	2329.66	-70.6275	1.74269E-006	-0.43824	8
	73	153	22.2195	810.094	-2456.25	1	2586.39	-71.7469	1.79955E-006	-0.438246	8
	74	156	20.0011	846.628	-2710.68	1	2839.81	-72.6548	1.81096E-006	-0.438242	8
	75	158	17.6486	890.496	-3048.54	1	3175.94	-73.7166	1.751E-006	-0.438234	8
	76	160	15.7934	947.436	-3380.11	1	3510.39	-74.342	1.78181E-006	-0.438236	8
	77	162	14.2828	997.09	-3716.73	1	3848.15	-74.9828	1.7107E-006	-0.438242	8
	78	165	12.5002	1090.63	-4211.8	1	4350.72	-75.4823	1.71689E-006	-0.438241	8
	79	167	11.323	1164.86	-4620.59	1	4765.16	-75.8505	1.72426E-006	-0.438249	8
	80	170	9.9987	1281.26	-5189.5	1	5345.33	-76.1314	1.78262E-006	-0.438246	8
