EXPLAIN
TAG	EISPOT
TITLE	LABEL	Tomato_open	Test &Identifier
DATE	LABEL	5/10/2006	Date
TIME	LABEL	14:01:30	Time
NOTES	NOTES	1	&Notes...
	
PSTAT	PSTAT	300	Potentiostat
VDC	POTEN	1.00000E-001	T	DC &Voltage (V)
FREQINIT	QUANT	1.00000E+005	Initial Fre&q. (Hz)
FREQFINAL	QUANT	1.00000E+001	Final Fre&q. (Hz)
PTSPERDEC	QUANT	2.00000E+001	Points/&decade
VAC	QUANT	1.00000E+001	AC &Voltage (mV rms)
AREA	QUANT	1.00000E+000	&Area (cm²)
DENSITY	QUANT	7.87000E+000	&Density (gm/cm³)
EQUIV	QUANT	7.00000E+000	Equiv. &Wt
CONDIT	TWOPARAM	F	1.50000E+001	0.00000E+000	Conditionin&g	Time(s)	E(V)
DELAY	TWOPARAM	F	6.00000E+002	0.00000E+000	Init. De&lay	Time(s)	Stab.(mV/s)
SPEED	SELECTOR	1	&Optimize for:
ZGUESS	QUANT	1.00000E+002	E&stimated Z (ohms)
OCVCURVE	TABLE	39
	Pt	T	Vf	Vm	Ach	Over
	#	s	V vs. Ref.	V	V	bits
	0	0.258332	-5.34993E-001	5.28144E-006	2.15400E-004	......
	1	0.516663	-5.34243E-001	5.28144E-006	1.54000E-005	......
	2	0.774994	-5.33593E-001	5.28144E-006	2.15400E-004	......
	3	1.03333	-5.32943E-001	5.28144E-006	-8.46000E-005	......
	4	1.29166	-5.32794E-001	5.28144E-006	3.15400E-004	......
	5	1.54999	-5.33543E-001	5.28144E-006	1.15400E-004	......
	6	1.80832	-5.32643E-001	5.28144E-006	2.15400E-004	......
	7	2.06665	-5.33193E-001	5.28144E-006	1.54000E-005	......
	8	2.32498	-5.32043E-001	5.28144E-006	3.15400E-004	......
	9	2.58332	-5.30894E-001	5.28144E-006	1.54000E-005	......
	10	2.84165	-5.29393E-001	5.28144E-006	3.15400E-004	......
	11	3.09998	-5.28543E-001	5.28144E-006	1.54000E-005	......
	12	3.35831	-5.25993E-001	5.28144E-006	2.15400E-004	......
	13	3.61664	-5.25443E-001	5.28144E-006	-8.46000E-005	......
	14	3.87497	-5.24794E-001	5.28144E-006	2.15400E-004	......
	15	4.1333	-5.25194E-001	5.28144E-006	1.54000E-005	......
	16	4.39164	-5.25393E-001	5.28144E-006	2.15400E-004	......
	17	4.64997	-5.25993E-001	5.28144E-006	1.54000E-005	......
	18	4.9083	-5.24844E-001	5.28144E-006	2.15400E-004	......
	19	5.16663	-5.24044E-001	5.28144E-006	1.15400E-004	......
	20	5.42496	-5.25643E-001	5.28144E-006	3.15400E-004	......
	21	5.68329	-5.26843E-001	5.28144E-006	1.54000E-005	......
	22	5.94162	-5.28543E-001	5.28144E-006	3.15400E-004	......
	23	6.19996	-5.29444E-001	5.28144E-006	1.54000E-005	......
	24	6.45829	-5.26843E-001	5.28144E-006	1.54000E-005	......
	25	6.71662	-5.27393E-001	5.28144E-006	1.54000E-005	......
	26	6.97495	-5.30244E-001	5.28144E-006	3.15400E-004	......
	27	7.23328	-5.28243E-001	5.28144E-006	1.54000E-005	......
	28	7.49161	-5.27793E-001	5.28144E-006	2.15400E-004	......
	29	7.74995	-5.30443E-001	5.28144E-006	1.54000E-005	......
	30	8.00828	-5.32643E-001	5.28144E-006	3.15400E-004	......
	31	8.26661	-5.32043E-001	5.28144E-006	1.54000E-005	......
	32	8.52494	-5.27893E-001	5.28144E-006	2.15400E-004	......
	33	8.78327	-5.26893E-001	5.28144E-006	1.54000E-005	......
	34	9.0416	-5.24593E-001	5.28144E-006	2.15400E-004	......
	35	9.29993	-5.24393E-001	5.28144E-006	1.54000E-005	......
	36	9.5583	-5.24844E-001	5.28144E-006	3.15400E-004	......
	37	9.8166	-5.26843E-001	5.28144E-006	-8.46000E-005	......
	38	10.0749	-5.27893E-001	5.28144E-006	4.15400E-004	......
EOC	QUANT	-0.527893	Open Circuit (V)
PSTATMODEL	IQUANT	32	Pstat Model
PSTATSECTION	LABEL	PStat0	Pstat Section
CTRLMODE	IQUANT	1	Control Mode
IESTAB	IQUANT	0	I/E Stability
CASPEED	IQUANT	1	Control Amp Speed
CONVENTION	IQUANT	1	Current Convention
ICHRANGE	IQUANT	2	Ich Range
ICHRANGEMODE	TOGGLE	F	Ich Auto Range
ICHOFFSETENABLE	TOGGLE	T	Ich Offset Enable
ICHOFFSET	QUANT	0	Ich Offset (V)
ICHFILTER	IQUANT	3	Ich Filter
VCHRANGE	IQUANT	2	Vch Range
VCHRANGEMODE	TOGGLE	F	Vch Auto Range
VCHOFFSETENABLE	TOGGLE	T	Vch Offset Enable
VCHOFFSET	QUANT	0	Vch Offset (V)
VCHFILTER	IQUANT	3	Vch Filter
ACHRANGE	IQUANT	0	Ach Range
IERANGELOWERLIMIT	IQUANT	3	I/E Range Lower Limit
IERANGEMODE	TOGGLE	F	I/E AutoRange
IERANGE	IQUANT	11	I/E Range
POSFEEDENABLE	TOGGLE	F	Positive Feedback IR Comp
POSFEEDRESISTANCE	QUANT	0	Positive Feedback Resistance (ohm)
FC350IDIVISOR	IQUANT	0	FC350 I Divisor
FC350VRANGE	IQUANT	0	FC350 V Range
FRAMEWORKVERSION	QUANT	4.35	Framework Version
ZCURVE	TABLE
	Pt	Time	Freq	Zreal	Zimag	Zsig	Zmod	Zphz	Idc	Vdc	IERange
	#	s	Hz	ohm	ohm	V	ohm	°	A	V	#
	0	5	100007	500.898	-2.7062	1	500.905	-0.309549	4.77884E-006	-0.427864	9
	1	7	89134.1	499.721	-1.98638	1	499.725	-0.227749	4.48336E-006	-0.4279	9
	2	9	79433.6	498.567	-1.12368	1	498.568	-0.129134	4.53427E-006	-0.42789	9
	3	11	70800.8	496.583	-4.86165	1	496.607	-0.56092	1.03475E-005	-0.427873	10
	4	13	63105.5	497.101	-1.41909	1	497.103	-0.163564	4.72503E-006	-0.427869	9
	5	16	56243.5	497.164	-3.32987	1	497.175	-0.383746	4.95219E-006	-0.427897	9
	6	18	50123.7	496.735	-3.27665	1	496.746	-0.377939	4.96544E-006	-0.427887	9
	7	20	44681	495.973	-3.41898	1	495.985	-0.394961	4.94008E-006	-0.427892	9
	8	22	39811.2	495.951	-3.65628	1	495.964	-0.422392	4.61478E-006	-0.42786	9
	9	24	35488.3	496.492	-4.42709	1	496.512	-0.510878	4.9989E-006	-0.427873	9
	10	26	31634.1	496.622	-4.77324	1	496.645	-0.550677	4.82127E-006	-0.427878	9
	11	28	28173.1	497.234	-5.03057	1	497.259	-0.579648	4.80603E-006	-0.427883	9
	12	30	25123.7	497.034	-6.11175	1	497.071	-0.704499	4.86917E-006	-0.427886	9
	13	32	22389.3	496.766	-6.50653	1	496.808	-0.750404	4.8238E-006	-0.427889	9
	14	34	19954.4	496.87	-6.77479	1	496.917	-0.781176	4.62984E-006	-0.427859	9
	15	36	17778.2	498.818	-8.13966	1	498.885	-0.934863	4.79525E-006	-0.427871	9
	16	38	15852.9	498.615	-8.52822	1	498.688	-0.97988	4.75471E-006	-0.427884	9
	17	40	14122.3	499.035	-8.89119	1	499.114	-1.02072	4.73147E-006	-0.427871	9
	18	43	12587.2	499.73	-9.7791	1	499.825	-1.12107	4.80244E-006	-0.427868	9
	19	45	11221.1	500.105	-11.0474	1	500.227	-1.26547	4.80188E-006	-0.427876	9
	20	47	9998.2	499.819	-12.1348	1	499.966	-1.39078	4.78625E-006	-0.427874	9
	21	49	8912.76	501.056	-13.127	1	501.228	-1.50073	4.91689E-006	-0.427875	9
	22	51	7942.6	501.807	-14.6484	1	502.02	-1.67207	4.87757E-006	-0.427877	9
	23	53	7078.05	501.5	-15.3765	1	501.736	-1.7562	4.9087E-006	-0.427884	9
	24	55	6311.1	501.712	-16.8186	1	501.994	-1.91998	4.93334E-006	-0.427872	9
	25	57	5622.14	502.632	-17.6142	1	502.94	-2.00705	4.80749E-006	-0.427872	9
	26	59	5011.18	502.947	-19.9048	1	503.341	-2.26637	4.75188E-006	-0.427879	9
	27	61	4465.21	503.204	-22.0248	1	503.686	-2.50618	4.715E-006	-0.42787	9
	28	63	3980.93	503.501	-23.9981	1	504.073	-2.72879	4.71196E-006	-0.427868	9
	29	65	3548.18	504.662	-26.7039	1	505.368	-3.02895	4.78598E-006	-0.427863	9
	30	67	3162.67	504.932	-29.4074	1	505.788	-3.33315	4.69174E-006	-0.427845	9
	31	69	2819.01	505.885	-31.7313	1	506.879	-3.58914	4.64053E-006	-0.427883	9
	32	71	2511.16	505.591	-35.3036	1	506.822	-3.99427	4.65107E-006	-0.427868	9
	33	73	2238.63	507.337	-38.503	1	508.796	-4.33999	4.51042E-006	-0.427859	9
	34	75	1995.37	508.098	-43.4764	1	509.955	-4.89071	4.49184E-006	-0.427866	9
	35	77	1778.51	508.257	-47.6817	1	510.488	-5.35947	4.43855E-006	-0.427872	9
	36	79	1584.49	509.338	-53.2352	1	512.112	-5.9668	4.46661E-006	-0.427861	9
	37	81	1412.76	510.464	-57.9357	1	513.741	-6.47514	4.38333E-006	-0.427856	9
	38	83	1259.04	512.066	-64.3783	1	516.097	-7.16578	4.44953E-006	-0.427877	9
	39	85	1121.63	512.007	-71.3767	1	516.958	-7.93622	4.40155E-006	-0.427862	9
	40	87	999.95	515.027	-78.1818	1	520.927	-8.63168	4.35666E-006	-0.427863	9
	41	89	891.184	515.644	-86.6506	1	522.874	-9.5391	4.39769E-006	-0.427873	9
	42	91	794.163	517.793	-96.05	1	526.627	-10.5089	4.12781E-006	-0.427866	9
	43	93	707.867	520.232	-106.436	1	531.008	-11.5628	4.3673E-006	-0.42786	9
	44	95	630.984	522.72	-117.312	1	535.722	-12.6491	4.26497E-006	-0.427863	9
	45	97	562.189	523.244	-129.906	1	539.128	-13.9429	4.10533E-006	-0.427829	9
	46	99	501.303	526.652	-143.208	1	545.776	-15.2122	4.15673E-006	-0.42787	9
	47	101	446.614	529.179	-158.505	1	552.408	-16.6745	4.07314E-006	-0.427876	9
	48	103	398.209	531.884	-175.371	1	560.05	-18.2483	4.13556E-006	-0.427869	9
	49	105	354.821	534.932	-194.033	1	569.035	-19.937	4.22403E-006	-0.427867	9
	50	107	316.113	538.145	-214.879	1	579.46	-21.7666	4.20925E-006	-0.42787	9
	51	109	281.926	541.616	-237.758	1	591.504	-23.7005	4.12855E-006	-0.427872	9
	52	111	251.185	545.361	-263.342	1	605.613	-25.7748	4.17903E-006	-0.427869	9
	53	113	223.946	549.399	-291.702	1	622.037	-27.9659	4.18361E-006	-0.427871	9
	54	115	199.495	553.732	-323.378	1	641.243	-30.2848	4.1066E-006	-0.427874	9
	55	117	177.836	558.454	-358.535	1	663.64	-32.701	4.07858E-006	-0.427875	9
	56	119	158.533	563.511	-397.631	1	689.677	-35.208	4.14383E-006	-0.427873	9
	57	121	141.263	569.059	-441.327	1	720.137	-37.795	4.0945E-006	-0.427873	9
	58	123	125.911	575.078	-490.001	1	755.523	-40.433	4.02647E-006	-0.427875	9
	59	125	112.198	581.661	-544.178	1	796.53	-43.0932	3.96067E-006	-0.427873	9
	60	127	100.009	588.833	-604.624	1	843.975	-45.758	3.91709E-006	-0.427872	9
	61	129	89.1164	596.86	-672.128	1	898.887	-48.3944	3.9515E-006	-0.427878	9
	62	131	79.4083	605.861	-747.366	1	962.09	-50.9697	3.80927E-006	-0.427877	9
	63	133	70.788	615.695	-831.308	1	1034.48	-53.4751	3.8007E-006	-0.42788	9
	64	135	63.0971	626.107	-924.15	1	1116.27	-55.8825	2.92601E-006	-0.427893	8
	65	137	54.5476	642.121	-1058.12	1	1237.72	-58.7485	2.96611E-006	-0.42788	8
	66	139	50.0083	652.947	-1147.3	1	1320.09	-60.355	2.95416E-006	-0.427889	8
	67	141	46.1675	663.426	-1235.6	1	1402.44	-61.7674	2.8789E-006	-0.427888	8
	68	144	40.0059	685.75	-1412.77	1	1570.41	-64.1084	2.87441E-006	-0.427888	8
	69	146	35.3046	709.209	-1588.09	1	1739.26	-65.9354	2.93969E-006	-0.427886	8
	70	148	31.5793	733.183	-1762.67	1	1909.08	-67.4151	2.96238E-006	-0.42788	8
	71	150	28.5748	757.139	-1936.04	1	2078.83	-68.6407	2.97758E-006	-0.427893	8
	72	152	24.9911	793.392	-2194.77	1	2333.77	-70.1255	2.95317E-006	-0.427887	8
	73	154	22.2195	834.675	-2449.17	1	2587.49	-71.1809	2.88347E-006	-0.427884	8
	74	157	20.0011	872.543	-2701.97	1	2839.36	-72.1033	2.76997E-006	-0.427892	8
	75	159	17.6486	931.504	-3037.17	1	3176.81	-72.9492	2.78493E-006	-0.427889	8
	76	161	15.7934	995.08	-3374.59	1	3518.24	-73.5706	2.83094E-006	-0.427891	8
	77	163	14.2828	1054.22	-3709.37	1	3856.27	-74.1346	2.7393E-006	-0.427886	8
	78	166	12.5002	1156.2	-4203.34	1	4359.46	-74.6202	2.78788E-006	-0.427904	8
	79	168	11.323	1246.41	-4607.19	1	4772.81	-74.8618	2.80747E-006	-0.4279	8
	80	171	9.9987	1375.32	-5187.69	1	5366.9	-75.1518	2.76068E-006	-0.427898	8
