EXPLAIN
TAG	EISPOT
TITLE	LABEL	Tomato_open	Test &Identifier
DATE	LABEL	5/10/2006	Date
TIME	LABEL	13:56:18	Time
NOTES	NOTES	1	&Notes...
	
PSTAT	PSTAT	300	Potentiostat
VDC	POTEN	1.00000E-001	T	DC &Voltage (V)
FREQINIT	QUANT	1.00000E+005	Initial Fre&q. (Hz)
FREQFINAL	QUANT	1.00000E+001	Final Fre&q. (Hz)
PTSPERDEC	QUANT	2.00000E+001	Points/&decade
VAC	QUANT	1.00000E+001	AC &Voltage (mV rms)
AREA	QUANT	1.00000E+000	&Area (cm²)
DENSITY	QUANT	7.87000E+000	&Density (gm/cm³)
EQUIV	QUANT	7.00000E+000	Equiv. &Wt
CONDIT	TWOPARAM	F	1.50000E+001	0.00000E+000	Conditionin&g	Time(s)	E(V)
DELAY	TWOPARAM	F	6.00000E+002	0.00000E+000	Init. De&lay	Time(s)	Stab.(mV/s)
SPEED	SELECTOR	1	&Optimize for:
ZGUESS	QUANT	1.00000E+002	E&stimated Z (ohms)
OCVCURVE	TABLE	39
	Pt	T	Vf	Vm	Ach	Over
	#	s	V vs. Ref.	V	V	bits
	0	0.258332	-5.86893E-001	5.55754E-006	3.15400E-004	......
	1	0.516663	-5.87443E-001	5.55754E-006	1.54000E-005	......
	2	0.774994	-5.87043E-001	5.55754E-006	2.15400E-004	......
	3	1.03333	-5.86343E-001	5.55754E-006	1.15400E-004	......
	4	1.29166	-5.86093E-001	5.55754E-006	2.15400E-004	......
	5	1.54999	-5.86043E-001	5.55754E-006	1.54000E-005	......
	6	1.80832	-5.85393E-001	5.55754E-006	3.15400E-004	......
	7	2.06665	-5.85544E-001	5.55754E-006	-8.46000E-005	......
	8	2.32498	-5.86143E-001	5.55754E-006	3.15400E-004	......
	9	2.58332	-5.86593E-001	5.55754E-006	-8.46000E-005	......
	10	2.84165	-5.86194E-001	5.55754E-006	2.15400E-004	......
	11	3.09998	-5.84343E-001	5.55754E-006	1.54000E-005	......
	12	3.35831	-5.84044E-001	5.55754E-006	2.15400E-004	......
	13	3.61664	-5.84893E-001	5.55754E-006	1.54000E-005	......
	14	3.87497	-5.86893E-001	5.55754E-006	2.15400E-004	......
	15	4.1333	-5.87243E-001	5.55754E-006	1.54000E-005	......
	16	4.39164	-5.86043E-001	5.55754E-006	3.15400E-004	......
	17	4.64997	-5.80693E-001	5.55754E-006	1.54000E-005	......
	18	4.9083	-5.78493E-001	5.55754E-006	3.15400E-004	......
	19	5.16663	-5.80193E-001	5.55754E-006	1.54000E-005	......
	20	5.42496	-5.82443E-001	5.55754E-006	2.15400E-004	......
	21	5.68329	-5.84693E-001	5.55754E-006	1.54000E-005	......
	22	5.94162	-5.85544E-001	5.55754E-006	2.15400E-004	......
	23	6.19996	-5.85893E-001	5.55754E-006	1.54000E-005	......
	24	6.45829	-5.85943E-001	5.55754E-006	2.15400E-004	......
	25	6.71662	-5.85943E-001	5.55754E-006	1.54000E-005	......
	26	6.97495	-5.85793E-001	5.55754E-006	3.15400E-004	......
	27	7.23328	-5.85844E-001	5.55754E-006	1.15400E-004	......
	28	7.49161	-5.84044E-001	5.55754E-006	2.15400E-004	......
	29	7.74995	-5.84044E-001	5.55754E-006	1.54000E-005	......
	30	8.00828	-5.83943E-001	5.55754E-006	3.15400E-004	......
	31	8.26661	-5.83393E-001	5.55754E-006	1.15400E-004	......
	32	8.52494	-5.83943E-001	5.55754E-006	2.15400E-004	......
	33	8.78327	-5.84444E-001	5.55754E-006	-8.46000E-005	......
	34	9.0416	-5.81244E-001	5.55754E-006	3.15400E-004	......
	35	9.29993	-5.78593E-001	5.55754E-006	1.15400E-004	......
	36	9.5583	-5.77994E-001	5.55754E-006	2.15400E-004	......
	37	9.8166	-5.78644E-001	5.55754E-006	1.54000E-005	......
	38	10.0749	-5.79343E-001	5.55754E-006	1.15400E-004	......
EOC	QUANT	-0.579343	Open Circuit (V)
PSTATMODEL	IQUANT	32	Pstat Model
PSTATSECTION	LABEL	PStat0	Pstat Section
CTRLMODE	IQUANT	1	Control Mode
IESTAB	IQUANT	0	I/E Stability
CASPEED	IQUANT	1	Control Amp Speed
CONVENTION	IQUANT	1	Current Convention
ICHRANGE	IQUANT	2	Ich Range
ICHRANGEMODE	TOGGLE	F	Ich Auto Range
ICHOFFSETENABLE	TOGGLE	T	Ich Offset Enable
ICHOFFSET	QUANT	0	Ich Offset (V)
ICHFILTER	IQUANT	3	Ich Filter
VCHRANGE	IQUANT	2	Vch Range
VCHRANGEMODE	TOGGLE	F	Vch Auto Range
VCHOFFSETENABLE	TOGGLE	T	Vch Offset Enable
VCHOFFSET	QUANT	0	Vch Offset (V)
VCHFILTER	IQUANT	3	Vch Filter
ACHRANGE	IQUANT	0	Ach Range
IERANGELOWERLIMIT	IQUANT	3	I/E Range Lower Limit
IERANGEMODE	TOGGLE	F	I/E AutoRange
IERANGE	IQUANT	11	I/E Range
POSFEEDENABLE	TOGGLE	F	Positive Feedback IR Comp
POSFEEDRESISTANCE	QUANT	0	Positive Feedback Resistance (ohm)
FC350IDIVISOR	IQUANT	0	FC350 I Divisor
FC350VRANGE	IQUANT	0	FC350 V Range
FRAMEWORKVERSION	QUANT	4.35	Framework Version
ZCURVE	TABLE
	Pt	Time	Freq	Zreal	Zimag	Zsig	Zmod	Zphz	Idc	Vdc	IERange
	#	s	Hz	ohm	ohm	V	ohm	°	A	V	#
	0	5	100007	479.406	-0.120127	1	479.406	-0.014357	2.737E-006	-0.47911	9
	1	7	89134.1	477.544	-1.76561	1	477.547	-0.211837	2.77692E-006	-0.479113	9
	2	9	79433.6	475.419	-6.08333	1	475.458	-0.7331	8.84645E-006	-0.479147	10
	3	11	70800.8	475.458	-1.29368	1	475.46	-0.155897	2.6427E-006	-0.479127	9
	4	13	63105.5	474.591	-1.93597	1	474.595	-0.233722	3.04711E-006	-0.479179	9
	5	15	56243.5	474.909	-2.80437	1	474.917	-0.338332	3.06064E-006	-0.479161	9
	6	17	50123.7	475.722	-5.9923	1	475.759	-0.721673	8.15992E-006	-0.479164	10
	7	20	44681	473.753	-3.23205	1	473.764	-0.390879	2.88077E-006	-0.479135	9
	8	22	39811.2	473.022	-7.29523	1	473.079	-0.88358	7.24562E-006	-0.479162	10
	9	24	35488.3	473.535	-4.19464	1	473.553	-0.507521	3.05139E-006	-0.479147	9
	10	26	31634.1	473.096	-5.68247	1	473.13	-0.68816	8.5173E-006	-0.479126	10
	11	30	28173.1	473.449	-6.08853	1	473.488	-0.73678	2.9012E-006	-0.479153	9
	12	32	25123.7	473.436	-6.29006	1	473.478	-0.761185	2.80143E-006	-0.479112	9
	13	34	22389.3	474.801	-6.86904	1	474.85	-0.828852	6.83594E-006	-0.479123	10
	14	37	19954.4	474.49	-7.29755	1	474.546	-0.881127	3.0227E-006	-0.479158	9
	15	39	17778.2	474.048	-8.04489	1	474.117	-0.97225	2.95561E-006	-0.479144	9
	16	41	15852.9	474.339	-7.62389	1	474.4	-0.920816	2.93489E-006	-0.479137	9
	17	43	14122.3	474.187	-9.879	1	474.29	-1.1935	7.77937E-006	-0.479148	10
	18	45	12587.2	475.093	-10.1514	1	475.202	-1.22406	2.76464E-006	-0.479144	9
	19	47	11221.1	475.693	-11.5766	1	475.834	-1.39409	2.94356E-006	-0.47914	9
	20	49	9998.2	475.718	-11.515	1	475.858	-1.3866	7.86547E-006	-0.47914	10
	21	51	8912.76	476.669	-12.0022	1	476.82	-1.44236	2.94925E-006	-0.479149	9
	22	53	7942.6	476.764	-14.2625	1	476.977	-1.71351	3.01796E-006	-0.479145	9
	23	55	7078.05	477.253	-15.0564	1	477.491	-1.80697	3.00707E-006	-0.479144	9
	24	57	6311.1	476.871	-18.4928	1	477.229	-2.22079	8.06342E-006	-0.479139	10
	25	60	5622.14	477.091	-18.1046	1	477.435	-2.17321	2.9407E-006	-0.479131	9
	26	62	5011.18	477.774	-19.0954	1	478.155	-2.28875	3.0892E-006	-0.47913	9
	27	63	4465.21	478.31	-22.4823	1	478.838	-2.69113	8.08895E-006	-0.479134	10
	28	66	3980.93	479.882	-23.9331	1	480.478	-2.85514	2.94719E-006	-0.479161	9
	29	68	3548.18	479.723	-26.5215	1	480.455	-3.16438	3.14834E-006	-0.479144	9
	30	70	3162.67	481.298	-29.06	1	482.175	-3.45523	3.10588E-006	-0.479161	9
	31	72	2819.01	480.69	-33.031	1	481.824	-3.93094	7.07353E-006	-0.479122	10
	32	74	2511.16	481.804	-35.2988	1	483.096	-4.19022	3.13372E-006	-0.479133	9
	33	77	2238.63	482.047	-38.7253	1	483.6	-4.593	3.12011E-006	-0.479135	9
	34	78	1995.37	485.857	-45.2984	1	487.964	-5.32652	8.22724E-006	-0.479141	10
	35	81	1778.51	484.09	-47.8	1	486.444	-5.63922	3.20866E-006	-0.479132	9
	36	83	1584.49	485.096	-52.3712	1	487.915	-6.16181	3.25606E-006	-0.479142	9
	37	85	1412.76	485.314	-58.6665	1	488.847	-6.89268	8.97361E-006	-0.479127	10
	38	88	1259.04	487.542	-64.4047	1	491.778	-7.52525	3.38112E-006	-0.479135	9
	39	90	1121.63	487.993	-70.783	1	493.1	-8.25314	3.36886E-006	-0.479127	9
	40	92	999.95	489.605	-79.0829	1	495.951	-9.17539	3.2381E-006	-0.479141	9
	41	94	891.184	491.767	-86.7734	1	499.364	-10.007	3.21034E-006	-0.479139	9
	42	96	794.163	494.115	-96.415	1	503.434	-11.0411	3.18303E-006	-0.479138	9
	43	98	707.867	495.614	-106.007	1	506.824	-12.073	3.3558E-006	-0.479166	9
	44	100	630.984	497.605	-117.346	1	511.254	-13.2691	3.23044E-006	-0.479135	9
	45	102	562.189	499.819	-130.242	1	516.509	-14.6052	3.37275E-006	-0.47916	9
	46	104	501.303	502.559	-143.28	1	522.585	-15.9129	3.40981E-006	-0.479139	9
	47	106	446.614	505.15	-158.617	1	529.468	-17.4323	3.4539E-006	-0.47914	9
	48	108	398.209	507.95	-175.449	1	537.397	-19.0552	3.45453E-006	-0.47914	9
	49	110	354.821	510.947	-194.091	1	546.57	-20.8001	3.45008E-006	-0.479143	9
	50	112	316.113	514.2	-214.89	1	557.296	-22.6807	3.4104E-006	-0.479143	9
	51	113	281.926	517.643	-237.74	1	569.627	-24.6681	3.53465E-006	-0.479145	9
	52	115	251.185	521.43	-263.342	1	584.157	-26.7955	3.54308E-006	-0.479136	9
	53	118	223.946	525.456	-291.657	1	600.973	-29.0327	3.5585E-006	-0.479143	9
	54	119	199.495	529.819	-323.294	1	620.666	-31.3914	3.56249E-006	-0.479137	9
	55	121	177.836	534.536	-358.449	1	643.595	-33.845	3.58681E-006	-0.47914	9
	56	124	158.533	539.573	-397.521	1	670.195	-36.3802	3.61214E-006	-0.479132	9
	57	126	141.263	545.06	-441.221	1	701.26	-38.9899	3.62379E-006	-0.479132	9
	58	128	125.911	551.064	-489.856	1	737.313	-41.6348	3.59836E-006	-0.479137	9
	59	130	112.198	557.644	-544.15	1	779.145	-44.2983	3.65272E-006	-0.479141	9
	60	132	100.009	564.913	-604.518	1	827.386	-46.9397	3.67976E-006	-0.479139	9
	61	134	89.1164	572.731	-671.937	1	882.904	-49.5571	3.54272E-006	-0.479136	9
	62	136	79.4083	581.509	-747.541	1	947.085	-52.1208	3.58785E-006	-0.47913	9
	63	138	70.788	591.342	-831.292	1	1020.16	-54.5737	3.51259E-006	-0.47913	9
	64	140	63.0971	601.704	-923.972	1	1102.62	-56.9272	2.64542E-006	-0.479141	8
	65	142	54.5476	617.445	-1057.85	1	1224.86	-59.7289	2.70625E-006	-0.479138	8
	66	144	50.0083	628.223	-1147.35	1	1308.08	-61.2975	2.75523E-006	-0.479145	8
	67	146	46.1675	639.349	-1235.61	1	1391.22	-62.6414	2.65972E-006	-0.47914	8
	68	148	40.0059	661.483	-1412.35	1	1559.58	-64.9037	2.64573E-006	-0.479137	8
	69	150	35.3046	683.37	-1587.37	1	1728.22	-66.7079	2.65124E-006	-0.479136	8
	70	153	31.5793	706.311	-1762.47	1	1898.73	-68.1615	2.65307E-006	-0.479136	8
	71	155	28.5748	728.216	-1934.3	1	2066.84	-69.3699	2.58832E-006	-0.479136	8
	72	157	24.9911	765.329	-2195.43	1	2325	-70.7814	2.62588E-006	-0.479132	8
	73	159	22.2195	802.155	-2449.65	1	2577.64	-71.8686	2.58935E-006	-0.479139	8
	74	161	20.0011	841.34	-2705.16	1	2832.97	-72.7236	2.57933E-006	-0.479138	8
	75	164	17.6486	900.175	-3039.54	1	3170.03	-73.5031	2.56442E-006	-0.479147	8
	76	166	15.7934	964.2	-3374.78	1	3509.82	-74.0549	2.63121E-006	-0.479148	8
	77	168	14.2828	1014.96	-3709.44	1	3845.79	-74.6976	2.57394E-006	-0.479142	8
	78	171	12.5002	1124.32	-4195.58	1	4343.61	-74.9985	2.59266E-006	-0.479141	8
	79	173	11.323	1201	-4608.89	1	4762.8	-75.3945	2.57978E-006	-0.479146	8
	80	176	9.9987	1332.84	-5170.97	1	5339.98	-75.5464	2.5431E-006	-0.479143	8
