EXPLAIN
TAG	EISPOT
TITLE	LABEL	Tomato_open	Test &Identifier
DATE	LABEL	5/10/2006	Date
TIME	LABEL	13:43:24	Time
NOTES	NOTES	1	&Notes...
	
PSTAT	PSTAT	300	Potentiostat
VDC	POTEN	1.00000E-001	T	DC &Voltage (V)
FREQINIT	QUANT	1.00000E+005	Initial Fre&q. (Hz)
FREQFINAL	QUANT	1.00000E+001	Final Fre&q. (Hz)
PTSPERDEC	QUANT	2.00000E+001	Points/&decade
VAC	QUANT	1.00000E+001	AC &Voltage (mV rms)
AREA	QUANT	1.00000E+000	&Area (cm²)
DENSITY	QUANT	7.87000E+000	&Density (gm/cm³)
EQUIV	QUANT	7.00000E+000	Equiv. &Wt
CONDIT	TWOPARAM	F	1.50000E+001	0.00000E+000	Conditionin&g	Time(s)	E(V)
DELAY	TWOPARAM	F	6.00000E+002	0.00000E+000	Init. De&lay	Time(s)	Stab.(mV/s)
SPEED	SELECTOR	1	&Optimize for:
ZGUESS	QUANT	1.00000E+002	E&stimated Z (ohms)
OCVCURVE	TABLE	39
	Pt	T	Vf	Vm	Ach	Over
	#	s	V vs. Ref.	V	V	bits
	0	0.258332	-5.68993E-001	3.99394E-006	3.15400E-004	......
	1	0.516663	-5.69543E-001	3.99394E-006	3.15400E-004	......
	2	0.774994	-5.69393E-001	3.99394E-006	2.15400E-004	......
	3	1.03333	-5.64143E-001	3.99394E-006	3.15400E-004	......
	4	1.29166	-5.63093E-001	3.99394E-006	2.15400E-004	......
	5	1.54999	-5.66194E-001	3.99394E-006	3.15400E-004	......
	6	1.80832	-5.67793E-001	3.99394E-006	2.15400E-004	......
	7	2.06665	-5.69143E-001	3.99394E-006	3.15400E-004	......
	8	2.32498	-5.65893E-001	3.99394E-006	3.15400E-004	......
	9	2.58332	-5.66543E-001	3.99394E-006	2.15400E-004	......
	10	2.84165	-5.67643E-001	3.99394E-006	2.15400E-004	......
	11	3.09998	-5.69393E-001	3.99394E-006	2.15400E-004	......
	12	3.35831	-5.70044E-001	3.99394E-006	2.15400E-004	......
	13	3.61664	-5.66444E-001	3.99394E-006	3.15400E-004	......
	14	3.87497	-5.63393E-001	3.99394E-006	1.15400E-004	......
	15	4.1333	-5.64093E-001	3.99394E-006	2.15400E-004	......
	16	4.39164	-5.64893E-001	3.99394E-006	1.15400E-004	......
	17	4.64997	-5.66643E-001	3.99394E-006	3.15400E-004	......
	18	4.9083	-5.67293E-001	3.99394E-006	2.15400E-004	......
	19	5.16663	-5.67793E-001	3.99394E-006	3.15400E-004	......
	20	5.42496	-5.67593E-001	3.99394E-006	2.15400E-004	......
	21	5.68329	-5.68244E-001	3.99394E-006	3.15400E-004	......
	22	5.94162	-5.68793E-001	3.99394E-006	3.15400E-004	......
	23	6.19996	-5.68293E-001	3.99394E-006	1.15400E-004	......
	24	6.45829	-5.69344E-001	3.99394E-006	3.15400E-004	......
	25	6.71662	-5.68994E-001	3.99394E-006	2.15400E-004	......
	26	6.97495	-5.69143E-001	3.99394E-006	2.15400E-004	......
	27	7.23328	-5.69593E-001	3.99394E-006	2.15400E-004	......
	28	7.49161	-5.65243E-001	3.99394E-006	2.15400E-004	......
	29	7.74995	-5.64193E-001	3.99394E-006	3.15400E-004	......
	30	8.00828	-5.65293E-001	3.99394E-006	2.15400E-004	......
	31	8.26661	-5.67194E-001	3.99394E-006	3.15400E-004	......
	32	8.52494	-5.67693E-001	3.99394E-006	1.54000E-005	......
	33	8.78327	-5.68843E-001	3.99394E-006	3.15400E-004	......
	34	9.0416	-5.69443E-001	3.99394E-006	2.15400E-004	......
	35	9.29993	-5.70693E-001	3.99394E-006	3.15400E-004	......
	36	9.5583	-5.73443E-001	3.99394E-006	2.15400E-004	......
	37	9.8166	-5.69093E-001	3.99394E-006	3.15400E-004	......
	38	10.0749	-5.71144E-001	3.99394E-006	2.15400E-004	......
EOC	QUANT	-0.571144	Open Circuit (V)
PSTATMODEL	IQUANT	32	Pstat Model
PSTATSECTION	LABEL	PStat0	Pstat Section
CTRLMODE	IQUANT	1	Control Mode
IESTAB	IQUANT	0	I/E Stability
CASPEED	IQUANT	1	Control Amp Speed
CONVENTION	IQUANT	1	Current Convention
ICHRANGE	IQUANT	2	Ich Range
ICHRANGEMODE	TOGGLE	F	Ich Auto Range
ICHOFFSETENABLE	TOGGLE	T	Ich Offset Enable
ICHOFFSET	QUANT	0	Ich Offset (V)
ICHFILTER	IQUANT	3	Ich Filter
VCHRANGE	IQUANT	2	Vch Range
VCHRANGEMODE	TOGGLE	F	Vch Auto Range
VCHOFFSETENABLE	TOGGLE	T	Vch Offset Enable
VCHOFFSET	QUANT	0	Vch Offset (V)
VCHFILTER	IQUANT	3	Vch Filter
ACHRANGE	IQUANT	0	Ach Range
IERANGELOWERLIMIT	IQUANT	3	I/E Range Lower Limit
IERANGEMODE	TOGGLE	F	I/E AutoRange
IERANGE	IQUANT	11	I/E Range
POSFEEDENABLE	TOGGLE	F	Positive Feedback IR Comp
POSFEEDRESISTANCE	QUANT	0	Positive Feedback Resistance (ohm)
FC350IDIVISOR	IQUANT	0	FC350 I Divisor
FC350VRANGE	IQUANT	0	FC350 V Range
FRAMEWORKVERSION	QUANT	4.35	Framework Version
ZCURVE	TABLE
	Pt	Time	Freq	Zreal	Zimag	Zsig	Zmod	Zphz	Idc	Vdc	IERange
	#	s	Hz	ohm	ohm	V	ohm	°	A	V	#
	0	4	100007	526.069	-2.79307	1	526.077	-0.304198	2.83518E-006	-0.470961	9
	1	6	89134.1	524.77	-2.51169	1	524.776	-0.274231	2.52903E-006	-0.470942	9
	2	8	79433.6	523.426	-2.69099	1	523.433	-0.294561	2.63113E-006	-0.47095	9
	3	10	70800.8	522.756	-2.43447	1	522.762	-0.266824	2.8071E-006	-0.470964	9
	4	12	63105.5	521.623	-3.10473	1	521.632	-0.341023	2.63071E-006	-0.470984	9
	5	14	56243.5	521.616	-2.92584	1	521.624	-0.32138	2.77725E-006	-0.470996	9
	6	16	50123.7	520.446	-3.31294	1	520.457	-0.364716	2.76854E-006	-0.47096	9
	7	18	44681	520.547	-4.75759	1	520.569	-0.523645	2.78148E-006	-0.470973	9
	8	20	39811.2	520.183	-4.50738	1	520.202	-0.496455	2.52985E-006	-0.470967	9
	9	22	35488.3	521.042	-5.4597	1	521.071	-0.600347	2.69018E-006	-0.470947	9
	10	24	31634.1	520.115	-5.38991	1	520.143	-0.593731	2.55338E-006	-0.470941	9
	11	26	28173.1	520.042	-5.91553	1	520.075	-0.651717	2.6515E-006	-0.470961	9
	12	28	25123.7	520.573	-7.52003	1	520.627	-0.827619	2.64809E-006	-0.470953	9
	13	30	22389.3	519.744	-7.6626	1	519.8	-0.844652	2.77148E-006	-0.470946	9
	14	32	19954.4	519.753	-8.58043	1	519.824	-0.945791	3.1249E-006	-0.470975	9
	15	34	17778.2	520.785	-9.35249	1	520.869	-1.02883	2.94057E-006	-0.470959	9
	16	36	15852.9	521.042	-10.2466	1	521.142	-1.12661	3.0811E-006	-0.470977	9
	17	38	14122.3	521.694	-10.5797	1	521.802	-1.16177	2.85638E-006	-0.470946	9
	18	40	12587.2	521.586	-12.0432	1	521.726	-1.3227	2.85284E-006	-0.470952	9
	19	42	11221.1	521.739	-12.8705	1	521.898	-1.41311	2.78126E-006	-0.470955	9
	20	44	9998.2	523.239	-14.5263	1	523.441	-1.59026	2.89823E-006	-0.470946	9
	21	46	8912.76	522.933	-15.2892	1	523.156	-1.6747	2.97515E-006	-0.470983	9
	22	48	7942.6	523.67	-16.7982	1	523.939	-1.83729	2.88652E-006	-0.47095	9
	23	50	7078.05	523.069	-18.6292	1	523.401	-2.03974	2.77568E-006	-0.470952	9
	24	52	6311.1	523.736	-19.8597	1	524.112	-2.17157	2.7599E-006	-0.470949	9
	25	54	5622.14	524.276	-21.6339	1	524.722	-2.36294	2.82258E-006	-0.470948	9
	26	56	5011.18	523.911	-23.0921	1	524.419	-2.52376	2.83101E-006	-0.470952	9
	27	58	4465.21	524.734	-26.816	1	525.419	-2.9255	2.72476E-006	-0.470949	9
	28	60	3980.93	525.914	-29.7912	1	526.757	-3.24214	2.53131E-006	-0.470959	9
	29	62	3548.18	526.404	-33.1365	1	527.446	-3.60195	2.56071E-006	-0.470959	9
	30	64	3162.67	526.675	-36.668	1	527.95	-3.9826	2.59241E-006	-0.470959	9
	31	66	2819.01	527.783	-40.0647	1	529.301	-4.34107	2.70139E-006	-0.470949	9
	32	68	2511.16	527.639	-44.5126	1	529.513	-4.82216	2.57906E-006	-0.470939	9
	33	70	2238.63	529.341	-48.9647	1	531.601	-5.28489	2.49896E-006	-0.470945	9
	34	72	1995.37	529.231	-54.5403	1	532.033	-5.88389	2.51899E-006	-0.470946	9
	35	74	1778.51	530.63	-59.2933	1	533.933	-6.37586	2.53674E-006	-0.470947	9
	36	75	1584.49	532.254	-66.338	1	536.372	-7.10448	2.57599E-006	-0.47095	9
	37	77	1412.76	533.887	-73.3304	1	538.9	-7.82075	2.80169E-006	-0.470961	9
	38	79	1259.04	534.95	-81.9899	1	541.196	-8.71372	2.70831E-006	-0.470935	9
	39	81	1121.63	535.498	-91.0966	1	543.191	-9.6545	2.74688E-006	-0.470949	9
	40	83	999.95	538.187	-100.539	1	547.497	-10.5815	2.688E-006	-0.470957	9
	41	85	891.184	539.824	-110.353	1	550.988	-11.5534	2.68948E-006	-0.470954	9
	42	87	794.163	542.085	-122.545	1	555.763	-12.7383	2.63627E-006	-0.470956	9
	43	89	707.867	545.343	-135.086	1	561.824	-13.9126	2.60476E-006	-0.470931	9
	44	91	630.984	546.623	-148.754	1	566.502	-15.2234	2.61112E-006	-0.470957	9
	45	93	562.189	550.556	-166.228	1	575.103	-16.8005	2.56223E-006	-0.470929	9
	46	95	501.303	553.644	-183.116	1	583.141	-18.3015	2.88888E-006	-0.470964	9
	47	97	446.614	557.048	-202.802	1	592.816	-20.0048	2.77385E-006	-0.470969	9
	48	99	398.209	560.746	-224.308	1	603.945	-21.8022	2.81017E-006	-0.470975	9
	49	101	354.821	564.836	-248.277	1	616.994	-23.7282	2.77924E-006	-0.470973	9
	50	103	316.113	569.308	-274.758	1	632.142	-25.7628	2.66395E-006	-0.470972	9
	51	105	281.926	574.104	-303.925	1	649.589	-27.8963	2.54842E-006	-0.470972	9
	52	107	251.185	579.347	-336.535	1	670	-30.1518	2.67865E-006	-0.470967	9
	53	109	223.946	584.924	-372.47	1	693.448	-32.4883	2.61496E-006	-0.470969	9
	54	111	199.495	590.939	-412.656	1	720.76	-34.9268	2.55158E-006	-0.470967	9
	55	113	177.836	597.498	-457.075	1	752.278	-37.4153	2.50211E-006	-0.470971	9
	56	115	158.533	604.6	-506.527	1	788.74	-39.9559	2.47769E-006	-0.470971	9
	57	117	141.263	612.272	-561.724	1	830.91	-42.5346	2.44124E-006	-0.470971	9
	58	119	125.911	620.547	-623.08	1	879.379	-45.1167	2.44703E-006	-0.470974	9
	59	121	112.198	629.79	-691.405	1	935.241	-47.6701	2.50423E-006	-0.47097	9
	60	123	100.009	639.961	-767.32	1	999.16	-50.1712	2.44496E-006	-0.470967	9
	61	125	89.1164	650.981	-852.264	1	1072.44	-52.6265	2.45547E-006	-0.470969	9
	62	128	79.4083	662.411	-946.707	1	1155.44	-55.0195	1.5899E-006	-0.470971	8
	63	130	70.788	676.34	-1051	1	1249.81	-57.2378	1.5351E-006	-0.470972	8
	64	132	63.0971	691.044	-1169.23	1	1358.17	-59.4158	1.47213E-006	-0.47097	8
	65	134	54.5476	713.279	-1335.87	1	1514.37	-61.9002	1.58815E-006	-0.470969	8
	66	136	50.0083	728.031	-1448.06	1	1620.77	-63.3084	1.50646E-006	-0.470965	8
	67	138	46.1675	742.281	-1559.32	1	1726.98	-64.5443	1.48967E-006	-0.470967	8
	68	140	40.0059	774.301	-1780.72	1	1941.78	-66.4994	1.52837E-006	-0.470966	8
	69	142	35.3046	804.467	-1999.02	1	2154.82	-68.0786	1.5581E-006	-0.470963	8
	70	144	31.5793	836.916	-2218.59	1	2371.2	-69.3321	1.5113E-006	-0.470966	8
	71	146	28.5748	872.645	-2437.3	1	2588.81	-70.3007	1.52221E-006	-0.470971	8
	72	149	24.9911	922.161	-2755.9	1	2906.09	-71.4991	1.59777E-006	-0.470975	8
	73	151	22.2195	977.25	-3078.79	1	3230.17	-72.3899	1.61991E-006	-0.470967	8
	74	153	20.0011	1030.05	-3394.17	1	3547.03	-73.1183	1.61051E-006	-0.470959	8
	75	156	17.6486	1109.51	-3815.88	1	3973.91	-73.7876	1.59244E-006	-0.470964	8
	76	158	15.7934	1189.54	-4223.52	1	4387.83	-74.2703	1.48838E-006	-0.470962	8
	77	160	14.2828	1276.68	-4643.78	1	4816.07	-74.6278	1.52751E-006	-0.470964	8
	78	162	12.5002	1409.15	-5256.31	1	5441.92	-74.9927	1.47653E-006	-0.470961	8
	79	165	11.323	1531.78	-5790.25	1	5989.44	-75.1822	1.46324E-006	-0.470964	8
	80	167	9.9987	1693.37	-6467.52	1	6685.53	-75.3278	1.41815E-006	-0.470959	8
