EXPLAIN
TAG	EISPOT
TITLE	LABEL	Tomato_open	Test &Identifier
DATE	LABEL	5/10/2006	Date
TIME	LABEL	13:28:25	Time
NOTES	NOTES	1	&Notes...
	
PSTAT	PSTAT	300	Potentiostat
VDC	POTEN	1.00000E-001	T	DC &Voltage (V)
FREQINIT	QUANT	1.00000E+005	Initial Fre&q. (Hz)
FREQFINAL	QUANT	1.00000E+001	Final Fre&q. (Hz)
PTSPERDEC	QUANT	2.00000E+001	Points/&decade
VAC	QUANT	1.00000E+001	AC &Voltage (mV rms)
AREA	QUANT	1.00000E+000	&Area (cm²)
DENSITY	QUANT	7.87000E+000	&Density (gm/cm³)
EQUIV	QUANT	7.00000E+000	Equiv. &Wt
CONDIT	TWOPARAM	F	1.50000E+001	0.00000E+000	Conditionin&g	Time(s)	E(V)
DELAY	TWOPARAM	F	6.00000E+002	0.00000E+000	Init. De&lay	Time(s)	Stab.(mV/s)
SPEED	SELECTOR	1	&Optimize for:
ZGUESS	QUANT	1.00000E+002	E&stimated Z (ohms)
OCVCURVE	TABLE	39
	Pt	T	Vf	Vm	Ach	Over
	#	s	V vs. Ref.	V	V	bits
	0	0.258332	-6.32944E-001	4.12974E-006	-8.46000E-005	......
	1	0.516663	-6.32393E-001	4.12974E-006	-1.84600E-004	......
	2	0.774994	-6.31444E-001	4.12974E-006	-1.84600E-004	......
	3	1.03333	-6.31894E-001	4.12974E-006	-8.46000E-005	......
	4	1.29166	-6.27594E-001	4.12974E-006	-8.46000E-005	......
	5	1.54999	-6.27643E-001	4.12974E-006	-8.46000E-005	......
	6	1.80832	-6.27593E-001	4.12974E-006	-1.84600E-004	......
	7	2.06665	-6.26444E-001	4.12974E-006	-1.84600E-004	......
	8	2.32498	-6.27393E-001	4.12974E-006	-1.84600E-004	......
	9	2.58332	-6.30193E-001	4.12974E-006	-8.46000E-005	......
	10	2.84165	-6.29593E-001	4.12974E-006	-1.84600E-004	......
	11	3.09998	-6.32793E-001	4.12974E-006	-8.46000E-005	......
	12	3.35831	-6.27243E-001	4.12974E-006	-1.84600E-004	......
	13	3.61664	-6.27093E-001	4.12974E-006	-8.46000E-005	......
	14	3.87497	-6.31243E-001	4.12974E-006	-1.84600E-004	......
	15	4.1333	-6.32693E-001	4.12974E-006	-1.84600E-004	......
	16	4.39164	-6.31743E-001	4.12974E-006	-2.84600E-004	......
	17	4.64997	-6.29543E-001	4.12974E-006	-1.84600E-004	......
	18	4.9083	-6.27643E-001	4.12974E-006	-1.84600E-004	......
	19	5.16663	-6.28244E-001	4.12974E-006	-1.84600E-004	......
	20	5.42496	-6.29143E-001	4.12974E-006	-2.84600E-004	......
	21	5.68329	-6.29743E-001	4.12974E-006	-1.84600E-004	......
	22	5.94162	-6.29443E-001	4.12974E-006	-8.46000E-005	......
	23	6.19996	-6.29294E-001	4.12974E-006	-1.84600E-004	......
	24	6.45829	-6.27693E-001	4.12974E-006	-1.84600E-004	......
	25	6.71662	-6.26593E-001	4.12974E-006	-1.84600E-004	......
	26	6.97495	-6.26893E-001	4.12974E-006	-1.84600E-004	......
	27	7.23328	-6.26293E-001	4.12974E-006	-8.46000E-005	......
	28	7.49161	-6.25443E-001	4.12974E-006	-8.46000E-005	......
	29	7.74995	-6.25543E-001	4.12974E-006	-8.46000E-005	......
	30	8.00828	-6.24593E-001	4.12974E-006	-1.84600E-004	......
	31	8.26661	-6.25443E-001	4.12974E-006	-8.46000E-005	......
	32	8.52494	-6.26293E-001	4.12974E-006	-2.84600E-004	......
	33	8.78327	-6.26993E-001	4.12974E-006	-1.84600E-004	......
	34	9.0416	-6.28343E-001	4.12974E-006	-8.46000E-005	......
	35	9.29993	-6.28143E-001	4.12974E-006	-1.84600E-004	......
	36	9.5583	-6.28993E-001	4.12974E-006	-1.84600E-004	......
	37	9.8166	-6.28893E-001	4.12974E-006	-8.46000E-005	......
	38	10.0749	-6.26993E-001	4.12974E-006	-1.84600E-004	......
EOC	QUANT	-0.626993	Open Circuit (V)
PSTATMODEL	IQUANT	32	Pstat Model
PSTATSECTION	LABEL	PStat0	Pstat Section
CTRLMODE	IQUANT	1	Control Mode
IESTAB	IQUANT	0	I/E Stability
CASPEED	IQUANT	1	Control Amp Speed
CONVENTION	IQUANT	1	Current Convention
ICHRANGE	IQUANT	2	Ich Range
ICHRANGEMODE	TOGGLE	F	Ich Auto Range
ICHOFFSETENABLE	TOGGLE	T	Ich Offset Enable
ICHOFFSET	QUANT	0	Ich Offset (V)
ICHFILTER	IQUANT	3	Ich Filter
VCHRANGE	IQUANT	2	Vch Range
VCHRANGEMODE	TOGGLE	F	Vch Auto Range
VCHOFFSETENABLE	TOGGLE	T	Vch Offset Enable
VCHOFFSET	QUANT	0	Vch Offset (V)
VCHFILTER	IQUANT	3	Vch Filter
ACHRANGE	IQUANT	0	Ach Range
IERANGELOWERLIMIT	IQUANT	3	I/E Range Lower Limit
IERANGEMODE	TOGGLE	F	I/E AutoRange
IERANGE	IQUANT	11	I/E Range
POSFEEDENABLE	TOGGLE	F	Positive Feedback IR Comp
POSFEEDRESISTANCE	QUANT	0	Positive Feedback Resistance (ohm)
FC350IDIVISOR	IQUANT	0	FC350 I Divisor
FC350VRANGE	IQUANT	0	FC350 V Range
FRAMEWORKVERSION	QUANT	4.35	Framework Version
ZCURVE	TABLE
	Pt	Time	Freq	Zreal	Zimag	Zsig	Zmod	Zphz	Idc	Vdc	IERange
	#	s	Hz	ohm	ohm	V	ohm	°	A	V	#
	0	4	100007	528.158	-3.19654	1	528.168	-0.346764	3.4667E-006	-0.526943	9
	1	6	89134.1	528.37	-2.77398	1	528.377	-0.300804	3.0119E-006	-0.526902	9
	2	8	79433.6	526.577	-2.7116	1	526.584	-0.295041	3.16253E-006	-0.526918	9
	3	10	70800.8	525.322	-3.11927	1	525.331	-0.340208	3.31654E-006	-0.52692	9
	4	12	63105.5	524.602	-2.9093	1	524.61	-0.317743	3.41527E-006	-0.526913	9
	5	14	56243.5	524.614	-3.03649	1	524.622	-0.331627	3.35501E-006	-0.526933	9
	6	16	50123.7	524.48	-4.07245	1	524.496	-0.444877	3.03182E-006	-0.526894	9
	7	18	44681	523.434	-4.27359	1	523.452	-0.467782	3.3486E-006	-0.526896	9
	8	20	39811.2	522.7	-4.86922	1	522.723	-0.533724	3.00906E-006	-0.526904	9
	9	22	35488.3	523.642	-5.53697	1	523.671	-0.605822	3.07988E-006	-0.526913	9
	10	24	31634.1	522.965	-6.20283	1	523.002	-0.679547	3.04267E-006	-0.526895	9
	11	26	28173.1	523.888	-6.86908	1	523.933	-0.751204	3.00952E-006	-0.526915	9
	12	28	25123.7	522.772	-7.07452	1	522.82	-0.77532	3.08094E-006	-0.526927	9
	13	30	22389.3	523.323	-7.37363	1	523.375	-0.807246	2.75111E-006	-0.526905	9
	14	32	19954.4	523.213	-7.92143	1	523.273	-0.867391	3.08254E-006	-0.526924	9
	15	34	17778.2	524.402	-9.6963	1	524.491	-1.05929	2.90864E-006	-0.526907	9
	16	36	15852.9	524.428	-10.1935	1	524.527	-1.11354	2.80588E-006	-0.526888	9
	17	38	14122.3	523.831	-10.5927	1	523.939	-1.15845	2.87174E-006	-0.526911	9
	18	40	12587.2	524.937	-12.1561	1	525.077	-1.32658	2.99982E-006	-0.526914	9
	19	42	11221.1	525.985	-13.1179	1	526.148	-1.42865	2.90793E-006	-0.526904	9
	20	44	9998.2	525.148	-14.5422	1	525.349	-1.5862	2.75348E-006	-0.526896	9
	21	46	8912.76	525.394	-15.4931	1	525.623	-1.68908	2.71178E-006	-0.526895	9
	22	48	7942.6	526.464	-17.1906	1	526.745	-1.87021	2.93997E-006	-0.526914	9
	23	50	7078.05	526.41	-18.9955	1	526.753	-2.06662	3.03226E-006	-0.526911	9
	24	52	6311.1	528.032	-21.3246	1	528.462	-2.31264	2.88608E-006	-0.526913	9
	25	54	5622.14	526.873	-22.0665	1	527.335	-2.39826	2.85645E-006	-0.526915	9
	26	56	5011.18	527.869	-24.8352	1	528.453	-2.69367	2.94421E-006	-0.526905	9
	27	58	4465.21	528.701	-27.8207	1	529.433	-3.01218	2.95267E-006	-0.526908	9
	28	60	3980.93	529.381	-30.8508	1	530.279	-3.33526	3.1001E-006	-0.526906	9
	29	62	3548.18	529.284	-33.4052	1	530.337	-3.61137	2.84435E-006	-0.526885	9
	30	64	3162.67	529.82	-37.3346	1	531.134	-4.03077	2.74851E-006	-0.526894	9
	31	66	2819.01	530.921	-41.7425	1	532.559	-4.4955	2.66135E-006	-0.526892	9
	32	68	2511.16	531.928	-45.3604	1	533.859	-4.87413	2.64848E-006	-0.52691	9
	33	70	2238.63	532.294	-50.7109	1	534.704	-5.44206	2.7479E-006	-0.526914	9
	34	71	1995.37	533.86	-56.0793	1	536.797	-5.99664	2.70918E-006	-0.526903	9
	35	73	1778.51	535.457	-62.1371	1	539.05	-6.61928	2.89264E-006	-0.526911	9
	36	75	1584.49	535.762	-68.3883	1	540.109	-7.27427	2.8157E-006	-0.526911	9
	37	77	1412.76	538.019	-75.542	1	543.296	-7.99252	2.89854E-006	-0.526908	9
	38	79	1259.04	539.419	-84.1052	1	545.937	-8.86208	2.90796E-006	-0.526918	9
	39	81	1121.63	540.275	-92.5411	1	548.143	-9.7196	3.19805E-006	-0.526915	9
	40	83	999.95	542.137	-102.762	1	551.791	-10.733	3.12895E-006	-0.526915	9
	41	85	891.184	543.633	-114.124	1	555.483	-11.8559	3.21393E-006	-0.526906	9
	42	87	794.163	547.244	-125.194	1	561.382	-12.8859	3.17915E-006	-0.526916	9
	43	89	707.867	549.405	-138.29	1	566.542	-14.1284	2.87182E-006	-0.52693	9
	44	91	630.984	552.188	-153.559	1	573.142	-15.5408	2.87595E-006	-0.526898	9
	45	93	562.189	555.536	-169.759	1	580.894	-16.992	2.59957E-006	-0.526885	9
	46	95	501.303	558.873	-187.232	1	589.402	-18.5217	2.77619E-006	-0.526913	9
	47	97	446.614	562.432	-207.213	1	599.389	-20.2249	2.62031E-006	-0.526916	9
	48	99	398.209	566.365	-229.13	1	610.958	-22.0264	2.9012E-006	-0.526926	9
	49	101	354.821	570.599	-253.393	1	624.333	-23.9452	2.87962E-006	-0.526917	9
	50	103	316.113	575.216	-280.388	1	639.914	-25.9868	2.75399E-006	-0.526918	9
	51	105	281.926	580.153	-310.033	1	657.798	-28.12	2.49411E-006	-0.526918	9
	52	107	251.185	585.582	-343.08	1	678.683	-30.3651	2.4814E-006	-0.526914	9
	53	109	223.946	591.343	-379.562	1	702.677	-32.695	2.7078E-006	-0.526916	9
	54	111	199.495	597.587	-420.492	1	730.701	-35.1321	2.76673E-006	-0.526916	9
	55	113	177.836	604.45	-465.629	1	763.001	-37.6084	2.70091E-006	-0.526922	9
	56	115	158.533	611.68	-515.864	1	800.167	-40.1428	2.69964E-006	-0.526915	9
	57	117	141.263	619.642	-571.982	1	843.279	-42.7097	2.92873E-006	-0.526921	9
	58	119	125.911	628.453	-634.203	1	892.842	-45.2609	2.95294E-006	-0.526923	9
	59	121	112.198	637.62	-703.817	1	949.694	-47.8251	2.86437E-006	-0.526924	9
	60	123	100.009	647.895	-780.742	1	1014.56	-50.3126	2.70317E-006	-0.526921	9
	61	126	89.1164	659.058	-866.626	1	1088.76	-52.7475	1.8229E-006	-0.526923	8
	62	128	79.4083	671.246	-962.45	1	1173.4	-55.1067	1.94555E-006	-0.526923	8
	63	130	70.788	685.152	-1069.19	1	1269.88	-57.3477	1.96815E-006	-0.526923	8
	64	132	63.0971	701.892	-1188.92	1	1380.65	-59.444	1.86497E-006	-0.526931	8
	65	134	54.5476	724.168	-1360.14	1	1540.91	-61.9683	1.97033E-006	-0.526923	8
	66	136	50.0083	738.95	-1473.05	1	1648.01	-63.3596	1.88793E-006	-0.52692	8
	67	138	46.1675	753.487	-1586.96	1	1756.75	-64.6017	1.75442E-006	-0.52692	8
	68	140	40.0059	782.806	-1811.51	1	1973.41	-66.6294	1.63833E-006	-0.526915	8
	69	142	35.3046	810.341	-2033.62	1	2189.13	-68.2741	1.46481E-006	-0.52692	8
	70	144	31.5793	854.661	-2255.04	1	2411.57	-69.2433	1.8074E-006	-0.526919	8
	71	146	28.5748	880.7	-2474.76	1	2626.8	-70.4108	1.88423E-006	-0.52692	8
	72	149	24.9911	942.03	-2804.43	1	2958.42	-71.4324	1.84628E-006	-0.52692	8
	73	151	22.2195	1000.47	-3133.77	1	3289.6	-72.294	1.59054E-006	-0.526911	8
	74	153	20.0011	1046.45	-3450.97	1	3606.14	-73.1309	1.72412E-006	-0.526915	8
	75	156	17.6486	1119	-3883.41	1	4041.42	-73.9258	1.84577E-006	-0.526909	8
	76	158	15.7934	1201.84	-4292.1	1	4457.2	-74.3571	1.79753E-006	-0.526914	8
	77	160	14.2828	1290.04	-4698.64	1	4872.52	-74.6474	1.79136E-006	-0.526914	8
	78	162	12.5002	1363.02	-5361.8	1	5532.33	-75.737	8.76727E-007	-0.526918	8
	79	166	11.323	1469.84	-5881.53	1	6062.41	-75.9687	1.07977E-006	-0.52692	8
	80	168	9.9987	1672.27	-6582.5	1	6791.6	-75.7456	1.27386E-006	-0.526921	8
