EXPLAIN
TAG	EISPOT
TITLE	LABEL	Tomato_open	Test &Identifier
DATE	LABEL	5/10/2006	Date
TIME	LABEL	13:38:26	Time
NOTES	NOTES	1	&Notes...
	
PSTAT	PSTAT	300	Potentiostat
VDC	POTEN	1.00000E-001	T	DC &Voltage (V)
FREQINIT	QUANT	1.00000E+005	Initial Fre&q. (Hz)
FREQFINAL	QUANT	1.00000E+001	Final Fre&q. (Hz)
PTSPERDEC	QUANT	2.00000E+001	Points/&decade
VAC	QUANT	1.00000E+001	AC &Voltage (mV rms)
AREA	QUANT	1.00000E+000	&Area (cm²)
DENSITY	QUANT	7.87000E+000	&Density (gm/cm³)
EQUIV	QUANT	7.00000E+000	Equiv. &Wt
CONDIT	TWOPARAM	F	1.50000E+001	0.00000E+000	Conditionin&g	Time(s)	E(V)
DELAY	TWOPARAM	F	6.00000E+002	0.00000E+000	Init. De&lay	Time(s)	Stab.(mV/s)
SPEED	SELECTOR	1	&Optimize for:
ZGUESS	QUANT	1.00000E+002	E&stimated Z (ohms)
OCVCURVE	TABLE	39
	Pt	T	Vf	Vm	Ach	Over
	#	s	V vs. Ref.	V	V	bits
	0	0.258332	-5.89844E-001	3.56924E-006	-1.84600E-004	......
	1	0.516663	-5.88593E-001	3.56924E-006	-8.46000E-005	......
	2	0.774994	-5.87393E-001	3.56924E-006	-8.46000E-005	......
	3	1.03333	-5.88443E-001	3.56924E-006	-1.84600E-004	......
	4	1.29166	-5.89144E-001	3.56924E-006	-1.84600E-004	......
	5	1.54999	-5.88693E-001	3.56924E-006	-8.46000E-005	......
	6	1.80832	-5.87593E-001	3.56924E-006	-1.84600E-004	......
	7	2.06665	-5.88443E-001	3.56924E-006	-8.46000E-005	......
	8	2.32498	-5.87943E-001	3.56924E-006	-2.84600E-004	......
	9	2.58332	-5.87493E-001	3.56924E-006	-3.84600E-004	......
	10	2.84165	-5.88993E-001	3.56924E-006	-2.84600E-004	......
	11	3.09998	-5.86944E-001	3.56924E-006	-8.46000E-005	......
	12	3.35831	-5.89144E-001	3.56924E-006	-1.84600E-004	......
	13	3.61664	-5.90293E-001	3.56924E-006	-1.84600E-004	......
	14	3.87497	-5.88044E-001	3.56924E-006	-8.46000E-005	......
	15	4.1333	-5.87043E-001	3.56924E-006	-1.84600E-004	......
	16	4.39164	-5.86843E-001	3.56924E-006	-1.84600E-004	......
	17	4.64997	-5.88143E-001	3.56924E-006	-1.84600E-004	......
	18	4.9083	-5.88493E-001	3.56924E-006	-1.84600E-004	......
	19	5.16663	-5.89193E-001	3.56924E-006	-1.84600E-004	......
	20	5.42496	-5.85844E-001	3.56924E-006	-8.46000E-005	......
	21	5.68329	-5.86843E-001	3.56924E-006	-8.46000E-005	......
	22	5.94162	-5.89444E-001	3.56924E-006	-2.84600E-004	......
	23	6.19996	-5.90443E-001	3.56924E-006	-8.46000E-005	......
	24	6.45829	-5.90593E-001	3.56924E-006	-8.46000E-005	......
	25	6.71662	-5.89043E-001	3.56924E-006	-1.84600E-004	......
	26	6.97495	-5.90193E-001	3.56924E-006	-1.84600E-004	......
	27	7.23328	-5.90643E-001	3.56924E-006	-1.84600E-004	......
	28	7.49161	-5.92043E-001	3.56924E-006	-1.84600E-004	......
	29	7.74995	-5.90293E-001	3.56924E-006	-1.84600E-004	......
	30	8.00828	-5.89943E-001	3.56924E-006	-1.84600E-004	......
	31	8.26661	-5.90643E-001	3.56924E-006	-1.84600E-004	......
	32	8.52494	-5.91043E-001	3.56924E-006	-1.84600E-004	......
	33	8.78327	-5.90993E-001	3.56924E-006	-1.84600E-004	......
	34	9.0416	-5.91043E-001	3.56924E-006	-2.84600E-004	......
	35	9.29993	-5.91343E-001	3.56924E-006	1.54000E-005	......
	36	9.5583	-5.91093E-001	3.56924E-006	-1.84600E-004	......
	37	9.8166	-5.87394E-001	3.56924E-006	-1.84600E-004	......
	38	10.0749	-5.88843E-001	3.56924E-006	-1.84600E-004	......
EOC	QUANT	-0.588843	Open Circuit (V)
PSTATMODEL	IQUANT	32	Pstat Model
PSTATSECTION	LABEL	PStat0	Pstat Section
CTRLMODE	IQUANT	1	Control Mode
IESTAB	IQUANT	0	I/E Stability
CASPEED	IQUANT	1	Control Amp Speed
CONVENTION	IQUANT	1	Current Convention
ICHRANGE	IQUANT	2	Ich Range
ICHRANGEMODE	TOGGLE	F	Ich Auto Range
ICHOFFSETENABLE	TOGGLE	T	Ich Offset Enable
ICHOFFSET	QUANT	0	Ich Offset (V)
ICHFILTER	IQUANT	3	Ich Filter
VCHRANGE	IQUANT	2	Vch Range
VCHRANGEMODE	TOGGLE	F	Vch Auto Range
VCHOFFSETENABLE	TOGGLE	T	Vch Offset Enable
VCHOFFSET	QUANT	0	Vch Offset (V)
VCHFILTER	IQUANT	3	Vch Filter
ACHRANGE	IQUANT	0	Ach Range
IERANGELOWERLIMIT	IQUANT	3	I/E Range Lower Limit
IERANGEMODE	TOGGLE	F	I/E AutoRange
IERANGE	IQUANT	11	I/E Range
POSFEEDENABLE	TOGGLE	F	Positive Feedback IR Comp
POSFEEDRESISTANCE	QUANT	0	Positive Feedback Resistance (ohm)
FC350IDIVISOR	IQUANT	0	FC350 I Divisor
FC350VRANGE	IQUANT	0	FC350 V Range
FRAMEWORKVERSION	QUANT	4.35	Framework Version
ZCURVE	TABLE
	Pt	Time	Freq	Zreal	Zimag	Zsig	Zmod	Zphz	Idc	Vdc	IERange
	#	s	Hz	ohm	ohm	V	ohm	°	A	V	#
	0	6	100007	527.597	-3.08099	1	527.606	-0.334584	2.89319E-006	-0.488518	9
	1	8	89134.1	525.999	-2.28059	1	526.004	-0.248418	2.80212E-006	-0.488566	9
	2	10	79433.6	524.111	-2.45102	1	524.117	-0.267943	2.51909E-006	-0.488524	9
	3	12	70800.8	523.65	-2.14905	1	523.654	-0.23514	2.52334E-006	-0.488526	9
	4	14	63105.5	522.942	-2.78676	1	522.95	-0.305327	2.79232E-006	-0.48858	9
	5	16	56243.5	522.907	-3.60385	1	522.92	-0.394874	2.53471E-006	-0.488529	9
	6	18	50123.7	522.305	-3.75597	1	522.318	-0.412015	2.61863E-006	-0.488525	9
	7	20	44681	521.59	-4.70352	1	521.611	-0.51666	2.75388E-006	-0.488567	9
	8	22	39811.2	521.367	-4.89776	1	521.39	-0.538225	2.73676E-006	-0.488544	9
	9	24	35488.3	520.857	-5.67968	1	520.888	-0.624757	2.49975E-006	-0.48854	9
	10	26	31634.1	520.926	-5.76938	1	520.958	-0.634539	2.59128E-006	-0.488525	9
	11	28	28173.1	520.985	-6.16439	1	521.021	-0.677903	2.62573E-006	-0.488549	9
	12	30	25123.7	521.202	-6.57928	1	521.244	-0.723223	2.5455E-006	-0.488562	9
	13	32	22389.3	521.083	-7.08244	1	521.131	-0.778703	2.70426E-006	-0.488571	9
	14	34	19954.4	520.842	-9.23846	1	520.924	-1.01618	2.54714E-006	-0.488511	9
	15	36	17778.2	522.153	-9.49977	1	522.239	-1.04229	2.64075E-006	-0.488544	9
	16	38	15852.9	522.522	-9.9547	1	522.617	-1.09142	2.76931E-006	-0.488563	9
	17	40	14122.3	522.669	-10.9113	1	522.783	-1.19594	2.68117E-006	-0.488545	9
	18	42	12587.2	522.412	-12.477	1	522.561	-1.36817	2.62361E-006	-0.488546	9
	19	44	11221.1	522.924	-12.4377	1	523.072	-1.36252	2.68854E-006	-0.48856	9
	20	46	9998.2	522.753	-14.8577	1	522.964	-1.62803	2.73603E-006	-0.488545	9
	21	48	8912.76	524.197	-15.7338	1	524.433	-1.71922	2.75994E-006	-0.488549	9
	22	50	7942.6	525.003	-16.4194	1	525.26	-1.79133	2.74972E-006	-0.488547	9
	23	52	7078.05	524.638	-18.3583	1	524.96	-2.0041	2.68685E-006	-0.488539	9
	24	54	6311.1	525.182	-19.6851	1	525.551	-2.14658	2.67913E-006	-0.488546	9
	25	56	5622.14	525.324	-23.0232	1	525.828	-2.50947	2.62819E-006	-0.488543	9
	26	58	5011.18	525.927	-24.9854	1	526.521	-2.71993	2.66219E-006	-0.488547	9
	27	60	4465.21	524.586	-27.505	1	525.306	-3.00137	2.65098E-006	-0.488546	9
	28	62	3980.93	527.079	-29.6936	1	527.915	-3.22441	2.49515E-006	-0.488525	9
	29	64	3548.18	527.009	-34.2786	1	528.122	-3.72149	2.53403E-006	-0.488548	9
	30	66	3162.67	528.459	-35.9377	1	529.68	-3.89039	2.67465E-006	-0.488569	9
	31	67	2819.01	528.317	-40.6916	1	529.882	-4.40429	2.65668E-006	-0.488562	9
	32	69	2511.16	529.045	-44.5304	1	530.915	-4.81132	2.50465E-006	-0.488522	9
	33	71	2238.63	530.902	-49.2645	1	533.183	-5.30153	2.5161E-006	-0.48854	9
	34	73	1995.37	531.352	-54.2807	1	534.117	-5.83286	2.5366E-006	-0.488543	9
	35	75	1778.51	532.123	-60.7544	1	535.58	-6.51346	2.55173E-006	-0.488547	9
	36	77	1584.49	532.96	-67.6862	1	537.241	-7.23784	2.53269E-006	-0.488538	9
	37	79	1412.76	535.812	-74.3657	1	540.948	-7.90164	2.52711E-006	-0.488516	9
	38	81	1259.04	536.755	-81.3277	1	542.882	-8.61576	2.50661E-006	-0.488546	9
	39	83	1121.63	537.752	-91.1868	1	545.428	-9.6241	2.52657E-006	-0.488555	9
	40	85	999.95	538.984	-100.863	1	548.34	-10.5994	2.52652E-006	-0.488552	9
	41	87	891.184	541.25	-111.204	1	552.556	-11.6103	2.49271E-006	-0.488545	9
	42	89	794.163	543.858	-123.58	1	557.721	-12.8018	2.51226E-006	-0.488543	9
	43	91	707.867	546.967	-136.039	1	563.63	-13.9669	2.45021E-006	-0.488557	9
	44	93	630.984	549.377	-150.541	1	569.629	-15.3241	2.52012E-006	-0.488548	9
	45	95	562.189	552.436	-166.012	1	576.841	-16.7261	2.41293E-006	-0.488555	9
	46	97	501.303	555.4	-184.478	1	585.236	-18.3741	2.48603E-006	-0.488562	9
	47	99	446.614	558.888	-204.188	1	595.02	-20.0697	2.45654E-006	-0.488559	9
	48	101	398.209	562.618	-225.882	1	606.269	-21.8746	2.47291E-006	-0.488562	9
	49	103	354.821	566.784	-249.934	1	619.444	-23.796	2.40875E-006	-0.488563	9
	50	105	316.113	571.25	-276.656	1	634.716	-25.8409	2.41281E-006	-0.488564	9
	51	107	281.926	576.125	-305.949	1	652.322	-27.9704	2.50368E-006	-0.488567	9
	52	109	251.185	581.377	-338.693	1	672.839	-30.2238	2.48781E-006	-0.488569	9
	53	111	223.946	586.993	-374.825	1	696.459	-32.5603	2.4685E-006	-0.488567	9
	54	113	199.495	593.11	-415.243	1	724.021	-34.9963	2.43972E-006	-0.488569	9
	55	115	177.836	599.724	-459.988	1	755.816	-37.4882	2.45506E-006	-0.488569	9
	56	117	158.533	606.892	-509.619	1	792.483	-40.0208	2.44715E-006	-0.488568	9
	57	119	141.263	614.634	-565.048	1	834.898	-42.5931	2.42598E-006	-0.488569	9
	58	121	125.911	623.062	-626.617	1	883.66	-45.163	2.43887E-006	-0.488579	9
	59	123	112.198	632.29	-695.638	1	940.055	-47.7312	2.40814E-006	-0.488575	9
	60	125	100.009	642.402	-771.784	1	1004.16	-50.2273	2.34509E-006	-0.488572	9
	61	127	89.1164	653.022	-856.627	1	1077.15	-52.6811	1.52645E-006	-0.488573	8
	62	130	79.4083	665.133	-951.73	1	1161.12	-55.0516	1.50956E-006	-0.488576	8
	63	132	70.788	678.85	-1057.53	1	1256.67	-57.3028	1.56638E-006	-0.488582	8
	64	134	63.0971	694.187	-1175.32	1	1365.02	-59.4324	1.53237E-006	-0.488587	8
	65	136	54.5476	716.153	-1344.49	1	1523.33	-61.9576	1.55983E-006	-0.488575	8
	66	138	50.0083	731.511	-1456.6	1	1629.97	-63.334	1.53617E-006	-0.488581	8
	67	140	46.1675	746.385	-1567.95	1	1736.53	-64.5443	1.5235E-006	-0.488575	8
	68	142	40.0059	777.451	-1790.91	1	1952.38	-66.5339	1.55172E-006	-0.488584	8
	69	144	35.3046	810.734	-2012.5	1	2169.66	-68.058	1.60568E-006	-0.488585	8
	70	146	31.5793	842.165	-2230	1	2383.72	-69.3108	1.60704E-006	-0.48858	8
	71	148	28.5748	875.289	-2447.32	1	2599.14	-70.3204	1.50736E-006	-0.488581	8
	72	151	24.9911	928.587	-2773.11	1	2924.45	-71.4867	1.60402E-006	-0.488577	8
	73	153	22.2195	984.98	-3093.8	1	3246.81	-72.34	1.62632E-006	-0.488587	8
	74	155	20.0011	1046.25	-3412.3	1	3569.09	-72.9539	1.79427E-006	-0.488583	8
	75	158	17.6486	1132.39	-3836.71	1	4000.33	-73.5563	1.90722E-006	-0.488593	8
	76	160	15.7934	1229.11	-4241.79	1	4416.27	-73.8404	2.05623E-006	-0.488582	8
	77	162	14.2828	1327.52	-4660.15	1	4845.55	-74.0995	2.07596E-006	-0.488576	8
	78	164	12.5002	1497.09	-5272.4	1	5480.83	-74.1482	2.03473E-006	-0.488577	8
	79	167	11.323	1589.65	-5785.5	1	5999.92	-74.6363	2.03933E-006	-0.48857	8
	80	169	9.9987	1839.18	-6457.71	1	6714.51	-74.1029	2.02972E-006	-0.488575	8
