EXPLAIN
TAG	EISPOT
TITLE	LABEL	Tomato_open	Test &Identifier
DATE	LABEL	5/10/2006	Date
TIME	LABEL	13:33:25	Time
NOTES	NOTES	1	&Notes...
	
PSTAT	PSTAT	300	Potentiostat
VDC	POTEN	1.00000E-001	T	DC &Voltage (V)
FREQINIT	QUANT	1.00000E+005	Initial Fre&q. (Hz)
FREQFINAL	QUANT	1.00000E+001	Final Fre&q. (Hz)
PTSPERDEC	QUANT	2.00000E+001	Points/&decade
VAC	QUANT	1.00000E+001	AC &Voltage (mV rms)
AREA	QUANT	1.00000E+000	&Area (cm²)
DENSITY	QUANT	7.87000E+000	&Density (gm/cm³)
EQUIV	QUANT	7.00000E+000	Equiv. &Wt
CONDIT	TWOPARAM	F	1.50000E+001	0.00000E+000	Conditionin&g	Time(s)	E(V)
DELAY	TWOPARAM	F	6.00000E+002	0.00000E+000	Init. De&lay	Time(s)	Stab.(mV/s)
SPEED	SELECTOR	1	&Optimize for:
ZGUESS	QUANT	1.00000E+002	E&stimated Z (ohms)
OCVCURVE	TABLE	39
	Pt	T	Vf	Vm	Ach	Over
	#	s	V vs. Ref.	V	V	bits
	0	0.258332	-6.13443E-001	3.31674E-006	-1.84600E-004	......
	1	0.516663	-6.12794E-001	3.31674E-006	-1.84600E-004	......
	2	0.774994	-6.13993E-001	3.31674E-006	-1.84600E-004	......
	3	1.03333	-6.13144E-001	3.31674E-006	-1.84600E-004	......
	4	1.29166	-6.12643E-001	3.31674E-006	-1.84600E-004	......
	5	1.54999	-6.14294E-001	3.31674E-006	-8.46000E-005	......
	6	1.80832	-6.13993E-001	3.31674E-006	-8.46000E-005	......
	7	2.06665	-6.14543E-001	3.31674E-006	-1.84600E-004	......
	8	2.32498	-6.15143E-001	3.31674E-006	-1.84600E-004	......
	9	2.58332	-6.15243E-001	3.31674E-006	-1.84600E-004	......
	10	2.84165	-6.15294E-001	3.31674E-006	-1.84600E-004	......
	11	3.09998	-6.15543E-001	3.31674E-006	-1.84600E-004	......
	12	3.35831	-6.16843E-001	3.31674E-006	-8.46000E-005	......
	13	3.61664	-6.12743E-001	3.31674E-006	-8.46000E-005	......
	14	3.87497	-6.08243E-001	3.31674E-006	-1.84600E-004	......
	15	4.1333	-6.08793E-001	3.31674E-006	-8.46000E-005	......
	16	4.39164	-6.11344E-001	3.31674E-006	-1.84600E-004	......
	17	4.64997	-6.11843E-001	3.31674E-006	-1.84600E-004	......
	18	4.9083	-6.12593E-001	3.31674E-006	-1.84600E-004	......
	19	5.16663	-6.10344E-001	3.31674E-006	-1.84600E-004	......
	20	5.42496	-6.15493E-001	3.31674E-006	-1.84600E-004	......
	21	5.68329	-6.17144E-001	3.31674E-006	-1.84600E-004	......
	22	5.94162	-6.17743E-001	3.31674E-006	-8.46000E-005	......
	23	6.19996	-6.17444E-001	3.31674E-006	-1.84600E-004	......
	24	6.45829	-6.17893E-001	3.31674E-006	-1.84600E-004	......
	25	6.71662	-6.17943E-001	3.31674E-006	-1.84600E-004	......
	26	6.97495	-6.17993E-001	3.31674E-006	-8.46000E-005	......
	27	7.23328	-6.15493E-001	3.31674E-006	-1.84600E-004	......
	28	7.49161	-6.15294E-001	3.31674E-006	-1.84600E-004	......
	29	7.74995	-6.16243E-001	3.31674E-006	-1.84600E-004	......
	30	8.00828	-6.15793E-001	3.31674E-006	-1.84600E-004	......
	31	8.26661	-6.15543E-001	3.31674E-006	-1.84600E-004	......
	32	8.52494	-6.14393E-001	3.31674E-006	-1.84600E-004	......
	33	8.78327	-6.15743E-001	3.31674E-006	-8.46000E-005	......
	34	9.0416	-6.16843E-001	3.31674E-006	-1.84600E-004	......
	35	9.29993	-6.15843E-001	3.31674E-006	-1.84600E-004	......
	36	9.5583	-6.14944E-001	3.31674E-006	-8.46000E-005	......
	37	9.8166	-6.16493E-001	3.31674E-006	-8.46000E-005	......
	38	10.0749	-6.16044E-001	3.31674E-006	-8.46000E-005	......
EOC	QUANT	-0.616044	Open Circuit (V)
PSTATMODEL	IQUANT	32	Pstat Model
PSTATSECTION	LABEL	PStat0	Pstat Section
CTRLMODE	IQUANT	1	Control Mode
IESTAB	IQUANT	0	I/E Stability
CASPEED	IQUANT	1	Control Amp Speed
CONVENTION	IQUANT	1	Current Convention
ICHRANGE	IQUANT	2	Ich Range
ICHRANGEMODE	TOGGLE	F	Ich Auto Range
ICHOFFSETENABLE	TOGGLE	T	Ich Offset Enable
ICHOFFSET	QUANT	0	Ich Offset (V)
ICHFILTER	IQUANT	3	Ich Filter
VCHRANGE	IQUANT	2	Vch Range
VCHRANGEMODE	TOGGLE	F	Vch Auto Range
VCHOFFSETENABLE	TOGGLE	T	Vch Offset Enable
VCHOFFSET	QUANT	0	Vch Offset (V)
VCHFILTER	IQUANT	3	Vch Filter
ACHRANGE	IQUANT	0	Ach Range
IERANGELOWERLIMIT	IQUANT	3	I/E Range Lower Limit
IERANGEMODE	TOGGLE	F	I/E AutoRange
IERANGE	IQUANT	11	I/E Range
POSFEEDENABLE	TOGGLE	F	Positive Feedback IR Comp
POSFEEDRESISTANCE	QUANT	0	Positive Feedback Resistance (ohm)
FC350IDIVISOR	IQUANT	0	FC350 I Divisor
FC350VRANGE	IQUANT	0	FC350 V Range
FRAMEWORKVERSION	QUANT	4.35	Framework Version
ZCURVE	TABLE
	Pt	Time	Freq	Zreal	Zimag	Zsig	Zmod	Zphz	Idc	Vdc	IERange
	#	s	Hz	ohm	ohm	V	ohm	°	A	V	#
	0	4	100007	529.45	-3.61403	1	529.462	-0.391096	2.49196E-006	-0.51583	9
	1	6	89134.1	528.077	-2.25289	1	528.082	-0.244435	2.73555E-006	-0.515872	9
	2	8	79433.6	525.852	-2.58004	1	525.858	-0.281114	2.94856E-006	-0.515879	9
	3	10	70800.8	524.719	-1.49992	1	524.721	-0.163781	2.32923E-006	-0.51584	9
	4	13	63105.5	524.126	-2.79721	1	524.134	-0.305779	2.46158E-006	-0.515833	9
	5	15	56243.5	523.797	-3.16133	1	523.806	-0.345799	2.405E-006	-0.515842	9
	6	17	50123.7	523.386	-4.43605	1	523.405	-0.485609	2.5359E-006	-0.515834	9
	7	19	44681	522.724	-4.22699	1	522.741	-0.46331	2.45921E-006	-0.515833	9
	8	21	39811.2	522.622	-4.15978	1	522.639	-0.456033	2.67117E-006	-0.515871	9
	9	23	35488.3	522.587	-5.3386	1	522.614	-0.585297	2.42507E-006	-0.515837	9
	10	24	31634.1	522.749	-6.29054	1	522.787	-0.68944	2.56357E-006	-0.515877	9
	11	26	28173.1	521.627	-6.22091	1	521.664	-0.683276	2.50426E-006	-0.515856	9
	12	28	25123.7	522.761	-7.34858	1	522.813	-0.805367	2.41556E-006	-0.515847	9
	13	30	22389.3	522.495	-7.19811	1	522.544	-0.789281	2.43812E-006	-0.515868	9
	14	32	19954.4	523.353	-9.7937	1	523.444	-1.07207	2.28154E-006	-0.515869	9
	15	34	17778.2	523.694	-9.526	1	523.781	-1.04209	2.42544E-006	-0.515856	9
	16	36	15852.9	524.404	-10.2061	1	524.503	-1.11497	2.51037E-006	-0.51585	9
	17	38	14122.3	523.357	-10.4545	1	523.461	-1.14438	2.56957E-006	-0.515873	9
	18	40	12587.2	524.292	-11.7191	1	524.423	-1.28048	2.71744E-006	-0.515873	9
	19	42	11221.1	524.373	-13.0965	1	524.536	-1.43069	2.71979E-006	-0.515863	9
	20	44	9998.2	524.369	-14.8759	1	524.58	-1.625	2.79078E-006	-0.515863	9
	21	46	8912.76	525.675	-14.9492	1	525.888	-1.62894	2.79825E-006	-0.515841	9
	22	48	7942.6	524.946	-16.6888	1	525.212	-1.8209	2.79717E-006	-0.515868	9
	23	50	7078.05	526.308	-18.0404	1	526.617	-1.96317	2.64968E-006	-0.515872	9
	24	52	6311.1	527.033	-20.944	1	527.449	-2.2757	2.67866E-006	-0.515871	9
	25	54	5622.14	526.798	-22.9613	1	527.298	-2.49575	2.70074E-006	-0.515876	9
	26	56	5011.18	527.956	-26.0099	1	528.596	-2.82041	2.5924E-006	-0.515875	9
	27	58	4465.21	527.401	-27.5186	1	528.118	-2.98686	2.4541E-006	-0.515864	9
	28	60	3980.93	527.865	-30.4466	1	528.742	-3.30109	2.53529E-006	-0.515864	9
	29	62	3548.18	529.031	-33.6614	1	530.101	-3.64073	2.3113E-006	-0.515886	9
	30	64	3162.67	529.208	-36.7933	1	530.486	-3.9771	2.68823E-006	-0.515878	9
	31	66	2819.01	529.922	-40.6795	1	531.481	-4.3897	2.31021E-006	-0.515859	9
	32	68	2511.16	529.348	-44.5032	1	531.216	-4.80565	2.32132E-006	-0.515866	9
	33	70	2238.63	531.617	-49.7759	1	533.942	-5.34907	2.37172E-006	-0.515863	9
	34	72	1995.37	531.934	-55.8586	1	534.859	-5.99468	2.54471E-006	-0.515857	9
	35	74	1778.51	533.749	-60.724	1	537.192	-6.49057	2.49787E-006	-0.515861	9
	36	76	1584.49	534.58	-67.6864	1	538.848	-7.21617	2.53001E-006	-0.515858	9
	37	78	1412.76	537.452	-75.6386	1	542.748	-8.01095	2.40816E-006	-0.515873	9
	38	80	1259.04	537.94	-83.9337	1	544.449	-8.86824	2.46689E-006	-0.515854	9
	39	82	1121.63	539.497	-91.7497	1	547.243	-9.6517	2.47006E-006	-0.515856	9
	40	84	999.95	541.385	-101.869	1	550.885	-10.6564	2.42743E-006	-0.515852	9
	41	86	891.184	543.221	-112.95	1	554.839	-11.746	2.44437E-006	-0.515851	9
	42	88	794.163	546.147	-124.224	1	560.097	-12.8142	2.39849E-006	-0.515862	9
	43	90	707.867	548.216	-138.323	1	565.397	-14.161	2.46776E-006	-0.515877	9
	44	92	630.984	551.202	-152.049	1	571.789	-15.4215	2.48649E-006	-0.51586	9
	45	94	562.189	554.344	-168.264	1	579.319	-16.885	2.21355E-006	-0.515831	9
	46	96	501.303	557.254	-186.17	1	587.53	-18.4737	2.22822E-006	-0.515861	9
	47	98	446.614	560.785	-206.048	1	597.441	-20.1748	2.30971E-006	-0.515868	9
	48	100	398.209	564.626	-227.933	1	608.898	-21.9833	2.46201E-006	-0.515873	9
	49	102	354.821	568.873	-252.152	1	622.252	-23.9053	2.59793E-006	-0.515866	9
	50	104	316.113	573.47	-279.077	1	637.771	-25.9497	2.61253E-006	-0.515868	9
	51	106	281.926	578.323	-308.511	1	655.466	-28.078	2.51455E-006	-0.515872	9
	52	108	251.185	583.696	-341.468	1	676.24	-30.3281	2.52847E-006	-0.515867	9
	53	110	223.946	589.407	-377.88	1	700.138	-32.6647	2.56109E-006	-0.515867	9
	54	112	199.495	595.609	-418.535	1	727.957	-35.0958	2.55735E-006	-0.515873	9
	55	114	177.836	602.314	-463.565	1	760.049	-37.5834	2.58127E-006	-0.515874	9
	56	116	158.533	609.619	-513.625	1	797.149	-40.1153	2.51733E-006	-0.515871	9
	57	118	141.263	617.519	-569.537	1	840.061	-42.6853	2.51972E-006	-0.515868	9
	58	120	125.911	626.006	-631.445	1	889.16	-45.2478	2.48547E-006	-0.515872	9
	59	122	112.198	635.302	-700.7	1	945.827	-47.8024	2.43945E-006	-0.515874	9
	60	124	100.009	645.352	-777.67	1	1010.57	-50.3123	2.48158E-006	-0.515872	9
	61	126	89.1164	656.374	-863.101	1	1084.33	-52.7476	1.66528E-006	-0.515875	8
	62	128	79.4083	668.92	-958.84	1	1169.12	-55.0992	1.6578E-006	-0.51588	8
	63	130	70.788	682.857	-1065.25	1	1265.33	-57.3389	1.64698E-006	-0.515867	8
	64	132	63.0971	697.778	-1183.64	1	1374	-59.4798	1.57337E-006	-0.515875	8
	65	134	54.5476	720.119	-1354.29	1	1533.84	-61.999	1.5736E-006	-0.515865	8
	66	136	50.0083	735.004	-1467.23	1	1641.03	-63.3915	1.5663E-006	-0.515874	8
	67	138	46.1675	750.598	-1578.79	1	1748.14	-64.5724	1.47937E-006	-0.515877	8
	68	140	40.0059	781.477	-1802.89	1	1964.98	-66.5653	1.43807E-006	-0.515869	8
	69	143	35.3046	816.41	-2025.19	1	2183.55	-68.0443	1.65307E-006	-0.51587	8
	70	145	31.5793	847.596	-2247.88	1	2402.37	-69.3403	1.5619E-006	-0.515871	8
	71	147	28.5748	881.625	-2463.48	1	2616.48	-70.3088	1.54516E-006	-0.515873	8
	72	149	24.9911	937.232	-2796.81	1	2949.67	-71.4736	1.56967E-006	-0.515876	8
	73	151	22.2195	988.54	-3120.73	1	3273.55	-72.4236	1.56477E-006	-0.515872	8
	74	154	20.0011	1054.23	-3434.09	1	3592.26	-72.9341	1.73517E-006	-0.515863	8
	75	156	17.6486	1120.42	-3861.24	1	4020.52	-73.8188	1.36479E-006	-0.515865	8
	76	158	15.7934	1228.33	-4290.89	1	4463.25	-74.0254	1.47968E-006	-0.51586	8
	77	160	14.2828	1314.21	-4684.72	1	4865.57	-74.3295	1.63719E-006	-0.515866	8
	78	163	12.5002	1474.27	-5312.35	1	5513.12	-74.4898	1.69596E-006	-0.515867	8
	79	165	11.323	1584.77	-5813.6	1	6025.73	-74.7518	1.59514E-006	-0.51587	8
	80	168	9.9987	1782.19	-6511.49	1	6750.98	-74.693	1.6413E-006	-0.515871	8
