EXPLAIN
TAG	EISPOT
TITLE	LABEL	Tomato_open	Test &Identifier
DATE	LABEL	5/10/2006	Date
TIME	LABEL	13:23:21	Time
NOTES	NOTES	1	&Notes...
	
PSTAT	PSTAT	300	Potentiostat
VDC	POTEN	1.00000E-001	T	DC &Voltage (V)
FREQINIT	QUANT	1.00000E+005	Initial Fre&q. (Hz)
FREQFINAL	QUANT	1.00000E+001	Final Fre&q. (Hz)
PTSPERDEC	QUANT	2.00000E+001	Points/&decade
VAC	QUANT	1.00000E+001	AC &Voltage (mV rms)
AREA	QUANT	1.00000E+000	&Area (cm²)
DENSITY	QUANT	7.87000E+000	&Density (gm/cm³)
EQUIV	QUANT	7.00000E+000	Equiv. &Wt
CONDIT	TWOPARAM	F	1.50000E+001	0.00000E+000	Conditionin&g	Time(s)	E(V)
DELAY	TWOPARAM	F	6.00000E+002	0.00000E+000	Init. De&lay	Time(s)	Stab.(mV/s)
SPEED	SELECTOR	1	&Optimize for:
ZGUESS	QUANT	1.00000E+002	E&stimated Z (ohms)
OCVCURVE	TABLE	39
	Pt	T	Vf	Vm	Ach	Over
	#	s	V vs. Ref.	V	V	bits
	0	0.258332	-6.43493E-001	0.00000E+000	2.15400E-004	......
	1	0.516663	-6.41544E-001	0.00000E+000	1.15400E-004	......
	2	0.774994	-6.40794E-001	0.00000E+000	2.15400E-004	......
	3	1.03333	-6.41443E-001	0.00000E+000	1.54000E-005	......
	4	1.29166	-6.43743E-001	0.00000E+000	2.15400E-004	......
	5	1.54999	-6.45293E-001	0.00000E+000	1.15400E-004	......
	6	1.80832	-6.44643E-001	0.00000E+000	3.15400E-004	......
	7	2.06665	-6.43793E-001	0.00000E+000	1.54000E-005	......
	8	2.32498	-6.45193E-001	0.00000E+000	3.15400E-004	......
	9	2.58332	-6.42693E-001	0.00000E+000	1.54000E-005	......
	10	2.84165	-6.43943E-001	0.00000E+000	3.15400E-004	......
	11	3.09998	-6.45893E-001	0.00000E+000	1.54000E-005	......
	12	3.35831	-6.45743E-001	0.00000E+000	3.15400E-004	......
	13	3.61664	-6.46793E-001	0.00000E+000	1.15400E-004	......
	14	3.87497	-6.45993E-001	0.00000E+000	2.15400E-004	......
	15	4.1333	-6.45844E-001	0.00000E+000	1.54000E-005	......
	16	4.39164	-6.47843E-001	0.00000E+000	2.15400E-004	......
	17	4.64997	-6.48443E-001	0.00000E+000	1.15400E-004	......
	18	4.9083	-6.48993E-001	0.00000E+000	2.15400E-004	......
	19	5.16663	-6.45393E-001	0.00000E+000	1.54000E-005	......
	20	5.42496	-6.42743E-001	0.00000E+000	3.15400E-004	......
	21	5.68329	-6.43993E-001	0.00000E+000	1.54000E-005	......
	22	5.94162	-6.43394E-001	0.00000E+000	3.15400E-004	......
	23	6.19996	-6.41493E-001	0.00000E+000	1.54000E-005	......
	24	6.45829	-6.42743E-001	0.00000E+000	2.15400E-004	......
	25	6.71662	-6.45393E-001	0.00000E+000	1.54000E-005	......
	26	6.97495	-6.46143E-001	0.00000E+000	3.15400E-004	......
	27	7.23328	-6.46544E-001	0.00000E+000	1.15400E-004	......
	28	7.49161	-6.46393E-001	0.00000E+000	4.15400E-004	......
	29	7.74995	-6.46244E-001	0.00000E+000	1.15400E-004	......
	30	8.00828	-6.46393E-001	0.00000E+000	1.15400E-004	......
	31	8.26661	-6.46393E-001	0.00000E+000	1.54000E-005	......
	32	8.52494	-6.46594E-001	0.00000E+000	4.15400E-004	......
	33	8.78327	-6.45893E-001	0.00000E+000	1.54000E-005	......
	34	9.0416	-6.44444E-001	0.00000E+000	2.15400E-004	......
	35	9.29993	-6.43593E-001	0.00000E+000	1.54000E-005	......
	36	9.5583	-6.42244E-001	0.00000E+000	3.15400E-004	......
	37	9.8166	-6.41243E-001	0.00000E+000	2.15400E-004	......
	38	10.0749	-6.41144E-001	0.00000E+000	2.15400E-004	......
EOC	QUANT	-0.641144	Open Circuit (V)
PSTATMODEL	IQUANT	32	Pstat Model
PSTATSECTION	LABEL	PStat0	Pstat Section
CTRLMODE	IQUANT	1	Control Mode
IESTAB	IQUANT	0	I/E Stability
CASPEED	IQUANT	1	Control Amp Speed
CONVENTION	IQUANT	1	Current Convention
ICHRANGE	IQUANT	2	Ich Range
ICHRANGEMODE	TOGGLE	F	Ich Auto Range
ICHOFFSETENABLE	TOGGLE	T	Ich Offset Enable
ICHOFFSET	QUANT	0	Ich Offset (V)
ICHFILTER	IQUANT	3	Ich Filter
VCHRANGE	IQUANT	2	Vch Range
VCHRANGEMODE	TOGGLE	F	Vch Auto Range
VCHOFFSETENABLE	TOGGLE	T	Vch Offset Enable
VCHOFFSET	QUANT	0	Vch Offset (V)
VCHFILTER	IQUANT	3	Vch Filter
ACHRANGE	IQUANT	0	Ach Range
IERANGELOWERLIMIT	IQUANT	3	I/E Range Lower Limit
IERANGEMODE	TOGGLE	F	I/E AutoRange
IERANGE	IQUANT	11	I/E Range
POSFEEDENABLE	TOGGLE	F	Positive Feedback IR Comp
POSFEEDRESISTANCE	QUANT	0	Positive Feedback Resistance (ohm)
FC350IDIVISOR	IQUANT	0	FC350 I Divisor
FC350VRANGE	IQUANT	0	FC350 V Range
FRAMEWORKVERSION	QUANT	4.35	Framework Version
ZCURVE	TABLE
	Pt	Time	Freq	Zreal	Zimag	Zsig	Zmod	Zphz	Idc	Vdc	IERange
	#	s	Hz	ohm	ohm	V	ohm	°	A	V	#
	0	6	100007	523.566	-3.7861	1	523.58	-0.414319	2.53446E-006	-0.54097	9
	1	8	89134.1	522.347	-2.64541	1	522.353	-0.29017	2.84584E-006	-0.541015	9
	2	10	79433.6	520.74	-2.18628	1	520.745	-0.240549	2.60933E-006	-0.540981	9
	3	12	70800.8	520.069	-1.64038	1	520.072	-0.180719	2.8458E-006	-0.541036	9
	4	15	63105.5	519.915	-3.00897	1	519.924	-0.331592	2.89649E-006	-0.541012	9
	5	17	56243.5	520.166	-2.55351	1	520.173	-0.281265	2.70128E-006	-0.540988	9
	6	19	50123.7	518.669	-3.78925	1	518.683	-0.41858	2.92324E-006	-0.541031	9
	7	21	44681	518.075	-4.92956	1	518.098	-0.545162	2.88445E-006	-0.540995	9
	8	23	39811.2	518.09	-5.394	1	518.118	-0.596503	2.899E-006	-0.541022	9
	9	25	35488.3	518.516	-4.83538	1	518.539	-0.534292	2.62751E-006	-0.54101	9
	10	27	31634.1	518.296	-6.38214	1	518.335	-0.705487	2.5651E-006	-0.540977	9
	11	29	28173.1	519.51	-6.26183	1	519.548	-0.690571	2.73783E-006	-0.541009	9
	12	31	25123.7	519.444	-7.37499	1	519.496	-0.813423	2.8251E-006	-0.541025	9
	13	33	22389.3	519.647	-8.18581	1	519.711	-0.902485	2.7728E-006	-0.540998	9
	14	34	19954.4	519.225	-9.30846	1	519.309	-1.02706	2.81034E-006	-0.541039	9
	15	36	17778.2	520	-9.19902	1	520.081	-1.01348	2.67774E-006	-0.541006	9
	16	38	15852.9	520.155	-10.1498	1	520.254	-1.11787	2.83307E-006	-0.541024	9
	17	40	14122.3	520.497	-11.6503	1	520.627	-1.28224	2.66136E-006	-0.541007	9
	18	42	12587.2	521.019	-12.5311	1	521.17	-1.37776	2.60894E-006	-0.541011	9
	19	44	11221.1	521.618	-14.3123	1	521.814	-1.57171	2.58477E-006	-0.541007	9
	20	46	9998.2	521.851	-14.2232	1	522.045	-1.56123	2.66712E-006	-0.54099	9
	21	48	8912.76	522.286	-15.6472	1	522.52	-1.71602	2.75717E-006	-0.541018	9
	22	50	7942.6	522.988	-18.0148	1	523.298	-1.97283	2.68411E-006	-0.54101	9
	23	52	7078.05	523.17	-19.5835	1	523.537	-2.14372	2.58983E-006	-0.540995	9
	24	54	6311.1	523.004	-20.3976	1	523.401	-2.23345	2.66832E-006	-0.540996	9
	25	56	5622.14	524.434	-22.9326	1	524.935	-2.50385	2.66065E-006	-0.541009	9
	26	58	5011.18	524.416	-26.0515	1	525.062	-2.84396	2.70564E-006	-0.541	9
	27	60	4465.21	525.288	-26.8825	1	525.976	-2.92965	2.73212E-006	-0.540995	9
	28	62	3980.93	526.131	-30.955	1	527.041	-3.36712	2.78273E-006	-0.541011	9
	29	64	3548.18	526.939	-33.6594	1	528.013	-3.65493	2.64876E-006	-0.541004	9
	30	66	3162.67	527.64	-36.2602	1	528.884	-3.93127	2.58757E-006	-0.540984	9
	31	68	2819.01	527.997	-41.1269	1	529.596	-4.4539	2.51366E-006	-0.540983	9
	32	70	2511.16	529.276	-46.2584	1	531.294	-4.99492	2.6894E-006	-0.541	9
	33	72	2238.63	530.214	-50.6222	1	532.625	-5.45379	2.66084E-006	-0.541004	9
	34	74	1995.37	531.719	-55.7339	1	534.632	-5.9838	2.63249E-006	-0.540989	9
	35	76	1778.51	532.129	-62.3345	1	535.767	-6.68128	2.65441E-006	-0.540989	9
	36	78	1584.49	533.166	-68.2839	1	537.521	-7.29829	2.75226E-006	-0.540995	9
	37	80	1412.76	535.445	-75.4363	1	540.733	-8.01935	2.73477E-006	-0.540979	9
	38	82	1259.04	537.007	-84.2092	1	543.569	-8.9121	2.71909E-006	-0.541006	9
	39	84	1121.63	538.078	-93.1916	1	546.088	-9.8258	2.7329E-006	-0.541006	9
	40	86	999.95	540.686	-102.148	1	550.25	-10.6984	2.64798E-006	-0.540995	9
	41	88	891.184	542.206	-113.356	1	553.928	-11.8084	2.67871E-006	-0.540991	9
	42	90	794.163	545.803	-124.678	1	559.863	-12.8673	2.69162E-006	-0.540997	9
	43	92	707.867	547.737	-138.84	1	565.059	-14.2237	2.7859E-006	-0.541004	9
	44	94	630.984	551.211	-152.777	1	571.991	-15.4915	2.63407E-006	-0.540985	9
	45	96	562.189	552.482	-169.78	1	577.981	-17.0824	2.71127E-006	-0.541006	9
	46	98	501.303	557.426	-187.023	1	587.964	-18.5472	2.63269E-006	-0.541002	9
	47	100	446.614	561.145	-206.905	1	598.075	-20.2399	2.70673E-006	-0.540998	9
	48	102	398.209	565.165	-228.791	1	609.718	-22.0392	2.69302E-006	-0.541	9
	49	103	354.821	569.464	-252.997	1	623.135	-23.9543	2.64489E-006	-0.540997	9
	50	105	316.113	574.155	-279.854	1	638.727	-25.9855	2.63268E-006	-0.540996	9
	51	107	281.926	579.191	-309.32	1	656.613	-28.1047	2.69238E-006	-0.540995	9
	52	109	251.185	584.678	-342.308	1	677.513	-30.3474	2.69711E-006	-0.540995	9
	53	111	223.946	590.434	-378.699	1	701.445	-32.6758	2.58131E-006	-0.541003	9
	54	113	199.495	596.727	-419.445	1	729.395	-35.1037	2.61976E-006	-0.541003	9
	55	115	177.836	603.533	-464.399	1	761.524	-37.5771	2.67601E-006	-0.541002	9
	56	118	158.533	610.767	-514.438	1	798.55	-40.1068	2.66427E-006	-0.541003	9
	57	120	141.263	618.745	-570.313	1	841.488	-42.6675	2.73357E-006	-0.541	9
	58	122	125.911	627.3	-632.421	1	890.764	-45.2329	2.7012E-006	-0.541005	9
	59	124	112.198	636.504	-701.61	1	947.309	-47.7855	2.62086E-006	-0.541011	9
	60	126	100.009	647.359	-778.946	1	1012.83	-50.271	3.03855E-006	-0.541011	9
	61	128	89.1164	657.916	-863.837	1	1085.85	-52.7064	2.11053E-006	-0.541018	8
	62	130	79.4083	670.506	-959.83	1	1170.84	-55.0632	2.07868E-006	-0.541013	8
	63	132	70.788	684.097	-1066.18	1	1266.78	-57.3143	1.95615E-006	-0.541016	8
	64	134	63.0971	699.186	-1184.87	1	1375.78	-59.4554	1.96233E-006	-0.541012	8
	65	136	54.5476	721.452	-1355.01	1	1535.1	-61.9676	2.00914E-006	-0.541018	8
	66	138	50.0083	737.201	-1468.46	1	1643.12	-63.3423	1.91341E-006	-0.541018	8
	67	140	46.1675	750.002	-1581.2	1	1750.05	-64.6238	1.79028E-006	-0.541014	8
	68	142	40.0059	780.607	-1805.73	1	1967.24	-66.6215	1.90342E-006	-0.541008	8
	69	145	35.3046	813.956	-2026.27	1	2183.64	-68.1146	2.06879E-006	-0.541015	8
	70	147	31.5793	845.978	-2247.99	1	2401.9	-69.3774	2.3067E-006	-0.541018	8
	71	149	28.5748	881.703	-2466.44	1	2619.3	-70.3291	2.27155E-006	-0.541023	8
	72	151	24.9911	931.498	-2792.91	1	2944.16	-71.5553	2.07934E-006	-0.541015	8
	73	153	22.2195	982.32	-3116.44	1	3267.59	-72.5048	2.03115E-006	-0.54101	8
	74	156	20.0011	1035.81	-3437.01	1	3589.7	-73.2288	1.91776E-006	-0.541021	8
	75	158	17.6486	1120.37	-3860.82	1	4020.1	-73.8178	2.07199E-006	-0.541021	8
	76	160	15.7934	1196.02	-4283.87	1	4447.7	-74.4007	2.14846E-006	-0.54102	8
	77	162	14.2828	1284.01	-4700.66	1	4872.88	-74.7221	2.11956E-006	-0.541027	8
	78	165	12.5002	1425.79	-5313.29	1	5501.26	-74.9789	2.12122E-006	-0.541027	8
	79	167	11.323	1458.77	-5821.47	1	6001.46	-75.9322	2.06699E-006	-0.541025	8
	80	170	9.9987	1703.21	-6568.8	1	6786.02	-75.464	2.07128E-006	-0.541016	8
