EXPLAIN
TAG	EISPOT
TITLE	LABEL	Tomato_open	Test &Identifier
DATE	LABEL	5/16/2006	Date
TIME	LABEL	10:50:37	Time
NOTES	NOTES	1	&Notes...
	
PSTAT	PSTAT	300	Potentiostat
VDC	POTEN	1.00000E-001	T	DC &Voltage (V)
FREQINIT	QUANT	1.00000E+005	Initial Fre&q. (Hz)
FREQFINAL	QUANT	1.00000E+001	Final Fre&q. (Hz)
PTSPERDEC	QUANT	2.00000E+001	Points/&decade
VAC	QUANT	1.00000E+001	AC &Voltage (mV rms)
AREA	QUANT	1.00000E+000	&Area (cm²)
DENSITY	QUANT	7.87000E+000	&Density (gm/cm³)
EQUIV	QUANT	7.00000E+000	Equiv. &Wt
CONDIT	TWOPARAM	F	1.50000E+001	0.00000E+000	Conditionin&g	Time(s)	E(V)
DELAY	TWOPARAM	F	6.00000E+002	0.00000E+000	Init. De&lay	Time(s)	Stab.(mV/s)
SPEED	SELECTOR	1	&Optimize for:
ZGUESS	QUANT	1.00000E+002	E&stimated Z (ohms)
OCVCURVE	TABLE	39
	Pt	T	Vf	Vm	Ach	Over
	#	s	V vs. Ref.	V	V	bits
	0	0.258332	-4.98470E-001	5.30876E-006	2.36600E-004	......
	1	0.516663	-4.98320E-001	5.30876E-006	2.36600E-004	......
	2	0.774994	-4.96919E-001	5.30876E-006	1.36600E-004	......
	3	1.03333	-4.95969E-001	5.30876E-006	2.36600E-004	......
	4	1.29166	-4.97669E-001	5.30876E-006	2.36600E-004	......
	5	1.54999	-4.99469E-001	5.30876E-006	2.36600E-004	......
	6	1.80832	-5.01069E-001	5.30876E-006	2.36600E-004	......
	7	2.06665	-5.01469E-001	5.30876E-006	2.36600E-004	......
	8	2.32498	-5.01819E-001	5.30876E-006	2.36600E-004	......
	9	2.58332	-5.01369E-001	5.30876E-006	2.36600E-004	......
	10	2.84165	-4.99370E-001	5.30876E-006	3.66000E-005	......
	11	3.09998	-4.99819E-001	5.30876E-006	2.36600E-004	......
	12	3.35831	-5.01520E-001	5.30876E-006	2.36600E-004	......
	13	3.61664	-5.03019E-001	5.30876E-006	1.36600E-004	......
	14	3.87497	-5.03919E-001	5.30876E-006	3.36600E-004	......
	15	4.1333	-5.04269E-001	5.30876E-006	2.36600E-004	......
	16	4.39164	-5.04819E-001	5.30876E-006	2.36600E-004	......
	17	4.64997	-5.04070E-001	5.30876E-006	2.36600E-004	......
	18	4.9083	-5.03469E-001	5.30876E-006	1.36600E-004	......
	19	5.16663	-5.04969E-001	5.30876E-006	2.36600E-004	......
	20	5.42496	-5.06519E-001	5.30876E-006	2.36600E-004	......
	21	5.68329	-5.07620E-001	5.30876E-006	2.36600E-004	......
	22	5.94162	-5.08269E-001	5.30876E-006	3.36600E-004	......
	23	6.19996	-5.08969E-001	5.30876E-006	3.36600E-004	......
	24	6.45829	-5.09070E-001	5.30876E-006	3.66000E-005	......
	25	6.71662	-5.07419E-001	5.30876E-006	2.36600E-004	......
	26	6.97495	-5.08619E-001	5.30876E-006	2.36600E-004	......
	27	7.23328	-5.10269E-001	5.30876E-006	3.66000E-005	......
	28	7.49161	-5.10919E-001	5.30876E-006	2.36600E-004	......
	29	7.74995	-5.11320E-001	5.30876E-006	2.36600E-004	......
	30	8.00828	-5.09219E-001	5.30876E-006	2.36600E-004	......
	31	8.26661	-5.07270E-001	5.30876E-006	3.36600E-004	......
	32	8.52494	-5.04819E-001	5.30876E-006	2.36600E-004	......
	33	8.78327	-5.04319E-001	5.30876E-006	2.36600E-004	......
	34	9.0416	-5.06169E-001	5.30876E-006	1.36600E-004	......
	35	9.29993	-5.08020E-001	5.30876E-006	2.36600E-004	......
	36	9.5583	-5.09319E-001	5.30876E-006	2.36600E-004	......
	37	9.8166	-5.09969E-001	5.30876E-006	3.36600E-004	......
	38	10.0749	-5.09969E-001	5.30876E-006	3.66000E-005	......
EOC	QUANT	-0.509969	Open Circuit (V)
PSTATMODEL	IQUANT	32	Pstat Model
PSTATSECTION	LABEL	PStat0	Pstat Section
CTRLMODE	IQUANT	1	Control Mode
IESTAB	IQUANT	0	I/E Stability
CASPEED	IQUANT	1	Control Amp Speed
CONVENTION	IQUANT	1	Current Convention
ICHRANGE	IQUANT	2	Ich Range
ICHRANGEMODE	TOGGLE	F	Ich Auto Range
ICHOFFSETENABLE	TOGGLE	T	Ich Offset Enable
ICHOFFSET	QUANT	0	Ich Offset (V)
ICHFILTER	IQUANT	3	Ich Filter
VCHRANGE	IQUANT	2	Vch Range
VCHRANGEMODE	TOGGLE	F	Vch Auto Range
VCHOFFSETENABLE	TOGGLE	T	Vch Offset Enable
VCHOFFSET	QUANT	0	Vch Offset (V)
VCHFILTER	IQUANT	3	Vch Filter
ACHRANGE	IQUANT	0	Ach Range
IERANGELOWERLIMIT	IQUANT	3	I/E Range Lower Limit
IERANGEMODE	TOGGLE	F	I/E AutoRange
IERANGE	IQUANT	11	I/E Range
POSFEEDENABLE	TOGGLE	F	Positive Feedback IR Comp
POSFEEDRESISTANCE	QUANT	0	Positive Feedback Resistance (ohm)
FC350IDIVISOR	IQUANT	0	FC350 I Divisor
FC350VRANGE	IQUANT	0	FC350 V Range
FRAMEWORKVERSION	QUANT	4.35	Framework Version
ZCURVE	TABLE
	Pt	Time	Freq	Zreal	Zimag	Zsig	Zmod	Zphz	Idc	Vdc	IERange
	#	s	Hz	ohm	ohm	V	ohm	°	A	V	#
	0	4	100007	61.4076	-1.05396	1	61.4166	-0.98329	5.32968E-006	-0.409857	10
	1	6	89134.1	61.1571	-1.2288	1	61.1694	-1.15107	7.58673E-006	-0.409876	10
	2	8	79433.6	60.9861	-1.47474	1	61.0039	-1.38523	6.31893E-006	-0.409864	10
	3	10	70800.8	60.9574	-1.51635	1	60.9763	-1.42498	6.01596E-006	-0.409871	10
	4	12	63105.5	60.9802	-1.77295	1	61.006	-1.66536	6.8051E-006	-0.409917	10
	5	14	56243.5	60.9894	-1.97566	1	61.0214	-1.85536	5.72854E-006	-0.409893	10
	6	16	50123.7	60.9757	-2.18235	1	61.0148	-2.04977	7.39557E-006	-0.409876	10
	7	18	44681	61.0231	-2.37602	1	61.0693	-2.22977	7.17529E-006	-0.409874	10
	8	19	39811.2	60.7782	-2.47019	1	60.8284	-2.32737	6.67302E-006	-0.409916	10
	9	21	35488.3	61.0869	-2.96269	1	61.1587	-2.77664	7.84605E-006	-0.409879	10
	10	23	31634.1	61.1629	-3.21158	1	61.2471	-3.00576	7.0964E-006	-0.409899	10
	11	25	28173.1	61.216	-3.57996	1	61.3206	-3.3469	6.81709E-006	-0.409894	10
	12	27	25123.7	61.3091	-3.92972	1	61.4349	-3.66746	6.30246E-006	-0.409917	10
	13	29	22389.3	61.5082	-4.27127	1	61.6563	-3.97237	6.28448E-006	-0.409914	10
	14	31	19954.4	61.5681	-4.7557	1	61.7515	-4.41692	5.62157E-006	-0.40989	10
	15	33	17778.2	61.6918	-5.1526	1	61.9066	-4.77436	6.82315E-006	-0.4099	10
	16	35	15852.9	61.7618	-5.67065	1	62.0216	-5.2459	7.93477E-006	-0.409891	10
	17	37	14122.3	61.9616	-6.27687	1	62.2788	-5.78447	6.07355E-006	-0.409885	10
	18	39	12587.2	62.1525	-6.81694	1	62.5252	-6.25923	6.77006E-006	-0.409889	10
	19	41	11221.1	62.2932	-7.44759	1	62.7368	-6.81775	6.74532E-006	-0.409889	10
	20	43	9998.2	62.5563	-8.20017	1	63.0914	-7.46802	6.52973E-006	-0.409884	10
	21	45	8912.76	62.7339	-8.96758	1	63.3716	-8.13511	5.67071E-006	-0.409867	10
	22	47	7942.6	62.9061	-9.9099	1	63.6819	-8.95252	6.60663E-006	-0.409874	10
	23	49	7078.05	63.2029	-10.937	1	64.1422	-9.8175	6.37877E-006	-0.409879	10
	24	51	6311.1	63.4648	-11.9138	1	64.5733	-10.632	6.21907E-006	-0.409884	10
	25	53	5622.14	63.6389	-13.2172	1	64.9969	-11.733	6.35855E-006	-0.409895	10
	26	55	5011.18	63.9872	-14.6548	1	65.6439	-12.8998	6.50885E-006	-0.409885	10
	27	57	4465.21	64.2994	-16.1164	1	66.2883	-14.0711	6.35824E-006	-0.409888	10
	28	59	3980.93	64.6359	-17.7248	1	67.0221	-15.3349	6.61685E-006	-0.409865	10
	29	61	3548.18	64.8929	-19.5767	1	67.7815	-16.7873	7.23198E-006	-0.409868	10
	30	63	3162.67	65.3497	-21.5588	1	68.814	-18.2577	5.8056E-006	-0.409895	10
	31	65	2819.01	65.9385	-23.8762	1	70.1282	-19.9052	6.62562E-006	-0.409863	10
	32	67	2511.16	66.2826	-26.2659	1	71.2972	-21.617	6.28505E-006	-0.40987	10
	33	69	2238.63	66.7276	-28.9597	1	72.7409	-23.4607	6.25373E-006	-0.409876	10
	34	71	1995.37	67.3645	-32.181	1	74.6565	-25.5345	6.45694E-006	-0.409883	10
	35	73	1778.51	67.9091	-35.5734	1	76.6624	-27.6473	6.20998E-006	-0.409885	10
	36	75	1584.49	68.6382	-39.3278	1	79.1068	-29.8115	6.20159E-006	-0.409893	10
	37	77	1412.76	69.2683	-43.612	1	81.8542	-32.1949	5.75513E-006	-0.409903	10
	38	79	1259.04	70.2584	-48.2879	1	85.2523	-34.5004	5.99233E-006	-0.409883	10
	39	81	1121.63	71.249	-53.1918	1	88.9145	-36.7436	5.96041E-006	-0.409888	10
	40	83	999.95	72.1108	-59.0551	1	93.2066	-39.3158	6.00138E-006	-0.409888	10
	41	85	891.184	73.0391	-65.3093	1	97.98	-41.8021	5.97534E-006	-0.409883	10
	42	87	794.163	74.5289	-72.0809	1	103.683	-44.0434	5.7984E-006	-0.40988	10
	43	89	707.867	75.8958	-80.1978	1	110.417	-46.5787	2.24295E-006	-0.409901	9
	44	91	630.984	77.3422	-88.8884	1	117.826	-48.9733	2.12334E-006	-0.409878	9
	45	92	562.189	79.0111	-98.514	1	126.284	-51.2693	2.12468E-006	-0.409884	9
	46	94	501.303	80.7878	-108.856	1	135.559	-53.419	2.18335E-006	-0.409873	9
	47	96	446.614	82.7928	-120.63	1	146.309	-55.5368	2.16415E-006	-0.409885	9
	48	98	398.209	85.0053	-133.589	1	158.342	-57.5307	2.21057E-006	-0.409886	9
	49	100	354.821	87.5003	-148.004	1	171.935	-59.4084	2.12684E-006	-0.409893	9
	50	102	316.113	90.2396	-163.995	1	187.183	-61.1778	2.07754E-006	-0.409891	9
	51	104	281.926	93.2206	-181.563	1	204.096	-62.8224	2.0779E-006	-0.409889	9
	52	106	251.185	96.584	-201.178	1	223.161	-64.3548	2.14109E-006	-0.409884	9
	53	108	223.946	100.243	-222.765	1	244.28	-65.7724	2.13571E-006	-0.409895	9
	54	110	199.495	104.324	-246.877	1	268.015	-67.0923	2.13923E-006	-0.40989	9
	55	112	177.836	108.742	-273.392	1	294.225	-68.3097	2.0899E-006	-0.40989	9
	56	114	158.533	113.586	-302.839	1	323.44	-69.4404	2.13776E-006	-0.409891	9
	57	116	141.263	118.894	-335.555	1	355.995	-70.4897	2.17682E-006	-0.409885	9
	58	118	125.911	124.77	-371.728	1	392.109	-71.4457	2.13423E-006	-0.409888	9
	59	121	112.198	131.186	-411.969	1	432.352	-72.3366	2.22038E-006	-0.409884	9
	60	123	100.009	138.137	-456.544	1	476.985	-73.1657	2.0649E-006	-0.409893	9
	61	125	89.1164	145.729	-506.117	1	526.68	-73.937	2.04096E-006	-0.409887	9
	62	127	79.4083	154.169	-561.334	1	582.121	-74.6425	2.07096E-006	-0.409889	9
	63	129	70.788	163.55	-622.278	1	643.412	-75.2743	2.11414E-006	-0.40989	9
	64	131	63.0971	173.597	-690.153	1	711.651	-75.8811	2.009E-006	-0.409902	9
	65	133	54.5476	187.421	-786.999	1	809.008	-76.6047	2.10811E-006	-0.409892	9
	66	135	50.0083	196.993	-851.321	1	873.816	-76.9713	2.09817E-006	-0.409894	9
	67	137	46.1675	206.163	-915.144	1	938.078	-77.3044	2.01981E-006	-0.409895	9
	68	139	40.0059	223.941	-1042.33	1	1066.12	-77.8746	2.07141E-006	-0.409892	9
	69	141	35.3046	241.748	-1166.63	1	1191.42	-78.2929	1.41926E-006	-0.409897	8
	70	144	31.5793	260.091	-1291.93	1	1317.85	-78.6173	1.52121E-006	-0.409894	8
	71	146	28.5748	279.927	-1415.41	1	1442.83	-78.813	1.50924E-006	-0.409895	8
	72	148	24.9911	305.533	-1600.09	1	1629	-79.1897	1.44015E-006	-0.409886	8
	73	150	22.2195	332.499	-1782.42	1	1813.16	-79.4333	1.39907E-006	-0.409889	8
	74	152	20.0011	359.495	-1963.44	1	1996.08	-79.6244	1.47499E-006	-0.409895	8
	75	155	17.6486	396.721	-2202.24	1	2237.69	-79.788	1.46221E-006	-0.409884	8
	76	157	15.7934	432.543	-2443.22	1	2481.22	-79.9605	1.42314E-006	-0.409893	8
	77	159	14.2828	470.171	-2677.82	1	2718.79	-80.0416	1.45328E-006	-0.40989	8
	78	162	12.5002	531.918	-3029.57	1	3075.91	-80.0418	1.38364E-006	-0.409896	8
	79	164	11.323	580.867	-3317.9	1	3368.36	-80.0698	1.43806E-006	-0.409881	8
	80	167	9.9987	658.311	-3724.18	1	3781.91	-79.9756	1.43636E-006	-0.409887	8
