EXPLAIN
TAG	EISPOT
TITLE	LABEL	Tomato_open	Test &Identifier
DATE	LABEL	5/16/2006	Date
TIME	LABEL	10:35:48	Time
NOTES	NOTES	1	&Notes...
	
PSTAT	PSTAT	300	Potentiostat
VDC	POTEN	1.00000E-001	T	DC &Voltage (V)
FREQINIT	QUANT	1.00000E+005	Initial Fre&q. (Hz)
FREQFINAL	QUANT	1.00000E+001	Final Fre&q. (Hz)
PTSPERDEC	QUANT	2.00000E+001	Points/&decade
VAC	QUANT	1.00000E+001	AC &Voltage (mV rms)
AREA	QUANT	1.00000E+000	&Area (cm²)
DENSITY	QUANT	7.87000E+000	&Density (gm/cm³)
EQUIV	QUANT	7.00000E+000	Equiv. &Wt
CONDIT	TWOPARAM	F	1.50000E+001	0.00000E+000	Conditionin&g	Time(s)	E(V)
DELAY	TWOPARAM	F	6.00000E+002	0.00000E+000	Init. De&lay	Time(s)	Stab.(mV/s)
SPEED	SELECTOR	1	&Optimize for:
ZGUESS	QUANT	1.00000E+002	E&stimated Z (ohms)
OCVCURVE	TABLE	39
	Pt	T	Vf	Vm	Ach	Over
	#	s	V vs. Ref.	V	V	bits
	0	0.258332	-4.87669E-001	6.57776E-006	2.36600E-004	......
	1	0.516663	-4.88069E-001	6.57776E-006	3.36600E-004	......
	2	0.774994	-4.87769E-001	6.57776E-006	2.36600E-004	......
	3	1.03333	-4.89819E-001	6.57776E-006	1.36600E-004	......
	4	1.29166	-4.89520E-001	6.57776E-006	2.36600E-004	......
	5	1.54999	-4.89819E-001	6.57776E-006	3.36600E-004	......
	6	1.80832	-4.89469E-001	6.57776E-006	2.36600E-004	......
	7	2.06665	-4.85119E-001	6.57776E-006	1.36600E-004	......
	8	2.32498	-4.84769E-001	6.57776E-006	2.36600E-004	......
	9	2.58332	-4.84869E-001	6.57776E-006	2.36600E-004	......
	10	2.84165	-4.85469E-001	6.57776E-006	3.36600E-004	......
	11	3.09998	-4.86119E-001	6.57776E-006	2.36600E-004	......
	12	3.35831	-4.86769E-001	6.57776E-006	2.36600E-004	......
	13	3.61664	-4.85469E-001	6.57776E-006	3.36600E-004	......
	14	3.87497	-4.87719E-001	6.57776E-006	3.36600E-004	......
	15	4.1333	-4.86319E-001	6.57776E-006	3.66000E-005	......
	16	4.39164	-4.86669E-001	6.57776E-006	2.36600E-004	......
	17	4.64997	-4.86519E-001	6.57776E-006	2.36600E-004	......
	18	4.9083	-4.83169E-001	6.57776E-006	2.36600E-004	......
	19	5.16663	-4.83719E-001	6.57776E-006	2.36600E-004	......
	20	5.42496	-4.83869E-001	6.57776E-006	3.36600E-004	......
	21	5.68329	-4.83269E-001	6.57776E-006	2.36600E-004	......
	22	5.94162	-4.84969E-001	6.57776E-006	2.36600E-004	......
	23	6.19996	-4.86169E-001	6.57776E-006	2.36600E-004	......
	24	6.45829	-4.86169E-001	6.57776E-006	2.36600E-004	......
	25	6.71662	-4.87870E-001	6.57776E-006	3.66000E-005	......
	26	6.97495	-4.88269E-001	6.57776E-006	2.36600E-004	......
	27	7.23328	-4.86519E-001	6.57776E-006	2.36600E-004	......
	28	7.49161	-4.86919E-001	6.57776E-006	2.36600E-004	......
	29	7.74995	-4.85769E-001	6.57776E-006	2.36600E-004	......
	30	8.00828	-4.85319E-001	6.57776E-006	3.66000E-005	......
	31	8.26661	-4.86070E-001	6.57776E-006	3.66000E-005	......
	32	8.52494	-4.85669E-001	6.57776E-006	3.66000E-005	......
	33	8.78327	-4.85469E-001	6.57776E-006	2.36600E-004	......
	34	9.0416	-4.86669E-001	6.57776E-006	2.36600E-004	......
	35	9.29993	-4.85819E-001	6.57776E-006	3.36600E-004	......
	36	9.5583	-4.87219E-001	6.57776E-006	3.66000E-005	......
	37	9.8166	-4.87069E-001	6.57776E-006	2.36600E-004	......
	38	10.0749	-4.86369E-001	6.57776E-006	3.36600E-004	......
EOC	QUANT	-0.486369	Open Circuit (V)
PSTATMODEL	IQUANT	32	Pstat Model
PSTATSECTION	LABEL	PStat0	Pstat Section
CTRLMODE	IQUANT	1	Control Mode
IESTAB	IQUANT	0	I/E Stability
CASPEED	IQUANT	1	Control Amp Speed
CONVENTION	IQUANT	1	Current Convention
ICHRANGE	IQUANT	2	Ich Range
ICHRANGEMODE	TOGGLE	F	Ich Auto Range
ICHOFFSETENABLE	TOGGLE	T	Ich Offset Enable
ICHOFFSET	QUANT	0	Ich Offset (V)
ICHFILTER	IQUANT	3	Ich Filter
VCHRANGE	IQUANT	2	Vch Range
VCHRANGEMODE	TOGGLE	F	Vch Auto Range
VCHOFFSETENABLE	TOGGLE	T	Vch Offset Enable
VCHOFFSET	QUANT	0	Vch Offset (V)
VCHFILTER	IQUANT	3	Vch Filter
ACHRANGE	IQUANT	0	Ach Range
IERANGELOWERLIMIT	IQUANT	3	I/E Range Lower Limit
IERANGEMODE	TOGGLE	F	I/E AutoRange
IERANGE	IQUANT	11	I/E Range
POSFEEDENABLE	TOGGLE	F	Positive Feedback IR Comp
POSFEEDRESISTANCE	QUANT	0	Positive Feedback Resistance (ohm)
FC350IDIVISOR	IQUANT	0	FC350 I Divisor
FC350VRANGE	IQUANT	0	FC350 V Range
FRAMEWORKVERSION	QUANT	4.35	Framework Version
ZCURVE	TABLE
	Pt	Time	Freq	Zreal	Zimag	Zsig	Zmod	Zphz	Idc	Vdc	IERange
	#	s	Hz	ohm	ohm	V	ohm	°	A	V	#
	0	4	100007	61.5073	-1.0945	1	61.517	-1.01945	7.67313E-006	-0.386133	10
	1	6	89134.1	61.2925	-1.17755	1	61.3038	-1.10063	7.5149E-006	-0.386184	10
	2	8	79433.6	61.0962	-1.37248	1	61.1116	-1.28689	7.01449E-006	-0.386151	10
	3	10	70800.8	61.2089	-1.52722	1	61.2279	-1.42929	8.07909E-006	-0.386152	10
	4	12	63105.5	61.198	-1.73878	1	61.2227	-1.62747	7.22484E-006	-0.386191	10
	5	14	56243.5	61.1771	-1.91447	1	61.207	-1.79242	5.74876E-006	-0.386172	10
	6	16	50123.7	61.0708	-2.11007	1	61.1072	-1.97886	7.82696E-006	-0.386188	10
	7	18	44681	61.1757	-2.38968	1	61.2224	-2.23698	5.1841E-006	-0.386163	10
	8	20	39811.2	60.9925	-2.72869	1	61.0536	-2.56159	6.64882E-006	-0.386182	10
	9	21	35488.3	61.2498	-2.88831	1	61.3178	-2.69986	6.72652E-006	-0.38619	10
	10	23	31634.1	61.3004	-3.24529	1	61.3862	-3.03045	6.54762E-006	-0.386187	10
	11	25	28173.1	61.4252	-3.54911	1	61.5276	-3.30684	6.86398E-006	-0.386169	10
	12	27	25123.7	61.5298	-3.94156	1	61.6559	-3.66533	7.85849E-006	-0.386147	10
	13	29	22389.3	61.7472	-4.30734	1	61.8972	-3.99036	7.13421E-006	-0.386178	10
	14	31	19954.4	61.7233	-4.5724	1	61.8924	-4.23668	6.30088E-006	-0.386181	10
	15	33	17778.2	61.8711	-5.15283	1	62.0853	-4.76079	6.6557E-006	-0.38615	10
	16	35	15852.9	62.1341	-5.69453	1	62.3945	-5.23647	7.43115E-006	-0.386153	10
	17	37	14122.3	62.2309	-6.18999	1	62.538	-5.68041	6.52935E-006	-0.386161	10
	18	39	12587.2	62.3388	-6.76143	1	62.7044	-6.19025	6.49385E-006	-0.386159	10
	19	41	11221.1	62.5544	-7.4937	1	63.0017	-6.83119	6.46287E-006	-0.386161	10
	20	43	9998.2	62.7562	-8.1907	1	63.2885	-7.436	6.50193E-006	-0.386149	10
	21	45	8912.76	62.947	-8.93195	1	63.5776	-8.07615	5.33117E-006	-0.386143	10
	22	47	7942.6	63.229	-9.7738	1	63.9799	-8.78713	6.53898E-006	-0.386171	10
	23	49	7078.05	63.3949	-10.8092	1	64.3098	-9.6762	6.34777E-006	-0.386165	10
	24	51	6311.1	63.648	-11.8476	1	64.7412	-10.5445	6.2021E-006	-0.386174	10
	25	53	5622.14	63.9813	-13.0414	1	65.2969	-11.5208	6.19071E-006	-0.386164	10
	26	55	5011.18	64.2001	-14.4052	1	65.7964	-12.6465	6.31205E-006	-0.386162	10
	27	57	4465.21	64.4406	-15.8282	1	66.356	-13.8	6.23259E-006	-0.386159	10
	28	59	3980.93	64.7163	-17.4539	1	67.0286	-15.0935	5.8941E-006	-0.386183	10
	29	61	3548.18	65.191	-19.2683	1	67.9789	-16.4659	5.69718E-006	-0.386184	10
	30	63	3162.67	65.4715	-21.134	1	68.798	-17.8899	7.03046E-006	-0.386144	10
	31	65	2819.01	66.0129	-23.4242	1	70.0457	-19.5368	6.30585E-006	-0.386141	10
	32	67	2511.16	66.5499	-25.8267	1	71.3856	-21.2103	6.05744E-006	-0.386175	10
	33	69	2238.63	67.1043	-28.6999	1	72.9841	-23.156	5.98985E-006	-0.386159	10
	34	71	1995.37	67.6926	-31.7236	1	74.7574	-25.1098	6.19759E-006	-0.386169	10
	35	73	1778.51	68.231	-35.0664	1	76.7146	-27.2003	5.98493E-006	-0.386174	10
	36	75	1584.49	68.8889	-38.8047	1	79.0663	-29.3923	6.22027E-006	-0.386172	10
	37	77	1412.76	69.6727	-42.6261	1	81.6779	-31.4585	6.43357E-006	-0.386156	10
	38	79	1259.04	70.3536	-47.3533	1	84.8055	-33.9435	6.08726E-006	-0.386161	10
	39	81	1121.63	71.3224	-52.4121	1	88.5094	-36.3107	6.09832E-006	-0.386163	10
	40	83	999.95	72.1019	-58.0389	1	92.5591	-38.8325	6.0749E-006	-0.386163	10
	41	85	891.184	73.383	-64.0359	1	97.394	-41.1088	6.26765E-006	-0.386155	10
	42	87	794.163	74.5552	-70.9903	1	102.947	-43.5969	5.98357E-006	-0.386161	10
	43	89	707.867	75.9251	-78.455	1	109.178	-45.9389	2.43001E-006	-0.386175	9
	44	91	630.984	77.2499	-87.1144	1	116.432	-48.4346	2.19317E-006	-0.386151	9
	45	92	562.189	79.0513	-96.644	1	124.857	-50.718	2.06678E-006	-0.386157	9
	46	94	501.303	80.7455	-106.892	1	133.961	-52.9328	2.20881E-006	-0.386158	9
	47	96	446.614	82.6879	-118.455	1	144.461	-55.0829	2.16529E-006	-0.386149	9
	48	98	398.209	84.8247	-131.2	1	156.233	-57.1161	2.20667E-006	-0.386148	9
	49	100	354.821	87.2256	-145.353	1	169.516	-59.0322	2.17059E-006	-0.386148	9
	50	102	316.113	89.8561	-161.08	1	184.447	-60.8456	2.14678E-006	-0.386145	9
	51	104	281.926	92.7681	-178.344	1	201.029	-62.5182	2.03849E-006	-0.386148	9
	52	106	251.185	95.926	-197.653	1	219.701	-64.1115	2.04695E-006	-0.386157	9
	53	108	223.946	99.469	-218.908	1	240.448	-65.5635	1.89363E-006	-0.386159	9
	54	110	199.495	103.34	-242.653	1	263.742	-66.932	2.0729E-006	-0.386153	9
	55	112	177.836	107.597	-268.808	1	289.542	-68.1851	2.14774E-006	-0.386154	9
	56	114	158.533	112.22	-297.814	1	318.255	-69.3529	2.22267E-006	-0.386153	9
	57	116	141.263	117.334	-330.113	1	350.346	-70.4329	2.18076E-006	-0.386148	9
	58	118	125.911	122.878	-365.876	1	385.959	-71.4356	2.24199E-006	-0.386147	9
	59	121	112.198	129.026	-405.611	1	425.639	-72.354	2.21904E-006	-0.386149	9
	60	123	100.009	135.683	-449.69	1	469.714	-73.2101	2.24649E-006	-0.386145	9
	61	125	89.1164	142.866	-498.706	1	518.766	-74.0144	2.17346E-006	-0.386142	9
	62	127	79.4083	151.058	-553.364	1	573.611	-74.7314	2.12382E-006	-0.386146	9
	63	129	70.788	159.72	-613.704	1	634.148	-75.4121	2.15283E-006	-0.386147	9
	64	131	63.0971	169.512	-680.985	1	701.766	-76.0219	2.22868E-006	-0.386146	9
	65	133	54.5476	183.209	-777.007	1	798.314	-76.7327	2.22884E-006	-0.386148	9
	66	135	50.0083	192.107	-840.697	1	862.367	-77.1284	2.20303E-006	-0.386153	9
	67	137	46.1675	200.375	-903.936	1	925.878	-77.5014	1.98634E-006	-0.386151	9
	68	139	40.0059	218.362	-1030	1	1052.89	-78.0303	2.08997E-006	-0.38615	9
	69	141	35.3046	235.114	-1153.68	1	1177.4	-78.4812	1.458E-006	-0.386162	8
	70	144	31.5793	251.981	-1277.93	1	1302.53	-78.8455	1.57491E-006	-0.386146	8
	71	146	28.5748	268.584	-1400.14	1	1425.67	-79.1411	1.40223E-006	-0.386155	8
	72	148	24.9911	295.682	-1584.23	1	1611.58	-79.4279	1.37458E-006	-0.386152	8
	73	150	22.2195	320.904	-1765.17	1	1794.11	-79.6963	1.43007E-006	-0.386147	8
	74	152	20.0011	347.323	-1944.51	1	1975.28	-79.8728	1.44739E-006	-0.386153	8
	75	155	17.6486	381.592	-2183.57	1	2216.66	-80.0873	1.45048E-006	-0.386149	8
	76	157	15.7934	420.07	-2418.63	1	2454.83	-80.1471	1.44069E-006	-0.386154	8
	77	159	14.2828	458.091	-2657.35	1	2696.55	-80.2191	1.47217E-006	-0.386147	8
	78	161	12.5002	512.473	-3002.7	1	3046.12	-80.3146	1.45608E-006	-0.386149	8
	79	164	11.323	560.511	-3291.81	1	3339.19	-80.3367	1.44559E-006	-0.386147	8
	80	167	9.9987	635.155	-3696.21	1	3750.38	-80.2495	1.4548E-006	-0.38614	8
