EXPLAIN
TAG	EISPOT
TITLE	LABEL	Tomato_open	Test &Identifier
DATE	LABEL	5/16/2006	Date
TIME	LABEL	10:30:34	Time
NOTES	NOTES	1	&Notes...
	
PSTAT	PSTAT	300	Potentiostat
VDC	POTEN	1.00000E-001	T	DC &Voltage (V)
FREQINIT	QUANT	1.00000E+005	Initial Fre&q. (Hz)
FREQFINAL	QUANT	1.00000E+001	Final Fre&q. (Hz)
PTSPERDEC	QUANT	2.00000E+001	Points/&decade
VAC	QUANT	1.00000E+001	AC &Voltage (mV rms)
AREA	QUANT	1.00000E+000	&Area (cm²)
DENSITY	QUANT	7.87000E+000	&Density (gm/cm³)
EQUIV	QUANT	7.00000E+000	Equiv. &Wt
CONDIT	TWOPARAM	F	1.50000E+001	0.00000E+000	Conditionin&g	Time(s)	E(V)
DELAY	TWOPARAM	F	6.00000E+002	0.00000E+000	Init. De&lay	Time(s)	Stab.(mV/s)
SPEED	SELECTOR	1	&Optimize for:
ZGUESS	QUANT	1.00000E+002	E&stimated Z (ohms)
OCVCURVE	TABLE	39
	Pt	T	Vf	Vm	Ach	Over
	#	s	V vs. Ref.	V	V	bits
	0	0.258332	-4.60269E-001	5.96932E-008	-6.34000E-005	......
	1	0.516663	-4.58070E-001	5.96932E-008	3.66000E-005	......
	2	0.774994	-4.59169E-001	5.96932E-008	-6.34000E-005	......
	3	1.03333	-4.60319E-001	5.96932E-008	-6.34000E-005	......
	4	1.29166	-4.61019E-001	5.96932E-008	-1.63400E-004	......
	5	1.54999	-4.61719E-001	5.96932E-008	3.66000E-005	......
	6	1.80832	-4.62919E-001	5.96932E-008	-1.63400E-004	......
	7	2.06665	-4.63869E-001	5.96932E-008	3.66000E-005	......
	8	2.32498	-4.62269E-001	5.96932E-008	-1.63400E-004	......
	9	2.58332	-4.59519E-001	5.96932E-008	2.36600E-004	......
	10	2.84165	-4.58019E-001	5.96932E-008	-1.63400E-004	......
	11	3.09998	-4.57269E-001	5.96932E-008	3.66000E-005	......
	12	3.35831	-4.57069E-001	5.96932E-008	-6.34000E-005	......
	13	3.61664	-4.57319E-001	5.96932E-008	1.36600E-004	......
	14	3.87497	-4.57170E-001	5.96932E-008	-1.63400E-004	......
	15	4.1333	-4.57069E-001	5.96932E-008	3.66000E-005	......
	16	4.39164	-4.57019E-001	5.96932E-008	-6.34000E-005	......
	17	4.64997	-4.55669E-001	5.96932E-008	1.36600E-004	......
	18	4.9083	-4.52819E-001	5.96932E-008	3.66000E-005	......
	19	5.16663	-4.53019E-001	5.96932E-008	-6.34000E-005	......
	20	5.42496	-4.53119E-001	5.96932E-008	-6.34000E-005	......
	21	5.68329	-4.53420E-001	5.96932E-008	1.36600E-004	......
	22	5.94162	-4.53469E-001	5.96932E-008	-1.63400E-004	......
	23	6.19996	-4.53919E-001	5.96932E-008	2.36600E-004	......
	24	6.45829	-4.54619E-001	5.96932E-008	-2.63400E-004	......
	25	6.71662	-4.55069E-001	5.96932E-008	1.36600E-004	......
	26	6.97495	-4.56019E-001	5.96932E-008	-1.63400E-004	......
	27	7.23328	-4.56619E-001	5.96932E-008	3.66000E-005	......
	28	7.49161	-4.57069E-001	5.96932E-008	-1.63400E-004	......
	29	7.74995	-4.57419E-001	5.96932E-008	2.36600E-004	......
	30	8.00828	-4.58619E-001	5.96932E-008	-1.63400E-004	......
	31	8.26661	-4.59469E-001	5.96932E-008	2.36600E-004	......
	32	8.52494	-4.59869E-001	5.96932E-008	-6.34000E-005	......
	33	8.78327	-4.60819E-001	5.96932E-008	3.66000E-005	......
	34	9.0416	-4.61319E-001	5.96932E-008	-1.63400E-004	......
	35	9.29993	-4.61169E-001	5.96932E-008	1.36600E-004	......
	36	9.5583	-4.60769E-001	5.96932E-008	-1.63400E-004	......
	37	9.8166	-4.60570E-001	5.96932E-008	1.36600E-004	......
	38	10.0749	-4.59369E-001	5.96932E-008	-6.34000E-005	......
EOC	QUANT	-0.459369	Open Circuit (V)
PSTATMODEL	IQUANT	32	Pstat Model
PSTATSECTION	LABEL	PStat0	Pstat Section
CTRLMODE	IQUANT	1	Control Mode
IESTAB	IQUANT	0	I/E Stability
CASPEED	IQUANT	1	Control Amp Speed
CONVENTION	IQUANT	1	Current Convention
ICHRANGE	IQUANT	2	Ich Range
ICHRANGEMODE	TOGGLE	F	Ich Auto Range
ICHOFFSETENABLE	TOGGLE	T	Ich Offset Enable
ICHOFFSET	QUANT	0	Ich Offset (V)
ICHFILTER	IQUANT	3	Ich Filter
VCHRANGE	IQUANT	2	Vch Range
VCHRANGEMODE	TOGGLE	F	Vch Auto Range
VCHOFFSETENABLE	TOGGLE	T	Vch Offset Enable
VCHOFFSET	QUANT	0	Vch Offset (V)
VCHFILTER	IQUANT	3	Vch Filter
ACHRANGE	IQUANT	0	Ach Range
IERANGELOWERLIMIT	IQUANT	3	I/E Range Lower Limit
IERANGEMODE	TOGGLE	F	I/E AutoRange
IERANGE	IQUANT	11	I/E Range
POSFEEDENABLE	TOGGLE	F	Positive Feedback IR Comp
POSFEEDRESISTANCE	QUANT	0	Positive Feedback Resistance (ohm)
FC350IDIVISOR	IQUANT	0	FC350 I Divisor
FC350VRANGE	IQUANT	0	FC350 V Range
FRAMEWORKVERSION	QUANT	4.35	Framework Version
ZCURVE	TABLE
	Pt	Time	Freq	Zreal	Zimag	Zsig	Zmod	Zphz	Idc	Vdc	IERange
	#	s	Hz	ohm	ohm	V	ohm	°	A	V	#
	0	4	100007	61.6435	-1.12419	1	61.6538	-1.04479	8.28235E-006	-0.359255	10
	1	6	89134.1	61.3488	-1.24118	1	61.3613	-1.15902	8.05515E-006	-0.359249	10
	2	8	79433.6	61.2525	-1.38029	1	61.268	-1.29091	6.60627E-006	-0.359279	10
	3	10	70800.8	61.1642	-1.57247	1	61.1844	-1.47269	6.00621E-006	-0.359266	10
	4	12	63105.5	61.2266	-1.77171	1	61.2522	-1.6575	7.54838E-006	-0.359246	10
	5	14	56243.5	61.1512	-1.94518	1	61.1822	-1.82192	7.87388E-006	-0.359256	10
	6	16	50123.7	61.2706	-2.15668	1	61.3086	-2.01594	7.87535E-006	-0.359275	10
	7	18	44681	61.2314	-2.38797	1	61.278	-2.23335	7.47429E-006	-0.359249	10
	8	20	39811.2	61.3906	-2.38086	1	61.4368	-2.22095	6.54591E-006	-0.359252	10
	9	22	35488.3	61.2503	-2.98635	1	61.3231	-2.79133	6.7606E-006	-0.359263	10
	10	24	31634.1	61.3069	-3.22938	1	61.3919	-3.0153	6.64296E-006	-0.359252	10
	11	25	28173.1	61.4969	-3.5335	1	61.5983	-3.2885	7.74093E-006	-0.359278	10
	12	27	25123.7	61.6019	-3.92419	1	61.7268	-3.64495	5.9546E-006	-0.359247	10
	13	29	22389.3	61.7211	-4.20579	1	61.8642	-3.89822	7.04404E-006	-0.359291	10
	14	31	19954.4	61.8074	-4.5973	1	61.9781	-4.25389	8.5107E-006	-0.359276	10
	15	33	17778.2	61.9836	-5.05345	1	62.1892	-4.66095	6.80018E-006	-0.359279	10
	16	35	15852.9	62.1635	-5.58876	1	62.4142	-5.13732	8.34579E-006	-0.359251	10
	17	37	14122.3	62.2611	-6.14733	1	62.5638	-5.6388	6.9881E-006	-0.359276	10
	18	39	12587.2	62.4247	-6.70416	1	62.7836	-6.12985	7.39563E-006	-0.359266	10
	19	41	11221.1	62.682	-7.34102	1	63.1104	-6.67978	7.39266E-006	-0.359258	10
	20	43	9998.2	62.888	-8.05083	1	63.4013	-7.29523	7.17057E-006	-0.359256	10
	21	45	8912.76	63.0488	-8.89311	1	63.6729	-8.02867	8.26874E-006	-0.35926	10
	22	47	7942.6	63.2319	-9.7129	1	63.9735	-8.73279	6.75048E-006	-0.359267	10
	23	49	7078.05	63.5815	-10.631	1	64.4641	-9.49221	7.47291E-006	-0.359263	10
	24	51	6311.1	63.8053	-11.6031	1	64.8517	-10.3067	7.22149E-006	-0.359265	10
	25	53	5622.14	64.0584	-12.8945	1	65.3433	-11.3811	7.17298E-006	-0.359267	10
	26	55	5011.18	64.2537	-14.1871	1	65.8013	-12.4511	7.30812E-006	-0.359276	10
	27	57	4465.21	64.5394	-15.6376	1	66.4069	-13.62	7.31471E-006	-0.359269	10
	28	59	3980.93	64.8952	-17.272	1	67.1544	-14.9039	8.13227E-006	-0.359252	10
	29	61	3548.18	65.3712	-18.9698	1	68.0679	-16.182	6.91766E-006	-0.359246	10
	30	63	3162.67	65.7153	-20.9553	1	68.9755	-17.6865	5.81596E-006	-0.359262	10
	31	65	2819.01	66.0158	-23.0699	1	69.9308	-19.2624	7.27951E-006	-0.359252	10
	32	67	2511.16	66.6327	-25.3842	1	71.3041	-20.8547	6.7412E-006	-0.359262	10
	33	69	2238.63	67.0766	-28.2115	1	72.7678	-22.8109	6.85256E-006	-0.359266	10
	34	71	1995.37	67.687	-31.0955	1	74.488	-24.6741	6.66107E-006	-0.359261	10
	35	73	1778.51	68.2212	-34.3726	1	76.3912	-26.7408	6.67635E-006	-0.359259	10
	36	75	1584.49	69.0366	-38.0603	1	78.833	-28.8682	6.69685E-006	-0.359254	10
	37	77	1412.76	69.6289	-42.2048	1	81.4213	-31.2217	7.35976E-006	-0.359232	10
	38	79	1259.04	70.4365	-46.601	1	84.4568	-33.4887	6.91105E-006	-0.359261	10
	39	81	1121.63	71.164	-51.5916	1	87.8977	-35.9409	6.80355E-006	-0.359263	10
	40	83	999.95	72.4389	-56.9977	1	92.1745	-38.197	6.81502E-006	-0.359255	10
	41	85	891.184	73.4054	-63.1808	1	96.851	-40.7189	7.22043E-006	-0.359255	10
	42	87	794.163	74.5846	-70.0132	1	102.297	-43.1892	7.16657E-006	-0.359259	10
	43	89	707.867	75.9839	-77.4468	1	108.497	-45.5463	3.12271E-006	-0.359254	9
	44	90	630.984	77.0655	-85.6215	1	115.196	-48.0105	3.6296E-006	-0.359247	9
	45	92	562.189	78.9156	-95.24	1	123.687	-50.355	3.91032E-006	-0.359253	9
	46	94	501.303	80.573	-105.3	1	132.59	-52.5778	3.27812E-006	-0.359262	9
	47	96	446.614	82.4759	-116.707	1	142.908	-54.7514	3.13038E-006	-0.359262	9
	48	98	398.209	84.5622	-129.265	1	154.468	-56.8082	3.0189E-006	-0.359261	9
	49	100	354.821	86.9069	-143.264	1	167.563	-58.7581	3.13163E-006	-0.359258	9
	50	102	316.113	89.4898	-158.777	1	182.259	-60.5935	3.20313E-006	-0.359262	9
	51	104	281.926	92.3177	-175.838	1	198.599	-62.2998	3.34449E-006	-0.359255	9
	52	106	251.185	95.444	-194.879	1	216.996	-63.9062	3.05093E-006	-0.359254	9
	53	108	223.946	98.858	-215.902	1	237.459	-65.3977	2.84856E-006	-0.359253	9
	54	110	199.495	102.65	-239.382	1	260.462	-66.7896	2.94009E-006	-0.359257	9
	55	112	177.836	106.757	-265.242	1	285.921	-68.0758	2.9401E-006	-0.359263	9
	56	114	158.533	111.278	-293.866	1	314.229	-69.2598	2.86471E-006	-0.359267	9
	57	116	141.263	116.228	-325.892	1	345.998	-70.3715	2.75726E-006	-0.359266	9
	58	118	125.911	121.633	-361.228	1	381.157	-71.3905	2.70506E-006	-0.359261	9
	59	120	112.198	127.553	-400.573	1	420.391	-72.3371	2.70748E-006	-0.359253	9
	60	122	100.009	134.035	-444.195	1	463.977	-73.2089	2.7839E-006	-0.35926	9
	61	125	89.1164	141.798	-492.757	1	512.754	-73.9461	3.25206E-006	-0.359264	9
	62	127	79.4083	151.881	-545.956	1	566.689	-74.4538	4.56842E-006	-0.359267	9
	63	129	70.788	160.075	-606	1	626.786	-75.2033	4.36338E-006	-0.359262	9
	64	131	63.0971	171.496	-667.833	1	689.501	-75.598	4.29447E-006	-0.359266	9
	65	133	54.5476	183.287	-767.607	1	789.187	-76.5705	4.06054E-006	-0.359275	9
	66	135	50.0083	191.972	-831.133	1	853.016	-76.9941	3.42009E-006	-0.359274	9
	67	137	46.1675	201.292	-894.28	1	916.654	-77.3148	3.37397E-006	-0.359279	9
	68	139	40.0059	218.561	-1019.03	1	1042.21	-77.8947	3.20092E-006	-0.359282	9
	69	141	35.3046	236.318	-1142.37	1	1166.55	-78.3123	2.44151E-006	-0.35928	8
	70	143	31.5793	252.832	-1264.98	1	1290	-78.6973	2.11441E-006	-0.359275	8
	71	145	28.5748	270.021	-1386.71	1	1412.76	-78.9812	2.1166E-006	-0.359272	8
	72	148	24.9911	298.302	-1568.33	1	1596.45	-79.2308	2.08074E-006	-0.359277	8
	73	150	22.2195	324.342	-1748.32	1	1778.15	-79.4902	2.10987E-006	-0.359262	8
	74	152	20.0011	355.291	-1926.13	1	1958.62	-79.5488	2.12908E-006	-0.359262	8
	75	155	17.6486	395.255	-2162.48	1	2198.3	-79.6419	2.0701E-006	-0.359268	8
	76	157	15.7934	432.21	-2397.62	1	2436.27	-79.7813	2.07187E-006	-0.359272	8
	77	159	14.2828	468.078	-2633.92	1	2675.19	-79.9231	2.07785E-006	-0.359266	8
	78	161	12.5002	539.9	-2975.21	1	3023.8	-79.7147	2.23936E-006	-0.359267	8
	79	164	11.323	607.694	-3253.61	1	3309.88	-79.4205	2.45401E-006	-0.359272	8
	80	167	9.9987	697	-3651.52	1	3717.44	-79.1934	2.59309E-006	-0.359264	8
