EXPLAIN
TAG	EISPOT
TITLE	LABEL	Tomato_open	Test &Identifier
DATE	LABEL	5/16/2006	Date
TIME	LABEL	10:45:34	Time
NOTES	NOTES	1	&Notes...
	
PSTAT	PSTAT	300	Potentiostat
VDC	POTEN	1.00000E-001	T	DC &Voltage (V)
FREQINIT	QUANT	1.00000E+005	Initial Fre&q. (Hz)
FREQFINAL	QUANT	1.00000E+001	Final Fre&q. (Hz)
PTSPERDEC	QUANT	2.00000E+001	Points/&decade
VAC	QUANT	1.00000E+001	AC &Voltage (mV rms)
AREA	QUANT	1.00000E+000	&Area (cm²)
DENSITY	QUANT	7.87000E+000	&Density (gm/cm³)
EQUIV	QUANT	7.00000E+000	Equiv. &Wt
CONDIT	TWOPARAM	F	1.50000E+001	0.00000E+000	Conditionin&g	Time(s)	E(V)
DELAY	TWOPARAM	F	6.00000E+002	0.00000E+000	Init. De&lay	Time(s)	Stab.(mV/s)
SPEED	SELECTOR	1	&Optimize for:
ZGUESS	QUANT	1.00000E+002	E&stimated Z (ohms)
OCVCURVE	TABLE	39
	Pt	T	Vf	Vm	Ach	Over
	#	s	V vs. Ref.	V	V	bits
	0	0.258332	-4.95770E-001	5.60776E-006	3.36600E-004	......
	1	0.516663	-4.96169E-001	5.60776E-006	2.36600E-004	......
	2	0.774994	-4.98969E-001	5.60776E-006	2.36600E-004	......
	3	1.03333	-5.01269E-001	5.60776E-006	1.36600E-004	......
	4	1.29166	-5.02519E-001	5.60776E-006	2.36600E-004	......
	5	1.54999	-5.03019E-001	5.60776E-006	2.36600E-004	......
	6	1.80832	-5.04619E-001	5.60776E-006	3.66000E-005	......
	7	2.06665	-5.05470E-001	5.60776E-006	2.36600E-004	......
	8	2.32498	-5.05619E-001	5.60776E-006	2.36600E-004	......
	9	2.58332	-5.04820E-001	5.60776E-006	3.36600E-004	......
	10	2.84165	-5.05669E-001	5.60776E-006	2.36600E-004	......
	11	3.09998	-5.05669E-001	5.60776E-006	2.36600E-004	......
	12	3.35831	-5.02769E-001	5.60776E-006	2.36600E-004	......
	13	3.61664	-5.00319E-001	5.60776E-006	3.36600E-004	......
	14	3.87497	-4.97469E-001	5.60776E-006	2.36600E-004	......
	15	4.1333	-4.97169E-001	5.60776E-006	3.36600E-004	......
	16	4.39164	-4.98069E-001	5.60776E-006	2.36600E-004	......
	17	4.64997	-4.98320E-001	5.60776E-006	2.36600E-004	......
	18	4.9083	-4.98069E-001	5.60776E-006	2.36600E-004	......
	19	5.16663	-4.97619E-001	5.60776E-006	3.66000E-005	......
	20	5.42496	-4.97369E-001	5.60776E-006	2.36600E-004	......
	21	5.68329	-4.99169E-001	5.60776E-006	3.66000E-005	......
	22	5.94162	-5.01219E-001	5.60776E-006	3.36600E-004	......
	23	6.19996	-5.02069E-001	5.60776E-006	2.36600E-004	......
	24	6.45829	-5.01669E-001	5.60776E-006	1.36600E-004	......
	25	6.71662	-5.02419E-001	5.60776E-006	2.36600E-004	......
	26	6.97495	-5.04519E-001	5.60776E-006	2.36600E-004	......
	27	7.23328	-5.05520E-001	5.60776E-006	1.36600E-004	......
	28	7.49161	-5.05470E-001	5.60776E-006	3.66000E-005	......
	29	7.74995	-5.05019E-001	5.60776E-006	2.36600E-004	......
	30	8.00828	-5.04269E-001	5.60776E-006	2.36600E-004	......
	31	8.26661	-5.05419E-001	5.60776E-006	2.36600E-004	......
	32	8.52494	-5.06469E-001	5.60776E-006	2.36600E-004	......
	33	8.78327	-5.06769E-001	5.60776E-006	2.36600E-004	......
	34	9.0416	-5.06369E-001	5.60776E-006	2.36600E-004	......
	35	9.29993	-5.05470E-001	5.60776E-006	2.36600E-004	......
	36	9.5583	-5.06669E-001	5.60776E-006	2.36600E-004	......
	37	9.8166	-5.07869E-001	5.60776E-006	2.36600E-004	......
	38	10.0749	-5.08020E-001	5.60776E-006	2.36600E-004	......
EOC	QUANT	-0.50802	Open Circuit (V)
PSTATMODEL	IQUANT	32	Pstat Model
PSTATSECTION	LABEL	PStat0	Pstat Section
CTRLMODE	IQUANT	1	Control Mode
IESTAB	IQUANT	0	I/E Stability
CASPEED	IQUANT	1	Control Amp Speed
CONVENTION	IQUANT	1	Current Convention
ICHRANGE	IQUANT	2	Ich Range
ICHRANGEMODE	TOGGLE	F	Ich Auto Range
ICHOFFSETENABLE	TOGGLE	T	Ich Offset Enable
ICHOFFSET	QUANT	0	Ich Offset (V)
ICHFILTER	IQUANT	3	Ich Filter
VCHRANGE	IQUANT	2	Vch Range
VCHRANGEMODE	TOGGLE	F	Vch Auto Range
VCHOFFSETENABLE	TOGGLE	T	Vch Offset Enable
VCHOFFSET	QUANT	0	Vch Offset (V)
VCHFILTER	IQUANT	3	Vch Filter
ACHRANGE	IQUANT	0	Ach Range
IERANGELOWERLIMIT	IQUANT	3	I/E Range Lower Limit
IERANGEMODE	TOGGLE	F	I/E AutoRange
IERANGE	IQUANT	11	I/E Range
POSFEEDENABLE	TOGGLE	F	Positive Feedback IR Comp
POSFEEDRESISTANCE	QUANT	0	Positive Feedback Resistance (ohm)
FC350IDIVISOR	IQUANT	0	FC350 I Divisor
FC350VRANGE	IQUANT	0	FC350 V Range
FRAMEWORKVERSION	QUANT	4.35	Framework Version
ZCURVE	TABLE
	Pt	Time	Freq	Zreal	Zimag	Zsig	Zmod	Zphz	Idc	Vdc	IERange
	#	s	Hz	ohm	ohm	V	ohm	°	A	V	#
	0	4	100007	61.4096	-1.14991	1	61.4204	-1.07275	7.49876E-006	-0.407909	10
	1	6	89134.1	61.1339	-1.28134	1	61.1474	-1.20072	7.90585E-006	-0.4079	10
	2	8	79433.6	60.8902	-1.44282	1	60.9073	-1.35739	5.94023E-006	-0.40794	10
	3	10	70800.8	61.0082	-1.63697	1	61.0301	-1.53699	5.83144E-006	-0.407904	10
	4	12	63105.5	60.9042	-1.76835	1	60.9299	-1.66311	7.92326E-006	-0.407899	10
	5	14	56243.5	60.9871	-1.88206	1	61.0162	-1.76759	7.28796E-006	-0.407932	10
	6	16	50123.7	61.0429	-2.20738	1	61.0828	-2.07098	8.35854E-006	-0.407927	10
	7	18	44681	60.983	-2.4667	1	61.0329	-2.31629	7.12752E-006	-0.407888	10
	8	20	39811.2	61.1357	-2.44304	1	61.1845	-2.28837	5.3626E-006	-0.407905	10
	9	22	35488.3	61.1085	-2.93893	1	61.1791	-2.75344	5.20158E-006	-0.407897	10
	10	24	31634.1	61.2115	-3.25496	1	61.298	-3.04388	5.36229E-006	-0.407905	10
	11	26	28173.1	61.3518	-3.49286	1	61.4512	-3.25843	6.47632E-006	-0.407898	10
	12	28	25123.7	61.3862	-3.9026	1	61.5101	-3.63765	6.85852E-006	-0.40788	10
	13	30	22389.3	61.4596	-4.33288	1	61.6121	-4.03266	5.9178E-006	-0.407876	10
	14	32	19954.4	61.5406	-4.76879	1	61.7251	-4.43101	6.93345E-006	-0.407886	10
	15	34	17778.2	61.7393	-5.18808	1	61.9569	-4.8034	6.44841E-006	-0.407903	10
	16	36	15852.9	61.8129	-5.67401	1	62.0727	-5.24467	5.33001E-006	-0.407898	10
	17	38	14122.3	62.0967	-6.22636	1	62.408	-5.72585	6.59174E-006	-0.407899	10
	18	40	12587.2	62.1764	-6.79835	1	62.547	-6.23992	6.39043E-006	-0.407915	10
	19	42	11221.1	62.4075	-7.55833	1	62.8635	-6.90561	6.2948E-006	-0.407904	10
	20	44	9998.2	62.6578	-8.18048	1	63.1896	-7.43835	6.47879E-006	-0.4079	10
	21	46	8912.76	62.7237	-9.04032	1	63.3718	-8.20152	5.91921E-006	-0.40793	10
	22	48	7942.6	62.9978	-9.9514	1	63.7789	-8.97649	6.20171E-006	-0.407901	10
	23	49	7078.05	63.2989	-10.89	1	64.2288	-9.7617	6.22852E-006	-0.407911	10
	24	51	6311.1	63.4722	-11.8869	1	64.5757	-10.6073	6.24407E-006	-0.407905	10
	25	53	5622.14	63.736	-13.1231	1	65.073	-11.6345	6.29618E-006	-0.4079	10
	26	55	5011.18	64.0403	-14.577	1	65.6784	-12.8233	6.37243E-006	-0.407894	10
	27	57	4465.21	64.2923	-15.9886	1	66.2506	-13.9653	6.3717E-006	-0.407909	10
	28	59	3980.93	64.824	-17.6462	1	67.1829	-15.2279	7.26518E-006	-0.407925	10
	29	61	3548.18	65.0801	-19.5541	1	67.9543	-16.7235	6.41641E-006	-0.407888	10
	30	63	3162.67	65.4573	-21.5415	1	68.9107	-18.216	7.55407E-006	-0.407886	10
	31	65	2819.01	65.893	-23.6115	1	69.9957	-19.7142	4.91224E-006	-0.407883	10
	32	67	2511.16	66.2565	-26.1515	1	71.2308	-21.5392	6.39595E-006	-0.407906	10
	33	69	2238.63	66.8301	-28.9449	1	72.8291	-23.418	6.56282E-006	-0.407919	10
	34	71	1995.37	67.4626	-31.9828	1	74.6599	-25.3648	6.01259E-006	-0.407905	10
	35	73	1778.51	67.9807	-35.3102	1	76.6041	-27.448	6.22999E-006	-0.407912	10
	36	75	1584.49	68.6999	-39.2536	1	79.1235	-29.7427	6.29509E-006	-0.407899	10
	37	77	1412.76	69.4357	-43.439	1	81.9039	-32.0301	7.3246E-006	-0.407897	10
	38	79	1259.04	70.2627	-47.9372	1	85.0578	-34.304	6.43338E-006	-0.407899	10
	39	81	1121.63	71.2361	-53.2087	1	88.9143	-36.7573	6.20646E-006	-0.407903	10
	40	83	999.95	72.1192	-58.7725	1	93.0343	-39.1778	6.0848E-006	-0.407906	10
	41	85	891.184	73.2941	-65.0023	1	97.966	-41.5689	6.07616E-006	-0.407908	10
	42	87	794.163	74.7218	-71.9579	1	103.737	-43.9205	6.13726E-006	-0.407906	10
	43	89	707.867	75.8747	-79.6381	1	109.996	-46.3863	2.76482E-006	-0.407911	9
	44	91	630.984	77.5004	-88.3363	1	117.514	-48.7384	2.43924E-006	-0.407897	9
	45	93	562.189	79.0275	-97.893	1	125.811	-51.0867	2.50559E-006	-0.40791	9
	46	95	501.303	80.7928	-108.344	1	135.152	-53.2879	2.37095E-006	-0.407902	9
	47	97	446.614	82.7955	-120.06	1	145.841	-55.4092	2.3641E-006	-0.407908	9
	48	99	398.209	84.9832	-132.956	1	157.796	-57.4141	2.28098E-006	-0.407907	9
	49	101	354.821	87.4396	-147.293	1	171.291	-59.3047	2.31723E-006	-0.407907	9
	50	103	316.113	90.1685	-163.232	1	186.481	-61.084	2.37556E-006	-0.407906	9
	51	105	281.926	93.157	-180.705	1	203.304	-62.728	2.31932E-006	-0.407901	9
	52	107	251.185	96.464	-200.222	1	222.248	-64.2759	2.36542E-006	-0.407906	9
	53	109	223.946	100.091	-221.732	1	243.276	-65.7054	2.35452E-006	-0.40791	9
	54	111	199.495	104.074	-245.695	1	266.828	-67.0429	2.31209E-006	-0.407915	9
	55	113	177.836	108.467	-272.136	1	292.956	-68.2689	2.35153E-006	-0.407912	9
	56	115	158.533	113.272	-301.424	1	322.004	-69.4043	2.11704E-006	-0.407915	9
	57	117	141.263	118.532	-334.047	1	354.453	-70.4635	2.03276E-006	-0.4079	9
	58	119	125.911	124.31	-370.062	1	390.383	-71.432	2.06377E-006	-0.407906	9
	59	121	112.198	130.693	-410.19	1	430.507	-72.3273	2.08437E-006	-0.407903	9
	60	123	100.009	137.464	-454.617	1	474.945	-73.1761	2.12476E-006	-0.407899	9
	61	125	89.1164	145.105	-504.026	1	524.498	-73.9393	2.06746E-006	-0.407908	9
	62	127	79.4083	153.533	-558.948	1	579.651	-74.6407	2.14103E-006	-0.407909	9
	63	129	70.788	162.556	-619.894	1	640.853	-75.3061	2.12478E-006	-0.407908	9
	64	131	63.0971	172.439	-687.546	1	708.84	-75.9204	2.17716E-006	-0.407907	9
	65	133	54.5476	186.618	-783.965	1	805.87	-76.6103	2.127E-006	-0.407905	9
	66	135	50.0083	195.705	-848.233	1	870.517	-77.008	2.11214E-006	-0.407911	9
	67	137	46.1675	204.036	-911.661	1	934.214	-77.3847	1.89684E-006	-0.407913	9
	68	140	40.0059	222.042	-1038.35	1	1061.82	-77.9296	1.86735E-006	-0.407909	9
	69	142	35.3046	239.918	-1162.67	1	1187.16	-78.3406	1.36486E-006	-0.407917	8
	70	144	31.5793	256.418	-1287.31	1	1312.6	-78.7348	1.37861E-006	-0.407922	8
	71	146	28.5748	274.45	-1411.09	1	1437.53	-78.9937	1.32592E-006	-0.407918	8
	72	148	24.9911	300.658	-1595.35	1	1623.43	-79.3273	1.35353E-006	-0.407916	8
	73	150	22.2195	329.058	-1777.42	1	1807.62	-79.5114	1.45984E-006	-0.407916	8
	74	153	20.0011	356.885	-1957.98	1	1990.24	-79.67	1.46168E-006	-0.407922	8
	75	155	17.6486	394.552	-2197.42	1	2232.56	-79.8209	1.48348E-006	-0.407916	8
	76	157	15.7934	432.268	-2435.93	1	2473.99	-79.9373	1.45071E-006	-0.40792	8
	77	160	14.2828	469.971	-2672.66	1	2713.66	-80.0268	1.3828E-006	-0.40792	8
	78	162	12.5002	527.584	-3021.79	1	3067.5	-80.0964	1.42891E-006	-0.407914	8
	79	164	11.323	585.717	-3311.05	1	3362.46	-79.9683	1.41552E-006	-0.407922	8
	80	167	9.9987	643.948	-3709.79	1	3765.27	-80.1527	1.40914E-006	-0.407922	8
