EXPLAIN
TAG	EISPOT
TITLE	LABEL	Tomato_open	Test &Identifier
DATE	LABEL	5/16/2006	Date
TIME	LABEL	10:40:44	Time
NOTES	NOTES	1	&Notes...
	
PSTAT	PSTAT	300	Potentiostat
VDC	POTEN	1.00000E-001	T	DC &Voltage (V)
FREQINIT	QUANT	1.00000E+005	Initial Fre&q. (Hz)
FREQFINAL	QUANT	1.00000E+001	Final Fre&q. (Hz)
PTSPERDEC	QUANT	2.00000E+001	Points/&decade
VAC	QUANT	1.00000E+001	AC &Voltage (mV rms)
AREA	QUANT	1.00000E+000	&Area (cm²)
DENSITY	QUANT	7.87000E+000	&Density (gm/cm³)
EQUIV	QUANT	7.00000E+000	Equiv. &Wt
CONDIT	TWOPARAM	F	1.50000E+001	0.00000E+000	Conditionin&g	Time(s)	E(V)
DELAY	TWOPARAM	F	6.00000E+002	0.00000E+000	Init. De&lay	Time(s)	Stab.(mV/s)
SPEED	SELECTOR	1	&Optimize for:
ZGUESS	QUANT	1.00000E+002	E&stimated Z (ohms)
OCVCURVE	TABLE	39
	Pt	T	Vf	Vm	Ach	Over
	#	s	V vs. Ref.	V	V	bits
	0	0.258332	-4.85569E-001	5.09576E-006	3.66000E-005	......
	1	0.516663	-4.86019E-001	5.09576E-006	-1.63400E-004	......
	2	0.774994	-4.85319E-001	5.09576E-006	3.66000E-005	......
	3	1.03333	-4.84069E-001	5.09576E-006	-1.63400E-004	......
	4	1.29166	-4.84919E-001	5.09576E-006	1.36600E-004	......
	5	1.54999	-4.85469E-001	5.09576E-006	-1.63400E-004	......
	6	1.80832	-4.84969E-001	5.09576E-006	3.66000E-005	......
	7	2.06665	-4.83869E-001	5.09576E-006	-1.63400E-004	......
	8	2.32498	-4.84269E-001	5.09576E-006	3.66000E-005	......
	9	2.58332	-4.85069E-001	5.09576E-006	-1.63400E-004	......
	10	2.84165	-4.85119E-001	5.09576E-006	3.66000E-005	......
	11	3.09998	-4.84419E-001	5.09576E-006	-1.63400E-004	......
	12	3.35831	-4.84419E-001	5.09576E-006	3.66000E-005	......
	13	3.61664	-4.85519E-001	5.09576E-006	-6.34000E-005	......
	14	3.87497	-4.85669E-001	5.09576E-006	3.66000E-005	......
	15	4.1333	-4.84469E-001	5.09576E-006	-6.34000E-005	......
	16	4.39164	-4.83669E-001	5.09576E-006	2.36600E-004	......
	17	4.64997	-4.85119E-001	5.09576E-006	3.66000E-005	......
	18	4.9083	-4.85819E-001	5.09576E-006	-6.34000E-005	......
	19	5.16663	-4.85419E-001	5.09576E-006	-3.63400E-004	......
	20	5.42496	-4.83869E-001	5.09576E-006	3.66000E-005	......
	21	5.68329	-4.82969E-001	5.09576E-006	-6.34000E-005	......
	22	5.94162	-4.82769E-001	5.09576E-006	3.66000E-005	......
	23	6.19996	-4.82269E-001	5.09576E-006	-1.63400E-004	......
	24	6.45829	-4.81969E-001	5.09576E-006	3.66000E-005	......
	25	6.71662	-4.83369E-001	5.09576E-006	-1.63400E-004	......
	26	6.97495	-4.84119E-001	5.09576E-006	3.66000E-005	......
	27	7.23328	-4.81969E-001	5.09576E-006	-1.63400E-004	......
	28	7.49161	-4.79970E-001	5.09576E-006	2.36600E-004	......
	29	7.74995	-4.79819E-001	5.09576E-006	-1.63400E-004	......
	30	8.00828	-4.80520E-001	5.09576E-006	1.36600E-004	......
	31	8.26661	-4.80919E-001	5.09576E-006	-6.34000E-005	......
	32	8.52494	-4.80870E-001	5.09576E-006	3.66000E-005	......
	33	8.78327	-4.82569E-001	5.09576E-006	-1.63400E-004	......
	34	9.0416	-4.84069E-001	5.09576E-006	3.66000E-005	......
	35	9.29993	-4.84469E-001	5.09576E-006	-1.63400E-004	......
	36	9.5583	-4.84269E-001	5.09576E-006	3.66000E-005	......
	37	9.8166	-4.83719E-001	5.09576E-006	-6.34000E-005	......
	38	10.0749	-4.83969E-001	5.09576E-006	3.66000E-005	......
EOC	QUANT	-0.483969	Open Circuit (V)
PSTATMODEL	IQUANT	32	Pstat Model
PSTATSECTION	LABEL	PStat0	Pstat Section
CTRLMODE	IQUANT	1	Control Mode
IESTAB	IQUANT	0	I/E Stability
CASPEED	IQUANT	1	Control Amp Speed
CONVENTION	IQUANT	1	Current Convention
ICHRANGE	IQUANT	2	Ich Range
ICHRANGEMODE	TOGGLE	F	Ich Auto Range
ICHOFFSETENABLE	TOGGLE	T	Ich Offset Enable
ICHOFFSET	QUANT	0	Ich Offset (V)
ICHFILTER	IQUANT	3	Ich Filter
VCHRANGE	IQUANT	2	Vch Range
VCHRANGEMODE	TOGGLE	F	Vch Auto Range
VCHOFFSETENABLE	TOGGLE	T	Vch Offset Enable
VCHOFFSET	QUANT	0	Vch Offset (V)
VCHFILTER	IQUANT	3	Vch Filter
ACHRANGE	IQUANT	0	Ach Range
IERANGELOWERLIMIT	IQUANT	3	I/E Range Lower Limit
IERANGEMODE	TOGGLE	F	I/E AutoRange
IERANGE	IQUANT	11	I/E Range
POSFEEDENABLE	TOGGLE	F	Positive Feedback IR Comp
POSFEEDRESISTANCE	QUANT	0	Positive Feedback Resistance (ohm)
FC350IDIVISOR	IQUANT	0	FC350 I Divisor
FC350VRANGE	IQUANT	0	FC350 V Range
FRAMEWORKVERSION	QUANT	4.35	Framework Version
ZCURVE	TABLE
	Pt	Time	Freq	Zreal	Zimag	Zsig	Zmod	Zphz	Idc	Vdc	IERange
	#	s	Hz	ohm	ohm	V	ohm	°	A	V	#
	0	4	100007	61.3595	-1.23453	1	61.3719	-1.15261	7.3779E-006	-0.383898	10
	1	6	89134.1	61.2025	-1.22399	1	61.2148	-1.14571	6.85241E-006	-0.383902	10
	2	8	79433.6	61.168	-1.51068	1	61.1867	-1.41476	6.13321E-006	-0.383948	10
	3	10	70800.8	61.0067	-1.57694	1	61.0271	-1.48069	6.38213E-006	-0.383947	10
	4	12	63105.5	61.0032	-1.80411	1	61.0299	-1.69397	7.81781E-006	-0.38395	10
	5	14	56243.5	61.0751	-1.94145	1	61.106	-1.8207	7.34996E-006	-0.383944	10
	6	16	50123.7	61.0675	-2.17888	1	61.1064	-2.04344	5.53926E-006	-0.38392	10
	7	18	44681	61.0548	-2.44163	1	61.1036	-2.29008	7.44241E-006	-0.383945	10
	8	20	39811.2	60.8725	-2.52852	1	60.925	-2.37859	6.17596E-006	-0.383954	10
	9	22	35488.3	61.205	-2.93447	1	61.2753	-2.74494	5.66544E-006	-0.383904	10
	10	24	31634.1	61.3054	-3.21637	1	61.3897	-3.00325	6.38644E-006	-0.383936	10
	11	26	28173.1	61.4086	-3.60467	1	61.5143	-3.35939	6.67616E-006	-0.383928	10
	12	28	25123.7	61.4612	-3.96738	1	61.5891	-3.69337	6.35432E-006	-0.383949	10
	13	30	22389.3	61.5729	-4.31865	1	61.7241	-4.01209	7.71765E-006	-0.383937	10
	14	32	19954.4	61.684	-4.7289	1	61.865	-4.38391	5.22904E-006	-0.383914	10
	15	34	17778.2	61.7816	-5.17594	1	61.998	-4.78895	6.6447E-006	-0.383929	10
	16	36	15852.9	62.0393	-5.62143	1	62.2934	-5.17748	5.69663E-006	-0.383906	10
	17	38	14122.3	62.1274	-6.23957	1	62.44	-5.73509	6.48284E-006	-0.383917	10
	18	40	12587.2	62.273	-6.77063	1	62.64	-6.20511	6.35079E-006	-0.383927	10
	19	42	11221.1	62.46	-7.38643	1	62.8952	-6.7444	6.49207E-006	-0.38392	10
	20	44	9998.2	62.6723	-8.1747	1	63.2032	-7.43146	6.58779E-006	-0.383922	10
	21	46	8912.76	62.8852	-9.08449	1	63.5379	-8.22017	6.54618E-006	-0.383897	10
	22	48	7942.6	63.0519	-9.8451	1	63.8159	-8.87466	6.41157E-006	-0.383927	10
	23	50	7078.05	63.2852	-10.8252	1	64.2044	-9.7068	6.42759E-006	-0.383919	10
	24	52	6311.1	63.6658	-12.023	1	64.7911	-10.6941	6.52163E-006	-0.383917	10
	25	54	5622.14	63.7387	-13.16	1	65.0831	-11.6658	6.47635E-006	-0.383916	10
	26	56	5011.18	64.0396	-14.3879	1	65.636	-12.6625	6.12821E-006	-0.383919	10
	27	58	4465.21	64.4168	-15.9288	1	66.357	-13.8893	6.27629E-006	-0.383923	10
	28	60	3980.93	64.7132	-17.5073	1	67.0396	-15.1382	7.28455E-006	-0.383947	10
	29	62	3548.18	65.1123	-19.2659	1	67.9027	-16.4828	5.17293E-006	-0.38391	10
	30	64	3162.67	65.5609	-21.3555	1	68.9513	-18.0423	6.10321E-006	-0.383959	10
	31	65	2819.01	66.0332	-23.5821	1	70.1177	-19.6529	5.5369E-006	-0.383913	10
	32	67	2511.16	66.5248	-26.0125	1	71.4297	-21.3564	6.10088E-006	-0.383931	10
	33	69	2238.63	66.8382	-28.7941	1	72.7767	-23.3066	6.01946E-006	-0.38393	10
	34	71	1995.37	67.5387	-31.856	1	74.6746	-25.2519	6.20409E-006	-0.383925	10
	35	73	1778.51	68.2106	-35.1534	1	76.7362	-27.2651	6.40576E-006	-0.383931	10
	36	75	1584.49	68.7566	-39.0379	1	79.066	-29.5866	6.09351E-006	-0.383938	10
	37	77	1412.76	69.4688	-43.0795	1	81.7421	-31.8042	6.98887E-006	-0.383961	10
	38	79	1259.04	70.1975	-47.6153	1	84.8228	-34.1493	6.06862E-006	-0.383931	10
	39	81	1121.63	71.1725	-52.8078	1	88.6239	-36.5743	5.97305E-006	-0.383931	10
	40	83	999.95	72.2359	-58.4648	1	92.9309	-38.9853	6.05859E-006	-0.383932	10
	41	85	891.184	73.3551	-64.5325	1	97.701	-41.339	6.08457E-006	-0.383918	10
	42	87	794.163	74.4238	-71.5398	1	103.232	-43.8681	6.35479E-006	-0.383936	10
	43	89	707.867	75.803	-79.1389	1	109.586	-46.2334	2.65935E-006	-0.383927	9
	44	91	630.984	77.295	-87.9628	1	117.098	-48.6935	2.6734E-006	-0.383934	9
	45	93	562.189	78.9432	-97.391	1	125.367	-50.9724	2.77598E-006	-0.383921	9
	46	95	501.303	80.7853	-107.759	1	134.678	-53.1417	2.60187E-006	-0.383928	9
	47	97	446.614	82.7501	-119.422	1	145.29	-55.2811	2.71638E-006	-0.383924	9
	48	99	398.209	84.92	-132.252	1	157.168	-57.2951	2.67537E-006	-0.383928	9
	49	101	354.821	87.3587	-146.522	1	170.588	-59.1959	2.67123E-006	-0.383926	9
	50	103	316.113	90.0587	-162.371	1	185.674	-60.9851	2.62962E-006	-0.383935	9
	51	105	281.926	92.9862	-179.774	1	202.398	-62.6502	2.6854E-006	-0.383933	9
	52	107	251.185	96.27	-199.19	1	221.234	-64.2052	2.72381E-006	-0.383921	9
	53	109	223.946	99.855	-220.602	1	242.15	-65.6462	2.68623E-006	-0.383926	9
	54	111	199.495	103.803	-244.487	1	265.61	-66.995	2.66384E-006	-0.383926	9
	55	113	177.836	108.115	-270.833	1	291.615	-68.2384	2.57738E-006	-0.383921	9
	56	115	158.533	112.846	-299.983	1	320.506	-69.3849	2.51431E-006	-0.383922	9
	57	117	141.263	118.054	-332.506	1	352.841	-70.4529	2.56295E-006	-0.383918	9
	58	119	125.911	123.761	-368.395	1	388.628	-71.4303	2.71248E-006	-0.383921	9
	59	121	112.198	130.118	-408.329	1	428.56	-72.325	2.77929E-006	-0.383921	9
	60	123	100.009	136.961	-452.599	1	472.868	-73.1636	2.74863E-006	-0.383926	9
	61	125	89.1164	144.544	-502.117	1	522.507	-73.9405	2.72286E-006	-0.383922	9
	62	127	79.4083	152.694	-556.789	1	577.347	-74.6642	2.72394E-006	-0.383921	9
	63	129	70.788	161.674	-617.301	1	638.121	-75.3236	2.65138E-006	-0.383918	9
	64	131	63.0971	171.504	-684.912	1	706.058	-75.942	2.5388E-006	-0.383928	9
	65	133	54.5476	185.837	-781.237	1	803.035	-76.6194	2.58681E-006	-0.383924	9
	66	136	50.0083	194.82	-845.245	1	867.407	-77.0206	2.60345E-006	-0.383921	9
	67	138	46.1675	203.802	-908.843	1	931.413	-77.3609	2.5962E-006	-0.383916	9
	68	140	40.0059	222.212	-1035.31	1	1058.88	-77.8862	2.6716E-006	-0.383917	9
	69	142	35.3046	239.875	-1159.31	1	1183.87	-78.3098	1.91627E-006	-0.38392	8
	70	144	31.5793	256.897	-1283.14	1	1308.61	-78.6786	1.76826E-006	-0.383916	8
	71	146	28.5748	275.379	-1406.51	1	1433.22	-78.9223	1.73686E-006	-0.383912	8
	72	148	24.9911	301.27	-1590.43	1	1618.72	-79.2738	1.67261E-006	-0.383916	8
	73	151	22.2195	330.103	-1771.63	1	1802.13	-79.4453	1.78314E-006	-0.383915	8
	74	153	20.0011	357.598	-1952.34	1	1984.82	-79.6206	1.82428E-006	-0.383915	8
	75	156	17.6486	393.256	-2189.63	1	2224.67	-79.8183	1.85969E-006	-0.383909	8
	76	158	15.7934	431.625	-2427.34	1	2465.41	-79.9171	1.7904E-006	-0.383914	8
	77	160	14.2828	476.753	-2661.3	1	2703.67	-79.8436	1.79199E-006	-0.383915	8
	78	162	12.5002	541.673	-3012.07	1	3060.39	-79.8052	1.75214E-006	-0.383906	8
	79	165	11.323	589.771	-3300.66	1	3352.93	-79.8691	1.77396E-006	-0.383912	8
	80	167	9.9987	656.255	-3705.09	1	3762.76	-79.9558	1.70961E-006	-0.383917	8
