EXPLAIN
TAG	EISPOT
TITLE	LABEL	Tomato_open	Test &Identifier
DATE	LABEL	5/16/2006	Date
TIME	LABEL	10:21:15	Time
NOTES	NOTES	1	&Notes...
	
PSTAT	PSTAT	300	Potentiostat
VDC	POTEN	1.00000E-001	T	DC &Voltage (V)
FREQINIT	QUANT	1.00000E+005	Initial Fre&q. (Hz)
FREQFINAL	QUANT	1.00000E+001	Final Fre&q. (Hz)
PTSPERDEC	QUANT	2.00000E+001	Points/&decade
VAC	QUANT	1.00000E+001	AC &Voltage (mV rms)
AREA	QUANT	1.00000E+000	&Area (cm²)
DENSITY	QUANT	7.87000E+000	&Density (gm/cm³)
EQUIV	QUANT	7.00000E+000	Equiv. &Wt
CONDIT	TWOPARAM	F	1.50000E+001	0.00000E+000	Conditionin&g	Time(s)	E(V)
DELAY	TWOPARAM	F	6.00000E+002	0.00000E+000	Init. De&lay	Time(s)	Stab.(mV/s)
SPEED	SELECTOR	1	&Optimize for:
ZGUESS	QUANT	1.00000E+002	E&stimated Z (ohms)
OCVCURVE	TABLE	39
	Pt	T	Vf	Vm	Ach	Over
	#	s	V vs. Ref.	V	V	bits
	0	0.258332	-5.05920E-001	4.74376E-006	3.66000E-005	......
	1	0.516663	-5.05619E-001	4.74376E-006	-2.63400E-004	......
	2	0.774994	-5.05870E-001	4.74376E-006	3.66000E-005	......
	3	1.03333	-5.05170E-001	4.74376E-006	-6.34000E-005	......
	4	1.29166	-5.05769E-001	4.74376E-006	3.66000E-005	......
	5	1.54999	-5.07119E-001	4.74376E-006	-1.63400E-004	......
	6	1.80832	-5.06619E-001	4.74376E-006	1.36600E-004	......
	7	2.06665	-5.06669E-001	4.74376E-006	-1.63400E-004	......
	8	2.32498	-5.07069E-001	4.74376E-006	1.36600E-004	......
	9	2.58332	-5.05219E-001	4.74376E-006	-1.63400E-004	......
	10	2.84165	-5.03770E-001	4.74376E-006	3.66000E-005	......
	11	3.09998	-5.03320E-001	4.74376E-006	-1.63400E-004	......
	12	3.35831	-5.01869E-001	4.74376E-006	-6.34000E-005	......
	13	3.61664	-4.99869E-001	4.74376E-006	-6.34000E-005	......
	14	3.87497	-4.99469E-001	4.74376E-006	1.36600E-004	......
	15	4.1333	-4.98119E-001	4.74376E-006	-1.63400E-004	......
	16	4.39164	-4.97769E-001	4.74376E-006	3.66000E-005	......
	17	4.64997	-4.98319E-001	4.74376E-006	-6.34000E-005	......
	18	4.9083	-4.96869E-001	4.74376E-006	-6.34000E-005	......
	19	5.16663	-4.96169E-001	4.74376E-006	-1.63400E-004	......
	20	5.42496	-4.98369E-001	4.74376E-006	3.66000E-005	......
	21	5.68329	-4.99969E-001	4.74376E-006	-6.34000E-005	......
	22	5.94162	-4.97570E-001	4.74376E-006	3.66000E-005	......
	23	6.19996	-5.00269E-001	4.74376E-006	-6.34000E-005	......
	24	6.45829	-5.02270E-001	4.74376E-006	3.66000E-005	......
	25	6.71662	-4.99269E-001	4.74376E-006	-6.34000E-005	......
	26	6.97495	-5.00120E-001	4.74376E-006	3.66000E-005	......
	27	7.23328	-5.00969E-001	4.74376E-006	-1.63400E-004	......
	28	7.49161	-5.00269E-001	4.74376E-006	3.66000E-005	......
	29	7.74995	-4.98869E-001	4.74376E-006	-1.63400E-004	......
	30	8.00828	-4.99469E-001	4.74376E-006	3.66000E-005	......
	31	8.26661	-4.99419E-001	4.74376E-006	-1.63400E-004	......
	32	8.52494	-4.99119E-001	4.74376E-006	3.66000E-005	......
	33	8.78327	-5.01819E-001	4.74376E-006	-3.63400E-004	......
	34	9.0416	-5.02769E-001	4.74376E-006	1.36600E-004	......
	35	9.29993	-5.02270E-001	4.74376E-006	-1.63400E-004	......
	36	9.5583	-5.03169E-001	4.74376E-006	1.36600E-004	......
	37	9.8166	-5.04669E-001	4.74376E-006	-6.34000E-005	......
	38	10.0749	-5.06570E-001	4.74376E-006	3.66000E-005	......
EOC	QUANT	-0.50657	Open Circuit (V)
PSTATMODEL	IQUANT	32	Pstat Model
PSTATSECTION	LABEL	PStat0	Pstat Section
CTRLMODE	IQUANT	1	Control Mode
IESTAB	IQUANT	0	I/E Stability
CASPEED	IQUANT	1	Control Amp Speed
CONVENTION	IQUANT	1	Current Convention
ICHRANGE	IQUANT	2	Ich Range
ICHRANGEMODE	TOGGLE	F	Ich Auto Range
ICHOFFSETENABLE	TOGGLE	T	Ich Offset Enable
ICHOFFSET	QUANT	0	Ich Offset (V)
ICHFILTER	IQUANT	3	Ich Filter
VCHRANGE	IQUANT	2	Vch Range
VCHRANGEMODE	TOGGLE	F	Vch Auto Range
VCHOFFSETENABLE	TOGGLE	T	Vch Offset Enable
VCHOFFSET	QUANT	0	Vch Offset (V)
VCHFILTER	IQUANT	3	Vch Filter
ACHRANGE	IQUANT	0	Ach Range
IERANGELOWERLIMIT	IQUANT	3	I/E Range Lower Limit
IERANGEMODE	TOGGLE	F	I/E AutoRange
IERANGE	IQUANT	11	I/E Range
POSFEEDENABLE	TOGGLE	F	Positive Feedback IR Comp
POSFEEDRESISTANCE	QUANT	0	Positive Feedback Resistance (ohm)
FC350IDIVISOR	IQUANT	0	FC350 I Divisor
FC350VRANGE	IQUANT	0	FC350 V Range
FRAMEWORKVERSION	QUANT	4.35	Framework Version
ZCURVE	TABLE
	Pt	Time	Freq	Zreal	Zimag	Zsig	Zmod	Zphz	Idc	Vdc	IERange
	#	s	Hz	ohm	ohm	V	ohm	°	A	V	#
	0	4	100007	60.9991	-0.874936	1	61.0053	-0.821762	5.50351E-006	-0.40643	10
	1	6	89134.1	60.7658	-0.920733	1	60.7728	-0.868089	5.35294E-006	-0.406433	10
	2	8	79433.6	60.5289	-1.03761	1	60.5378	-0.98209	7.32355E-006	-0.406456	10
	3	10	70800.8	60.4898	-1.3054	1	60.5039	-1.23628	5.57342E-006	-0.406429	10
	4	12	63105.5	60.3913	-1.51546	1	60.4103	-1.43748	5.20598E-006	-0.406445	10
	5	14	56243.5	60.341	-1.72871	1	60.3657	-1.64102	5.24238E-006	-0.40645	10
	6	16	50123.7	60.3402	-2.02092	1	60.374	-1.91824	5.14616E-006	-0.406439	10
	7	18	44681	60.3452	-2.15397	1	60.3837	-2.04425	7.40104E-006	-0.406433	10
	8	20	39811.2	60.2421	-2.36536	1	60.2885	-2.24852	5.53137E-006	-0.406423	10
	9	22	35488.3	60.4057	-2.76391	1	60.4689	-2.61979	7.45601E-006	-0.406434	10
	10	24	31634.1	60.4584	-3.1486	1	60.5403	-2.9812	6.69663E-006	-0.406428	10
	11	26	28173.1	60.4596	-3.47414	1	60.5593	-3.28872	6.48745E-006	-0.406431	10
	12	28	25123.7	60.5235	-3.94267	1	60.6518	-3.72714	5.21668E-006	-0.40644	10
	13	30	22389.3	60.6178	-4.36909	1	60.775	-4.12252	6.9911E-006	-0.406465	10
	14	32	19954.4	60.65	-4.83857	1	60.8427	-4.56132	5.1819E-006	-0.40645	10
	15	34	17778.2	60.7499	-5.36199	1	60.9861	-5.04404	6.1701E-006	-0.406454	10
	16	36	15852.9	60.8551	-5.93148	1	61.1435	-5.56697	6.01313E-006	-0.406473	10
	17	38	14122.3	61.0456	-6.50222	1	61.3909	-6.07988	6.4984E-006	-0.406448	10
	18	40	12587.2	61.1163	-7.24389	1	61.5441	-6.75953	6.27641E-006	-0.406449	10
	19	42	11221.1	61.4083	-7.93244	1	61.9185	-7.36044	6.18632E-006	-0.406446	10
	20	44	9998.2	61.4546	-8.89053	1	62.0943	-8.23177	6.24109E-006	-0.406444	10
	21	46	8912.76	61.579	-9.8132	1	62.356	-9.05446	6.5797E-006	-0.406424	10
	22	47	7942.6	61.8327	-10.874	1	62.7815	-9.9741	6.19871E-006	-0.406442	10
	23	49	7078.05	62.1406	-11.979	1	63.2847	-10.9112	6.15551E-006	-0.406446	10
	24	51	6311.1	62.2738	-13.2941	1	63.677	-12.0505	6.11834E-006	-0.406436	10
	25	53	5622.14	62.4603	-14.6636	1	64.1584	-13.2119	6.12579E-006	-0.406438	10
	26	55	5011.18	62.8098	-16.1614	1	64.8557	-14.4296	6.27387E-006	-0.406434	10
	27	57	4465.21	63.0853	-17.8908	1	65.5731	-15.8331	6.36051E-006	-0.406432	10
	28	59	3980.93	63.4851	-19.8284	1	66.5096	-17.3452	6.53052E-006	-0.406418	10
	29	61	3548.18	63.8599	-21.9572	1	67.5293	-18.9747	6.50365E-006	-0.40642	10
	30	63	3162.67	64.0893	-24.2213	1	68.5135	-20.7031	4.73868E-006	-0.406431	10
	31	65	2819.01	64.612	-26.8742	1	69.9781	-22.584	7.20902E-006	-0.406411	10
	32	67	2511.16	64.853	-29.7606	1	71.3555	-24.6501	6.2967E-006	-0.406421	10
	33	69	2238.63	65.3376	-32.8164	1	73.1158	-26.6685	6.09634E-006	-0.406432	10
	34	71	1995.37	65.7952	-36.5098	1	75.2461	-29.0259	6.45618E-006	-0.406427	10
	35	73	1778.51	66.2674	-40.4208	1	77.6222	-31.3818	6.0738E-006	-0.406424	10
	36	75	1584.49	66.7154	-44.8434	1	80.3858	-33.9074	6.10594E-006	-0.406427	10
	37	77	1412.76	67.3869	-49.8713	1	83.8341	-36.5042	7.17769E-006	-0.406443	10
	38	79	1259.04	68.0927	-55.3544	1	87.7538	-39.1086	6.5111E-006	-0.406419	10
	39	81	1121.63	68.6729	-61.5117	1	92.1936	-41.8514	6.31526E-006	-0.406422	10
	40	83	999.95	69.4521	-68.4124	1	97.488	-44.5679	6.37446E-006	-0.406421	10
	41	85	891.184	70.1908	-76.0744	1	103.509	-47.3035	6.4226E-006	-0.406421	10
	42	87	794.163	70.8825	-84.6919	1	110.44	-50.0725	2.67132E-006	-0.406428	9
	43	89	707.867	72.0655	-94.1614	1	118.574	-52.5717	2.34743E-006	-0.406419	9
	44	91	630.984	72.7972	-104.379	1	127.257	-55.1069	2.64898E-006	-0.406431	9
	45	93	562.189	74.2232	-116.538	1	138.167	-57.5069	2.50226E-006	-0.406433	9
	46	95	501.303	75.3589	-129.569	1	149.891	-59.8172	2.65328E-006	-0.406427	9
	47	97	446.614	76.6886	-144.358	1	163.464	-62.021	2.64931E-006	-0.406427	9
	48	99	398.209	78.1391	-160.716	1	178.705	-64.0713	2.69234E-006	-0.406416	9
	49	101	354.821	79.83	-179.078	1	196.066	-65.9735	2.6804E-006	-0.406431	9
	50	103	316.113	81.6816	-199.6	1	215.666	-67.7443	2.64527E-006	-0.406431	9
	51	105	281.926	83.7406	-222.277	1	237.528	-69.3567	2.65437E-006	-0.40643	9
	52	107	251.185	86.0871	-247.786	1	262.315	-70.8415	2.64321E-006	-0.406431	9
	53	109	223.946	88.6466	-276.096	1	289.978	-72.1997	2.67103E-006	-0.406427	9
	54	111	199.495	91.5672	-307.844	1	321.174	-73.4351	2.71615E-006	-0.406427	9
	55	113	177.836	94.837	-343.071	1	355.938	-74.5473	2.67007E-006	-0.406428	9
	56	115	158.533	98.526	-382.44	1	394.927	-75.5532	2.66721E-006	-0.406435	9
	57	117	141.263	102.644	-426.4	1	438.58	-76.4651	2.62942E-006	-0.406436	9
	58	119	125.911	107.29	-475.346	1	487.304	-77.2809	2.70581E-006	-0.406431	9
	59	121	112.198	112.656	-530.163	1	542	-78.0035	2.7361E-006	-0.406438	9
	60	123	100.009	118.657	-590.995	1	602.789	-78.6474	2.70742E-006	-0.406439	9
	61	125	89.1164	125.425	-659.025	1	670.854	-79.2244	2.77121E-006	-0.406436	9
	62	127	79.4083	133.047	-735.154	1	747.096	-79.7417	2.79535E-006	-0.406435	9
	63	129	70.788	141.738	-819.392	1	831.561	-80.1861	2.74793E-006	-0.406439	9
	64	131	63.0971	152.31	-913.581	1	926.19	-80.5349	2.72004E-006	-0.406442	9
	65	133	54.5476	166.552	-1048.44	1	1061.58	-80.9736	2.82647E-006	-0.406434	9
	66	135	50.0083	177.389	-1137.32	1	1151.07	-81.1349	2.12429E-006	-0.406439	8
	67	137	46.1675	187.29	-1226.78	1	1241	-81.3198	2.09503E-006	-0.406426	8
	68	139	40.0059	209.543	-1404.81	1	1420.35	-81.5163	2.12514E-006	-0.406439	8
	69	142	35.3046	232.405	-1580.95	1	1597.94	-81.6372	2.14183E-006	-0.40644	8
	70	144	31.5793	257.385	-1755.98	1	1774.75	-81.6612	2.28968E-006	-0.406434	8
	71	146	28.5748	280.2	-1929.63	1	1949.87	-81.7379	2.18632E-006	-0.406436	8
	72	148	24.9911	319.983	-2189.8	1	2213.06	-81.6865	2.17673E-006	-0.406434	8
	73	150	22.2195	358.743	-2446.74	1	2472.9	-81.6587	2.13669E-006	-0.406436	8
	74	153	20.0011	404.154	-2697.25	1	2727.37	-81.4783	2.16163E-006	-0.406427	8
	75	155	17.6486	458.629	-3035.38	1	3069.83	-81.4079	2.05154E-006	-0.406432	8
	76	157	15.7934	522.323	-3371.26	1	3411.48	-81.193	2.13115E-006	-0.406442	8
	77	159	14.2828	590.483	-3698.17	1	3745.01	-80.9282	2.15669E-006	-0.406451	8
	78	162	12.5002	710.501	-4182.41	1	4242.33	-80.3587	2.2175E-006	-0.406441	8
	79	164	11.323	795.625	-4590.77	1	4659.2	-80.1677	2.2444E-006	-0.406439	8
	80	167	9.9987	930.884	-5159.42	1	5242.73	-79.7725	2.25544E-006	-0.406439	8
