EXPLAIN
TAG	EISPOT
TITLE	LABEL	Tomato_open	Test &Identifier
DATE	LABEL	5/16/2006	Date
TIME	LABEL	10:16:19	Time
NOTES	NOTES	1	&Notes...
	
PSTAT	PSTAT	300	Potentiostat
VDC	POTEN	1.00000E-001	T	DC &Voltage (V)
FREQINIT	QUANT	1.00000E+005	Initial Fre&q. (Hz)
FREQFINAL	QUANT	1.00000E+001	Final Fre&q. (Hz)
PTSPERDEC	QUANT	2.00000E+001	Points/&decade
VAC	QUANT	1.00000E+001	AC &Voltage (mV rms)
AREA	QUANT	1.00000E+000	&Area (cm²)
DENSITY	QUANT	7.87000E+000	&Density (gm/cm³)
EQUIV	QUANT	7.00000E+000	Equiv. &Wt
CONDIT	TWOPARAM	F	1.50000E+001	0.00000E+000	Conditionin&g	Time(s)	E(V)
DELAY	TWOPARAM	F	6.00000E+002	0.00000E+000	Init. De&lay	Time(s)	Stab.(mV/s)
SPEED	SELECTOR	1	&Optimize for:
ZGUESS	QUANT	1.00000E+002	E&stimated Z (ohms)
OCVCURVE	TABLE	39
	Pt	T	Vf	Vm	Ach	Over
	#	s	V vs. Ref.	V	V	bits
	0	0.258332	-5.21069E-001	5.55776E-006	3.66000E-005	......
	1	0.516663	-5.21119E-001	5.55776E-006	-6.34000E-005	......
	2	0.774994	-5.21919E-001	5.55776E-006	1.36600E-004	......
	3	1.03333	-5.21469E-001	5.55776E-006	-1.63400E-004	......
	4	1.29166	-5.22770E-001	5.55776E-006	2.36600E-004	......
	5	1.54999	-5.20620E-001	5.55776E-006	-6.34000E-005	......
	6	1.80832	-5.20619E-001	5.55776E-006	3.66000E-005	......
	7	2.06665	-5.20819E-001	5.55776E-006	-1.63400E-004	......
	8	2.32498	-5.22669E-001	5.55776E-006	1.36600E-004	......
	9	2.58332	-5.23369E-001	5.55776E-006	-1.63400E-004	......
	10	2.84165	-5.23419E-001	5.55776E-006	-6.34000E-005	......
	11	3.09998	-5.23669E-001	5.55776E-006	-6.34000E-005	......
	12	3.35831	-5.22619E-001	5.55776E-006	3.66000E-005	......
	13	3.61664	-5.24469E-001	5.55776E-006	-6.34000E-005	......
	14	3.87497	-5.23269E-001	5.55776E-006	1.36600E-004	......
	15	4.1333	-5.25869E-001	5.55776E-006	-6.34000E-005	......
	16	4.39164	-5.25620E-001	5.55776E-006	3.66000E-005	......
	17	4.64997	-5.24570E-001	5.55776E-006	-6.34000E-005	......
	18	4.9083	-5.24119E-001	5.55776E-006	3.66000E-005	......
	19	5.16663	-5.24619E-001	5.55776E-006	-6.34000E-005	......
	20	5.42496	-5.24369E-001	5.55776E-006	1.36600E-004	......
	21	5.68329	-5.25569E-001	5.55776E-006	3.66000E-005	......
	22	5.94162	-5.26069E-001	5.55776E-006	3.66000E-005	......
	23	6.19996	-5.26969E-001	5.55776E-006	-6.34000E-005	......
	24	6.45829	-5.27619E-001	5.55776E-006	1.36600E-004	......
	25	6.71662	-5.27819E-001	5.55776E-006	-1.63400E-004	......
	26	6.97495	-5.27120E-001	5.55776E-006	3.66000E-005	......
	27	7.23328	-5.26569E-001	5.55776E-006	-6.34000E-005	......
	28	7.49161	-5.26719E-001	5.55776E-006	3.66000E-005	......
	29	7.74995	-5.25869E-001	5.55776E-006	-1.63400E-004	......
	30	8.00828	-5.25869E-001	5.55776E-006	1.36600E-004	......
	31	8.26661	-5.23919E-001	5.55776E-006	-1.63400E-004	......
	32	8.52494	-5.22469E-001	5.55776E-006	3.66000E-005	......
	33	8.78327	-5.20220E-001	5.55776E-006	3.66000E-005	......
	34	9.0416	-5.14870E-001	5.55776E-006	3.66000E-005	......
	35	9.29993	-5.14769E-001	5.55776E-006	-6.34000E-005	......
	36	9.5583	-5.18119E-001	5.55776E-006	3.66000E-005	......
	37	9.8166	-5.20220E-001	5.55776E-006	-1.63400E-004	......
	38	10.0749	-5.20869E-001	5.55776E-006	3.66000E-005	......
EOC	QUANT	-0.520869	Open Circuit (V)
PSTATMODEL	IQUANT	32	Pstat Model
PSTATSECTION	LABEL	PStat0	Pstat Section
CTRLMODE	IQUANT	1	Control Mode
IESTAB	IQUANT	0	I/E Stability
CASPEED	IQUANT	1	Control Amp Speed
CONVENTION	IQUANT	1	Current Convention
ICHRANGE	IQUANT	2	Ich Range
ICHRANGEMODE	TOGGLE	F	Ich Auto Range
ICHOFFSETENABLE	TOGGLE	T	Ich Offset Enable
ICHOFFSET	QUANT	0	Ich Offset (V)
ICHFILTER	IQUANT	3	Ich Filter
VCHRANGE	IQUANT	2	Vch Range
VCHRANGEMODE	TOGGLE	F	Vch Auto Range
VCHOFFSETENABLE	TOGGLE	T	Vch Offset Enable
VCHOFFSET	QUANT	0	Vch Offset (V)
VCHFILTER	IQUANT	3	Vch Filter
ACHRANGE	IQUANT	0	Ach Range
IERANGELOWERLIMIT	IQUANT	3	I/E Range Lower Limit
IERANGEMODE	TOGGLE	F	I/E AutoRange
IERANGE	IQUANT	11	I/E Range
POSFEEDENABLE	TOGGLE	F	Positive Feedback IR Comp
POSFEEDRESISTANCE	QUANT	0	Positive Feedback Resistance (ohm)
FC350IDIVISOR	IQUANT	0	FC350 I Divisor
FC350VRANGE	IQUANT	0	FC350 V Range
FRAMEWORKVERSION	QUANT	4.35	Framework Version
ZCURVE	TABLE
	Pt	Time	Freq	Zreal	Zimag	Zsig	Zmod	Zphz	Idc	Vdc	IERange
	#	s	Hz	ohm	ohm	V	ohm	°	A	V	#
	0	4	100007	61.1415	-0.865178	1	61.1476	-0.810705	6.95373E-006	-0.420564	10
	1	6	89134.1	60.9133	-1.05404	1	60.9224	-0.99135	6.49448E-006	-0.420628	10
	2	8	79433.6	60.8449	-1.00079	1	60.8531	-0.942329	7.08924E-006	-0.420593	10
	3	10	70800.8	60.7125	-1.27808	1	60.726	-1.20598	6.83251E-006	-0.420592	10
	4	12	63105.5	60.6129	-1.57854	1	60.6335	-1.49182	7.00168E-006	-0.42059	10
	5	14	56243.5	60.592	-1.69235	1	60.6157	-1.59987	7.6306E-006	-0.420632	10
	6	16	50123.7	60.5664	-1.99733	1	60.5994	-1.88878	5.03168E-006	-0.420619	10
	7	18	44681	60.5428	-2.16095	1	60.5813	-2.04419	6.63063E-006	-0.420632	10
	8	20	39811.2	60.471	-2.62848	1	60.5281	-2.4889	5.7852E-006	-0.420613	10
	9	22	35488.3	60.5843	-2.7429	1	60.6464	-2.59224	7.09596E-006	-0.420592	10
	10	24	31634.1	60.6239	-3.10007	1	60.7031	-2.92733	7.80657E-006	-0.42063	10
	11	26	28173.1	60.602	-3.42341	1	60.6986	-3.2332	6.27998E-006	-0.420606	10
	12	28	25123.7	60.7424	-3.89855	1	60.8674	-3.6723	6.59887E-006	-0.420628	10
	13	30	22389.3	60.6231	-4.24566	1	60.7716	-4.00609	6.18276E-006	-0.420594	10
	14	32	19954.4	60.8605	-4.84527	1	61.0531	-4.55187	5.95838E-006	-0.420585	10
	15	34	17778.2	60.9822	-5.31254	1	61.2132	-4.97882	6.92116E-006	-0.420602	10
	16	36	15852.9	61.093	-5.80507	1	61.3682	-5.42796	5.96574E-006	-0.420588	10
	17	38	14122.3	61.1487	-6.41781	1	61.4846	-5.99149	6.86685E-006	-0.420598	10
	18	40	12587.2	61.3007	-7.2523	1	61.7282	-6.74713	6.87398E-006	-0.420595	10
	19	42	11221.1	61.5302	-7.98169	1	62.0457	-7.39112	6.9278E-006	-0.420593	10
	20	44	9998.2	61.694	-8.90756	1	62.3337	-8.21576	6.88604E-006	-0.420604	10
	21	46	8912.76	61.8965	-9.8279	1	62.6719	-9.02212	6.73748E-006	-0.420627	10
	22	48	7942.6	61.9826	-10.8226	1	62.9204	-9.9044	7.10471E-006	-0.420607	10
	23	50	7078.05	62.2145	-12.0137	1	63.3638	-10.9294	7.16182E-006	-0.420608	10
	24	52	6311.1	62.4968	-13.1883	1	63.8732	-11.916	7.15941E-006	-0.420602	10
	25	53	5622.14	62.7398	-14.6623	1	64.4303	-13.1539	7.10182E-006	-0.420613	10
	26	55	5011.18	62.9919	-16.0879	1	65.0138	-14.3269	7.32223E-006	-0.420608	10
	27	57	4465.21	63.2686	-17.848	1	65.7378	-15.7537	7.13037E-006	-0.420609	10
	28	59	3980.93	63.6594	-19.7919	1	66.6652	-17.2706	7.29995E-006	-0.420579	10
	29	61	3548.18	63.9845	-22.0258	1	67.6694	-18.9954	6.88404E-006	-0.420626	10
	30	63	3162.67	64.3172	-24.1863	1	68.7145	-20.6086	8.03662E-006	-0.420629	10
	31	65	2819.01	64.7542	-26.8225	1	70.0896	-22.5004	6.34213E-006	-0.420623	10
	32	67	2511.16	65.1424	-29.6948	1	71.5913	-24.5056	7.03756E-006	-0.420597	10
	33	69	2238.63	65.6294	-32.884	1	73.4069	-26.6134	6.7827E-006	-0.420592	10
	34	71	1995.37	66.0801	-36.4381	1	75.4607	-28.8733	6.9858E-006	-0.4206	10
	35	73	1778.51	66.4499	-40.4501	1	77.7933	-31.3301	7.05352E-006	-0.420598	10
	36	75	1584.49	67.0782	-44.729	1	80.6236	-33.6961	7.14524E-006	-0.420598	10
	37	77	1412.76	67.6957	-49.7408	1	84.0051	-36.3073	7.42319E-006	-0.42058	10
	38	79	1259.04	68.2415	-55.2596	1	87.8096	-38.9994	6.86484E-006	-0.420598	10
	39	81	1121.63	68.9097	-61.4719	1	92.3436	-41.735	7.07074E-006	-0.420598	10
	40	83	999.95	69.6122	-68.0698	1	97.362	-44.3582	6.79412E-006	-0.420603	10
	41	85	891.184	70.5975	-75.618	1	103.451	-46.9666	7.24066E-006	-0.420597	10
	42	87	794.163	71.2547	-84.179	1	110.287	-49.7532	3.37198E-006	-0.420588	9
	43	89	707.867	72.4007	-93.865	1	118.543	-52.356	3.6621E-006	-0.420611	9
	44	91	630.984	73.2097	-104.292	1	127.423	-54.9324	3.35898E-006	-0.420603	9
	45	93	562.189	74.2552	-116.076	1	137.795	-57.3926	3.23765E-006	-0.420589	9
	46	95	501.303	75.6991	-129.115	1	149.669	-59.6172	3.21484E-006	-0.420592	9
	47	97	446.614	77.0279	-143.831	1	163.158	-61.829	3.28481E-006	-0.420586	9
	48	99	398.209	78.5211	-160.13	1	178.346	-63.8786	3.38662E-006	-0.420585	9
	49	101	354.821	80.2294	-178.406	1	195.615	-65.7865	3.34254E-006	-0.420593	9
	50	103	316.113	82.1082	-198.866	1	215.15	-67.5652	3.39651E-006	-0.420591	9
	51	105	281.926	84.1838	-221.401	1	236.866	-69.1816	3.35178E-006	-0.420592	9
	52	107	251.185	86.5546	-246.807	1	261.544	-70.6744	3.34598E-006	-0.420585	9
	53	109	223.946	89.152	-274.963	1	289.055	-72.0356	3.26085E-006	-0.420595	9
	54	111	199.495	92.1378	-306.628	1	320.172	-73.2751	3.25004E-006	-0.420587	9
	55	113	177.836	95.434	-341.749	1	354.824	-74.3975	3.19479E-006	-0.420589	9
	56	115	158.533	99.175	-380.873	1	393.573	-75.405	3.11096E-006	-0.420588	9
	57	117	141.263	103.551	-424.818	1	437.256	-76.3011	3.28438E-006	-0.420588	9
	58	119	125.911	108.409	-473.495	1	485.746	-77.1041	3.29709E-006	-0.420589	9
	59	121	112.198	113.894	-528.036	1	540.179	-77.8281	3.15412E-006	-0.420582	9
	60	123	100.009	120.15	-588.741	1	600.876	-78.4655	3.18889E-006	-0.420592	9
	61	125	89.1164	127.289	-656.505	1	668.731	-79.0271	3.25975E-006	-0.420589	9
	62	127	79.4083	135.48	-732.224	1	744.652	-79.5174	3.17493E-006	-0.420585	9
	63	129	70.788	144.662	-816.398	1	829.115	-79.9517	3.13976E-006	-0.420591	9
	64	131	63.0971	155.438	-910.398	1	923.572	-80.3109	3.09976E-006	-0.420591	9
	65	133	54.5476	171.273	-1044.28	1	1058.23	-80.6858	3.15538E-006	-0.420591	9
	66	135	50.0083	182.079	-1133.27	1	1147.8	-80.8725	2.26401E-006	-0.420598	8
	67	137	46.1675	192.254	-1221.37	1	1236.41	-81.0545	2.26862E-006	-0.420595	8
	68	140	40.0059	217.34	-1398.95	1	1415.73	-81.1692	2.39204E-006	-0.420597	8
	69	142	35.3046	243.177	-1574.84	1	1593.5	-81.2221	2.43352E-006	-0.42059	8
	70	144	31.5793	269.584	-1748.21	1	1768.87	-81.2337	2.4891E-006	-0.420593	8
	71	146	28.5748	293.223	-1920.6	1	1942.86	-81.3195	2.37325E-006	-0.420591	8
	72	148	24.9911	334.341	-2179.16	1	2204.66	-81.2773	2.22969E-006	-0.420597	8
	73	150	22.2195	382.513	-2434.17	1	2464.05	-81.0694	2.25779E-006	-0.420601	8
	74	153	20.0011	429.624	-2689.1	1	2723.2	-80.9229	2.3556E-006	-0.420596	8
	75	155	17.6486	490.77	-3023.33	1	3062.9	-80.7797	2.29829E-006	-0.420597	8
	76	157	15.7934	566.465	-3351.4	1	3398.93	-80.4063	2.3576E-006	-0.420594	8
	77	159	14.2828	638.902	-3682.43	1	3737.44	-80.1572	2.46824E-006	-0.420588	8
	78	162	12.5002	751.333	-4169.32	1	4236.48	-79.7847	2.1974E-006	-0.420591	8
	79	164	11.323	891.488	-4554.95	1	4641.37	-78.9261	2.37809E-006	-0.4206	8
	80	167	9.9987	971.01	-5109.79	1	5201.23	-79.2404	2.00317E-006	-0.420604	8
