EXPLAIN
TAG	EISPOT
TITLE	LABEL	Tomato_open	Test &Identifier
DATE	LABEL	5/16/2006	Date
TIME	LABEL	10:11:16	Time
NOTES	NOTES	1	&Notes...
	
PSTAT	PSTAT	300	Potentiostat
VDC	POTEN	1.00000E-001	T	DC &Voltage (V)
FREQINIT	QUANT	1.00000E+005	Initial Fre&q. (Hz)
FREQFINAL	QUANT	1.00000E+001	Final Fre&q. (Hz)
PTSPERDEC	QUANT	2.00000E+001	Points/&decade
VAC	QUANT	1.00000E+001	AC &Voltage (mV rms)
AREA	QUANT	1.00000E+000	&Area (cm²)
DENSITY	QUANT	7.87000E+000	&Density (gm/cm³)
EQUIV	QUANT	7.00000E+000	Equiv. &Wt
CONDIT	TWOPARAM	F	1.50000E+001	0.00000E+000	Conditionin&g	Time(s)	E(V)
DELAY	TWOPARAM	F	6.00000E+002	0.00000E+000	Init. De&lay	Time(s)	Stab.(mV/s)
SPEED	SELECTOR	1	&Optimize for:
ZGUESS	QUANT	1.00000E+002	E&stimated Z (ohms)
OCVCURVE	TABLE	39
	Pt	T	Vf	Vm	Ach	Over
	#	s	V vs. Ref.	V	V	bits
	0	0.258332	-5.04669E-001	4.46676E-006	-1.63400E-004	......
	1	0.516663	-5.04119E-001	4.46676E-006	3.66000E-005	......
	2	0.774994	-5.03419E-001	4.46676E-006	-1.63400E-004	......
	3	1.03333	-5.02469E-001	4.46676E-006	1.36600E-004	......
	4	1.29166	-5.01520E-001	4.46676E-006	-1.63400E-004	......
	5	1.54999	-5.00820E-001	4.46676E-006	3.66000E-005	......
	6	1.80832	-5.00269E-001	4.46676E-006	-6.34000E-005	......
	7	2.06665	-5.00569E-001	4.46676E-006	2.36600E-004	......
	8	2.32498	-5.00470E-001	4.46676E-006	-6.34000E-005	......
	9	2.58332	-5.01369E-001	4.46676E-006	3.66000E-005	......
	10	2.84165	-5.02519E-001	4.46676E-006	-1.63400E-004	......
	11	3.09998	-5.03169E-001	4.46676E-006	3.66000E-005	......
	12	3.35831	-5.04269E-001	4.46676E-006	-1.63400E-004	......
	13	3.61664	-5.03820E-001	4.46676E-006	3.66000E-005	......
	14	3.87497	-5.02819E-001	4.46676E-006	-1.63400E-004	......
	15	4.1333	-5.02469E-001	4.46676E-006	3.66000E-005	......
	16	4.39164	-5.01369E-001	4.46676E-006	-6.34000E-005	......
	17	4.64997	-5.00870E-001	4.46676E-006	3.66000E-005	......
	18	4.9083	-5.00470E-001	4.46676E-006	-6.34000E-005	......
	19	5.16663	-4.99969E-001	4.46676E-006	2.36600E-004	......
	20	5.42496	-4.97819E-001	4.46676E-006	-6.34000E-005	......
	21	5.68329	-4.96119E-001	4.46676E-006	2.36600E-004	......
	22	5.94162	-4.96670E-001	4.46676E-006	-6.34000E-005	......
	23	6.19996	-4.92569E-001	4.46676E-006	3.66000E-005	......
	24	6.45829	-4.88869E-001	4.46676E-006	-6.34000E-005	......
	25	6.71662	-4.87169E-001	4.46676E-006	3.66000E-005	......
	26	6.97495	-4.86669E-001	4.46676E-006	-1.63400E-004	......
	27	7.23328	-4.90169E-001	4.46676E-006	3.66000E-005	......
	28	7.49161	-4.94719E-001	4.46676E-006	-1.63400E-004	......
	29	7.74995	-4.98569E-001	4.46676E-006	2.36600E-004	......
	30	8.00828	-5.01319E-001	4.46676E-006	-1.63400E-004	......
	31	8.26661	-5.02620E-001	4.46676E-006	-6.34000E-005	......
	32	8.52494	-5.03370E-001	4.46676E-006	-6.34000E-005	......
	33	8.78327	-5.03469E-001	4.46676E-006	1.36600E-004	......
	34	9.0416	-5.02919E-001	4.46676E-006	-6.34000E-005	......
	35	9.29993	-5.02270E-001	4.46676E-006	3.66000E-005	......
	36	9.5583	-5.02819E-001	4.46676E-006	3.66000E-005	......
	37	9.8166	-5.03670E-001	4.46676E-006	3.66000E-005	......
	38	10.0749	-5.04569E-001	4.46676E-006	-1.63400E-004	......
EOC	QUANT	-0.504569	Open Circuit (V)
PSTATMODEL	IQUANT	32	Pstat Model
PSTATSECTION	LABEL	PStat0	Pstat Section
CTRLMODE	IQUANT	1	Control Mode
IESTAB	IQUANT	0	I/E Stability
CASPEED	IQUANT	1	Control Amp Speed
CONVENTION	IQUANT	1	Current Convention
ICHRANGE	IQUANT	2	Ich Range
ICHRANGEMODE	TOGGLE	F	Ich Auto Range
ICHOFFSETENABLE	TOGGLE	T	Ich Offset Enable
ICHOFFSET	QUANT	0	Ich Offset (V)
ICHFILTER	IQUANT	3	Ich Filter
VCHRANGE	IQUANT	2	Vch Range
VCHRANGEMODE	TOGGLE	F	Vch Auto Range
VCHOFFSETENABLE	TOGGLE	T	Vch Offset Enable
VCHOFFSET	QUANT	0	Vch Offset (V)
VCHFILTER	IQUANT	3	Vch Filter
ACHRANGE	IQUANT	0	Ach Range
IERANGELOWERLIMIT	IQUANT	3	I/E Range Lower Limit
IERANGEMODE	TOGGLE	F	I/E AutoRange
IERANGE	IQUANT	11	I/E Range
POSFEEDENABLE	TOGGLE	F	Positive Feedback IR Comp
POSFEEDRESISTANCE	QUANT	0	Positive Feedback Resistance (ohm)
FC350IDIVISOR	IQUANT	0	FC350 I Divisor
FC350VRANGE	IQUANT	0	FC350 V Range
FRAMEWORKVERSION	QUANT	4.35	Framework Version
ZCURVE	TABLE
	Pt	Time	Freq	Zreal	Zimag	Zsig	Zmod	Zphz	Idc	Vdc	IERange
	#	s	Hz	ohm	ohm	V	ohm	°	A	V	#
	0	4	100007	61.5145	-0.87125	1	61.5207	-0.811445	5.92096E-006	-0.404377	10
	1	6	89134.1	61.1362	-1.00537	1	61.1445	-0.942126	5.41146E-006	-0.404352	10
	2	8	79433.6	60.998	-1.14391	1	61.0088	-1.07436	7.36341E-006	-0.40439	10
	3	10	70800.8	60.9996	-1.31663	1	61.0139	-1.23649	5.68459E-006	-0.404357	10
	4	12	63105.5	60.9208	-1.51702	1	60.9397	-1.42646	7.55299E-006	-0.404387	10
	5	14	56243.5	60.7937	-1.70545	1	60.8176	-1.6069	6.99701E-006	-0.404378	10
	6	16	50123.7	60.8794	-1.93432	1	60.9101	-1.81985	6.72109E-006	-0.404348	10
	7	18	44681	60.7595	-2.29155	1	60.8027	-2.15989	6.97077E-006	-0.404362	10
	8	20	39811.2	61.0532	-2.55396	1	61.1066	-2.39538	7.58337E-006	-0.404362	10
	9	22	35488.3	60.8555	-2.80453	1	60.9201	-2.63861	5.05129E-006	-0.404351	10
	10	24	31634.1	60.8788	-3.0759	1	60.9564	-2.89241	6.72401E-006	-0.404348	10
	11	26	28173.1	60.9534	-3.48877	1	61.0532	-3.27584	6.40226E-006	-0.404361	10
	12	27	25123.7	60.9551	-3.83242	1	61.0754	-3.59762	6.71423E-006	-0.404352	10
	13	29	22389.3	61.1172	-4.29376	1	61.2679	-4.01868	6.34352E-006	-0.404394	10
	14	31	19954.4	61.0941	-4.84515	1	61.2859	-4.53443	7.16245E-006	-0.404382	10
	15	33	17778.2	61.1978	-5.33671	1	61.43	-4.98383	6.29082E-006	-0.404367	10
	16	35	15852.9	61.3326	-5.77015	1	61.6035	-5.37454	5.59857E-006	-0.404353	10
	17	37	14122.3	61.4595	-6.53954	1	61.8064	-6.07365	6.47766E-006	-0.404368	10
	18	39	12587.2	61.565	-7.23174	1	61.9883	-6.69955	6.46974E-006	-0.404376	10
	19	41	11221.1	61.8679	-7.91191	1	62.3717	-7.28765	6.37643E-006	-0.40436	10
	20	43	9998.2	61.8788	-8.83534	1	62.5064	-8.12602	6.57404E-006	-0.404362	10
	21	45	8912.76	62.0959	-9.7745	1	62.8605	-8.94555	5.57888E-006	-0.404358	10
	22	47	7942.6	62.1817	-10.7396	1	63.1024	-9.7991	6.57076E-006	-0.404376	10
	23	49	7078.05	62.4248	-11.9575	1	63.5597	-10.8437	6.30029E-006	-0.404374	10
	24	51	6311.1	62.7303	-13.2319	1	64.1106	-11.9109	6.30738E-006	-0.404373	10
	25	53	5622.14	63.0058	-14.734	1	64.7056	-13.1621	6.44759E-006	-0.404378	10
	26	55	5011.18	63.292	-16.1919	1	65.3304	-14.3501	6.38674E-006	-0.404351	10
	27	57	4465.21	63.6017	-17.8785	1	66.0668	-15.7007	6.17466E-006	-0.404359	10
	28	59	3980.93	63.8846	-19.8239	1	66.8896	-17.2395	5.48266E-006	-0.404345	10
	29	61	3548.18	64.1502	-21.9831	1	67.8123	-18.9156	5.57248E-006	-0.404342	10
	30	63	3162.67	64.6069	-24.2278	1	69.0003	-20.5562	7.21599E-006	-0.404375	10
	31	65	2819.01	65.0158	-26.767	1	70.3102	-22.377	7.34348E-006	-0.404381	10
	32	67	2511.16	65.4395	-29.754	1	71.8862	-24.4503	6.44618E-006	-0.404365	10
	33	69	2238.63	65.9152	-32.8372	1	73.6416	-26.4813	6.59955E-006	-0.404365	10
	34	71	1995.37	66.3057	-36.4894	1	75.683	-28.8249	6.3959E-006	-0.404358	10
	35	73	1778.51	66.886	-40.257	1	78.0663	-31.0427	6.22527E-006	-0.404353	10
	36	75	1584.49	67.4139	-44.7752	1	80.9287	-33.5915	6.41343E-006	-0.404363	10
	37	77	1412.76	67.9032	-49.5927	1	84.085	-36.1423	7.05316E-006	-0.404341	10
	38	79	1259.04	68.4706	-55.0672	1	87.8671	-38.8078	6.47751E-006	-0.404354	10
	39	81	1121.63	69.3861	-61.192	1	92.5143	-41.4093	6.35423E-006	-0.404363	10
	40	83	999.95	69.8693	-68.0278	1	97.517	-44.2349	6.42445E-006	-0.404373	10
	41	85	891.184	70.7142	-75.6707	1	103.569	-46.9393	6.71224E-006	-0.404372	10
	42	87	794.163	71.4087	-84.1849	1	110.392	-49.6942	2.93567E-006	-0.404359	9
	43	89	707.867	72.6509	-93.3173	1	118.264	-52.098	2.85281E-006	-0.404356	9
	44	91	630.984	73.3788	-104.106	1	127.367	-54.8219	2.85028E-006	-0.404357	9
	45	93	562.189	74.6213	-115.875	1	137.824	-57.2193	3.0761E-006	-0.404371	9
	46	94	501.303	75.8981	-128.744	1	149.451	-59.4795	2.84007E-006	-0.404361	9
	47	96	446.614	77.225	-143.421	1	162.89	-61.6997	2.99532E-006	-0.404369	9
	48	98	398.209	78.7031	-159.677	1	178.019	-63.7618	3.03354E-006	-0.404372	9
	49	100	354.821	80.3739	-177.886	1	195.201	-65.6852	3.07865E-006	-0.404372	9
	50	102	316.113	82.2212	-198.258	1	214.631	-67.4754	3.10129E-006	-0.404368	9
	51	104	281.926	84.2735	-220.764	1	236.303	-69.1064	3.05013E-006	-0.404371	9
	52	106	251.185	86.5791	-246.096	1	260.882	-70.6176	3.03602E-006	-0.404374	9
	53	108	223.946	89.1513	-274.14	1	288.272	-71.9853	3.02424E-006	-0.404375	9
	54	110	199.495	92.0499	-305.703	1	319.261	-73.2425	3.04199E-006	-0.404371	9
	55	112	177.836	95.361	-340.733	1	353.826	-74.3647	3.16768E-006	-0.404366	9
	56	114	158.533	99.011	-379.715	1	392.411	-75.3855	3.23431E-006	-0.404369	9
	57	116	141.263	103.112	-423.434	1	435.808	-76.3141	3.15324E-006	-0.404362	9
	58	118	125.911	107.855	-471.955	1	484.122	-77.1274	3.11621E-006	-0.404358	9
	59	120	112.198	113.27	-526.524	1	538.57	-77.8591	3.12927E-006	-0.404365	9
	60	123	100.009	119.169	-587.028	1	599.002	-78.5247	3.11512E-006	-0.404358	9
	61	125	89.1164	126.062	-654.557	1	666.586	-79.0988	3.0532E-006	-0.404362	9
	62	127	79.4083	133.883	-730.085	1	742.259	-79.6085	3.16354E-006	-0.404353	9
	63	129	70.788	142.821	-813.914	1	826.35	-80.0474	3.15471E-006	-0.404363	9
	64	131	63.0971	153.312	-907.278	1	920.141	-80.4087	3.1626E-006	-0.404353	9
	65	133	54.5476	168.196	-1041.28	1	1054.77	-80.8243	3.13471E-006	-0.40436	9
	66	135	50.0083	178.567	-1129.63	1	1143.66	-81.0173	2.423E-006	-0.404357	8
	67	137	46.1675	189.681	-1217.97	1	1232.65	-81.1481	2.47857E-006	-0.404367	8
	68	139	40.0059	211.561	-1394.68	1	1410.64	-81.3745	2.42649E-006	-0.404361	8
	69	141	35.3046	234.934	-1569.37	1	1586.86	-81.4861	2.39975E-006	-0.404359	8
	70	143	31.5793	258.456	-1744.41	1	1763.45	-81.5722	2.33377E-006	-0.40436	8
	71	145	28.5748	286.922	-1915.37	1	1936.75	-81.4805	2.48695E-006	-0.404369	8
	72	148	24.9911	320.553	-2175.04	1	2198.54	-81.6162	2.16059E-006	-0.404369	8
	73	150	22.2195	366.484	-2429.36	1	2456.84	-81.4212	2.42338E-006	-0.404369	8
	74	152	20.0011	419.96	-2678.32	1	2711.05	-81.0886	2.59866E-006	-0.404367	8
	75	155	17.6486	482.172	-3013.34	1	3051.67	-80.909	2.54794E-006	-0.404369	8
	76	157	15.7934	548.087	-3344.82	1	3389.43	-80.6941	2.59077E-006	-0.404362	8
	77	159	14.2828	620.083	-3671	1	3723	-80.4124	2.65887E-006	-0.404362	8
	78	161	12.5002	742.904	-4156.25	1	4222.12	-79.8658	2.60932E-006	-0.404366	8
	79	164	11.323	872.246	-4534.68	1	4617.81	-79.1121	2.78588E-006	-0.404367	8
	80	166	9.9987	1022.66	-5098.71	1	5200.26	-78.6586	2.77958E-006	-0.404375	8
