EXPLAIN
TAG	EISPOT
TITLE	LABEL	Tomato_open	Test &Identifier
DATE	LABEL	5/16/2006	Date
TIME	LABEL	10:01:15	Time
NOTES	NOTES	1	&Notes...
	
PSTAT	PSTAT	300	Potentiostat
VDC	POTEN	1.00000E-001	T	DC &Voltage (V)
FREQINIT	QUANT	1.00000E+005	Initial Fre&q. (Hz)
FREQFINAL	QUANT	1.00000E+001	Final Fre&q. (Hz)
PTSPERDEC	QUANT	2.00000E+001	Points/&decade
VAC	QUANT	1.00000E+001	AC &Voltage (mV rms)
AREA	QUANT	1.00000E+000	&Area (cm²)
DENSITY	QUANT	7.87000E+000	&Density (gm/cm³)
EQUIV	QUANT	7.00000E+000	Equiv. &Wt
CONDIT	TWOPARAM	F	1.50000E+001	0.00000E+000	Conditionin&g	Time(s)	E(V)
DELAY	TWOPARAM	F	6.00000E+002	0.00000E+000	Init. De&lay	Time(s)	Stab.(mV/s)
SPEED	SELECTOR	1	&Optimize for:
ZGUESS	QUANT	1.00000E+002	E&stimated Z (ohms)
OCVCURVE	TABLE	39
	Pt	T	Vf	Vm	Ach	Over
	#	s	V vs. Ref.	V	V	bits
	0	0.258332	-4.86769E-001	3.01814E-006	3.66000E-005	......
	1	0.516663	-4.87119E-001	3.01814E-006	-6.34000E-005	......
	2	0.774994	-4.84669E-001	3.01814E-006	3.66000E-005	......
	3	1.03333	-4.84519E-001	3.01814E-006	-6.34000E-005	......
	4	1.29166	-4.83020E-001	3.01814E-006	1.36600E-004	......
	5	1.54999	-4.83019E-001	3.01814E-006	-1.63400E-004	......
	6	1.80832	-4.83869E-001	3.01814E-006	3.66000E-005	......
	7	2.06665	-4.84519E-001	3.01814E-006	-6.34000E-005	......
	8	2.32498	-4.83569E-001	3.01814E-006	3.66000E-005	......
	9	2.58332	-4.84469E-001	3.01814E-006	-6.34000E-005	......
	10	2.84165	-4.82719E-001	3.01814E-006	3.66000E-005	......
	11	3.09998	-4.81220E-001	3.01814E-006	-6.34000E-005	......
	12	3.35831	-4.80169E-001	3.01814E-006	3.66000E-005	......
	13	3.61664	-4.79970E-001	3.01814E-006	-6.34000E-005	......
	14	3.87497	-4.80169E-001	3.01814E-006	-6.34000E-005	......
	15	4.1333	-4.79369E-001	3.01814E-006	-6.34000E-005	......
	16	4.39164	-4.78669E-001	3.01814E-006	3.66000E-005	......
	17	4.64997	-4.78569E-001	3.01814E-006	-6.34000E-005	......
	18	4.9083	-4.79119E-001	3.01814E-006	3.66000E-005	......
	19	5.16663	-4.79669E-001	3.01814E-006	-1.63400E-004	......
	20	5.42496	-4.80069E-001	3.01814E-006	1.36600E-004	......
	21	5.68329	-4.81919E-001	3.01814E-006	-1.63400E-004	......
	22	5.94162	-4.82319E-001	3.01814E-006	1.36600E-004	......
	23	6.19996	-4.83119E-001	3.01814E-006	-6.34000E-005	......
	24	6.45829	-4.82219E-001	3.01814E-006	2.36600E-004	......
	25	6.71662	-4.82969E-001	3.01814E-006	-1.63400E-004	......
	26	6.97495	-4.83669E-001	3.01814E-006	-6.34000E-005	......
	27	7.23328	-4.81869E-001	3.01814E-006	-1.63400E-004	......
	28	7.49161	-4.81519E-001	3.01814E-006	3.66000E-005	......
	29	7.74995	-4.83919E-001	3.01814E-006	-6.34000E-005	......
	30	8.00828	-4.84869E-001	3.01814E-006	3.66000E-005	......
	31	8.26661	-4.88419E-001	3.01814E-006	-6.34000E-005	......
	32	8.52494	-4.87870E-001	3.01814E-006	-6.34000E-005	......
	33	8.78327	-4.87469E-001	3.01814E-006	-1.63400E-004	......
	34	9.0416	-4.86569E-001	3.01814E-006	3.66000E-005	......
	35	9.29993	-4.88269E-001	3.01814E-006	-1.63400E-004	......
	36	9.5583	-4.88469E-001	3.01814E-006	3.66000E-005	......
	37	9.8166	-4.87569E-001	3.01814E-006	-1.63400E-004	......
	38	10.0749	-4.87819E-001	3.01814E-006	3.66000E-005	......
EOC	QUANT	-0.487819	Open Circuit (V)
PSTATMODEL	IQUANT	32	Pstat Model
PSTATSECTION	LABEL	PStat0	Pstat Section
CTRLMODE	IQUANT	1	Control Mode
IESTAB	IQUANT	0	I/E Stability
CASPEED	IQUANT	1	Control Amp Speed
CONVENTION	IQUANT	1	Current Convention
ICHRANGE	IQUANT	2	Ich Range
ICHRANGEMODE	TOGGLE	F	Ich Auto Range
ICHOFFSETENABLE	TOGGLE	T	Ich Offset Enable
ICHOFFSET	QUANT	0	Ich Offset (V)
ICHFILTER	IQUANT	3	Ich Filter
VCHRANGE	IQUANT	2	Vch Range
VCHRANGEMODE	TOGGLE	F	Vch Auto Range
VCHOFFSETENABLE	TOGGLE	T	Vch Offset Enable
VCHOFFSET	QUANT	0	Vch Offset (V)
VCHFILTER	IQUANT	3	Vch Filter
ACHRANGE	IQUANT	0	Ach Range
IERANGELOWERLIMIT	IQUANT	3	I/E Range Lower Limit
IERANGEMODE	TOGGLE	F	I/E AutoRange
IERANGE	IQUANT	11	I/E Range
POSFEEDENABLE	TOGGLE	F	Positive Feedback IR Comp
POSFEEDRESISTANCE	QUANT	0	Positive Feedback Resistance (ohm)
FC350IDIVISOR	IQUANT	0	FC350 I Divisor
FC350VRANGE	IQUANT	0	FC350 V Range
FRAMEWORKVERSION	QUANT	4.35	Framework Version
ZCURVE	TABLE
	Pt	Time	Freq	Zreal	Zimag	Zsig	Zmod	Zphz	Idc	Vdc	IERange
	#	s	Hz	ohm	ohm	V	ohm	°	A	V	#
	0	4	100007	61.7312	-0.863727	1	61.7373	-0.801615	7.46748E-006	-0.387665	10
	1	6	89134.1	61.5295	-0.932982	1	61.5365	-0.868719	7.65379E-006	-0.387686	10
	2	8	79433.6	61.4787	-1.17891	1	61.49	-1.09856	7.06888E-006	-0.387664	10
	3	10	70800.8	61.305	-1.35909	1	61.3201	-1.27	5.25566E-006	-0.387686	10
	4	12	63105.5	61.2473	-1.50502	1	61.2658	-1.40763	6.83988E-006	-0.387663	10
	5	14	56243.5	61.2044	-1.68354	1	61.2276	-1.57563	6.77991E-006	-0.387653	10
	6	16	50123.7	61.2061	-1.94464	1	61.237	-1.81979	7.56388E-006	-0.387658	10
	7	18	44681	61.1602	-2.20301	1	61.1999	-2.06292	6.9476E-006	-0.387694	10
	8	20	39811.2	61.1525	-2.34222	1	61.1974	-2.19343	7.22999E-006	-0.387694	10
	9	22	35488.3	61.1734	-2.79331	1	61.2371	-2.61443	6.16384E-006	-0.387696	10
	10	23	31634.1	61.3149	-3.16972	1	61.3968	-2.95932	7.1279E-006	-0.387669	10
	11	25	28173.1	61.335	-3.47301	1	61.4333	-3.24083	6.3124E-006	-0.387677	10
	12	27	25123.7	61.328	-3.95678	1	61.4555	-3.69151	5.85407E-006	-0.387687	10
	13	29	22389.3	61.5143	-4.31876	1	61.6657	-4.016	5.08284E-006	-0.387667	10
	14	31	19954.4	61.5948	-4.82065	1	61.7831	-4.47507	7.34618E-006	-0.387646	10
	15	33	17778.2	61.6836	-5.35632	1	61.9158	-4.96285	6.20038E-006	-0.38767	10
	16	35	15852.9	61.7675	-5.79478	1	62.0387	-5.35958	6.54405E-006	-0.387658	10
	17	37	14122.3	61.8989	-6.45041	1	62.2341	-5.94925	6.16434E-006	-0.387665	10
	18	39	12587.2	61.9914	-7.13723	1	62.4009	-6.5677	6.29184E-006	-0.387669	10
	19	41	11221.1	62.1084	-7.87218	1	62.6053	-7.22366	6.1196E-006	-0.387661	10
	20	43	9998.2	62.2915	-8.76023	1	62.9045	-8.00517	6.00584E-006	-0.387653	10
	21	45	8912.76	62.5059	-9.7392	1	63.2601	-8.85619	4.72063E-006	-0.387663	10
	22	47	7942.6	62.7733	-10.6957	1	63.678	-9.6696	6.18948E-006	-0.387672	10
	23	49	7078.05	62.8214	-11.7147	1	63.9043	-10.563	6.14604E-006	-0.387656	10
	24	51	6311.1	63.1281	-13.1066	1	64.4743	-11.7291	6.0984E-006	-0.387661	10
	25	53	5622.14	63.4695	-14.4937	1	65.1033	-12.8633	6.17534E-006	-0.387662	10
	26	55	5011.18	63.7944	-15.998	1	65.7697	-14.078	6.05535E-006	-0.387657	10
	27	57	4465.21	64.1499	-17.5417	1	66.5051	-15.2936	6.19924E-006	-0.387659	10
	28	59	3980.93	64.3871	-19.531	1	67.2842	-16.8745	6.0057E-006	-0.387686	10
	29	61	3548.18	64.7831	-21.5687	1	68.2792	-18.4145	7.39429E-006	-0.387653	10
	30	63	3162.67	64.9494	-23.7698	1	69.1623	-20.1013	5.12196E-006	-0.387661	10
	31	65	2819.01	65.4092	-26.316	1	70.5046	-21.9164	5.40395E-006	-0.387651	10
	32	67	2511.16	65.9695	-29.2323	1	72.1561	-23.899	6.05971E-006	-0.387652	10
	33	69	2238.63	66.3956	-32.3608	1	73.862	-25.9843	6.20415E-006	-0.387659	10
	34	71	1995.37	66.78	-35.7935	1	75.7677	-28.1909	6.06695E-006	-0.387663	10
	35	73	1778.51	67.4547	-39.5058	1	78.1719	-30.356	6.37598E-006	-0.387661	10
	36	75	1584.49	67.9058	-43.8672	1	80.8426	-32.8625	6.15532E-006	-0.387653	10
	37	77	1412.76	68.4283	-48.7007	1	83.9892	-35.4396	5.60857E-006	-0.387653	10
	38	79	1259.04	69.2021	-54.0538	1	87.8109	-37.9934	6.35734E-006	-0.387657	10
	39	81	1121.63	69.8493	-59.9715	1	92.0625	-40.6489	6.33549E-006	-0.387654	10
	40	83	999.95	70.4395	-66.5026	1	96.873	-43.3533	6.59234E-006	-0.387647	10
	41	85	891.184	71.369	-74.0514	1	102.845	-46.0568	7.22126E-006	-0.387643	10
	42	87	794.163	71.9925	-82.3125	1	109.354	-48.8263	3.50421E-006	-0.387656	9
	43	89	707.867	72.9347	-91.4758	1	116.993	-51.4342	2.82671E-006	-0.387656	9
	44	91	630.984	74.1306	-101.916	1	126.024	-53.969	3.07826E-006	-0.387665	9
	45	93	562.189	75.4292	-113.309	1	136.119	-56.3485	3.41265E-006	-0.387668	9
	46	95	501.303	76.4726	-126.175	1	147.54	-58.7806	2.99871E-006	-0.387658	9
	47	96	446.614	77.7728	-140.555	1	160.637	-61.043	2.57526E-006	-0.387656	9
	48	98	398.209	79.1917	-156.5	1	175.395	-63.1598	2.42085E-006	-0.387663	9
	49	100	354.821	80.8391	-174.361	1	192.189	-65.1261	2.33231E-006	-0.387657	9
	50	102	316.113	82.6329	-194.358	1	211.194	-66.9668	2.33073E-006	-0.387655	9
	51	104	281.926	84.6471	-216.411	1	232.376	-68.6375	2.3536E-006	-0.387651	9
	52	107	251.185	86.8959	-241.29	1	256.46	-70.1945	2.28604E-006	-0.387651	9
	53	108	223.946	89.3798	-268.836	1	283.305	-71.6096	2.28173E-006	-0.38765	9
	54	110	199.495	92.1892	-299.817	1	313.671	-72.9081	2.18412E-006	-0.387659	9
	55	112	177.836	95.306	-334.163	1	347.489	-74.0814	1.97388E-006	-0.387668	9
	56	115	158.533	98.836	-372.505	1	385.394	-75.1402	2.00748E-006	-0.387664	9
	57	117	141.263	102.781	-415.381	1	427.908	-76.102	2.01392E-006	-0.387657	9
	58	119	125.911	107.203	-463.099	1	475.345	-76.9661	2.00559E-006	-0.387662	9
	59	121	112.198	112.206	-516.531	1	528.578	-77.744	1.87684E-006	-0.387665	9
	60	123	100.009	117.936	-576.08	1	588.028	-78.4302	1.9561E-006	-0.387662	9
	61	125	89.1164	124.493	-642.567	1	654.516	-79.0351	1.98154E-006	-0.387658	9
	62	127	79.4083	131.58	-716.778	1	728.755	-79.598	1.89936E-006	-0.387665	9
	63	129	70.788	140.001	-799.111	1	811.282	-80.0629	2.00837E-006	-0.387658	9
	64	131	63.0971	149.341	-891.089	1	903.517	-80.486	1.94642E-006	-0.387656	9
	65	133	54.5476	163.036	-1022.74	1	1035.65	-80.9426	1.99423E-006	-0.387656	9
	66	135	50.0083	172.105	-1109.67	1	1122.94	-81.184	1.37749E-006	-0.387656	8
	67	137	46.1675	182.385	-1196.88	1	1210.7	-81.3357	1.36284E-006	-0.387662	8
	68	139	40.0059	201.679	-1371.01	1	1385.76	-81.6316	1.34858E-006	-0.387657	8
	69	142	35.3046	222.697	-1543.44	1	1559.43	-81.7897	1.41024E-006	-0.387657	8
	70	144	31.5793	242.81	-1715.12	1	1732.22	-81.9421	1.39731E-006	-0.387655	8
	71	146	28.5748	264.502	-1884.7	1	1903.17	-82.0112	1.39108E-006	-0.387663	8
	72	148	24.9911	298.085	-2139.27	1	2159.94	-82.0675	1.41308E-006	-0.387664	8
	73	150	22.2195	334.298	-2389.96	1	2413.23	-82.0374	1.42554E-006	-0.387667	8
	74	153	20.0011	371.393	-2639.27	1	2665.28	-81.9901	1.48243E-006	-0.38766	8
	75	155	17.6486	423.729	-2968.88	1	2998.96	-81.8774	1.4849E-006	-0.387663	8
	76	157	15.7934	473.147	-3292.81	1	3326.63	-81.8231	1.45305E-006	-0.38766	8
	77	159	14.2828	530.634	-3619.93	1	3658.62	-81.6606	1.49819E-006	-0.387659	8
	78	162	12.5002	616.881	-4110.15	1	4156.18	-81.4643	1.48101E-006	-0.387667	8
	79	164	11.323	682.997	-4515.27	1	4566.63	-81.3984	1.4483E-006	-0.387671	8
	80	167	9.9987	797.193	-5053.44	1	5115.93	-81.0353	1.42686E-006	-0.38767	8
