EXPLAIN
TAG	EISPOT
TITLE	LABEL	Tomato_open	Test &Identifier
DATE	LABEL	5/16/2006	Date
TIME	LABEL	10:06:13	Time
NOTES	NOTES	1	&Notes...
	
PSTAT	PSTAT	300	Potentiostat
VDC	POTEN	1.00000E-001	T	DC &Voltage (V)
FREQINIT	QUANT	1.00000E+005	Initial Fre&q. (Hz)
FREQFINAL	QUANT	1.00000E+001	Final Fre&q. (Hz)
PTSPERDEC	QUANT	2.00000E+001	Points/&decade
VAC	QUANT	1.00000E+001	AC &Voltage (mV rms)
AREA	QUANT	1.00000E+000	&Area (cm²)
DENSITY	QUANT	7.87000E+000	&Density (gm/cm³)
EQUIV	QUANT	7.00000E+000	Equiv. &Wt
CONDIT	TWOPARAM	F	1.50000E+001	0.00000E+000	Conditionin&g	Time(s)	E(V)
DELAY	TWOPARAM	F	6.00000E+002	0.00000E+000	Init. De&lay	Time(s)	Stab.(mV/s)
SPEED	SELECTOR	1	&Optimize for:
ZGUESS	QUANT	1.00000E+002	E&stimated Z (ohms)
OCVCURVE	TABLE	39
	Pt	T	Vf	Vm	Ach	Over
	#	s	V vs. Ref.	V	V	bits
	0	0.258332	-4.96819E-001	4.34676E-006	-6.34000E-005	......
	1	0.516663	-4.94469E-001	4.34676E-006	3.66000E-005	......
	2	0.774994	-4.92669E-001	4.34676E-006	-1.63400E-004	......
	3	1.03333	-4.94769E-001	4.34676E-006	3.66000E-005	......
	4	1.29166	-4.95319E-001	4.34676E-006	-1.63400E-004	......
	5	1.54999	-4.96619E-001	4.34676E-006	3.66000E-005	......
	6	1.80832	-4.98019E-001	4.34676E-006	-1.63400E-004	......
	7	2.06665	-4.98719E-001	4.34676E-006	-6.34000E-005	......
	8	2.32498	-5.01419E-001	4.34676E-006	-1.63400E-004	......
	9	2.58332	-5.01369E-001	4.34676E-006	1.36600E-004	......
	10	2.84165	-4.99869E-001	4.34676E-006	-6.34000E-005	......
	11	3.09998	-4.98019E-001	4.34676E-006	3.36600E-004	......
	12	3.35831	-4.99919E-001	4.34676E-006	-6.34000E-005	......
	13	3.61664	-5.01220E-001	4.34676E-006	3.66000E-005	......
	14	3.87497	-5.02919E-001	4.34676E-006	-1.63400E-004	......
	15	4.1333	-5.03419E-001	4.34676E-006	3.66000E-005	......
	16	4.39164	-5.02720E-001	4.34676E-006	-1.63400E-004	......
	17	4.64997	-5.01769E-001	4.34676E-006	-6.34000E-005	......
	18	4.9083	-5.02970E-001	4.34676E-006	-2.63400E-004	......
	19	5.16663	-5.03219E-001	4.34676E-006	3.66000E-005	......
	20	5.42496	-5.01819E-001	4.34676E-006	-1.63400E-004	......
	21	5.68329	-5.02419E-001	4.34676E-006	3.66000E-005	......
	22	5.94162	-5.02270E-001	4.34676E-006	3.66000E-005	......
	23	6.19996	-5.04569E-001	4.34676E-006	1.36600E-004	......
	24	6.45829	-5.06970E-001	4.34676E-006	-1.63400E-004	......
	25	6.71662	-5.07720E-001	4.34676E-006	3.66000E-005	......
	26	6.97495	-5.07219E-001	4.34676E-006	-6.34000E-005	......
	27	7.23328	-5.05819E-001	4.34676E-006	3.66000E-005	......
	28	7.49161	-5.04969E-001	4.34676E-006	-6.34000E-005	......
	29	7.74995	-5.03519E-001	4.34676E-006	1.36600E-004	......
	30	8.00828	-5.01769E-001	4.34676E-006	-6.34000E-005	......
	31	8.26661	-5.03469E-001	4.34676E-006	3.66000E-005	......
	32	8.52494	-5.07169E-001	4.34676E-006	-6.34000E-005	......
	33	8.78327	-5.07819E-001	4.34676E-006	3.66000E-005	......
	34	9.0416	-5.06970E-001	4.34676E-006	-2.63400E-004	......
	35	9.29993	-5.05669E-001	4.34676E-006	-6.34000E-005	......
	36	9.5583	-5.05870E-001	4.34676E-006	-6.34000E-005	......
	37	9.8166	-5.05219E-001	4.34676E-006	1.36600E-004	......
	38	10.0749	-5.04470E-001	4.34676E-006	-6.34000E-005	......
EOC	QUANT	-0.50447	Open Circuit (V)
PSTATMODEL	IQUANT	32	Pstat Model
PSTATSECTION	LABEL	PStat0	Pstat Section
CTRLMODE	IQUANT	1	Control Mode
IESTAB	IQUANT	0	I/E Stability
CASPEED	IQUANT	1	Control Amp Speed
CONVENTION	IQUANT	1	Current Convention
ICHRANGE	IQUANT	2	Ich Range
ICHRANGEMODE	TOGGLE	F	Ich Auto Range
ICHOFFSETENABLE	TOGGLE	T	Ich Offset Enable
ICHOFFSET	QUANT	0	Ich Offset (V)
ICHFILTER	IQUANT	3	Ich Filter
VCHRANGE	IQUANT	2	Vch Range
VCHRANGEMODE	TOGGLE	F	Vch Auto Range
VCHOFFSETENABLE	TOGGLE	T	Vch Offset Enable
VCHOFFSET	QUANT	0	Vch Offset (V)
VCHFILTER	IQUANT	3	Vch Filter
ACHRANGE	IQUANT	0	Ach Range
IERANGELOWERLIMIT	IQUANT	3	I/E Range Lower Limit
IERANGEMODE	TOGGLE	F	I/E AutoRange
IERANGE	IQUANT	11	I/E Range
POSFEEDENABLE	TOGGLE	F	Positive Feedback IR Comp
POSFEEDRESISTANCE	QUANT	0	Positive Feedback Resistance (ohm)
FC350IDIVISOR	IQUANT	0	FC350 I Divisor
FC350VRANGE	IQUANT	0	FC350 V Range
FRAMEWORKVERSION	QUANT	4.35	Framework Version
ZCURVE	TABLE
	Pt	Time	Freq	Zreal	Zimag	Zsig	Zmod	Zphz	Idc	Vdc	IERange
	#	s	Hz	ohm	ohm	V	ohm	°	A	V	#
	0	4	100007	61.5058	-0.904188	1	61.5124	-0.842237	5.42545E-006	-0.404364	10
	1	6	89134.1	61.3822	-1.05592	1	61.3913	-0.98553	6.00649E-006	-0.404393	10
	2	8	79433.6	61.2595	-1.13192	1	61.2699	-1.05856	5.51874E-006	-0.40436	10
	3	10	70800.8	61.2721	-1.31804	1	61.2863	-1.23232	5.83012E-006	-0.404399	10
	4	12	63105.5	61.0574	-1.52436	1	61.0764	-1.43015	5.88096E-006	-0.404394	10
	5	14	56243.5	61.1007	-1.70359	1	61.1245	-1.59709	5.17537E-006	-0.404378	10
	6	16	50123.7	61.0355	-1.99287	1	61.068	-1.87011	7.16296E-006	-0.404386	10
	7	18	44681	61.0192	-2.23398	1	61.0601	-2.09673	5.87807E-006	-0.404388	10
	8	20	39811.2	60.811	-2.49865	1	60.8623	-2.35289	5.10329E-006	-0.404381	10
	9	22	35488.3	61.0937	-2.82151	1	61.1588	-2.64423	5.95651E-006	-0.4044	10
	10	24	31634.1	61.1459	-3.10023	1	61.2244	-2.90253	6.62337E-006	-0.404365	10
	11	26	28173.1	61.1335	-3.48877	1	61.233	-3.26621	6.10134E-006	-0.404372	10
	12	28	25123.7	61.326	-3.87797	1	61.4485	-3.6183	6.57221E-006	-0.404355	10
	13	30	22389.3	61.3029	-4.27839	1	61.452	-3.99226	7.1253E-006	-0.404394	10
	14	32	19954.4	61.4	-4.71258	1	61.5806	-4.38897	7.18804E-006	-0.404388	10
	15	34	17778.2	61.5032	-5.28796	1	61.7302	-4.91412	6.26438E-006	-0.40437	10
	16	36	15852.9	61.6881	-5.91438	1	61.971	-5.47653	6.01112E-006	-0.404395	10
	17	37	14122.3	61.8308	-6.51258	1	62.1729	-6.01274	6.11918E-006	-0.404378	10
	18	39	12587.2	61.8283	-7.26791	1	62.254	-6.70435	6.07954E-006	-0.404372	10
	19	41	11221.1	62.0512	-8.05656	1	62.5721	-7.39774	6.26677E-006	-0.404378	10
	20	43	9998.2	62.1022	-8.86046	1	62.7311	-8.1199	6.28849E-006	-0.404377	10
	21	45	8912.76	62.3179	-9.8124	1	63.0857	-8.94814	5.92251E-006	-0.404399	10
	22	47	7942.6	62.6231	-10.767	1	63.542	-9.7557	6.18602E-006	-0.40437	10
	23	49	7078.05	62.846	-11.8507	1	63.9535	-10.6787	6.26357E-006	-0.404364	10
	24	51	6311.1	63.0729	-13.2594	1	64.4515	-11.872	6.07665E-006	-0.404374	10
	25	53	5622.14	63.2242	-14.5026	1	64.8662	-12.9192	6.26479E-006	-0.404378	10
	26	55	5011.18	63.6805	-16.1581	1	65.6985	-14.2376	5.9789E-006	-0.404369	10
	27	57	4465.21	63.8761	-17.7506	1	66.2966	-15.5301	6.19996E-006	-0.404372	10
	28	59	3980.93	64.0703	-19.7149	1	67.0349	-17.1035	7.05012E-006	-0.404396	10
	29	61	3548.18	64.4616	-21.8179	1	68.0538	-18.6991	5.3621E-006	-0.404345	10
	30	63	3162.67	64.8876	-24.2345	1	69.2655	-20.4799	7.13193E-006	-0.404393	10
	31	65	2819.01	65.2844	-26.8396	1	70.5863	-22.3484	7.07713E-006	-0.404378	10
	32	67	2511.16	65.6714	-29.5492	1	72.0131	-24.2256	5.99582E-006	-0.404373	10
	33	69	2238.63	66.0903	-32.7756	1	73.7711	-26.3778	6.05252E-006	-0.404376	10
	34	71	1995.37	66.641	-36.1556	1	75.8172	-28.4817	6.23265E-006	-0.404369	10
	35	73	1778.51	67.0963	-40.0926	1	78.1622	-30.8599	6.19555E-006	-0.404365	10
	36	75	1584.49	67.6435	-44.3955	1	80.9111	-33.2775	6.36074E-006	-0.404378	10
	37	77	1412.76	68.3319	-49.3174	1	84.2701	-35.8192	5.7766E-006	-0.404394	10
	38	79	1259.04	68.8635	-54.7982	1	88.0058	-38.511	6.13779E-006	-0.404376	10
	39	81	1121.63	69.485	-60.85	1	92.3628	-41.2095	6.07184E-006	-0.404366	10
	40	83	999.95	70.1562	-67.4972	1	97.354	-43.8934	6.14073E-006	-0.404381	10
	41	85	891.184	71.0401	-75.2401	1	103.478	-46.6446	6.1133E-006	-0.404384	10
	42	87	794.163	71.9588	-83.4539	1	110.194	-49.2302	2.58249E-006	-0.404381	9
	43	89	707.867	72.9798	-92.845	1	118.094	-51.8313	2.53657E-006	-0.404365	9
	44	91	630.984	73.7293	-103.514	1	127.087	-54.539	2.48113E-006	-0.404372	9
	45	93	562.189	75.0073	-115.044	1	137.336	-56.8962	2.25138E-006	-0.404365	9
	46	95	501.303	76.182	-128.014	1	148.967	-59.2428	2.58054E-006	-0.404379	9
	47	97	446.614	77.5006	-142.59	1	162.29	-61.475	2.61445E-006	-0.40437	9
	48	99	398.209	78.9518	-158.749	1	177.298	-63.5571	2.56027E-006	-0.404367	9
	49	101	354.821	80.5968	-176.853	1	194.353	-65.5	2.56824E-006	-0.40437	9
	50	103	316.113	82.4329	-197.104	1	213.647	-67.3043	2.59235E-006	-0.40437	9
	51	105	281.926	84.4479	-219.506	1	235.19	-68.9574	2.53384E-006	-0.404371	9
	52	107	251.185	86.7127	-244.682	1	259.593	-70.4862	2.47788E-006	-0.404374	9
	53	109	223.946	89.2498	-272.593	1	286.832	-71.871	2.49126E-006	-0.404375	9
	54	111	199.495	92.0868	-304.006	1	317.647	-73.1478	2.51417E-006	-0.404368	9
	55	113	177.836	95.271	-338.795	1	351.935	-74.2937	2.53349E-006	-0.404371	9
	56	115	158.533	98.821	-377.624	1	390.34	-75.3351	2.48353E-006	-0.404377	9
	57	117	141.263	102.84	-421.082	1	433.458	-76.2755	2.47513E-006	-0.404367	9
	58	119	125.911	107.314	-469.433	1	481.543	-77.1232	2.36859E-006	-0.404375	9
	59	121	112.198	112.462	-523.601	1	535.543	-77.8779	2.34812E-006	-0.404382	9
	60	123	100.009	118.281	-583.751	1	595.614	-78.5457	2.46198E-006	-0.404371	9
	61	125	89.1164	124.623	-651.168	1	662.986	-79.1655	2.36006E-006	-0.404375	9
	62	127	79.4083	132.068	-726.219	1	738.13	-79.693	2.40676E-006	-0.404366	9
	63	129	70.788	140.424	-809.577	1	821.665	-80.1598	2.36589E-006	-0.404372	9
	64	131	63.0971	150.188	-902.762	1	915.17	-80.5545	2.52226E-006	-0.404363	9
	65	133	54.5476	164.356	-1036.19	1	1049.14	-80.9871	2.42752E-006	-0.404369	9
	66	135	50.0083	174.041	-1123.58	1	1136.98	-81.1949	1.67813E-006	-0.404374	8
	67	137	46.1675	183.862	-1211.86	1	1225.73	-81.373	1.59591E-006	-0.404372	8
	68	140	40.0059	203.662	-1388.05	1	1402.91	-81.6528	1.65225E-006	-0.404366	8
	69	142	35.3046	225.338	-1562.44	1	1578.61	-81.7933	1.61154E-006	-0.404369	8
	70	144	31.5793	246.819	-1735.95	1	1753.4	-81.9079	1.67012E-006	-0.404366	8
	71	146	28.5748	268.451	-1907.53	1	1926.33	-81.9892	1.56244E-006	-0.404369	8
	72	148	24.9911	305.786	-2166.26	1	2187.73	-81.9653	1.60545E-006	-0.404374	8
	73	150	22.2195	342.627	-2419.51	1	2443.64	-81.9399	1.63044E-006	-0.404373	8
	74	153	20.0011	378.582	-2672.35	1	2699.03	-81.9368	1.58513E-006	-0.404371	8
	75	155	17.6486	429.43	-3004.49	1	3035.02	-81.8658	1.63628E-006	-0.404367	8
	76	157	15.7934	488.052	-3338.22	1	3373.71	-81.6822	1.5796E-006	-0.40437	8
	77	160	14.2828	545.64	-3669.41	1	3709.76	-81.5421	1.62523E-006	-0.404368	8
	78	162	12.5002	635.491	-4155.64	1	4203.95	-81.3055	1.55935E-006	-0.404377	8
	79	164	11.323	712.465	-4556.06	1	4611.43	-81.1122	1.57452E-006	-0.404371	8
	80	167	9.9987	842.318	-5116.75	1	5185.62	-80.6518	1.57225E-006	-0.404376	8
