EXPLAIN
TAG	EISPOT
TITLE	LABEL	Tomato_open	Test &Identifier
DATE	LABEL	5/10/2006	Date
TIME	LABEL	16:16:31	Time
NOTES	NOTES	1	&Notes...
	
PSTAT	PSTAT	300	Potentiostat
VDC	POTEN	1.00000E-001	T	DC &Voltage (V)
FREQINIT	QUANT	1.00000E+005	Initial Fre&q. (Hz)
FREQFINAL	QUANT	1.00000E+001	Final Fre&q. (Hz)
PTSPERDEC	QUANT	2.00000E+001	Points/&decade
VAC	QUANT	1.00000E+001	AC &Voltage (mV rms)
AREA	QUANT	1.00000E+000	&Area (cm²)
DENSITY	QUANT	7.87000E+000	&Density (gm/cm³)
EQUIV	QUANT	7.00000E+000	Equiv. &Wt
CONDIT	TWOPARAM	F	1.50000E+001	0.00000E+000	Conditionin&g	Time(s)	E(V)
DELAY	TWOPARAM	F	6.00000E+002	0.00000E+000	Init. De&lay	Time(s)	Stab.(mV/s)
SPEED	SELECTOR	1	&Optimize for:
ZGUESS	QUANT	1.00000E+002	E&stimated Z (ohms)
OCVCURVE	TABLE	39
	Pt	T	Vf	Vm	Ach	Over
	#	s	V vs. Ref.	V	V	bits
	0	0.258332	-5.57593E-001	4.70964E-006	1.15400E-004	......
	1	0.516663	-5.57243E-001	4.70964E-006	2.15400E-004	......
	2	0.774994	-5.56643E-001	4.70964E-006	1.54000E-005	......
	3	1.03333	-5.56243E-001	4.70964E-006	2.15400E-004	......
	4	1.29166	-5.55694E-001	4.70964E-006	1.54000E-005	......
	5	1.54999	-5.54143E-001	4.70964E-006	1.15400E-004	......
	6	1.80832	-5.54043E-001	4.70964E-006	1.15400E-004	......
	7	2.06665	-5.55443E-001	4.70964E-006	2.15400E-004	......
	8	2.32498	-5.55843E-001	4.70964E-006	1.54000E-005	......
	9	2.58332	-5.55843E-001	4.70964E-006	2.15400E-004	......
	10	2.84165	-5.55193E-001	4.70964E-006	1.54000E-005	......
	11	3.09998	-5.55344E-001	4.70964E-006	3.15400E-004	......
	12	3.35831	-5.56243E-001	4.70964E-006	1.54000E-005	......
	13	3.61664	-5.57494E-001	4.70964E-006	2.15400E-004	......
	14	3.87497	-5.58043E-001	4.70964E-006	1.54000E-005	......
	15	4.1333	-5.59043E-001	4.70964E-006	3.15400E-004	......
	16	4.39164	-5.60193E-001	4.70964E-006	1.15400E-004	......
	17	4.64997	-5.61993E-001	4.70964E-006	3.15400E-004	......
	18	4.9083	-5.62643E-001	4.70964E-006	1.54000E-005	......
	19	5.16663	-5.62494E-001	4.70964E-006	2.15400E-004	......
	20	5.42496	-5.62093E-001	4.70964E-006	1.54000E-005	......
	21	5.68329	-5.62844E-001	4.70964E-006	2.15400E-004	......
	22	5.94162	-5.63993E-001	4.70964E-006	1.54000E-005	......
	23	6.19996	-5.64344E-001	4.70964E-006	3.15400E-004	......
	24	6.45829	-5.64393E-001	4.70964E-006	-8.46000E-005	......
	25	6.71662	-5.64143E-001	4.70964E-006	4.15400E-004	......
	26	6.97495	-5.62243E-001	4.70964E-006	1.15400E-004	......
	27	7.23328	-5.60443E-001	4.70964E-006	2.15400E-004	......
	28	7.49161	-5.58643E-001	4.70964E-006	1.15400E-004	......
	29	7.74995	-5.57943E-001	4.70964E-006	2.15400E-004	......
	30	8.00828	-5.57894E-001	4.70964E-006	-8.46000E-005	......
	31	8.26661	-5.56343E-001	4.70964E-006	3.15400E-004	......
	32	8.52494	-5.56693E-001	4.70964E-006	1.54000E-005	......
	33	8.78327	-5.56543E-001	4.70964E-006	2.15400E-004	......
	34	9.0416	-5.56293E-001	4.70964E-006	1.54000E-005	......
	35	9.29993	-5.56693E-001	4.70964E-006	2.15400E-004	......
	36	9.5583	-5.56843E-001	4.70964E-006	1.54000E-005	......
	37	9.8166	-5.56443E-001	4.70964E-006	2.15400E-004	......
	38	10.0749	-5.56193E-001	4.70964E-006	-8.46000E-005	......
EOC	QUANT	-0.556193	Open Circuit (V)
PSTATMODEL	IQUANT	32	Pstat Model
PSTATSECTION	LABEL	PStat0	Pstat Section
CTRLMODE	IQUANT	1	Control Mode
IESTAB	IQUANT	0	I/E Stability
CASPEED	IQUANT	1	Control Amp Speed
CONVENTION	IQUANT	1	Current Convention
ICHRANGE	IQUANT	2	Ich Range
ICHRANGEMODE	TOGGLE	F	Ich Auto Range
ICHOFFSETENABLE	TOGGLE	T	Ich Offset Enable
ICHOFFSET	QUANT	0	Ich Offset (V)
ICHFILTER	IQUANT	3	Ich Filter
VCHRANGE	IQUANT	2	Vch Range
VCHRANGEMODE	TOGGLE	F	Vch Auto Range
VCHOFFSETENABLE	TOGGLE	T	Vch Offset Enable
VCHOFFSET	QUANT	0	Vch Offset (V)
VCHFILTER	IQUANT	3	Vch Filter
ACHRANGE	IQUANT	0	Ach Range
IERANGELOWERLIMIT	IQUANT	3	I/E Range Lower Limit
IERANGEMODE	TOGGLE	F	I/E AutoRange
IERANGE	IQUANT	11	I/E Range
POSFEEDENABLE	TOGGLE	F	Positive Feedback IR Comp
POSFEEDRESISTANCE	QUANT	0	Positive Feedback Resistance (ohm)
FC350IDIVISOR	IQUANT	0	FC350 I Divisor
FC350VRANGE	IQUANT	0	FC350 V Range
FRAMEWORKVERSION	QUANT	4.35	Framework Version
ZCURVE	TABLE
	Pt	Time	Freq	Zreal	Zimag	Zsig	Zmod	Zphz	Idc	Vdc	IERange
	#	s	Hz	ohm	ohm	V	ohm	°	A	V	#
	0	4	100007	230.489	-0.140213	1	230.489	-0.034855	2.16386E-006	-0.456087	9
	1	6	89134.1	229.649	0.002918	1	229.649	0.000728	2.50628E-006	-0.456096	9
	2	8	79433.6	228.908	-0.669313	1	228.909	-0.167529	2.84042E-006	-0.456101	9
	3	10	70800.8	228.882	-0.761827	1	228.884	-0.190706	3.02958E-006	-0.456113	9
	4	12	63105.5	228.461	-1.45604	1	228.466	-0.365156	3.05917E-006	-0.456126	9
	5	14	56243.5	228.3	-1.37774	1	228.304	-0.345765	2.8103E-006	-0.4561	9
	6	16	50123.7	227.929	-1.96005	1	227.937	-0.492697	2.86898E-006	-0.456087	9
	7	18	44681	227.885	-2.23515	1	227.896	-0.561951	3.20852E-006	-0.456101	9
	8	20	39811.2	227.538	-2.56771	1	227.552	-0.646543	3.29137E-006	-0.456101	9
	9	22	35488.3	227.666	-3.22881	1	227.689	-0.812527	3.80748E-006	-0.456127	9
	10	23	31634.1	227.582	-3.80368	1	227.613	-0.95752	3.76791E-006	-0.456135	9
	11	25	28173.1	227.763	-3.74082	1	227.794	-0.940951	3.65786E-006	-0.456122	9
	12	27	25123.7	227.648	-4.60884	1	227.694	-1.15982	3.5425E-006	-0.456096	9
	13	29	22389.3	228.111	-4.86025	1	228.162	-1.22059	4.19955E-006	-0.456121	9
	14	31	19954.4	228.048	-5.87883	1	228.124	-1.47669	3.92183E-006	-0.456102	9
	15	33	17778.2	228.25	-6.3565	1	228.339	-1.59521	4.20966E-006	-0.45612	9
	16	35	15852.9	228.126	-7.16409	1	228.238	-1.79873	3.94394E-006	-0.456115	9
	17	37	14122.3	228.556	-7.83964	1	228.691	-1.96451	4.16131E-006	-0.456115	9
	18	39	12587.2	228.625	-8.39919	1	228.779	-2.10398	4.04573E-006	-0.456112	9
	19	41	11221.1	229.079	-9.36097	1	229.27	-2.34001	3.99625E-006	-0.456111	9
	20	43	9998.2	229.443	-10.6753	1	229.691	-2.66388	3.93478E-006	-0.456115	9
	21	45	8912.76	229.517	-11.3311	1	229.797	-2.82635	3.94705E-006	-0.456107	9
	22	47	7942.6	229.827	-12.8976	1	230.189	-3.21199	4.0007E-006	-0.456103	9
	23	49	7078.05	229.747	-13.8563	1	230.165	-3.45138	3.95425E-006	-0.456112	9
	24	51	6311.1	230.108	-15.279	1	230.615	-3.79882	3.87789E-006	-0.456109	9
	25	53	5622.14	230.245	-17.2857	1	230.893	-4.29344	3.95606E-006	-0.456112	9
	26	55	5011.18	230.924	-18.7962	1	231.688	-4.65336	4.03581E-006	-0.456111	9
	27	57	4465.21	231.172	-21.0151	1	232.125	-5.1943	4.08236E-006	-0.456113	9
	28	59	3980.93	231.632	-23.0926	1	232.78	-5.69331	3.91611E-006	-0.45609	9
	29	61	3548.18	232.298	-25.3755	1	233.68	-6.23409	3.69747E-006	-0.456094	9
	30	63	3162.67	232.551	-28.475	1	234.288	-6.98089	3.8935E-006	-0.456099	9
	31	65	2819.01	232.882	-31.4252	1	234.992	-7.68511	3.89339E-006	-0.456115	9
	32	67	2511.16	233.37	-34.7238	1	235.94	-8.46309	3.82778E-006	-0.456106	9
	33	69	2238.63	234.178	-38.5742	1	237.333	-9.35387	3.82984E-006	-0.456106	9
	34	71	1995.37	234.883	-42.3832	1	238.676	-10.2286	3.92559E-006	-0.456103	9
	35	73	1778.51	235.909	-47.1471	1	240.575	-11.3018	3.80992E-006	-0.456103	9
	36	75	1584.49	236.685	-52.0781	1	242.347	-12.4091	3.73223E-006	-0.456108	9
	37	77	1412.76	237.716	-57.8244	1	244.648	-13.6717	3.72498E-006	-0.456081	9
	38	79	1259.04	238.515	-64.0872	1	246.975	-15.0398	3.77906E-006	-0.456109	9
	39	81	1121.63	240.219	-70.7086	1	250.409	-16.4018	3.76059E-006	-0.456121	9
	40	83	999.95	241.558	-78.6495	1	254.039	-18.0349	3.78747E-006	-0.45611	9
	41	85	891.184	242.097	-86.6587	1	257.139	-19.6948	3.79492E-006	-0.456105	9
	42	87	794.163	243.596	-96.078	1	261.858	-21.525	3.76614E-006	-0.456092	9
	43	89	707.867	245.378	-106.261	1	267.398	-23.415	3.61984E-006	-0.456088	9
	44	91	630.984	246.975	-118.018	1	273.724	-25.541	3.7132E-006	-0.456117	9
	45	92	562.189	249.211	-130.886	1	281.491	-27.7085	3.81988E-006	-0.456104	9
	46	94	501.303	251.25	-144.746	1	289.962	-29.9463	3.96602E-006	-0.456122	9
	47	96	446.614	253.455	-160.567	1	300.035	-32.3547	3.89519E-006	-0.456119	9
	48	98	398.209	255.863	-178.045	1	311.715	-34.8325	3.78534E-006	-0.456117	9
	49	100	354.821	258.577	-197.554	1	325.407	-37.3799	4.07017E-006	-0.456123	9
	50	102	316.113	261.471	-219.299	1	341.261	-39.987	4.15709E-006	-0.45612	9
	51	104	281.926	264.647	-243.211	1	359.43	-42.583	3.99692E-006	-0.456126	9
	52	106	251.185	268.21	-270.094	1	380.641	-45.2005	4.07534E-006	-0.456125	9
	53	108	223.946	272.018	-299.785	1	404.802	-47.7801	3.82344E-006	-0.456124	9
	54	110	199.495	276.326	-333.108	1	432.801	-50.3229	3.93839E-006	-0.456122	9
	55	112	177.836	281.015	-369.952	1	464.579	-52.7797	3.82548E-006	-0.456123	9
	56	114	158.533	286.244	-411.013	1	500.866	-55.1453	3.69217E-006	-0.456117	9
	57	116	141.263	291.96	-456.844	1	542.169	-57.4181	3.75292E-006	-0.456127	9
	58	118	125.911	298.441	-507.718	1	588.935	-59.5526	3.72312E-006	-0.456132	9
	59	121	112.198	305.57	-564.506	1	641.903	-61.5731	3.70955E-006	-0.456134	9
	60	123	100.009	313.504	-627.544	1	701.495	-63.4545	3.7466E-006	-0.456124	9
	61	125	89.1164	322.438	-697.951	1	768.832	-65.2041	3.80648E-006	-0.456125	9
	62	127	79.4083	332.482	-776.368	1	844.566	-66.8168	3.77617E-006	-0.456124	9
	63	129	70.788	343.726	-863.341	1	929.249	-68.2908	3.87277E-006	-0.456118	9
	64	131	63.0971	356.445	-960.32	1	1024.34	-69.6364	3.80586E-006	-0.456119	9
	65	133	54.5476	373.961	-1097.85	1	1159.8	-71.1897	2.91279E-006	-0.456125	8
	66	135	50.0083	387.348	-1189.83	1	1251.29	-71.9674	2.99245E-006	-0.456127	8
	67	137	46.1675	399.281	-1281.3	1	1342.07	-72.6918	2.91297E-006	-0.456127	8
	68	139	40.0059	424.645	-1463.68	1	1524.03	-73.8214	2.91577E-006	-0.456129	8
	69	141	35.3046	450.535	-1643.7	1	1704.33	-74.6718	2.8781E-006	-0.456137	8
	70	144	31.5793	476.581	-1823.19	1	1884.45	-75.3507	2.9739E-006	-0.456133	8
	71	146	28.5748	501.56	-2000.21	1	2062.13	-75.9231	2.75445E-006	-0.456126	8
	72	148	24.9911	542.192	-2266.33	1	2330.28	-76.5456	2.72826E-006	-0.456127	8
	73	150	22.2195	582.239	-2529.46	1	2595.6	-77.0373	2.61722E-006	-0.456122	8
	74	152	20.0011	622.68	-2788.75	1	2857.42	-77.4133	2.57837E-006	-0.456132	8
	75	155	17.6486	684.151	-3135.02	1	3208.81	-77.6894	2.77509E-006	-0.456127	8
	76	157	15.7934	765.215	-3473.55	1	3556.84	-77.5763	2.86167E-006	-0.456128	8
	77	159	14.2828	841.965	-3812.89	1	3904.74	-77.5477	2.93846E-006	-0.456123	8
	78	161	12.5002	956.75	-4316.78	1	4421.53	-77.5033	2.90196E-006	-0.456117	8
	79	164	11.323	1047.99	-4723.71	1	4838.57	-77.4911	2.9662E-006	-0.456123	8
	80	167	9.9987	1218.88	-5288.68	1	5427.32	-77.0217	3.02571E-006	-0.456118	8
