EXPLAIN
TAG	EISPOT
TITLE	LABEL	Tomato_open	Test &Identifier
DATE	LABEL	5/10/2006	Date
TIME	LABEL	16:11:30	Time
NOTES	NOTES	1	&Notes...
	
PSTAT	PSTAT	300	Potentiostat
VDC	POTEN	1.00000E-001	T	DC &Voltage (V)
FREQINIT	QUANT	1.00000E+005	Initial Fre&q. (Hz)
FREQFINAL	QUANT	1.00000E+001	Final Fre&q. (Hz)
PTSPERDEC	QUANT	2.00000E+001	Points/&decade
VAC	QUANT	1.00000E+001	AC &Voltage (mV rms)
AREA	QUANT	1.00000E+000	&Area (cm²)
DENSITY	QUANT	7.87000E+000	&Density (gm/cm³)
EQUIV	QUANT	7.00000E+000	Equiv. &Wt
CONDIT	TWOPARAM	F	1.50000E+001	0.00000E+000	Conditionin&g	Time(s)	E(V)
DELAY	TWOPARAM	F	6.00000E+002	0.00000E+000	Init. De&lay	Time(s)	Stab.(mV/s)
SPEED	SELECTOR	1	&Optimize for:
ZGUESS	QUANT	1.00000E+002	E&stimated Z (ohms)
OCVCURVE	TABLE	39
	Pt	T	Vf	Vm	Ach	Over
	#	s	V vs. Ref.	V	V	bits
	0	0.258332	-5.45843E-001	5.20084E-006	2.15400E-004	......
	1	0.516663	-5.45843E-001	5.20084E-006	1.54000E-005	......
	2	0.774994	-5.44843E-001	5.20084E-006	2.15400E-004	......
	3	1.03333	-5.44993E-001	5.20084E-006	-8.46000E-005	......
	4	1.29166	-5.44544E-001	5.20084E-006	2.15400E-004	......
	5	1.54999	-5.45043E-001	5.20084E-006	1.15400E-004	......
	6	1.80832	-5.46493E-001	5.20084E-006	2.15400E-004	......
	7	2.06665	-5.47693E-001	5.20084E-006	1.54000E-005	......
	8	2.32498	-5.48443E-001	5.20084E-006	3.15400E-004	......
	9	2.58332	-5.48643E-001	5.20084E-006	1.54000E-005	......
	10	2.84165	-5.47893E-001	5.20084E-006	2.15400E-004	......
	11	3.09998	-5.46643E-001	5.20084E-006	-8.46000E-005	......
	12	3.35831	-5.46044E-001	5.20084E-006	2.15400E-004	......
	13	3.61664	-5.45244E-001	5.20084E-006	1.54000E-005	......
	14	3.87497	-5.45043E-001	5.20084E-006	2.15400E-004	......
	15	4.1333	-5.46044E-001	5.20084E-006	-8.46000E-005	......
	16	4.39164	-5.47443E-001	5.20084E-006	2.15400E-004	......
	17	4.64997	-5.48343E-001	5.20084E-006	-8.46000E-005	......
	18	4.9083	-5.49194E-001	5.20084E-006	2.15400E-004	......
	19	5.16663	-5.49893E-001	5.20084E-006	-8.46000E-005	......
	20	5.42496	-5.50793E-001	5.20084E-006	3.15400E-004	......
	21	5.68329	-5.51243E-001	5.20084E-006	1.54000E-005	......
	22	5.94162	-5.50893E-001	5.20084E-006	3.15400E-004	......
	23	6.19996	-5.50793E-001	5.20084E-006	1.54000E-005	......
	24	6.45829	-5.50443E-001	5.20084E-006	3.15400E-004	......
	25	6.71662	-5.49944E-001	5.20084E-006	1.54000E-005	......
	26	6.97495	-5.49994E-001	5.20084E-006	3.15400E-004	......
	27	7.23328	-5.49843E-001	5.20084E-006	1.54000E-005	......
	28	7.49161	-5.48193E-001	5.20084E-006	2.15400E-004	......
	29	7.74995	-5.46843E-001	5.20084E-006	1.54000E-005	......
	30	8.00828	-5.45244E-001	5.20084E-006	2.15400E-004	......
	31	8.26661	-5.44393E-001	5.20084E-006	1.54000E-005	......
	32	8.52494	-5.43743E-001	5.20084E-006	3.15400E-004	......
	33	8.78327	-5.43893E-001	5.20084E-006	1.54000E-005	......
	34	9.0416	-5.43144E-001	5.20084E-006	3.15400E-004	......
	35	9.29993	-5.43243E-001	5.20084E-006	1.54000E-005	......
	36	9.5583	-5.42693E-001	5.20084E-006	2.15400E-004	......
	37	9.8166	-5.43043E-001	5.20084E-006	1.54000E-005	......
	38	10.0749	-5.43743E-001	5.20084E-006	2.15400E-004	......
EOC	QUANT	-0.543743	Open Circuit (V)
PSTATMODEL	IQUANT	32	Pstat Model
PSTATSECTION	LABEL	PStat0	Pstat Section
CTRLMODE	IQUANT	1	Control Mode
IESTAB	IQUANT	0	I/E Stability
CASPEED	IQUANT	1	Control Amp Speed
CONVENTION	IQUANT	1	Current Convention
ICHRANGE	IQUANT	2	Ich Range
ICHRANGEMODE	TOGGLE	F	Ich Auto Range
ICHOFFSETENABLE	TOGGLE	T	Ich Offset Enable
ICHOFFSET	QUANT	0	Ich Offset (V)
ICHFILTER	IQUANT	3	Ich Filter
VCHRANGE	IQUANT	2	Vch Range
VCHRANGEMODE	TOGGLE	F	Vch Auto Range
VCHOFFSETENABLE	TOGGLE	T	Vch Offset Enable
VCHOFFSET	QUANT	0	Vch Offset (V)
VCHFILTER	IQUANT	3	Vch Filter
ACHRANGE	IQUANT	0	Ach Range
IERANGELOWERLIMIT	IQUANT	3	I/E Range Lower Limit
IERANGEMODE	TOGGLE	F	I/E AutoRange
IERANGE	IQUANT	11	I/E Range
POSFEEDENABLE	TOGGLE	F	Positive Feedback IR Comp
POSFEEDRESISTANCE	QUANT	0	Positive Feedback Resistance (ohm)
FC350IDIVISOR	IQUANT	0	FC350 I Divisor
FC350VRANGE	IQUANT	0	FC350 V Range
FRAMEWORKVERSION	QUANT	4.35	Framework Version
ZCURVE	TABLE
	Pt	Time	Freq	Zreal	Zimag	Zsig	Zmod	Zphz	Idc	Vdc	IERange
	#	s	Hz	ohm	ohm	V	ohm	°	A	V	#
	0	4	100007	231.281	0.313075	1	231.281	0.077559	2.12325E-006	-0.443494	9
	1	6	89134.1	229.806	-0.152121	1	229.806	-0.037927	2.53997E-006	-0.443529	9
	2	8	79433.6	229.339	-0.441254	1	229.339	-0.110238	2.43045E-006	-0.443505	9
	3	10	70800.8	228.969	-0.855154	1	228.971	-0.213987	2.87531E-006	-0.443512	9
	4	12	63105.5	228.59	-1.37505	1	228.594	-0.344652	2.68469E-006	-0.443503	9
	5	14	56243.5	228.302	-1.7342	1	228.308	-0.435216	3.09766E-006	-0.443549	9
	6	16	50123.7	227.937	-2.00029	1	227.946	-0.502791	2.66703E-006	-0.443507	9
	7	18	44681	228.022	-2.3647	1	228.034	-0.594164	2.89777E-006	-0.443488	9
	8	20	39811.2	228.16	-2.84385	1	228.178	-0.714113	2.79133E-006	-0.443515	9
	9	22	35488.3	228.127	-3.13055	1	228.148	-0.786214	3.18636E-006	-0.443536	9
	10	24	31634.1	227.873	-3.83205	1	227.905	-0.96343	2.80573E-006	-0.443508	9
	11	26	28173.1	227.972	-4.43205	1	228.015	-1.11376	2.85967E-006	-0.443521	9
	12	28	25123.7	228.127	-4.6552	1	228.175	-1.16902	3.13255E-006	-0.44354	9
	13	30	22389.3	228.059	-5.23977	1	228.119	-1.31617	3.17769E-006	-0.443524	9
	14	32	19954.4	228.296	-5.69952	1	228.367	-1.43012	3.0217E-006	-0.4435	9
	15	34	17778.2	228.479	-6.36916	1	228.567	-1.59679	3.04927E-006	-0.443512	9
	16	35	15852.9	228.625	-7.17152	1	228.738	-1.79666	2.8178E-006	-0.443486	9
	17	37	14122.3	228.882	-8.11059	1	229.026	-2.02947	3.03128E-006	-0.443497	9
	18	39	12587.2	229.062	-8.66904	1	229.226	-2.16737	2.91555E-006	-0.443498	9
	19	41	11221.1	229.08	-9.6848	1	229.285	-2.42084	2.97091E-006	-0.443496	9
	20	43	9998.2	228.926	-10.3092	1	229.158	-2.57847	3.08264E-006	-0.443488	9
	21	45	8912.76	229.566	-11.6861	1	229.864	-2.91413	3.26766E-006	-0.443518	9
	22	47	7942.6	229.969	-12.9515	1	230.333	-3.22341	3.05423E-006	-0.443508	9
	23	49	7078.05	230.198	-14.0512	1	230.626	-3.49299	3.03475E-006	-0.443491	9
	24	51	6311.1	230.433	-15.815	1	230.975	-3.92616	3.15639E-006	-0.443499	9
	25	53	5622.14	230.499	-17.2363	1	231.142	-4.27653	3.17469E-006	-0.4435	9
	26	55	5011.18	231.157	-18.6149	1	231.906	-4.60404	3.04066E-006	-0.443492	9
	27	57	4465.21	231.32	-20.8615	1	232.259	-5.15326	3.15023E-006	-0.443496	9
	28	59	3980.93	231.643	-22.974	1	232.78	-5.66397	3.06545E-006	-0.443496	9
	29	61	3548.18	231.922	-25.6186	1	233.332	-6.30347	2.94552E-006	-0.443511	9
	30	63	3162.67	232.615	-28.5658	1	234.362	-7.00104	3.12627E-006	-0.443506	9
	31	65	2819.01	233.532	-31.7425	1	235.679	-7.74041	3.12069E-006	-0.4435	9
	32	67	2511.16	233.808	-34.7157	1	236.371	-8.44555	2.93341E-006	-0.443487	9
	33	69	2238.63	234.492	-38.6177	1	237.651	-9.3519	3.03322E-006	-0.443492	9
	34	71	1995.37	234.942	-42.8092	1	238.81	-10.3267	3.00609E-006	-0.4435	9
	35	73	1778.51	236.182	-47.1125	1	240.835	-11.281	2.96644E-006	-0.443499	9
	36	75	1584.49	236.914	-52.5248	1	242.667	-12.5005	3.01227E-006	-0.443486	9
	37	77	1412.76	237.797	-57.9964	1	244.768	-13.7063	2.79859E-006	-0.443481	9
	38	79	1259.04	238.805	-63.8561	1	247.195	-14.9706	2.96897E-006	-0.443487	9
	39	81	1121.63	240.005	-71.0393	1	250.298	-16.4883	3.00547E-006	-0.443486	9
	40	83	999.95	241.204	-78.6351	1	253.699	-18.0565	3.13831E-006	-0.443491	9
	41	85	891.184	242.935	-86.7989	1	257.975	-19.6615	3.11975E-006	-0.44349	9
	42	87	794.163	244.241	-96.055	1	262.45	-21.4686	2.92547E-006	-0.443484	9
	43	89	707.867	246.086	-106.835	1	268.276	-23.4675	2.80039E-006	-0.443476	9
	44	91	630.984	247.707	-118.49	1	274.588	-25.5639	3.0177E-006	-0.443502	9
	45	93	562.189	249.695	-130.889	1	281.922	-27.6633	3.14344E-006	-0.443516	9
	46	95	501.303	251.766	-144.948	1	290.51	-29.9302	2.86725E-006	-0.443503	9
	47	97	446.614	254.005	-160.78	1	300.613	-32.333	2.83381E-006	-0.443507	9
	48	99	398.209	256.416	-178.246	1	312.284	-34.8048	2.89837E-006	-0.443515	9
	49	101	354.821	259.071	-197.707	1	325.892	-37.3486	2.88619E-006	-0.443516	9
	50	103	316.113	261.993	-219.425	1	341.742	-39.9469	2.93222E-006	-0.443513	9
	51	105	281.926	265.158	-243.322	1	359.88	-42.541	2.87305E-006	-0.443511	9
	52	107	251.185	268.642	-270.161	1	380.993	-45.1615	2.83747E-006	-0.443511	9
	53	109	223.946	272.461	-299.866	1	405.16	-47.7414	2.96255E-006	-0.443509	9
	54	111	199.495	276.67	-333.183	1	433.079	-50.2943	3.02895E-006	-0.443507	9
	55	113	177.836	281.302	-369.998	1	464.789	-52.755	2.99475E-006	-0.443513	9
	56	115	158.533	286.322	-410.999	1	500.9	-55.137	3.01684E-006	-0.44351	9
	57	117	141.263	292.025	-456.847	1	542.207	-57.4126	2.90081E-006	-0.443507	9
	58	119	125.911	298.163	-507.719	1	588.795	-59.576	2.90662E-006	-0.443511	9
	59	121	112.198	305.165	-564.472	1	641.681	-61.6034	2.87505E-006	-0.443517	9
	60	123	100.009	312.735	-627.496	1	701.109	-63.509	2.89691E-006	-0.443516	9
	61	125	89.1164	321.2	-697.758	1	768.138	-65.2819	2.90008E-006	-0.443511	9
	62	127	79.4083	330.342	-776.239	1	843.607	-66.947	2.77437E-006	-0.443512	9
	63	129	70.788	340.938	-863.21	1	928.1	-68.4477	2.82118E-006	-0.44351	9
	64	131	63.0971	352.495	-960.09	1	1022.75	-69.8394	2.85144E-006	-0.443523	9
	65	133	54.5476	369.059	-1097.97	1	1158.33	-71.421	2.02672E-006	-0.443519	8
	66	135	50.0083	380.433	-1190.1	1	1249.43	-72.2728	1.91477E-006	-0.443526	8
	67	137	46.1675	391.252	-1282.09	1	1340.46	-73.0296	1.83685E-006	-0.443525	8
	68	139	40.0059	413.347	-1464.39	1	1521.61	-74.2375	1.80522E-006	-0.44352	8
	69	142	35.3046	435.534	-1644.94	1	1701.62	-75.17	1.77725E-006	-0.443518	8
	70	144	31.5793	458.765	-1825.17	1	1881.94	-75.8907	1.84747E-006	-0.443515	8
	71	146	28.5748	483.08	-2003.39	1	2060.81	-76.443	1.84192E-006	-0.443517	8
	72	148	24.9911	519.084	-2270.28	1	2328.86	-77.1211	1.85219E-006	-0.443523	8
	73	150	22.2195	555.711	-2532.5	1	2592.75	-77.6236	1.78636E-006	-0.443522	8
	74	153	20.0011	589.814	-2795.22	1	2856.77	-78.0849	1.78771E-006	-0.443513	8
	75	155	17.6486	642.506	-3140.84	1	3205.89	-78.4388	1.83228E-006	-0.443513	8
	76	157	15.7934	701.733	-3483.82	1	3553.79	-78.6115	1.87537E-006	-0.443514	8
	77	159	14.2828	762.992	-3828.06	1	3903.36	-78.7278	1.94276E-006	-0.443515	8
	78	162	12.5002	846.456	-4342.41	1	4424.14	-78.9698	1.96813E-006	-0.443504	8
	79	164	11.323	937.621	-4756.49	1	4848.03	-78.8486	2.22791E-006	-0.443514	8
	80	167	9.9987	1096.79	-5332.84	1	5444.46	-78.3782	2.27503E-006	-0.443507	8
