EXPLAIN
TAG	EISPOT
TITLE	LABEL	Tomato_open	Test &Identifier
DATE	LABEL	5/10/2006	Date
TIME	LABEL	16:21:35	Time
NOTES	NOTES	1	&Notes...
	
PSTAT	PSTAT	300	Potentiostat
VDC	POTEN	1.00000E-001	T	DC &Voltage (V)
FREQINIT	QUANT	1.00000E+005	Initial Fre&q. (Hz)
FREQFINAL	QUANT	1.00000E+001	Final Fre&q. (Hz)
PTSPERDEC	QUANT	2.00000E+001	Points/&decade
VAC	QUANT	1.00000E+001	AC &Voltage (mV rms)
AREA	QUANT	1.00000E+000	&Area (cm²)
DENSITY	QUANT	7.87000E+000	&Density (gm/cm³)
EQUIV	QUANT	7.00000E+000	Equiv. &Wt
CONDIT	TWOPARAM	F	1.50000E+001	0.00000E+000	Conditionin&g	Time(s)	E(V)
DELAY	TWOPARAM	F	6.00000E+002	0.00000E+000	Init. De&lay	Time(s)	Stab.(mV/s)
SPEED	SELECTOR	1	&Optimize for:
ZGUESS	QUANT	1.00000E+002	E&stimated Z (ohms)
OCVCURVE	TABLE	39
	Pt	T	Vf	Vm	Ach	Over
	#	s	V vs. Ref.	V	V	bits
	0	0.258332	-5.63443E-001	5.51494E-006	3.15400E-004	......
	1	0.516663	-5.63644E-001	5.51494E-006	4.15400E-004	......
	2	0.774994	-5.63393E-001	5.51494E-006	1.54000E-005	......
	3	1.03333	-5.62893E-001	5.51494E-006	2.15400E-004	......
	4	1.29166	-5.62343E-001	5.51494E-006	2.15400E-004	......
	5	1.54999	-5.62293E-001	5.51494E-006	2.15400E-004	......
	6	1.80832	-5.61593E-001	5.51494E-006	2.15400E-004	......
	7	2.06665	-5.61393E-001	5.51494E-006	2.15400E-004	......
	8	2.32498	-5.61794E-001	5.51494E-006	2.15400E-004	......
	9	2.58332	-5.59143E-001	5.51494E-006	3.15400E-004	......
	10	2.84165	-5.57793E-001	5.51494E-006	2.15400E-004	......
	11	3.09998	-5.56193E-001	5.51494E-006	3.15400E-004	......
	12	3.35831	-5.54543E-001	5.51494E-006	3.15400E-004	......
	13	3.61664	-5.49893E-001	5.51494E-006	3.15400E-004	......
	14	3.87497	-5.50443E-001	5.51494E-006	3.15400E-004	......
	15	4.1333	-5.51593E-001	5.51494E-006	2.15400E-004	......
	16	4.39164	-5.52393E-001	5.51494E-006	2.15400E-004	......
	17	4.64997	-5.52343E-001	5.51494E-006	3.15400E-004	......
	18	4.9083	-5.53093E-001	5.51494E-006	1.15400E-004	......
	19	5.16663	-5.54693E-001	5.51494E-006	4.15400E-004	......
	20	5.42496	-5.55643E-001	5.51494E-006	2.15400E-004	......
	21	5.68329	-5.56593E-001	5.51494E-006	2.15400E-004	......
	22	5.94162	-5.57393E-001	5.51494E-006	2.15400E-004	......
	23	6.19996	-5.58244E-001	5.51494E-006	3.15400E-004	......
	24	6.45829	-5.58443E-001	5.51494E-006	2.15400E-004	......
	25	6.71662	-5.58643E-001	5.51494E-006	3.15400E-004	......
	26	6.97495	-5.57094E-001	5.51494E-006	3.15400E-004	......
	27	7.23328	-5.56143E-001	5.51494E-006	3.15400E-004	......
	28	7.49161	-5.55443E-001	5.51494E-006	2.15400E-004	......
	29	7.74995	-5.55744E-001	5.51494E-006	3.15400E-004	......
	30	8.00828	-5.56044E-001	5.51494E-006	3.15400E-004	......
	31	8.26661	-5.56293E-001	5.51494E-006	3.15400E-004	......
	32	8.52494	-5.56193E-001	5.51494E-006	2.15400E-004	......
	33	8.78327	-5.56693E-001	5.51494E-006	2.15400E-004	......
	34	9.0416	-5.57643E-001	5.51494E-006	2.15400E-004	......
	35	9.29993	-5.58443E-001	5.51494E-006	3.15400E-004	......
	36	9.5583	-5.58643E-001	5.51494E-006	3.15400E-004	......
	37	9.8166	-5.58843E-001	5.51494E-006	3.15400E-004	......
	38	10.0749	-5.59143E-001	5.51494E-006	3.15400E-004	......
EOC	QUANT	-0.559143	Open Circuit (V)
PSTATMODEL	IQUANT	32	Pstat Model
PSTATSECTION	LABEL	PStat0	Pstat Section
CTRLMODE	IQUANT	1	Control Mode
IESTAB	IQUANT	0	I/E Stability
CASPEED	IQUANT	1	Control Amp Speed
CONVENTION	IQUANT	1	Current Convention
ICHRANGE	IQUANT	2	Ich Range
ICHRANGEMODE	TOGGLE	F	Ich Auto Range
ICHOFFSETENABLE	TOGGLE	T	Ich Offset Enable
ICHOFFSET	QUANT	0	Ich Offset (V)
ICHFILTER	IQUANT	3	Ich Filter
VCHRANGE	IQUANT	2	Vch Range
VCHRANGEMODE	TOGGLE	F	Vch Auto Range
VCHOFFSETENABLE	TOGGLE	T	Vch Offset Enable
VCHOFFSET	QUANT	0	Vch Offset (V)
VCHFILTER	IQUANT	3	Vch Filter
ACHRANGE	IQUANT	0	Ach Range
IERANGELOWERLIMIT	IQUANT	3	I/E Range Lower Limit
IERANGEMODE	TOGGLE	F	I/E AutoRange
IERANGE	IQUANT	11	I/E Range
POSFEEDENABLE	TOGGLE	F	Positive Feedback IR Comp
POSFEEDRESISTANCE	QUANT	0	Positive Feedback Resistance (ohm)
FC350IDIVISOR	IQUANT	0	FC350 I Divisor
FC350VRANGE	IQUANT	0	FC350 V Range
FRAMEWORKVERSION	QUANT	4.35	Framework Version
ZCURVE	TABLE
	Pt	Time	Freq	Zreal	Zimag	Zsig	Zmod	Zphz	Idc	Vdc	IERange
	#	s	Hz	ohm	ohm	V	ohm	°	A	V	#
	0	4	100007	230.695	0.004322	1	230.695	0.001074	2.772E-006	-0.459041	9
	1	6	89134.1	229.593	-0.174608	1	229.593	-0.043574	2.698E-006	-0.459032	9
	2	8	79433.6	229.174	-0.69673	1	229.175	-0.174189	3.32973E-006	-0.459061	9
	3	10	70800.8	228.747	-1.05959	1	228.749	-0.2654	3.04472E-006	-0.459025	9
	4	12	63105.5	228.025	-1.57475	1	228.031	-0.39568	3.40909E-006	-0.459078	9
	5	14	56243.5	228.704	-1.71428	1	228.711	-0.429461	3.43347E-006	-0.45907	9
	6	16	50123.7	228.006	-1.91097	1	228.014	-0.480199	3.24673E-006	-0.459039	9
	7	18	44681	228.141	-2.75225	1	228.157	-0.691174	3.57933E-006	-0.459065	9
	8	20	39811.2	227.412	-2.55969	1	227.426	-0.644879	3.38037E-006	-0.459021	9
	9	21	35488.3	227.59	-3.34312	1	227.614	-0.84157	3.72644E-006	-0.459065	9
	10	23	31634.1	227.694	-3.5189	1	227.721	-0.885408	3.8548E-006	-0.459067	9
	11	25	28173.1	227.593	-3.84326	1	227.626	-0.96744	3.65617E-006	-0.459053	9
	12	27	25123.7	227.893	-4.58484	1	227.939	-1.15254	3.57553E-006	-0.459032	9
	13	29	22389.3	228.056	-5.07901	1	228.112	-1.27582	3.63156E-006	-0.459019	9
	14	31	19954.4	228.125	-5.57751	1	228.193	-1.40057	3.64464E-006	-0.459046	9
	15	33	17778.2	227.892	-6.361	1	227.981	-1.59884	3.67364E-006	-0.459041	9
	16	35	15852.9	227.996	-7.09913	1	228.106	-1.78345	3.41312E-006	-0.459029	9
	17	37	14122.3	228.721	-7.83541	1	228.856	-1.96204	3.68469E-006	-0.459044	9
	18	39	12587.2	228.825	-8.53232	1	228.984	-2.13543	3.54023E-006	-0.459041	9
	19	41	11221.1	228.588	-9.33482	1	228.779	-2.33848	3.62644E-006	-0.459036	9
	20	43	9998.2	229.289	-10.5704	1	229.533	-2.6395	3.57809E-006	-0.45903	9
	21	45	8912.76	229.386	-11.4099	1	229.67	-2.84761	3.66834E-006	-0.459051	9
	22	47	7942.6	229.585	-12.6089	1	229.931	-3.14355	3.74167E-006	-0.459031	9
	23	49	7078.05	229.64	-13.7504	1	230.051	-3.42666	3.70705E-006	-0.459043	9
	24	51	6311.1	229.96	-15.4542	1	230.479	-3.84473	3.73887E-006	-0.459031	9
	25	53	5622.14	230.409	-17.162	1	231.047	-4.25982	3.63942E-006	-0.45904	9
	26	55	5011.18	230.725	-18.6394	1	231.477	-4.61867	3.722E-006	-0.459029	9
	27	57	4465.21	231.215	-21.1294	1	232.178	-5.22142	3.74347E-006	-0.459049	9
	28	59	3980.93	231.125	-22.8981	1	232.256	-5.65797	3.66897E-006	-0.459059	9
	29	61	3548.18	231.916	-25.4735	1	233.31	-6.26823	3.92081E-006	-0.459053	9
	30	63	3162.67	232.246	-28.4257	1	233.979	-6.978	3.44623E-006	-0.459034	9
	31	65	2819.01	232.834	-31.1827	1	234.913	-7.62804	3.45873E-006	-0.459039	9
	32	67	2511.16	233.19	-34.855	1	235.781	-8.50107	3.61897E-006	-0.459051	9
	33	69	2238.63	234.054	-38.3197	1	237.17	-9.29806	3.49612E-006	-0.459049	9
	34	71	1995.37	234.792	-42.6599	1	238.636	-10.2979	3.57886E-006	-0.459048	9
	35	73	1778.51	235.548	-46.7529	1	240.143	-11.2265	3.53925E-006	-0.459043	9
	36	75	1584.49	236.212	-52.3782	1	241.95	-12.5026	3.45616E-006	-0.459043	9
	37	77	1412.76	237.391	-57.7195	1	244.307	-13.6658	3.57777E-006	-0.45907	9
	38	79	1259.04	238.265	-63.6921	1	246.631	-14.9662	3.54822E-006	-0.459058	9
	39	81	1121.63	239.616	-70.2881	1	249.712	-16.3484	3.43189E-006	-0.459046	9
	40	83	999.95	241.014	-78.2568	1	253.401	-17.9885	3.32013E-006	-0.45903	9
	41	85	891.184	242.032	-85.9364	1	256.836	-19.548	3.36656E-006	-0.459032	9
	42	87	794.163	243.96	-95.455	1	261.97	-21.3692	3.39669E-006	-0.459037	9
	43	89	707.867	245.328	-106.411	1	267.412	-23.4487	3.49936E-006	-0.459035	9
	44	91	630.984	247.185	-117.796	1	273.818	-25.4802	3.51841E-006	-0.459031	9
	45	92	562.189	249.127	-130.695	1	281.328	-27.6821	3.50123E-006	-0.459044	9
	46	94	501.303	250.884	-144.602	1	289.573	-29.9579	3.45445E-006	-0.459053	9
	47	96	446.614	253.09	-160.435	1	299.657	-32.3708	3.43669E-006	-0.459047	9
	48	99	398.209	255.48	-177.914	1	311.325	-34.853	3.35931E-006	-0.459049	9
	49	101	354.821	258.099	-197.422	1	324.947	-37.4127	3.60003E-006	-0.459043	9
	50	103	316.113	261.017	-219.177	1	340.835	-40.0204	3.63195E-006	-0.459042	9
	51	104	281.926	264.138	-243.125	1	358.997	-42.6279	3.6017E-006	-0.459038	9
	52	106	251.185	267.616	-269.989	1	380.148	-45.2529	3.26927E-006	-0.459041	9
	53	108	223.946	271.45	-299.722	1	404.374	-47.8337	3.40345E-006	-0.459041	9
	54	110	199.495	275.682	-333.033	1	432.332	-50.3823	3.36403E-006	-0.459043	9
	55	112	177.836	280.267	-369.942	1	464.119	-52.8525	3.25953E-006	-0.459044	9
	56	114	158.533	285.326	-410.964	1	500.303	-55.2284	3.11548E-006	-0.459041	9
	57	116	141.263	291.05	-456.924	1	541.747	-57.5039	3.18663E-006	-0.459038	9
	58	118	125.911	297.525	-507.874	1	588.606	-59.6372	3.31878E-006	-0.459042	9
	59	121	112.198	304.62	-564.733	1	641.651	-61.6573	3.44411E-006	-0.459047	9
	60	123	100.009	312.413	-627.846	1	701.279	-63.5453	3.48798E-006	-0.459046	9
	61	125	89.1164	321.409	-698.255	1	768.677	-65.2832	3.43505E-006	-0.459046	9
	62	127	79.4083	331.004	-776.819	1	844.4	-66.9211	3.35259E-006	-0.459047	9
	63	129	70.788	341.634	-863.81	1	928.914	-68.4214	3.35095E-006	-0.459051	9
	64	131	63.0971	353.639	-960.6	1	1023.63	-69.7892	3.3312E-006	-0.459051	9
	65	133	54.5476	371.09	-1098.69	1	1159.66	-71.3372	2.46666E-006	-0.45905	8
	66	135	50.0083	382.425	-1190.48	1	1250.4	-72.1912	2.34689E-006	-0.45905	8
	67	137	46.1675	395.217	-1282.06	1	1341.6	-72.8672	2.50863E-006	-0.459052	8
	68	139	40.0059	419.839	-1464.82	1	1523.8	-74.0069	2.53534E-006	-0.459044	8
	69	141	35.3046	444.464	-1645.22	1	1704.2	-74.8822	2.56863E-006	-0.459045	8
	70	144	31.5793	469.361	-1824.28	1	1883.69	-75.5716	2.59105E-006	-0.459043	8
	71	146	28.5748	494.141	-2002.2	1	2062.27	-76.1365	2.57742E-006	-0.459046	8
	72	148	24.9911	533.302	-2269.03	1	2330.86	-76.7735	2.49446E-006	-0.459043	8
	73	150	22.2195	573.504	-2530.98	1	2595.14	-77.2327	2.43226E-006	-0.459039	8
	74	152	20.0011	617.886	-2791.2	1	2858.77	-77.5178	2.59125E-006	-0.459043	8
	75	155	17.6486	689.002	-3135.14	1	3209.96	-77.6053	2.84699E-006	-0.459043	8
	76	157	15.7934	750.241	-3478.77	1	3558.75	-77.8298	2.7926E-006	-0.459044	8
	77	159	14.2828	818.663	-3811.92	1	3898.83	-77.879	2.65013E-006	-0.459042	8
	78	162	12.5002	908.748	-4321.1	1	4415.62	-78.1235	2.63276E-006	-0.45904	8
	79	164	11.323	1008.5	-4735.48	1	4841.68	-77.9776	2.66184E-006	-0.459036	8
	80	167	9.9987	1151	-5320.47	1	5443.54	-77.7931	2.64217E-006	-0.459038	8
