EXPLAIN
TAG	EISPOT
TITLE	LABEL	Tomato_open	Test &Identifier
DATE	LABEL	5/10/2006	Date
TIME	LABEL	16:01:31	Time
NOTES	NOTES	1	&Notes...
	
PSTAT	PSTAT	300	Potentiostat
VDC	POTEN	1.00000E-001	T	DC &Voltage (V)
FREQINIT	QUANT	1.00000E+005	Initial Fre&q. (Hz)
FREQFINAL	QUANT	1.00000E+001	Final Fre&q. (Hz)
PTSPERDEC	QUANT	2.00000E+001	Points/&decade
VAC	QUANT	1.00000E+001	AC &Voltage (mV rms)
AREA	QUANT	1.00000E+000	&Area (cm²)
DENSITY	QUANT	7.87000E+000	&Density (gm/cm³)
EQUIV	QUANT	7.00000E+000	Equiv. &Wt
CONDIT	TWOPARAM	F	1.50000E+001	0.00000E+000	Conditionin&g	Time(s)	E(V)
DELAY	TWOPARAM	F	6.00000E+002	0.00000E+000	Init. De&lay	Time(s)	Stab.(mV/s)
SPEED	SELECTOR	1	&Optimize for:
ZGUESS	QUANT	1.00000E+002	E&stimated Z (ohms)
OCVCURVE	TABLE	39
	Pt	T	Vf	Vm	Ach	Over
	#	s	V vs. Ref.	V	V	bits
	0	0.258332	-5.24943E-001	3.27864E-006	2.15400E-004	......
	1	0.516663	-5.25693E-001	3.27864E-006	2.15400E-004	......
	2	0.774994	-5.25993E-001	3.27864E-006	2.15400E-004	......
	3	1.03333	-5.27294E-001	3.27864E-006	1.15400E-004	......
	4	1.29166	-5.28693E-001	3.27864E-006	3.15400E-004	......
	5	1.54999	-5.29144E-001	3.27864E-006	3.15400E-004	......
	6	1.80832	-5.29643E-001	3.27864E-006	3.15400E-004	......
	7	2.06665	-5.30194E-001	3.27864E-006	3.15400E-004	......
	8	2.32498	-5.30743E-001	3.27864E-006	2.15400E-004	......
	9	2.58332	-5.30343E-001	3.27864E-006	2.15400E-004	......
	10	2.84165	-5.29893E-001	3.27864E-006	2.15400E-004	......
	11	3.09998	-5.29593E-001	3.27864E-006	2.15400E-004	......
	12	3.35831	-5.30443E-001	3.27864E-006	4.15400E-004	......
	13	3.61664	-5.31393E-001	3.27864E-006	2.15400E-004	......
	14	3.87497	-5.32593E-001	3.27864E-006	3.15400E-004	......
	15	4.1333	-5.33093E-001	3.27864E-006	3.15400E-004	......
	16	4.39164	-5.33394E-001	3.27864E-006	2.15400E-004	......
	17	4.64997	-5.33293E-001	3.27864E-006	3.15400E-004	......
	18	4.9083	-5.32743E-001	3.27864E-006	3.15400E-004	......
	19	5.16663	-5.32344E-001	3.27864E-006	2.15400E-004	......
	20	5.42496	-5.32694E-001	3.27864E-006	3.15400E-004	......
	21	5.68329	-5.32593E-001	3.27864E-006	2.15400E-004	......
	22	5.94162	-5.32394E-001	3.27864E-006	3.15400E-004	......
	23	6.19996	-5.32193E-001	3.27864E-006	3.15400E-004	......
	24	6.45829	-5.33943E-001	3.27864E-006	3.15400E-004	......
	25	6.71662	-5.34544E-001	3.27864E-006	2.15400E-004	......
	26	6.97495	-5.34393E-001	3.27864E-006	3.15400E-004	......
	27	7.23328	-5.33943E-001	3.27864E-006	1.15400E-004	......
	28	7.49161	-5.33643E-001	3.27864E-006	4.15400E-004	......
	29	7.74995	-5.34544E-001	3.27864E-006	3.15400E-004	......
	30	8.00828	-5.35293E-001	3.27864E-006	3.15400E-004	......
	31	8.26661	-5.35143E-001	3.27864E-006	3.15400E-004	......
	32	8.52494	-5.34494E-001	3.27864E-006	3.15400E-004	......
	33	8.78327	-5.33993E-001	3.27864E-006	2.15400E-004	......
	34	9.0416	-5.33044E-001	3.27864E-006	2.15400E-004	......
	35	9.29993	-5.32443E-001	3.27864E-006	2.15400E-004	......
	36	9.5583	-5.31043E-001	3.27864E-006	4.15400E-004	......
	37	9.8166	-5.29794E-001	3.27864E-006	3.15400E-004	......
	38	10.0749	-5.28993E-001	3.27864E-006	3.15400E-004	......
EOC	QUANT	-0.528993	Open Circuit (V)
PSTATMODEL	IQUANT	32	Pstat Model
PSTATSECTION	LABEL	PStat0	Pstat Section
CTRLMODE	IQUANT	1	Control Mode
IESTAB	IQUANT	0	I/E Stability
CASPEED	IQUANT	1	Control Amp Speed
CONVENTION	IQUANT	1	Current Convention
ICHRANGE	IQUANT	2	Ich Range
ICHRANGEMODE	TOGGLE	F	Ich Auto Range
ICHOFFSETENABLE	TOGGLE	T	Ich Offset Enable
ICHOFFSET	QUANT	0	Ich Offset (V)
ICHFILTER	IQUANT	3	Ich Filter
VCHRANGE	IQUANT	2	Vch Range
VCHRANGEMODE	TOGGLE	F	Vch Auto Range
VCHOFFSETENABLE	TOGGLE	T	Vch Offset Enable
VCHOFFSET	QUANT	0	Vch Offset (V)
VCHFILTER	IQUANT	3	Vch Filter
ACHRANGE	IQUANT	0	Ach Range
IERANGELOWERLIMIT	IQUANT	3	I/E Range Lower Limit
IERANGEMODE	TOGGLE	F	I/E AutoRange
IERANGE	IQUANT	11	I/E Range
POSFEEDENABLE	TOGGLE	F	Positive Feedback IR Comp
POSFEEDRESISTANCE	QUANT	0	Positive Feedback Resistance (ohm)
FC350IDIVISOR	IQUANT	0	FC350 I Divisor
FC350VRANGE	IQUANT	0	FC350 V Range
FRAMEWORKVERSION	QUANT	4.35	Framework Version
ZCURVE	TABLE
	Pt	Time	Freq	Zreal	Zimag	Zsig	Zmod	Zphz	Idc	Vdc	IERange
	#	s	Hz	ohm	ohm	V	ohm	°	A	V	#
	0	4	100007	230.955	0.098332	1	230.955	0.024394	2.70083E-006	-0.428954	9
	1	6	89134.1	230.304	-0.074836	1	230.304	-0.018618	2.95038E-006	-0.428948	9
	2	8	79433.6	229.627	-0.195528	1	229.627	-0.048787	3.21186E-006	-0.428938	9
	3	10	70800.8	229.582	-0.98771	1	229.584	-0.246496	3.29373E-006	-0.428958	9
	4	12	63105.5	228.995	-1.46402	1	229	-0.366302	3.09214E-006	-0.428928	9
	5	14	56243.5	228.837	-1.74804	1	228.844	-0.437662	3.19891E-006	-0.428927	9
	6	16	50123.7	228.547	-2.15882	1	228.557	-0.541191	3.43864E-006	-0.428925	9
	7	18	44681	228.543	-2.52312	1	228.557	-0.632521	3.59522E-006	-0.428952	9
	8	20	39811.2	228.297	-2.84862	1	228.315	-0.714882	3.66636E-006	-0.428925	9
	9	22	35488.3	228.322	-3.20121	1	228.344	-0.80327	3.47081E-006	-0.428919	9
	10	24	31634.1	228.205	-3.65235	1	228.234	-0.916921	3.85892E-006	-0.428934	9
	11	25	28173.1	228.651	-4.24874	1	228.69	-1.06453	4.04381E-006	-0.428941	9
	12	27	25123.7	228.508	-4.60961	1	228.555	-1.15565	3.96995E-006	-0.428963	9
	13	29	22389.3	228.99	-5.22757	1	229.049	-1.30777	3.60158E-006	-0.428911	9
	14	31	19954.4	228.765	-5.75002	1	228.837	-1.43983	3.84933E-006	-0.42893	9
	15	33	17778.2	228.859	-6.3986	1	228.948	-1.6015	3.81206E-006	-0.428935	9
	16	35	15852.9	229.264	-7.02637	1	229.371	-1.75543	3.85181E-006	-0.428953	9
	17	37	14122.3	229.749	-7.96825	1	229.887	-1.98636	3.69655E-006	-0.428942	9
	18	39	12587.2	229.847	-9.09075	1	230.026	-2.26495	3.6877E-006	-0.428938	9
	19	41	11221.1	230.155	-9.6219	1	230.356	-2.39392	3.65092E-006	-0.428939	9
	20	43	9998.2	230.023	-10.5517	1	230.265	-2.62646	3.57889E-006	-0.428942	9
	21	45	8912.76	230.346	-11.8638	1	230.651	-2.94837	3.96319E-006	-0.42895	9
	22	47	7942.6	230.393	-12.9067	1	230.754	-3.20639	3.938E-006	-0.42894	9
	23	49	7078.05	230.652	-14.0995	1	231.082	-3.49808	3.90906E-006	-0.428933	9
	24	51	6311.1	230.944	-15.9379	1	231.493	-3.94783	3.82758E-006	-0.428942	9
	25	53	5622.14	231.355	-17.2746	1	231.999	-4.27019	3.72292E-006	-0.428942	9
	26	55	5011.18	231.606	-19.2382	1	232.404	-4.74834	3.70188E-006	-0.428943	9
	27	57	4465.21	232.119	-21.0714	1	233.074	-5.18701	3.94436E-006	-0.428944	9
	28	59	3980.93	232.477	-23.773	1	233.69	-5.83874	3.50459E-006	-0.428923	9
	29	61	3548.18	232.8	-25.6967	1	234.214	-6.29887	4.04242E-006	-0.428948	9
	30	63	3162.67	233.511	-28.6319	1	235.26	-6.99042	3.66122E-006	-0.428914	9
	31	65	2819.01	233.937	-31.7527	1	236.083	-7.72962	3.61109E-006	-0.428919	9
	32	67	2511.16	234.703	-35.1819	1	237.325	-8.52515	4.16442E-006	-0.428931	9
	33	69	2238.63	235.433	-38.8477	1	238.617	-9.36968	3.88808E-006	-0.428932	9
	34	71	1995.37	236.058	-42.9533	1	239.934	-10.3128	4.14272E-006	-0.42894	9
	35	73	1778.51	237.376	-47.7019	1	242.122	-11.3625	3.9562E-006	-0.428943	9
	36	75	1584.49	237.649	-52.7925	1	243.442	-12.5246	3.85023E-006	-0.428939	9
	37	77	1412.76	238.6	-58.1848	1	245.592	-13.7046	3.97844E-006	-0.428973	9
	38	79	1259.04	239.808	-64.3519	1	248.292	-15.0213	3.76609E-006	-0.428947	9
	39	81	1121.63	241.167	-71.538	1	251.553	-16.5221	3.81197E-006	-0.428943	9
	40	83	999.95	243.065	-78.6804	1	255.482	-17.9368	3.79225E-006	-0.428944	9
	41	85	891.184	244.138	-86.9097	1	259.146	-19.595	3.77472E-006	-0.428948	9
	42	87	794.163	245.738	-96.145	1	263.876	-21.3679	3.64861E-006	-0.42895	9
	43	89	707.867	247.287	-106.579	1	269.277	-23.3158	3.39652E-006	-0.428939	9
	44	91	630.984	249.474	-118.206	1	276.061	-25.3526	3.61025E-006	-0.428964	9
	45	93	562.189	251.306	-131.294	1	283.536	-27.5847	3.29634E-006	-0.428943	9
	46	95	501.303	253.493	-144.648	1	291.859	-29.71	3.64897E-006	-0.428965	9
	47	97	446.614	255.815	-160.349	1	301.916	-32.0801	3.57667E-006	-0.428956	9
	48	98	398.209	258.341	-177.688	1	313.549	-34.5204	3.53608E-006	-0.428957	9
	49	100	354.821	261.089	-197.008	1	327.078	-37.0368	3.60572E-006	-0.428965	9
	50	102	316.113	264.126	-218.563	1	342.83	-39.6076	3.69583E-006	-0.428959	9
	51	104	281.926	267.399	-242.261	1	360.823	-42.1763	3.51642E-006	-0.42896	9
	52	106	251.185	270.995	-268.867	1	381.743	-44.7742	3.45691E-006	-0.428962	9
	53	108	223.946	274.969	-298.325	1	405.717	-47.333	3.51941E-006	-0.428959	9
	54	110	199.495	279.315	-331.304	1	433.335	-49.8665	3.40884E-006	-0.428955	9
	55	112	177.836	284.015	-367.805	1	464.699	-52.3251	3.4423E-006	-0.428952	9
	56	114	158.533	289.27	-408.433	1	500.495	-54.6922	3.49359E-006	-0.428953	9
	57	116	141.263	295.237	-453.918	1	541.485	-56.9592	3.57723E-006	-0.428958	9
	58	119	125.911	301.596	-504.257	1	587.567	-59.1163	3.55813E-006	-0.428955	9
	59	121	112.198	308.817	-560.629	1	640.057	-61.1523	3.62056E-006	-0.428963	9
	60	123	100.009	316.975	-623.011	1	699.011	-63.0339	3.755E-006	-0.428956	9
	61	125	89.1164	325.312	-692.72	1	765.303	-64.8446	3.41298E-006	-0.428958	9
	62	127	79.4083	335.434	-770.482	1	840.333	-66.4738	3.54875E-006	-0.428957	9
	63	129	70.788	346.522	-856.768	1	924.192	-67.979	3.58505E-006	-0.428953	9
	64	131	63.0971	358.584	-952.49	1	1017.75	-69.3701	3.5253E-006	-0.428949	9
	65	133	54.5476	375.32	-1089.26	1	1152.11	-70.9879	2.71211E-006	-0.428957	8
	66	135	50.0083	388.523	-1180.04	1	1242.35	-71.7761	2.77036E-006	-0.428963	8
	67	137	46.1675	400.241	-1271.63	1	1333.13	-72.5289	2.76086E-006	-0.428961	8
	68	139	40.0059	424.858	-1452.54	1	1513.4	-73.6961	2.77606E-006	-0.428957	8
	69	141	35.3046	451.001	-1631.32	1	1692.51	-74.5458	2.80665E-006	-0.428963	8
	70	144	31.5793	475.733	-1809.53	1	1871.02	-75.2701	2.82558E-006	-0.428962	8
	71	146	28.5748	504.402	-1985.54	1	2048.61	-75.7462	2.80372E-006	-0.428967	8
	72	148	24.9911	544.223	-2249.17	1	2314.08	-76.3978	2.84925E-006	-0.428957	8
	73	150	22.2195	579.769	-2509.34	1	2575.45	-76.9904	2.59081E-006	-0.428969	8
	74	152	20.0011	620.178	-2767.74	1	2836.37	-77.3701	2.52033E-006	-0.428963	8
	75	155	17.6486	685.61	-3110.61	1	3185.27	-77.5702	2.68048E-006	-0.428961	8
	76	157	15.7934	743.267	-3442.4	1	3521.73	-77.816	2.67669E-006	-0.428957	8
	77	159	14.2828	801.25	-3784.23	1	3868.13	-78.0451	2.68625E-006	-0.428957	8
	78	162	12.5002	896.71	-4283.91	1	4376.75	-78.1775	2.55829E-006	-0.428958	8
	79	164	11.323	988.6	-4695.35	1	4798.3	-78.1101	2.63609E-006	-0.428952	8
	80	167	9.9987	1122.92	-5251.43	1	5370.14	-77.9301	2.75242E-006	-0.428958	8
