EXPLAIN
TAG	EISPOT
TITLE	LABEL	Tomato_open	Test &Identifier
DATE	LABEL	5/10/2006	Date
TIME	LABEL	16:06:34	Time
NOTES	NOTES	1	&Notes...
	
PSTAT	PSTAT	300	Potentiostat
VDC	POTEN	1.00000E-001	T	DC &Voltage (V)
FREQINIT	QUANT	1.00000E+005	Initial Fre&q. (Hz)
FREQFINAL	QUANT	1.00000E+001	Final Fre&q. (Hz)
PTSPERDEC	QUANT	2.00000E+001	Points/&decade
VAC	QUANT	1.00000E+001	AC &Voltage (mV rms)
AREA	QUANT	1.00000E+000	&Area (cm²)
DENSITY	QUANT	7.87000E+000	&Density (gm/cm³)
EQUIV	QUANT	7.00000E+000	Equiv. &Wt
CONDIT	TWOPARAM	F	1.50000E+001	0.00000E+000	Conditionin&g	Time(s)	E(V)
DELAY	TWOPARAM	F	6.00000E+002	0.00000E+000	Init. De&lay	Time(s)	Stab.(mV/s)
SPEED	SELECTOR	1	&Optimize for:
ZGUESS	QUANT	1.00000E+002	E&stimated Z (ohms)
OCVCURVE	TABLE	39
	Pt	T	Vf	Vm	Ach	Over
	#	s	V vs. Ref.	V	V	bits
	0	0.258332	-5.42543E-001	5.23334E-006	2.15400E-004	......
	1	0.516663	-5.41893E-001	5.23334E-006	2.15400E-004	......
	2	0.774994	-5.41793E-001	5.23334E-006	2.15400E-004	......
	3	1.03333	-5.40893E-001	5.23334E-006	2.15400E-004	......
	4	1.29166	-5.40093E-001	5.23334E-006	2.15400E-004	......
	5	1.54999	-5.40193E-001	5.23334E-006	2.15400E-004	......
	6	1.80832	-5.39893E-001	5.23334E-006	3.15400E-004	......
	7	2.06665	-5.39243E-001	5.23334E-006	2.15400E-004	......
	8	2.32498	-5.39443E-001	5.23334E-006	2.15400E-004	......
	9	2.58332	-5.39643E-001	5.23334E-006	3.15400E-004	......
	10	2.84165	-5.40043E-001	5.23334E-006	2.15400E-004	......
	11	3.09998	-5.41143E-001	5.23334E-006	3.15400E-004	......
	12	3.35831	-5.41793E-001	5.23334E-006	2.15400E-004	......
	13	3.61664	-5.41943E-001	5.23334E-006	2.15400E-004	......
	14	3.87497	-5.41693E-001	5.23334E-006	2.15400E-004	......
	15	4.1333	-5.41043E-001	5.23334E-006	3.15400E-004	......
	16	4.39164	-5.41344E-001	5.23334E-006	3.15400E-004	......
	17	4.64997	-5.41193E-001	5.23334E-006	4.15400E-004	......
	18	4.9083	-5.41193E-001	5.23334E-006	3.15400E-004	......
	19	5.16663	-5.41043E-001	5.23334E-006	3.15400E-004	......
	20	5.42496	-5.41143E-001	5.23334E-006	3.15400E-004	......
	21	5.68329	-5.41093E-001	5.23334E-006	3.15400E-004	......
	22	5.94162	-5.41443E-001	5.23334E-006	3.15400E-004	......
	23	6.19996	-5.41644E-001	5.23334E-006	3.15400E-004	......
	24	6.45829	-5.41644E-001	5.23334E-006	2.15400E-004	......
	25	6.71662	-5.41543E-001	5.23334E-006	2.15400E-004	......
	26	6.97495	-5.41593E-001	5.23334E-006	3.15400E-004	......
	27	7.23328	-5.41843E-001	5.23334E-006	3.15400E-004	......
	28	7.49161	-5.41793E-001	5.23334E-006	2.15400E-004	......
	29	7.74995	-5.41993E-001	5.23334E-006	2.15400E-004	......
	30	8.00828	-5.41893E-001	5.23334E-006	2.15400E-004	......
	31	8.26661	-5.41644E-001	5.23334E-006	1.15400E-004	......
	32	8.52494	-5.42394E-001	5.23334E-006	2.15400E-004	......
	33	8.78327	-5.42943E-001	5.23334E-006	2.15400E-004	......
	34	9.0416	-5.43043E-001	5.23334E-006	2.15400E-004	......
	35	9.29993	-5.42843E-001	5.23334E-006	3.15400E-004	......
	36	9.5583	-5.42444E-001	5.23334E-006	2.15400E-004	......
	37	9.8166	-5.42493E-001	5.23334E-006	3.15400E-004	......
	38	10.0749	-5.41693E-001	5.23334E-006	1.15400E-004	......
EOC	QUANT	-0.541693	Open Circuit (V)
PSTATMODEL	IQUANT	32	Pstat Model
PSTATSECTION	LABEL	PStat0	Pstat Section
CTRLMODE	IQUANT	1	Control Mode
IESTAB	IQUANT	0	I/E Stability
CASPEED	IQUANT	1	Control Amp Speed
CONVENTION	IQUANT	1	Current Convention
ICHRANGE	IQUANT	2	Ich Range
ICHRANGEMODE	TOGGLE	F	Ich Auto Range
ICHOFFSETENABLE	TOGGLE	T	Ich Offset Enable
ICHOFFSET	QUANT	0	Ich Offset (V)
ICHFILTER	IQUANT	3	Ich Filter
VCHRANGE	IQUANT	2	Vch Range
VCHRANGEMODE	TOGGLE	F	Vch Auto Range
VCHOFFSETENABLE	TOGGLE	T	Vch Offset Enable
VCHOFFSET	QUANT	0	Vch Offset (V)
VCHFILTER	IQUANT	3	Vch Filter
ACHRANGE	IQUANT	0	Ach Range
IERANGELOWERLIMIT	IQUANT	3	I/E Range Lower Limit
IERANGEMODE	TOGGLE	F	I/E AutoRange
IERANGE	IQUANT	11	I/E Range
POSFEEDENABLE	TOGGLE	F	Positive Feedback IR Comp
POSFEEDRESISTANCE	QUANT	0	Positive Feedback Resistance (ohm)
FC350IDIVISOR	IQUANT	0	FC350 I Divisor
FC350VRANGE	IQUANT	0	FC350 V Range
FRAMEWORKVERSION	QUANT	4.35	Framework Version
ZCURVE	TABLE
	Pt	Time	Freq	Zreal	Zimag	Zsig	Zmod	Zphz	Idc	Vdc	IERange
	#	s	Hz	ohm	ohm	V	ohm	°	A	V	#
	0	4	100007	231.327	0.514164	1	231.328	0.127349	1.85131E-006	-0.441485	9
	1	6	89134.1	230.647	-0.151408	1	230.647	-0.037612	1.96533E-006	-0.441497	9
	2	8	79433.6	230	-0.60243	1	230.001	-0.150072	2.1275E-006	-0.441506	9
	3	10	70800.8	229.252	-0.899082	1	229.253	-0.224702	1.97764E-006	-0.44151	9
	4	12	63105.5	228.758	-1.34407	1	228.762	-0.336637	2.24984E-006	-0.441507	9
	5	14	56243.5	228.781	-1.32955	1	228.785	-0.332967	2.07952E-006	-0.441496	9
	6	16	50123.7	228.495	-2.01942	1	228.504	-0.506363	2.39823E-006	-0.441526	9
	7	18	44681	228.417	-2.36187	1	228.43	-0.592427	2.26956E-006	-0.441504	9
	8	20	39811.2	228.197	-2.6962	1	228.213	-0.676933	2.45186E-006	-0.441531	9
	9	22	35488.3	228.518	-3.38873	1	228.543	-0.849586	2.62698E-006	-0.441535	9
	10	24	31634.1	228.462	-3.57126	1	228.49	-0.89556	2.51325E-006	-0.441513	9
	11	26	28173.1	228.379	-4.22627	1	228.418	-1.06017	2.49955E-006	-0.441521	9
	12	28	25123.7	228.536	-4.55541	1	228.581	-1.14193	2.70583E-006	-0.441536	9
	13	30	22389.3	228.45	-5.21233	1	228.51	-1.30704	2.76791E-006	-0.441528	9
	14	31	19954.4	228.495	-5.73102	1	228.567	-1.43677	2.40845E-006	-0.4415	9
	15	33	17778.2	228.961	-6.3036	1	229.047	-1.57703	2.56273E-006	-0.441506	9
	16	35	15852.9	229.157	-7.262	1	229.272	-1.8151	2.68739E-006	-0.441529	9
	17	37	14122.3	229.566	-8.14754	1	229.711	-2.03263	2.65691E-006	-0.441521	9
	18	39	12587.2	229.297	-8.71246	1	229.462	-2.17599	2.63211E-006	-0.441516	9
	19	41	11221.1	229.516	-9.49767	1	229.713	-2.36962	2.69483E-006	-0.441527	9
	20	43	9998.2	229.517	-10.2925	1	229.748	-2.56766	2.92675E-006	-0.441516	9
	21	45	8912.76	230.163	-11.4983	1	230.45	-2.85995	2.88748E-006	-0.441495	9
	22	47	7942.6	230.259	-12.8307	1	230.616	-3.1894	2.90328E-006	-0.441496	9
	23	49	7078.05	230.352	-14.148	1	230.786	-3.51463	2.91731E-006	-0.441503	9
	24	51	6311.1	230.652	-15.555	1	231.176	-3.85814	2.88319E-006	-0.441501	9
	25	53	5622.14	231.219	-17.2878	1	231.864	-4.27595	2.81439E-006	-0.441507	9
	26	55	5011.18	231.516	-19.253	1	232.315	-4.75382	2.82691E-006	-0.44151	9
	27	57	4465.21	231.581	-21.2123	1	232.55	-5.23357	2.76922E-006	-0.441513	9
	28	59	3980.93	232.159	-23.2121	1	233.316	-5.70966	2.90036E-006	-0.441518	9
	29	61	3548.18	232.6	-25.9857	1	234.047	-6.37455	2.9362E-006	-0.441529	9
	30	63	3162.67	233.196	-28.9134	1	234.981	-7.06791	2.62042E-006	-0.441495	9
	31	65	2819.01	233.769	-31.5851	1	235.893	-7.69477	2.95477E-006	-0.441505	9
	32	67	2511.16	234.467	-35.0789	1	237.076	-8.50899	2.86833E-006	-0.441503	9
	33	69	2238.63	234.931	-38.8118	1	238.115	-9.38084	2.90842E-006	-0.441511	9
	34	71	1995.37	236.046	-43.123	1	239.953	-10.3532	2.95803E-006	-0.441516	9
	35	73	1778.51	236.498	-47.6311	1	241.247	-11.3871	3.01306E-006	-0.44151	9
	36	75	1584.49	237.479	-52.3348	1	243.177	-12.428	3.14727E-006	-0.441517	9
	37	77	1412.76	238.375	-57.9883	1	245.327	-13.6725	3.31358E-006	-0.441529	9
	38	79	1259.04	239.53	-64.2108	1	247.987	-15.0065	3.1405E-006	-0.441509	9
	39	81	1121.63	240.538	-71.4421	1	250.923	-16.5419	3.06761E-006	-0.441523	9
	40	83	999.95	242.46	-79.0626	1	255.025	-18.0604	3.09467E-006	-0.441517	9
	41	85	891.184	243.4	-87.3564	1	258.602	-19.7431	3.20772E-006	-0.441516	9
	42	87	794.163	244.78	-96.401	1	263.079	-21.4958	3.10367E-006	-0.44151	9
	43	89	707.867	246.492	-106.861	1	268.659	-23.438	3.09733E-006	-0.441532	9
	44	91	630.984	248.154	-118.064	1	274.808	-25.4438	3.16117E-006	-0.441523	9
	45	93	562.189	250.103	-131.057	1	282.361	-27.6551	3.47537E-006	-0.44155	9
	46	95	501.303	252.561	-145.076	1	291.263	-29.8738	3.32659E-006	-0.441534	9
	47	97	446.614	254.816	-160.881	1	301.353	-32.2667	3.3312E-006	-0.441529	9
	48	99	398.209	257.29	-178.32	1	313.044	-34.7247	3.49475E-006	-0.441525	9
	49	101	354.821	259.979	-197.765	1	326.65	-37.2601	3.59227E-006	-0.441528	9
	50	102	316.113	262.944	-219.455	1	342.491	-39.8486	3.67062E-006	-0.441526	9
	51	104	281.926	266.185	-243.3	1	360.623	-42.4281	3.67902E-006	-0.441528	9
	52	107	251.185	269.736	-270.059	1	381.693	-45.0344	3.64747E-006	-0.441529	9
	53	108	223.946	273.635	-299.684	1	405.816	-47.6015	3.52798E-006	-0.441525	9
	54	110	199.495	277.936	-332.904	1	433.674	-50.1421	3.60952E-006	-0.441527	9
	55	112	177.836	282.617	-369.698	1	465.348	-52.6038	3.61981E-006	-0.441527	9
	56	115	158.533	287.804	-410.585	1	501.409	-54.971	3.57614E-006	-0.441526	9
	57	117	141.263	293.563	-456.258	1	542.54	-57.2422	3.43947E-006	-0.441519	9
	58	119	125.911	299.853	-507.006	1	589.039	-59.3991	3.49641E-006	-0.441519	9
	59	121	112.198	307.064	-563.662	1	641.875	-61.42	3.66357E-006	-0.441521	9
	60	123	100.009	315.302	-626.661	1	701.512	-63.291	3.80011E-006	-0.441521	9
	61	125	89.1164	323.936	-696.734	1	768.358	-65.0647	3.67252E-006	-0.441525	9
	62	127	79.4083	333.677	-775.039	1	843.816	-66.7067	3.68739E-006	-0.441527	9
	63	129	70.788	344.74	-861.634	1	928.04	-68.1936	3.76224E-006	-0.44152	9
	64	131	63.0971	357.049	-958.49	1	1022.83	-69.569	3.73441E-006	-0.441528	9
	65	133	54.5476	374.683	-1095.71	1	1158	-71.1216	2.95377E-006	-0.441526	8
	66	135	50.0083	387.936	-1187.51	1	1249.27	-71.9088	3.08273E-006	-0.441531	8
	67	137	46.1675	399.817	-1278.57	1	1339.63	-72.6352	3.01659E-006	-0.441527	8
	68	139	40.0059	423.601	-1460.1	1	1520.3	-73.8216	3.00194E-006	-0.441528	8
	69	141	35.3046	447.36	-1640.32	1	1700.23	-74.7449	2.7623E-006	-0.441534	8
	70	144	31.5793	473.351	-1819.49	1	1880.05	-75.4174	2.92096E-006	-0.441529	8
	71	146	28.5748	501.638	-1997.72	1	2059.74	-75.9042	2.97091E-006	-0.441524	8
	72	148	24.9911	543.459	-2262.41	1	2326.77	-76.4928	2.98753E-006	-0.441533	8
	73	150	22.2195	587.268	-2522.79	1	2590.24	-76.8958	2.90014E-006	-0.441531	8
	74	152	20.0011	625.553	-2782.65	1	2852.1	-77.3303	2.74385E-006	-0.441519	8
	75	155	17.6486	689.405	-3125.88	1	3201	-77.5626	2.9078E-006	-0.441521	8
	76	157	15.7934	754.59	-3465.17	1	3546.38	-77.7148	2.93421E-006	-0.441522	8
	77	159	14.2828	822.535	-3807.68	1	3895.51	-77.8103	2.89063E-006	-0.441516	8
	78	162	12.5002	933.376	-4306.73	1	4406.71	-77.7717	2.82241E-006	-0.441519	8
	79	164	11.323	1019.61	-4724.87	1	4833.63	-77.8226	2.75527E-006	-0.441512	8
	80	167	9.9987	1162.04	-5295.72	1	5421.72	-77.6237	2.76594E-006	-0.441516	8
