EXPLAIN
TAG	EISPOT
TITLE	LABEL	Tomato_open	Test &Identifier
DATE	LABEL	5/15/2006	Date
TIME	LABEL	11:32:43	Time
NOTES	NOTES	1	&Notes...
	
PSTAT	PSTAT	300	Potentiostat
VDC	POTEN	1.00000E-001	T	DC &Voltage (V)
FREQINIT	QUANT	1.00000E+005	Initial Fre&q. (Hz)
FREQFINAL	QUANT	1.00000E+001	Final Fre&q. (Hz)
PTSPERDEC	QUANT	2.00000E+001	Points/&decade
VAC	QUANT	1.00000E+001	AC &Voltage (mV rms)
AREA	QUANT	1.00000E+000	&Area (cm²)
DENSITY	QUANT	7.87000E+000	&Density (gm/cm³)
EQUIV	QUANT	7.00000E+000	Equiv. &Wt
CONDIT	TWOPARAM	F	1.50000E+001	0.00000E+000	Conditionin&g	Time(s)	E(V)
DELAY	TWOPARAM	F	6.00000E+002	0.00000E+000	Init. De&lay	Time(s)	Stab.(mV/s)
SPEED	SELECTOR	1	&Optimize for:
ZGUESS	QUANT	1.00000E+002	E&stimated Z (ohms)
OCVCURVE	TABLE	39
	Pt	T	Vf	Vm	Ach	Over
	#	s	V vs. Ref.	V	V	bits
	0	0.258332	-5.00069E-001	2.96354E-006	2.36600E-004	......
	1	0.516663	-4.99919E-001	2.96354E-006	2.36600E-004	......
	2	0.774994	-4.99569E-001	2.96354E-006	3.66000E-005	......
	3	1.03333	-4.99069E-001	2.96354E-006	3.36600E-004	......
	4	1.29166	-4.98869E-001	2.96354E-006	2.36600E-004	......
	5	1.54999	-4.98869E-001	2.96354E-006	2.36600E-004	......
	6	1.80832	-4.99220E-001	2.96354E-006	1.36600E-004	......
	7	2.06665	-4.99769E-001	2.96354E-006	1.36600E-004	......
	8	2.32498	-5.00269E-001	2.96354E-006	2.36600E-004	......
	9	2.58332	-5.00820E-001	2.96354E-006	2.36600E-004	......
	10	2.84165	-5.01269E-001	2.96354E-006	2.36600E-004	......
	11	3.09998	-5.01669E-001	2.96354E-006	3.36600E-004	......
	12	3.35831	-5.01970E-001	2.96354E-006	3.66000E-005	......
	13	3.61664	-5.02369E-001	2.96354E-006	2.36600E-004	......
	14	3.87497	-5.02769E-001	2.96354E-006	3.36600E-004	......
	15	4.1333	-5.03069E-001	2.96354E-006	2.36600E-004	......
	16	4.39164	-5.03419E-001	2.96354E-006	3.36600E-004	......
	17	4.64997	-5.03670E-001	2.96354E-006	2.36600E-004	......
	18	4.9083	-5.03869E-001	2.96354E-006	2.36600E-004	......
	19	5.16663	-5.04219E-001	2.96354E-006	2.36600E-004	......
	20	5.42496	-5.04319E-001	2.96354E-006	2.36600E-004	......
	21	5.68329	-5.04569E-001	2.96354E-006	2.36600E-004	......
	22	5.94162	-5.04669E-001	2.96354E-006	2.36600E-004	......
	23	6.19996	-5.04719E-001	2.96354E-006	2.36600E-004	......
	24	6.45829	-5.04820E-001	2.96354E-006	3.66000E-005	......
	25	6.71662	-5.04869E-001	2.96354E-006	1.36600E-004	......
	26	6.97495	-5.04919E-001	2.96354E-006	2.36600E-004	......
	27	7.23328	-5.05069E-001	2.96354E-006	1.36600E-004	......
	28	7.49161	-5.05170E-001	2.96354E-006	3.36600E-004	......
	29	7.74995	-5.05220E-001	2.96354E-006	2.36600E-004	......
	30	8.00828	-5.05319E-001	2.96354E-006	2.36600E-004	......
	31	8.26661	-5.05269E-001	2.96354E-006	2.36600E-004	......
	32	8.52494	-5.05219E-001	2.96354E-006	2.36600E-004	......
	33	8.78327	-5.05120E-001	2.96354E-006	2.36600E-004	......
	34	9.0416	-5.05019E-001	2.96354E-006	3.36600E-004	......
	35	9.29993	-5.04969E-001	2.96354E-006	2.36600E-004	......
	36	9.5583	-5.04819E-001	2.96354E-006	2.36600E-004	......
	37	9.8166	-5.04669E-001	2.96354E-006	1.36600E-004	......
	38	10.0749	-5.04569E-001	2.96354E-006	2.36600E-004	......
EOC	QUANT	-0.504569	Open Circuit (V)
PSTATMODEL	IQUANT	32	Pstat Model
PSTATSECTION	LABEL	PStat0	Pstat Section
CTRLMODE	IQUANT	1	Control Mode
IESTAB	IQUANT	0	I/E Stability
CASPEED	IQUANT	1	Control Amp Speed
CONVENTION	IQUANT	1	Current Convention
ICHRANGE	IQUANT	2	Ich Range
ICHRANGEMODE	TOGGLE	F	Ich Auto Range
ICHOFFSETENABLE	TOGGLE	T	Ich Offset Enable
ICHOFFSET	QUANT	0	Ich Offset (V)
ICHFILTER	IQUANT	3	Ich Filter
VCHRANGE	IQUANT	2	Vch Range
VCHRANGEMODE	TOGGLE	F	Vch Auto Range
VCHOFFSETENABLE	TOGGLE	T	Vch Offset Enable
VCHOFFSET	QUANT	0	Vch Offset (V)
VCHFILTER	IQUANT	3	Vch Filter
ACHRANGE	IQUANT	0	Ach Range
IERANGELOWERLIMIT	IQUANT	3	I/E Range Lower Limit
IERANGEMODE	TOGGLE	F	I/E AutoRange
IERANGE	IQUANT	11	I/E Range
POSFEEDENABLE	TOGGLE	F	Positive Feedback IR Comp
POSFEEDRESISTANCE	QUANT	0	Positive Feedback Resistance (ohm)
FC350IDIVISOR	IQUANT	0	FC350 I Divisor
FC350VRANGE	IQUANT	0	FC350 V Range
FRAMEWORKVERSION	QUANT	4.35	Framework Version
ZCURVE	TABLE
	Pt	Time	Freq	Zreal	Zimag	Zsig	Zmod	Zphz	Idc	Vdc	IERange
	#	s	Hz	ohm	ohm	V	ohm	°	A	V	#
	0	5	100007	244.371	-0.355556	1	244.371	-0.083364	1.1829E-006	-0.404337	9
	1	7	89134.1	243.583	-0.414476	1	243.583	-0.097493	8.81806E-007	-0.404343	9
	2	9	79433.6	242.394	-0.813318	1	242.396	-0.192247	8.93384E-007	-0.404328	9
	3	11	70800.8	242.136	-1.20183	1	242.139	-0.284381	8.92041E-007	-0.404343	9
	4	13	63105.5	241.622	-2.09269	1	241.631	-0.496227	9.61369E-007	-0.404382	9
	5	15	56243.5	241.465	-1.90713	1	241.473	-0.452522	1.0646E-006	-0.404369	9
	6	17	50123.7	241.277	-2.36404	1	241.289	-0.561368	8.80963E-007	-0.404351	9
	7	19	44681	241.116	-3.04281	1	241.135	-0.723017	1.00531E-006	-0.404337	9
	8	21	39811.2	241.407	-3.5909	1	241.434	-0.852206	1.01703E-006	-0.40438	9
	9	23	35488.3	241.415	-3.95916	1	241.448	-0.939557	1.03371E-006	-0.404379	9
	10	24	31634.1	241.065	-4.60597	1	241.109	-1.0946	1.01331E-006	-0.404385	9
	11	26	28173.1	241.193	-4.9184	1	241.243	-1.16821	1.03271E-006	-0.404358	9
	12	28	25123.7	240.808	-5.3664	1	240.868	-1.27662	9.46853E-007	-0.404348	9
	13	30	22389.3	241.577	-5.80289	1	241.647	-1.37603	1.01462E-006	-0.404394	9
	14	32	19954.4	241.487	-6.85205	1	241.584	-1.6253	1.12742E-006	-0.404398	9
	15	34	17778.2	241.813	-7.43596	1	241.927	-1.76134	1.09123E-006	-0.404378	9
	16	36	15852.9	241.607	-8.46422	1	241.755	-2.00642	1.18918E-006	-0.404395	9
	17	38	14122.3	241.678	-9.49292	1	241.865	-2.24937	1.04765E-006	-0.404359	9
	18	40	12587.2	242.176	-10.5268	1	242.405	-2.48894	1.06507E-006	-0.404375	9
	19	42	11221.1	242.456	-11.2378	1	242.716	-2.65376	1.04024E-006	-0.404368	9
	20	44	9998.2	242.354	-12.3959	1	242.671	-2.92799	1.04148E-006	-0.404368	9
	21	46	8912.76	243.028	-13.5828	1	243.407	-3.19893	1.14557E-006	-0.404369	9
	22	48	7942.6	243.272	-15.4112	1	243.76	-3.62482	1.1049E-006	-0.404376	9
	23	50	7078.05	243.759	-16.8356	1	244.339	-3.95095	1.04595E-006	-0.404366	9
	24	52	6311.1	244.203	-18.262	1	244.885	-4.27673	9.87338E-007	-0.404356	9
	25	54	5622.14	244.423	-20.1573	1	245.253	-4.71445	9.75681E-007	-0.404372	9
	26	56	5011.18	244.522	-22.5062	1	245.555	-5.25878	1.01424E-006	-0.404365	9
	27	58	4465.21	245.068	-24.9582	1	246.336	-5.81506	9.37072E-007	-0.404376	9
	28	60	3980.93	245.622	-27.4604	1	247.152	-6.37916	1.00421E-006	-0.404369	9
	29	62	3548.18	246.159	-30.5434	1	248.047	-7.0731	1.09538E-006	-0.404366	9
	30	64	3162.67	247.017	-33.4213	1	249.267	-7.70532	8.57088E-007	-0.404356	9
	31	66	2819.01	247.849	-37.104	1	250.611	-8.51417	1.02963E-006	-0.404368	9
	32	68	2511.16	248.524	-41.2497	1	251.924	-9.42399	9.55213E-007	-0.404378	9
	33	70	2238.63	249.356	-45.5234	1	253.478	-10.3462	1.00657E-006	-0.404376	9
	34	72	1995.37	250.653	-50.0407	1	255.599	-11.2902	9.979E-007	-0.404383	9
	35	74	1778.51	251.726	-55.6748	1	257.809	-12.4715	9.84385E-007	-0.404378	9
	36	76	1584.49	252.947	-61.1164	1	260.225	-13.5833	9.74025E-007	-0.404368	9
	37	78	1412.76	254.373	-67.4655	1	263.168	-14.8541	8.9551E-007	-0.404354	9
	38	80	1259.04	255.846	-74.4656	1	266.463	-16.2279	9.57134E-007	-0.404382	9
	39	82	1121.63	257.003	-82.4867	1	269.916	-17.7944	9.34181E-007	-0.404364	9
	40	84	999.95	259.103	-91.1649	1	274.673	-19.3844	9.63166E-007	-0.404366	9
	41	86	891.184	261.076	-100.648	1	279.805	-21.0823	9.18994E-007	-0.40437	9
	42	88	794.163	262.782	-110.578	1	285.1	-22.8212	9.62244E-007	-0.404363	9
	43	90	707.867	264.684	-122.713	1	291.746	-24.8734	1.0939E-006	-0.404399	9
	44	92	630.984	267.33	-134.984	1	299.476	-26.7907	9.26556E-007	-0.404375	9
	45	94	562.189	269.683	-149.248	1	308.227	-28.961	9.7815E-007	-0.404356	9
	46	96	501.303	272.406	-164.746	1	318.349	-31.1648	9.96759E-007	-0.404365	9
	47	98	446.614	275.029	-182.242	1	329.929	-33.5296	9.7315E-007	-0.404363	9
	48	100	398.209	277.827	-201.541	1	343.23	-35.9579	9.46791E-007	-0.404368	9
	49	102	354.821	280.812	-223.129	1	358.667	-38.4701	9.45181E-007	-0.404371	9
	50	104	316.113	284.018	-247.187	1	376.521	-41.0337	9.62962E-007	-0.404368	9
	51	106	281.926	287.417	-273.753	1	396.925	-43.6051	9.50572E-007	-0.404371	9
	52	108	251.185	291.062	-303.615	1	420.594	-46.2092	9.734E-007	-0.404372	9
	53	110	223.946	295.015	-336.695	1	447.658	-48.7749	9.67712E-007	-0.40437	9
	54	112	199.495	299.253	-373.893	1	478.903	-51.3273	9.47634E-007	-0.404372	9
	55	114	177.836	303.922	-415.138	1	514.498	-53.7922	9.10982E-007	-0.404369	9
	56	116	158.533	308.913	-461.039	1	554.963	-56.1765	9.22535E-007	-0.404365	9
	57	118	141.263	314.382	-512.522	1	601.261	-58.475	9.59998E-007	-0.404362	9
	58	120	125.911	320.285	-569.781	1	653.63	-60.6588	9.50765E-007	-0.40436	9
	59	122	112.198	326.724	-633.684	1	712.954	-62.7246	8.58269E-007	-0.404371	9
	60	124	100.009	333.81	-704.931	1	779.972	-64.6608	8.67727E-007	-0.404368	9
	61	126	89.1164	341.522	-784.535	1	855.647	-66.4756	9.36043E-007	-0.404361	9
	62	128	79.4083	350.143	-873.188	1	940.775	-68.1495	9.39374E-007	-0.404361	9
	63	130	70.788	359.506	-971.89	1	1036.25	-69.7003	9.91352E-007	-0.404366	9
	64	132	63.0971	369.583	-1081.25	1	1142.67	-71.1291	3.83337E-007	-0.404373	8
	65	134	54.5476	384.332	-1239.04	1	1297.28	-72.7669	3.95651E-007	-0.404364	8
	66	136	50.0083	393.954	-1344.06	1	1400.61	-73.6638	3.70427E-007	-0.404372	8
	67	138	46.1675	403.37	-1448.22	1	1503.35	-74.436	3.67012E-007	-0.40437	8
	68	141	40.0059	422.149	-1656.91	1	1709.84	-75.7062	3.72899E-007	-0.404379	8
	69	143	35.3046	441.075	-1864.01	1	1915.49	-76.6872	3.41357E-007	-0.404377	8
	70	145	31.5793	459.6	-2070.33	1	2120.73	-77.4837	3.91506E-007	-0.404375	8
	71	147	28.5748	478.278	-2275.08	1	2324.81	-78.1279	3.77617E-007	-0.404365	8
	72	149	24.9911	506.089	-2580.77	1	2629.93	-78.9051	3.44762E-007	-0.404379	8
	73	151	22.2195	534.151	-2883.52	1	2932.57	-79.5053	3.55288E-007	-0.404369	8
	74	154	20.0011	561.442	-3185.34	1	3234.44	-80.0038	3.61338E-007	-0.404367	8
	75	156	17.6486	600.042	-3586.14	1	3635.99	-80.5011	4.03974E-007	-0.404364	8
	76	158	15.7934	635.036	-3982.47	1	4032.78	-80.94	3.5016E-007	-0.404371	8
	77	160	14.2828	673.649	-4380.58	1	4432.08	-81.2575	3.70881E-007	-0.404364	8
	78	163	12.5002	728.331	-4971.72	1	5024.79	-81.6658	3.45756E-007	-0.404367	8
	79	165	11.323	779.177	-5459.93	1	5515.25	-81.8783	3.45098E-007	-0.404358	8
	80	168	9.9987	849.797	-6143.28	1	6201.78	-82.1243	3.44133E-007	-0.404369	8
