EXPLAIN
TAG	EISPOT
TITLE	LABEL	Tomato_open	Test &Identifier
DATE	LABEL	5/10/2006	Date
TIME	LABEL	15:52:30	Time
NOTES	NOTES	1	&Notes...
	
PSTAT	PSTAT	300	Potentiostat
VDC	POTEN	1.00000E-001	T	DC &Voltage (V)
FREQINIT	QUANT	1.00000E+005	Initial Fre&q. (Hz)
FREQFINAL	QUANT	1.00000E+001	Final Fre&q. (Hz)
PTSPERDEC	QUANT	2.00000E+001	Points/&decade
VAC	QUANT	1.00000E+001	AC &Voltage (mV rms)
AREA	QUANT	1.00000E+000	&Area (cm²)
DENSITY	QUANT	7.87000E+000	&Density (gm/cm³)
EQUIV	QUANT	7.00000E+000	Equiv. &Wt
CONDIT	TWOPARAM	F	1.50000E+001	0.00000E+000	Conditionin&g	Time(s)	E(V)
DELAY	TWOPARAM	F	6.00000E+002	0.00000E+000	Init. De&lay	Time(s)	Stab.(mV/s)
SPEED	SELECTOR	1	&Optimize for:
ZGUESS	QUANT	1.00000E+002	E&stimated Z (ohms)
OCVCURVE	TABLE	39
	Pt	T	Vf	Vm	Ach	Over
	#	s	V vs. Ref.	V	V	bits
	0	0.258332	-5.09543E-001	3.64714E-006	3.15400E-004	......
	1	0.516663	-5.09493E-001	3.64714E-006	1.54000E-005	......
	2	0.774994	-5.09443E-001	3.64714E-006	3.15400E-004	......
	3	1.03333	-5.08994E-001	3.64714E-006	1.54000E-005	......
	4	1.29166	-5.07743E-001	3.64714E-006	3.15400E-004	......
	5	1.54999	-5.08193E-001	3.64714E-006	1.54000E-005	......
	6	1.80832	-5.09193E-001	3.64714E-006	2.15400E-004	......
	7	2.06665	-5.09694E-001	3.64714E-006	1.54000E-005	......
	8	2.32498	-5.10044E-001	3.64714E-006	1.15400E-004	......
	9	2.58332	-5.11043E-001	3.64714E-006	1.54000E-005	......
	10	2.84165	-5.12244E-001	3.64714E-006	2.15400E-004	......
	11	3.09998	-5.12893E-001	3.64714E-006	1.54000E-005	......
	12	3.35831	-5.13243E-001	3.64714E-006	2.15400E-004	......
	13	3.61664	-5.13294E-001	3.64714E-006	2.15400E-004	......
	14	3.87497	-5.13644E-001	3.64714E-006	2.15400E-004	......
	15	4.1333	-5.13994E-001	3.64714E-006	1.15400E-004	......
	16	4.39164	-5.14143E-001	3.64714E-006	1.15400E-004	......
	17	4.64997	-5.14643E-001	3.64714E-006	1.54000E-005	......
	18	4.9083	-5.14943E-001	3.64714E-006	2.15400E-004	......
	19	5.16663	-5.15293E-001	3.64714E-006	1.54000E-005	......
	20	5.42496	-5.15243E-001	3.64714E-006	3.15400E-004	......
	21	5.68329	-5.14793E-001	3.64714E-006	1.54000E-005	......
	22	5.94162	-5.14344E-001	3.64714E-006	2.15400E-004	......
	23	6.19996	-5.14943E-001	3.64714E-006	1.15400E-004	......
	24	6.45829	-5.15343E-001	3.64714E-006	2.15400E-004	......
	25	6.71662	-5.15593E-001	3.64714E-006	1.54000E-005	......
	26	6.97495	-5.14643E-001	3.64714E-006	4.15400E-004	......
	27	7.23328	-5.09794E-001	3.64714E-006	1.54000E-005	......
	28	7.49161	-5.07293E-001	3.64714E-006	2.15400E-004	......
	29	7.74995	-5.05543E-001	3.64714E-006	1.54000E-005	......
	30	8.00828	-5.04893E-001	3.64714E-006	2.15400E-004	......
	31	8.26661	-5.04643E-001	3.64714E-006	1.54000E-005	......
	32	8.52494	-5.04344E-001	3.64714E-006	3.15400E-004	......
	33	8.78327	-5.04093E-001	3.64714E-006	1.54000E-005	......
	34	9.0416	-5.06293E-001	3.64714E-006	1.15400E-004	......
	35	9.29993	-5.07843E-001	3.64714E-006	-8.46000E-005	......
	36	9.5583	-5.09344E-001	3.64714E-006	2.15400E-004	......
	37	9.8166	-5.10093E-001	3.64714E-006	1.54000E-005	......
	38	10.0749	-5.09843E-001	3.64714E-006	2.15400E-004	......
EOC	QUANT	-0.509843	Open Circuit (V)
PSTATMODEL	IQUANT	32	Pstat Model
PSTATSECTION	LABEL	PStat0	Pstat Section
CTRLMODE	IQUANT	1	Control Mode
IESTAB	IQUANT	0	I/E Stability
CASPEED	IQUANT	1	Control Amp Speed
CONVENTION	IQUANT	1	Current Convention
ICHRANGE	IQUANT	2	Ich Range
ICHRANGEMODE	TOGGLE	F	Ich Auto Range
ICHOFFSETENABLE	TOGGLE	T	Ich Offset Enable
ICHOFFSET	QUANT	0	Ich Offset (V)
ICHFILTER	IQUANT	3	Ich Filter
VCHRANGE	IQUANT	2	Vch Range
VCHRANGEMODE	TOGGLE	F	Vch Auto Range
VCHOFFSETENABLE	TOGGLE	T	Vch Offset Enable
VCHOFFSET	QUANT	0	Vch Offset (V)
VCHFILTER	IQUANT	3	Vch Filter
ACHRANGE	IQUANT	0	Ach Range
IERANGELOWERLIMIT	IQUANT	3	I/E Range Lower Limit
IERANGEMODE	TOGGLE	F	I/E AutoRange
IERANGE	IQUANT	11	I/E Range
POSFEEDENABLE	TOGGLE	F	Positive Feedback IR Comp
POSFEEDRESISTANCE	QUANT	0	Positive Feedback Resistance (ohm)
FC350IDIVISOR	IQUANT	0	FC350 I Divisor
FC350VRANGE	IQUANT	0	FC350 V Range
FRAMEWORKVERSION	QUANT	4.35	Framework Version
ZCURVE	TABLE
	Pt	Time	Freq	Zreal	Zimag	Zsig	Zmod	Zphz	Idc	Vdc	IERange
	#	s	Hz	ohm	ohm	V	ohm	°	A	V	#
	0	5	100007	232.268	0.122628	1	232.268	0.03025	1.44569E-006	-0.409587	9
	1	7	89134.1	231.086	-0.589388	1	231.087	-0.146133	2.59608E-006	-0.409595	9
	2	9	79433.6	230.281	-0.792828	1	230.283	-0.197261	3.90036E-006	-0.409623	9
	3	11	70800.8	229.972	-1.2778	1	229.975	-0.318352	3.63309E-006	-0.409613	9
	4	12	63105.5	229.772	-1.48145	1	229.776	-0.369408	3.66753E-006	-0.409631	9
	5	14	56243.5	229.517	-1.86617	1	229.524	-0.465853	3.53422E-006	-0.409607	9
	6	16	50123.7	229.545	-2.34319	1	229.556	-0.584855	3.67847E-006	-0.409601	9
	7	18	44681	229.546	-2.87743	1	229.564	-0.718182	3.86236E-006	-0.409629	9
	8	20	39811.2	229.198	-3.52901	1	229.225	-0.882126	3.89908E-006	-0.409604	9
	9	22	35488.3	229.038	-3.61385	1	229.067	-0.90396	4.40333E-006	-0.409625	9
	10	24	31634.1	229.253	-4.26554	1	229.292	-1.06594	4.73423E-006	-0.409638	9
	11	26	28173.1	229.291	-4.70533	1	229.34	-1.17561	4.19541E-006	-0.409617	9
	12	28	25123.7	229.239	-5.11983	1	229.297	-1.27943	3.82155E-006	-0.409617	9
	13	30	22389.3	229.653	-6.02065	1	229.732	-1.50174	3.7778E-006	-0.409602	9
	14	32	19954.4	229.398	-6.53147	1	229.491	-1.6309	3.73508E-006	-0.409629	9
	15	34	17778.2	229.66	-7.25166	1	229.774	-1.80855	3.6327E-006	-0.409619	9
	16	36	15852.9	230.167	-8.19956	1	230.313	-2.04026	3.83234E-006	-0.40963	9
	17	38	14122.3	230.361	-8.97495	1	230.536	-2.23114	3.48069E-006	-0.409604	9
	18	40	12587.2	230.437	-9.8301	1	230.647	-2.44267	3.60959E-006	-0.409606	9
	19	42	11221.1	230.405	-10.6661	1	230.652	-2.65048	3.53822E-006	-0.4096	9
	20	44	9998.2	230.572	-12.0231	1	230.885	-2.98495	3.44425E-006	-0.409594	9
	21	46	8912.76	231.064	-13.302	1	231.446	-3.29479	3.23662E-006	-0.409587	9
	22	48	7942.6	231.347	-14.6498	1	231.811	-3.62335	3.32778E-006	-0.409607	9
	23	50	7078.05	231.549	-15.9566	1	232.098	-3.94217	3.33591E-006	-0.409607	9
	24	52	6311.1	231.833	-17.7076	1	232.509	-4.36781	3.27248E-006	-0.409621	9
	25	54	5622.14	232.316	-19.7938	1	233.157	-4.86996	3.20425E-006	-0.409611	9
	26	56	5011.18	231.848	-21.9335	1	232.883	-5.40426	3.21448E-006	-0.409605	9
	27	58	4465.21	232.827	-24.1963	1	234.081	-5.9331	3.20481E-006	-0.4096	9
	28	60	3980.93	233.478	-27.0349	1	235.038	-6.60498	3.13809E-006	-0.409619	9
	29	62	3548.18	233.92	-29.76	1	235.806	-7.25038	3.02391E-006	-0.409615	9
	30	64	3162.67	234.137	-32.8146	1	236.426	-7.9781	2.87256E-006	-0.409574	9
	31	66	2819.01	234.772	-36.6559	1	237.616	-8.87419	2.99003E-006	-0.409576	9
	32	68	2511.16	235.668	-40.1867	1	239.07	-9.6771	3.01033E-006	-0.409602	9
	33	70	2238.63	236.334	-44.7497	1	240.533	-10.722	3.03666E-006	-0.409612	9
	34	72	1995.37	237.275	-49.697	1	242.424	-11.8295	3.17944E-006	-0.409594	9
	35	74	1778.51	238.372	-55.382	1	244.721	-13.0797	3.23002E-006	-0.409596	9
	36	76	1584.49	239.199	-60.904	1	246.831	-14.2849	3.06331E-006	-0.409592	9
	37	78	1412.76	240.229	-67.733	1	249.595	-15.7459	2.6078E-006	-0.409572	9
	38	80	1259.04	241.678	-74.6913	1	252.957	-17.1739	2.7468E-006	-0.409589	9
	39	82	1121.63	243.127	-82.9904	1	256.901	-18.8472	2.79906E-006	-0.409605	9
	40	83	999.95	244.833	-92.1346	1	261.596	-20.6221	3.04858E-006	-0.409599	9
	41	85	891.184	246.205	-101.571	1	266.334	-22.4184	3.21498E-006	-0.409607	9
	42	87	794.163	248.134	-112.836	1	272.584	-24.4531	3.28113E-006	-0.409604	9
	43	89	707.867	249.84	-124.416	1	279.105	-26.4725	3.04948E-006	-0.409599	9
	44	91	630.984	252.128	-137.93	1	287.39	-28.6814	3.46391E-006	-0.409606	9
	45	93	562.189	254.902	-152.463	1	297.018	-30.8846	3.60641E-006	-0.409584	9
	46	95	501.303	257.157	-168.974	1	307.704	-33.3083	3.94597E-006	-0.409616	9
	47	97	446.614	259.825	-187.316	1	320.306	-35.7891	3.97008E-006	-0.409616	9
	48	99	398.209	262.691	-207.55	1	334.789	-38.312	3.83167E-006	-0.409621	9
	49	101	354.821	265.856	-230.124	1	351.62	-40.8793	3.84452E-006	-0.409626	9
	50	103	316.113	269.303	-255.296	1	371.079	-43.4705	3.84331E-006	-0.409626	9
	51	105	281.926	272.913	-282.993	1	393.15	-46.0388	3.19575E-006	-0.409628	9
	52	107	251.185	276.933	-314.135	1	418.775	-48.6015	3.20225E-006	-0.409629	9
	53	109	223.946	281.325	-348.609	1	447.964	-51.0967	3.13855E-006	-0.409623	9
	54	111	199.495	286.183	-387.251	1	481.523	-53.5351	3.10588E-006	-0.409622	9
	55	113	177.836	291.304	-430.131	1	519.491	-55.8924	2.60995E-006	-0.409622	9
	56	115	158.533	297.165	-477.77	1	562.646	-58.1191	2.76311E-006	-0.409621	9
	57	117	141.263	303.558	-531.083	1	611.716	-60.2485	2.71201E-006	-0.409623	9
	58	119	125.911	310.483	-590.393	1	667.056	-62.2605	2.49274E-006	-0.409621	9
	59	121	112.198	318.201	-656.434	1	729.491	-64.1386	2.34681E-006	-0.409624	9
	60	123	100.009	326.623	-729.966	1	799.708	-65.8939	2.25399E-006	-0.409623	9
	61	125	89.1164	336.214	-811.924	1	878.784	-67.5058	2.2127E-006	-0.409617	9
	62	128	79.4083	346.507	-903.386	1	967.56	-69.0149	1.90393E-006	-0.40962	9
	63	130	70.788	358.206	-1004.99	1	1066.92	-70.3826	1.95283E-006	-0.409618	9
	64	132	63.0971	371.003	-1117.6	1	1177.57	-71.6358	1.26423E-006	-0.409623	8
	65	134	54.5476	390.225	-1279.2	1	1337.4	-73.0355	1.2964E-006	-0.40962	8
	66	136	50.0083	402.614	-1385.74	1	1443.05	-73.7993	1.29742E-006	-0.409631	8
	67	138	46.1675	412.655	-1493.27	1	1549.24	-74.5522	1.09879E-006	-0.409622	8
	68	140	40.0059	439.62	-1706.61	1	1762.33	-75.5548	1.11881E-006	-0.409628	8
	69	142	35.3046	465.589	-1917.68	1	1973.39	-76.3533	1.15297E-006	-0.409623	8
	70	144	31.5793	491.371	-2126.75	1	2182.78	-76.9905	1.21825E-006	-0.409616	8
	71	146	28.5748	519.709	-2335.53	1	2392.65	-77.4548	1.23475E-006	-0.409622	8
	72	149	24.9911	560.449	-2645.46	1	2704.18	-78.0386	1.22847E-006	-0.409629	8
	73	151	22.2195	598.518	-2951.08	1	3011.16	-78.5352	1.24432E-006	-0.40962	8
	74	153	20.0011	643.129	-3256.48	1	3319.38	-78.8283	1.27485E-006	-0.40963	8
	75	156	17.6486	696.515	-3655.08	1	3720.85	-79.211	1.33431E-006	-0.409625	8
	76	158	15.7934	760.571	-4058.17	1	4128.83	-79.3849	1.31662E-006	-0.409633	8
	77	160	14.2828	810.355	-4454.98	1	4528.08	-79.6907	1.27561E-006	-0.409629	8
	78	162	12.5002	898.196	-5048.22	1	5127.5	-79.9113	1.20279E-006	-0.409636	8
	79	165	11.323	984.81	-5526.42	1	5613.48	-79.8959	1.18396E-006	-0.409632	8
	80	167	9.9987	1087.66	-6208.31	1	6302.87	-80.063	1.15296E-006	-0.409624	8
