EXPLAIN
TAG	EISPOT
TITLE	LABEL	Tomato_open	Test &Identifier
DATE	LABEL	5/15/2006	Date
TIME	LABEL	11:27:41	Time
NOTES	NOTES	1	&Notes...
	
PSTAT	PSTAT	300	Potentiostat
VDC	POTEN	1.00000E-001	T	DC &Voltage (V)
FREQINIT	QUANT	1.00000E+005	Initial Fre&q. (Hz)
FREQFINAL	QUANT	1.00000E+001	Final Fre&q. (Hz)
PTSPERDEC	QUANT	2.00000E+001	Points/&decade
VAC	QUANT	1.00000E+001	AC &Voltage (mV rms)
AREA	QUANT	1.00000E+000	&Area (cm²)
DENSITY	QUANT	7.87000E+000	&Density (gm/cm³)
EQUIV	QUANT	7.00000E+000	Equiv. &Wt
CONDIT	TWOPARAM	F	1.50000E+001	0.00000E+000	Conditionin&g	Time(s)	E(V)
DELAY	TWOPARAM	F	6.00000E+002	0.00000E+000	Init. De&lay	Time(s)	Stab.(mV/s)
SPEED	SELECTOR	1	&Optimize for:
ZGUESS	QUANT	1.00000E+002	E&stimated Z (ohms)
OCVCURVE	TABLE	39
	Pt	T	Vf	Vm	Ach	Over
	#	s	V vs. Ref.	V	V	bits
	0	0.258332	-4.96670E-001	2.68274E-006	3.66000E-005	......
	1	0.516663	-4.96469E-001	2.68274E-006	-1.63400E-004	......
	2	0.774994	-4.96619E-001	2.68274E-006	3.66000E-005	......
	3	1.03333	-4.96719E-001	2.68274E-006	-6.34000E-005	......
	4	1.29166	-4.96919E-001	2.68274E-006	3.66000E-005	......
	5	1.54999	-4.96819E-001	2.68274E-006	-1.63400E-004	......
	6	1.80832	-4.96919E-001	2.68274E-006	3.66000E-005	......
	7	2.06665	-4.97119E-001	2.68274E-006	-1.63400E-004	......
	8	2.32498	-4.97619E-001	2.68274E-006	3.66000E-005	......
	9	2.58332	-4.98219E-001	2.68274E-006	-1.63400E-004	......
	10	2.84165	-4.99069E-001	2.68274E-006	-6.34000E-005	......
	11	3.09998	-5.00069E-001	2.68274E-006	-1.63400E-004	......
	12	3.35831	-5.01119E-001	2.68274E-006	2.36600E-004	......
	13	3.61664	-5.02169E-001	2.68274E-006	-6.34000E-005	......
	14	3.87497	-5.02919E-001	2.68274E-006	3.66000E-005	......
	15	4.1333	-5.03819E-001	2.68274E-006	-6.34000E-005	......
	16	4.39164	-5.04569E-001	2.68274E-006	3.66000E-005	......
	17	4.64997	-5.05019E-001	2.68274E-006	-6.34000E-005	......
	18	4.9083	-5.05470E-001	2.68274E-006	1.36600E-004	......
	19	5.16663	-5.05870E-001	2.68274E-006	-1.63400E-004	......
	20	5.42496	-5.06019E-001	2.68274E-006	3.66000E-005	......
	21	5.68329	-5.06019E-001	2.68274E-006	-1.63400E-004	......
	22	5.94162	-5.05519E-001	2.68274E-006	3.66000E-005	......
	23	6.19996	-5.05069E-001	2.68274E-006	-6.34000E-005	......
	24	6.45829	-5.04420E-001	2.68274E-006	1.36600E-004	......
	25	6.71662	-5.03969E-001	2.68274E-006	-6.34000E-005	......
	26	6.97495	-5.03269E-001	2.68274E-006	1.36600E-004	......
	27	7.23328	-5.02719E-001	2.68274E-006	-6.34000E-005	......
	28	7.49161	-5.02369E-001	2.68274E-006	2.36600E-004	......
	29	7.74995	-5.01869E-001	2.68274E-006	3.66000E-005	......
	30	8.00828	-5.01269E-001	2.68274E-006	-6.34000E-005	......
	31	8.26661	-5.00619E-001	2.68274E-006	-6.34000E-005	......
	32	8.52494	-5.00269E-001	2.68274E-006	3.66000E-005	......
	33	8.78327	-5.00019E-001	2.68274E-006	3.66000E-005	......
	34	9.0416	-4.99919E-001	2.68274E-006	2.36600E-004	......
	35	9.29993	-4.99869E-001	2.68274E-006	-1.63400E-004	......
	36	9.5583	-5.01170E-001	2.68274E-006	3.66000E-005	......
	37	9.8166	-5.02719E-001	2.68274E-006	-1.63400E-004	......
	38	10.0749	-5.03869E-001	2.68274E-006	3.66000E-005	......
EOC	QUANT	-0.503869	Open Circuit (V)
PSTATMODEL	IQUANT	32	Pstat Model
PSTATSECTION	LABEL	PStat0	Pstat Section
CTRLMODE	IQUANT	1	Control Mode
IESTAB	IQUANT	0	I/E Stability
CASPEED	IQUANT	1	Control Amp Speed
CONVENTION	IQUANT	1	Current Convention
ICHRANGE	IQUANT	2	Ich Range
ICHRANGEMODE	TOGGLE	F	Ich Auto Range
ICHOFFSETENABLE	TOGGLE	T	Ich Offset Enable
ICHOFFSET	QUANT	0	Ich Offset (V)
ICHFILTER	IQUANT	3	Ich Filter
VCHRANGE	IQUANT	2	Vch Range
VCHRANGEMODE	TOGGLE	F	Vch Auto Range
VCHOFFSETENABLE	TOGGLE	T	Vch Offset Enable
VCHOFFSET	QUANT	0	Vch Offset (V)
VCHFILTER	IQUANT	3	Vch Filter
ACHRANGE	IQUANT	0	Ach Range
IERANGELOWERLIMIT	IQUANT	3	I/E Range Lower Limit
IERANGEMODE	TOGGLE	F	I/E AutoRange
IERANGE	IQUANT	11	I/E Range
POSFEEDENABLE	TOGGLE	F	Positive Feedback IR Comp
POSFEEDRESISTANCE	QUANT	0	Positive Feedback Resistance (ohm)
FC350IDIVISOR	IQUANT	0	FC350 I Divisor
FC350VRANGE	IQUANT	0	FC350 V Range
FRAMEWORKVERSION	QUANT	4.35	Framework Version
ZCURVE	TABLE
	Pt	Time	Freq	Zreal	Zimag	Zsig	Zmod	Zphz	Idc	Vdc	IERange
	#	s	Hz	ohm	ohm	V	ohm	°	A	V	#
	0	4	100007	246.197	-0.234173	1	246.197	-0.054497	1.20263E-006	-0.403578	9
	1	6	89134.1	244.46	-0.805343	1	244.461	-0.188753	9.84338E-007	-0.403608	9
	2	8	79433.6	244.285	-0.743369	1	244.286	-0.174353	8.39619E-007	-0.40359	9
	3	10	70800.8	243.527	-1.05285	1	243.529	-0.247708	1.07184E-006	-0.403623	9
	4	12	63105.5	242.994	-1.79912	1	243.001	-0.424209	8.94791E-007	-0.4036	9
	5	14	56243.5	242.804	-1.83535	1	242.811	-0.433087	1.01451E-006	-0.403616	9
	6	16	50123.7	242.562	-2.3675	1	242.573	-0.559213	9.59213E-007	-0.403577	9
	7	18	44681	242.461	-3.20221	1	242.483	-0.756666	8.48728E-007	-0.403592	9
	8	20	39811.2	242.197	-3.47287	1	242.222	-0.821511	1.04063E-006	-0.403619	9
	9	22	35488.3	242.132	-3.96346	1	242.164	-0.937791	1.0074E-006	-0.403626	9
	10	24	31634.1	242.234	-4.29674	1	242.272	-1.0162	8.55338E-007	-0.403586	9
	11	26	28173.1	242.472	-4.8281	1	242.52	-1.14072	8.96947E-007	-0.403596	9
	12	28	25123.7	241.984	-5.58477	1	242.048	-1.3221	8.74072E-007	-0.403583	9
	13	30	22389.3	242.523	-6.18014	1	242.602	-1.45973	8.77588E-007	-0.403582	9
	14	32	19954.4	242.427	-6.79065	1	242.522	-1.6045	9.98119E-007	-0.403584	9
	15	34	17778.2	243.023	-7.79689	1	243.148	-1.83759	9.47307E-007	-0.403592	9
	16	36	15852.9	243.131	-8.53864	1	243.281	-2.01137	8.44713E-007	-0.403595	9
	17	38	14122.3	242.996	-9.35225	1	243.176	-2.20407	9.67494E-007	-0.403601	9
	18	40	12587.2	243.439	-10.3554	1	243.659	-2.43578	9.66947E-007	-0.403604	9
	19	42	11221.1	243.902	-11.2463	1	244.162	-2.64004	9.79291E-007	-0.403588	9
	20	44	9998.2	243.859	-12.7045	1	244.19	-2.98227	1.01184E-006	-0.403596	9
	21	46	8912.76	244.137	-13.8291	1	244.528	-3.24205	9.5665E-007	-0.403621	9
	22	48	7942.6	244.308	-15.2466	1	244.784	-3.57103	9.85947E-007	-0.403587	9
	23	50	7078.05	244.816	-16.5568	1	245.376	-3.869	1.00671E-006	-0.403596	9
	24	52	6311.1	245.513	-18.6795	1	246.223	-4.35086	1.00587E-006	-0.403603	9
	25	54	5622.14	245.564	-20.2382	1	246.397	-4.71139	9.87869E-007	-0.403595	9
	26	56	5011.18	245.947	-22.4223	1	246.967	-5.20912	9.86759E-007	-0.403597	9
	27	58	4465.21	246.36	-24.9054	1	247.616	-5.77263	9.8576E-007	-0.403591	9
	28	60	3980.93	246.876	-27.3971	1	248.392	-6.33249	8.92431E-007	-0.403593	9
	29	61	3548.18	247.402	-30.3847	1	249.261	-7.00172	9.72306E-007	-0.403609	9
	30	63	3162.67	248.217	-33.8199	1	250.51	-7.75887	8.86025E-007	-0.4036	9
	31	65	2819.01	249.018	-37.0958	1	251.766	-8.47294	9.75635E-007	-0.403625	9
	32	67	2511.16	249.474	-41.0659	1	252.832	-9.34761	9.61916E-007	-0.403601	9
	33	69	2238.63	250.745	-45.6107	1	254.859	-10.3094	1.02038E-006	-0.403605	9
	34	71	1995.37	251.632	-50.3378	1	256.617	-11.3124	9.72588E-007	-0.403592	9
	35	73	1778.51	252.824	-55.4977	1	258.844	-12.3807	1.0187E-006	-0.403591	9
	36	75	1584.49	254.275	-61.2175	1	261.54	-13.5365	1.02715E-006	-0.403601	9
	37	77	1412.76	255.549	-67.8312	1	264.398	-14.8654	1.11224E-006	-0.403623	9
	38	79	1259.04	257.184	-74.3072	1	267.704	-16.1154	9.85463E-007	-0.403589	9
	39	81	1121.63	258.691	-82.4941	1	271.526	-17.687	9.90588E-007	-0.403599	9
	40	83	999.95	260.531	-90.9355	1	275.945	-19.241	9.98822E-007	-0.403597	9
	41	85	891.184	261.998	-100.487	1	280.607	-20.9838	9.85932E-007	-0.403582	9
	42	87	794.163	264.451	-110.478	1	286.6	-22.6735	1.03384E-006	-0.403589	9
	43	89	707.867	265.878	-122.19	1	292.611	-24.6823	9.34728E-007	-0.403588	9
	44	91	630.984	268.811	-135.026	1	300.817	-26.6707	1.0336E-006	-0.403579	9
	45	93	562.189	270.915	-149.162	1	309.264	-28.8365	9.12978E-007	-0.403582	9
	46	95	501.303	273.922	-164.402	1	319.47	-30.9713	1.06393E-006	-0.403589	9
	47	97	446.614	276.581	-181.823	1	330.993	-33.3207	1.05573E-006	-0.403588	9
	48	99	398.209	279.383	-201.074	1	344.217	-35.7428	1.05349E-006	-0.403586	9
	49	101	354.821	282.426	-222.549	1	359.572	-38.2378	1.05654E-006	-0.403594	9
	50	103	316.113	285.659	-246.534	1	377.333	-40.7955	1.07528E-006	-0.403589	9
	51	105	281.926	289.068	-272.985	1	397.594	-43.361	1.07362E-006	-0.403592	9
	52	107	251.185	292.743	-302.709	1	421.107	-45.9588	1.07273E-006	-0.403592	9
	53	109	223.946	296.723	-335.648	1	448	-48.5223	1.06423E-006	-0.403589	9
	54	111	199.495	300.981	-372.667	1	479.03	-51.0743	1.08198E-006	-0.403587	9
	55	113	177.836	305.676	-413.778	1	514.441	-53.5451	1.08527E-006	-0.403589	9
	56	115	158.533	310.71	-459.489	1	554.681	-55.9331	1.03303E-006	-0.403598	9
	57	117	141.263	316.148	-510.695	1	600.633	-58.2402	1.02438E-006	-0.403602	9
	58	119	125.911	322.085	-567.63	1	652.643	-60.4285	1.01836E-006	-0.403593	9
	59	121	112.198	328.626	-631.267	1	711.683	-62.4994	1.06779E-006	-0.403593	9
	60	123	100.009	335.763	-702.166	1	778.315	-64.4437	9.98118E-007	-0.403597	9
	61	125	89.1164	343.632	-781.487	1	853.701	-66.2642	1.08459E-006	-0.403594	9
	62	127	79.4083	352.365	-869.863	1	938.521	-67.948	1.10177E-006	-0.403593	9
	63	129	70.788	361.814	-968.07	1	1033.47	-69.5068	1.04884E-006	-0.403601	9
	64	131	63.0971	371.693	-1076.79	1	1139.14	-70.9561	4.88141E-007	-0.403607	8
	65	133	54.5476	386.583	-1233.92	1	1293.06	-72.6044	4.94693E-007	-0.403596	8
	66	136	50.0083	396.244	-1338.41	1	1395.83	-73.5083	4.5434E-007	-0.403607	8
	67	138	46.1675	406.023	-1442.49	1	1498.55	-74.2795	4.52171E-007	-0.4036	8
	68	140	40.0059	425.263	-1649.99	1	1703.91	-75.5473	4.8226E-007	-0.403603	8
	69	142	35.3046	444.329	-1855.97	1	1908.41	-76.5365	4.49182E-007	-0.403609	8
	70	144	31.5793	463.192	-2061	1	2112.41	-77.3337	4.82829E-007	-0.403605	8
	71	146	28.5748	482.162	-2264.36	1	2315.12	-77.9792	4.89796E-007	-0.403608	8
	72	148	24.9911	511.365	-2569.46	1	2619.86	-78.7443	4.71326E-007	-0.403606	8
	73	151	22.2195	539.529	-2871.12	1	2921.37	-79.3573	4.61742E-007	-0.403609	8
	74	153	20.0011	566.719	-3171.41	1	3221.64	-79.8684	4.44793E-007	-0.403603	8
	75	156	17.6486	604.295	-3569.14	1	3619.94	-80.3903	5.00373E-007	-0.403603	8
	76	158	15.7934	641.892	-3964.73	1	4016.36	-80.8036	4.7191E-007	-0.403616	8
	77	160	14.2828	684.943	-4361.78	1	4415.23	-81.0756	4.99702E-007	-0.403604	8
	78	162	12.5002	745.696	-4944.53	1	5000.44	-81.4237	4.94604E-007	-0.403604	8
	79	165	11.323	794.839	-5432.81	1	5490.65	-81.6765	4.85903E-007	-0.403617	8
	80	167	9.9987	872.436	-6113.46	1	6175.39	-81.8783	5.15903E-007	-0.403614	8
