EXPLAIN
TAG	EISPOT
TITLE	LABEL	Tomato_open	Test &Identifier
DATE	LABEL	5/15/2006	Date
TIME	LABEL	11:22:41	Time
NOTES	NOTES	1	&Notes...
	
PSTAT	PSTAT	300	Potentiostat
VDC	POTEN	1.00000E-001	T	DC &Voltage (V)
FREQINIT	QUANT	1.00000E+005	Initial Fre&q. (Hz)
FREQFINAL	QUANT	1.00000E+001	Final Fre&q. (Hz)
PTSPERDEC	QUANT	2.00000E+001	Points/&decade
VAC	QUANT	1.00000E+001	AC &Voltage (mV rms)
AREA	QUANT	1.00000E+000	&Area (cm²)
DENSITY	QUANT	7.87000E+000	&Density (gm/cm³)
EQUIV	QUANT	7.00000E+000	Equiv. &Wt
CONDIT	TWOPARAM	F	1.50000E+001	0.00000E+000	Conditionin&g	Time(s)	E(V)
DELAY	TWOPARAM	F	6.00000E+002	0.00000E+000	Init. De&lay	Time(s)	Stab.(mV/s)
SPEED	SELECTOR	1	&Optimize for:
ZGUESS	QUANT	1.00000E+002	E&stimated Z (ohms)
OCVCURVE	TABLE	39
	Pt	T	Vf	Vm	Ach	Over
	#	s	V vs. Ref.	V	V	bits
	0	0.258332	-4.32669E-001	2.60154E-006	1.36600E-004	......
	1	0.516663	-4.32570E-001	2.60154E-006	-6.34000E-005	......
	2	0.774994	-4.32619E-001	2.60154E-006	3.66000E-005	......
	3	1.03333	-4.32719E-001	2.60154E-006	-1.63400E-004	......
	4	1.29166	-4.32819E-001	2.60154E-006	3.66000E-005	......
	5	1.54999	-4.33019E-001	2.60154E-006	-1.63400E-004	......
	6	1.80832	-4.33419E-001	2.60154E-006	3.66000E-005	......
	7	2.06665	-4.33669E-001	2.60154E-006	-6.34000E-005	......
	8	2.32498	-4.33869E-001	2.60154E-006	3.66000E-005	......
	9	2.58332	-4.34019E-001	2.60154E-006	-1.63400E-004	......
	10	2.84165	-4.34119E-001	2.60154E-006	3.66000E-005	......
	11	3.09998	-4.34220E-001	2.60154E-006	-6.34000E-005	......
	12	3.35831	-4.34269E-001	2.60154E-006	3.66000E-005	......
	13	3.61664	-4.34269E-001	2.60154E-006	-2.63400E-004	......
	14	3.87497	-4.34269E-001	2.60154E-006	3.66000E-005	......
	15	4.1333	-4.34319E-001	2.60154E-006	-6.34000E-005	......
	16	4.39164	-4.34319E-001	2.60154E-006	3.66000E-005	......
	17	4.64997	-4.34369E-001	2.60154E-006	-6.34000E-005	......
	18	4.9083	-4.34369E-001	2.60154E-006	3.66000E-005	......
	19	5.16663	-4.34419E-001	2.60154E-006	-1.63400E-004	......
	20	5.42496	-4.34469E-001	2.60154E-006	3.66000E-005	......
	21	5.68329	-4.34469E-001	2.60154E-006	-6.34000E-005	......
	22	5.94162	-4.34569E-001	2.60154E-006	2.36600E-004	......
	23	6.19996	-4.34469E-001	2.60154E-006	-1.63400E-004	......
	24	6.45829	-4.34519E-001	2.60154E-006	3.66000E-005	......
	25	6.71662	-4.34469E-001	2.60154E-006	-6.34000E-005	......
	26	6.97495	-4.34719E-001	2.60154E-006	3.66000E-005	......
	27	7.23328	-4.34869E-001	2.60154E-006	-6.34000E-005	......
	28	7.49161	-4.34969E-001	2.60154E-006	3.66000E-005	......
	29	7.74995	-4.34969E-001	2.60154E-006	-6.34000E-005	......
	30	8.00828	-4.34819E-001	2.60154E-006	3.66000E-005	......
	31	8.26661	-4.34619E-001	2.60154E-006	-6.34000E-005	......
	32	8.52494	-4.34469E-001	2.60154E-006	3.66000E-005	......
	33	8.78327	-4.34419E-001	2.60154E-006	-1.63400E-004	......
	34	9.0416	-4.34669E-001	2.60154E-006	-6.34000E-005	......
	35	9.29993	-4.34569E-001	2.60154E-006	-1.63400E-004	......
	36	9.5583	-4.34369E-001	2.60154E-006	3.66000E-005	......
	37	9.8166	-4.34219E-001	2.60154E-006	-6.34000E-005	......
	38	10.0749	-4.34069E-001	2.60154E-006	2.36600E-004	......
EOC	QUANT	-0.434069	Open Circuit (V)
PSTATMODEL	IQUANT	32	Pstat Model
PSTATSECTION	LABEL	PStat0	Pstat Section
CTRLMODE	IQUANT	1	Control Mode
IESTAB	IQUANT	0	I/E Stability
CASPEED	IQUANT	1	Control Amp Speed
CONVENTION	IQUANT	1	Current Convention
ICHRANGE	IQUANT	2	Ich Range
ICHRANGEMODE	TOGGLE	F	Ich Auto Range
ICHOFFSETENABLE	TOGGLE	T	Ich Offset Enable
ICHOFFSET	QUANT	0	Ich Offset (V)
ICHFILTER	IQUANT	3	Ich Filter
VCHRANGE	IQUANT	2	Vch Range
VCHRANGEMODE	TOGGLE	F	Vch Auto Range
VCHOFFSETENABLE	TOGGLE	T	Vch Offset Enable
VCHOFFSET	QUANT	0	Vch Offset (V)
VCHFILTER	IQUANT	3	Vch Filter
ACHRANGE	IQUANT	0	Ach Range
IERANGELOWERLIMIT	IQUANT	3	I/E Range Lower Limit
IERANGEMODE	TOGGLE	F	I/E AutoRange
IERANGE	IQUANT	11	I/E Range
POSFEEDENABLE	TOGGLE	F	Positive Feedback IR Comp
POSFEEDRESISTANCE	QUANT	0	Positive Feedback Resistance (ohm)
FC350IDIVISOR	IQUANT	0	FC350 I Divisor
FC350VRANGE	IQUANT	0	FC350 V Range
FRAMEWORKVERSION	QUANT	4.35	Framework Version
ZCURVE	TABLE
	Pt	Time	Freq	Zreal	Zimag	Zsig	Zmod	Zphz	Idc	Vdc	IERange
	#	s	Hz	ohm	ohm	V	ohm	°	A	V	#
	0	5	100007	246.212	0.015724	1	246.212	0.003659	9.29963E-007	-0.333963	9
	1	7	89134.1	245.222	-0.453199	1	245.222	-0.105889	8.70869E-007	-0.334014	9
	2	9	79433.6	244.675	-0.733419	1	244.676	-0.171745	9.5876E-007	-0.333985	9
	3	10	70800.8	244.647	-1.12588	1	244.65	-0.263676	9.67509E-007	-0.33398	9
	4	12	63105.5	243.903	-1.69408	1	243.909	-0.397955	8.80103E-007	-0.334024	9
	5	14	56243.5	243.669	-2.16782	1	243.679	-0.509722	7.71134E-007	-0.333978	9
	6	16	50123.7	243.295	-2.67958	1	243.31	-0.631015	1.0166E-006	-0.334017	9
	7	18	44681	243.096	-3.28738	1	243.118	-0.774762	9.75838E-007	-0.333991	9
	8	20	39811.2	243.128	-3.43539	1	243.152	-0.809533	9.22791E-007	-0.334024	9
	9	22	35488.3	243.151	-3.89468	1	243.182	-0.91766	8.4265E-007	-0.333986	9
	10	24	31634.1	243.001	-4.4561	1	243.042	-1.05056	9.23494E-007	-0.333985	9
	11	26	28173.1	243.233	-5.22404	1	243.289	-1.23038	8.52087E-007	-0.333996	9
	12	28	25123.7	243	-5.88388	1	243.071	-1.38706	7.75072E-007	-0.333991	9
	13	30	22389.3	243.447	-6.2972	1	243.528	-1.48173	7.61603E-007	-0.333987	9
	14	32	19954.4	243.343	-6.71855	1	243.436	-1.5815	8.68853E-007	-0.334013	9
	15	34	17778.2	243.708	-7.89739	1	243.836	-1.85603	8.78181E-007	-0.33399	9
	16	36	15852.9	243.761	-8.51611	1	243.91	-2.00089	9.25588E-007	-0.33398	9
	17	38	14122.3	244.096	-9.7381	1	244.29	-2.28459	8.64338E-007	-0.333987	9
	18	40	12587.2	244.381	-10.347	1	244.599	-2.42443	8.87698E-007	-0.333999	9
	19	42	11221.1	244.501	-11.2675	1	244.76	-2.63854	8.82213E-007	-0.33399	9
	20	44	9998.2	244.731	-12.5453	1	245.052	-2.93451	8.74181E-007	-0.333979	9
	21	46	8912.76	245.168	-14.0884	1	245.572	-3.28885	9.24431E-007	-0.334016	9
	22	48	7942.6	245.108	-15.1704	1	245.577	-3.54167	8.16572E-007	-0.333982	9
	23	50	7078.05	245.743	-17.0612	1	246.334	-3.97149	8.4201E-007	-0.333976	9
	24	52	6311.1	246.186	-18.6943	1	246.895	-4.34246	8.38369E-007	-0.333974	9
	25	54	5622.14	246.095	-20.4755	1	246.946	-4.75615	8.78244E-007	-0.333989	9
	26	56	5011.18	247.05	-22.8997	1	248.109	-5.29577	8.87416E-007	-0.333982	9
	27	58	4465.21	247.5	-24.8449	1	248.744	-5.73234	8.66791E-007	-0.333983	9
	28	60	3980.93	248.011	-27.3877	1	249.519	-6.3016	7.53666E-007	-0.333977	9
	29	62	3548.18	248.614	-30.5447	1	250.483	-7.00426	9.21291E-007	-0.334007	9
	30	64	3162.67	249.58	-33.6409	1	251.837	-7.67663	9.19588E-007	-0.333982	9
	31	66	2819.01	250.109	-36.9272	1	252.82	-8.39874	8.53572E-007	-0.334012	9
	32	68	2511.16	250.821	-41.1718	1	254.177	-9.32188	8.30291E-007	-0.33398	9
	33	70	2238.63	251.679	-45.484	1	255.756	-10.244	8.25525E-007	-0.333987	9
	34	72	1995.37	252.666	-50.2811	1	257.62	-11.2549	8.37635E-007	-0.33399	9
	35	74	1778.51	253.856	-54.9108	1	259.727	-12.2055	8.42931E-007	-0.333971	9
	36	75	1584.49	255.51	-61.2675	1	262.753	-13.4841	8.54728E-007	-0.333982	9
	37	77	1412.76	256.698	-67.657	1	265.464	-14.7655	8.31494E-007	-0.333963	9
	38	79	1259.04	258.046	-74.7652	1	268.658	-16.1582	8.15884E-007	-0.333978	9
	39	81	1121.63	259.684	-82.4776	1	272.467	-17.6202	8.12385E-007	-0.333969	9
	40	83	999.95	261.714	-90.6593	1	276.972	-19.1064	7.57963E-007	-0.333988	9
	41	85	891.184	263.688	-100.076	1	282.04	-20.7829	8.26229E-007	-0.333983	9
	42	87	794.163	265.86	-110.261	1	287.818	-22.5254	8.1465E-007	-0.333981	9
	43	89	707.867	267.948	-121.798	1	294.331	-24.4445	8.59978E-007	-0.333966	9
	44	91	630.984	270.612	-134.26	1	302.087	-26.3875	8.01166E-007	-0.333986	9
	45	93	562.189	272.715	-148.316	1	310.437	-28.5394	9.35603E-007	-0.333976	9
	46	95	501.303	275.255	-163.692	1	320.25	-30.7396	8.27916E-007	-0.333981	9
	47	97	446.614	277.945	-181.001	1	331.685	-33.0726	8.24056E-007	-0.333989	9
	48	99	398.209	280.78	-200.127	1	344.801	-35.4795	7.79728E-007	-0.333989	9
	49	101	354.821	283.851	-221.499	1	360.046	-37.9663	8.23259E-007	-0.333994	9
	50	103	316.113	287.11	-245.312	1	377.637	-40.5112	8.33244E-007	-0.333985	9
	51	105	281.926	290.559	-271.555	1	397.702	-43.0637	8.28697E-007	-0.333987	9
	52	107	251.185	294.275	-301.092	1	421.015	-45.656	8.4779E-007	-0.333985	9
	53	109	223.946	298.291	-333.822	1	447.677	-48.2172	7.62244E-007	-0.33399	9
	54	111	199.495	302.594	-370.55	1	478.404	-50.7647	8.30384E-007	-0.33398	9
	55	113	177.836	307.363	-411.401	1	513.54	-53.2361	8.3956E-007	-0.333983	9
	56	115	158.533	312.393	-456.754	1	553.366	-55.6302	8.52951E-007	-0.333988	9
	57	117	141.263	317.88	-507.626	1	598.942	-57.9448	8.18852E-007	-0.333996	9
	58	119	125.911	323.877	-564.151	1	650.509	-60.14	7.82166E-007	-0.333998	9
	59	121	112.198	330.48	-627.323	1	709.049	-62.2193	8.19891E-007	-0.333998	9
	60	123	100.009	337.561	-697.631	1	775.008	-64.1792	8.10326E-007	-0.333993	9
	61	125	89.1164	345.399	-776.196	1	849.577	-66.0114	8.13301E-007	-0.333987	9
	62	127	79.4083	354.127	-863.894	1	933.659	-67.7103	8.30176E-007	-0.33399	9
	63	129	70.788	363.571	-961.46	1	1027.91	-69.2862	7.95962E-007	-0.333992	9
	64	131	63.0971	373.647	-1069.41	1	1132.8	-70.7407	2.16534E-007	-0.333981	8
	65	134	54.5476	388.523	-1224.88	1	1285.02	-72.4013	2.26454E-007	-0.333985	8
	66	136	50.0083	398.093	-1328.79	1	1387.14	-73.3222	2.15581E-007	-0.333992	8
	67	138	46.1675	407.856	-1431.96	1	1488.91	-74.1018	1.94842E-007	-0.333983	8
	68	140	40.0059	426.748	-1637.54	1	1692.23	-75.3934	2.12534E-007	-0.333982	8
	69	142	35.3046	445.498	-1841.7	1	1894.81	-76.4016	1.93221E-007	-0.333982	8
	70	144	31.5793	464.484	-2044.8	1	2096.89	-77.2022	2.69396E-007	-0.33398	8
	71	146	28.5748	483.297	-2247.21	1	2298.6	-77.8626	2.97107E-007	-0.33398	8
	72	148	24.9911	510.39	-2549.46	1	2600.04	-78.6793	2.56482E-007	-0.333997	8
	73	151	22.2195	539.341	-2848.19	1	2898.81	-79.2773	2.71959E-007	-0.333984	8
	74	153	20.0011	566.285	-3146.25	1	3196.81	-79.7968	2.5176E-007	-0.333992	8
	75	156	17.6486	603.113	-3540.15	1	3591.16	-80.3317	3.04307E-007	-0.333976	8
	76	158	15.7934	640.472	-3931.26	1	3983.09	-80.7468	2.83818E-007	-0.333978	8
	77	160	14.2828	677.237	-4325.05	1	4377.75	-81.1006	2.69292E-007	-0.333985	8
	78	162	12.5002	735.141	-4906.46	1	4961.23	-81.4787	2.62945E-007	-0.333983	8
	79	165	11.323	779.913	-5387.76	1	5443.92	-81.7633	2.30134E-007	-0.333992	8
	80	167	9.9987	850.262	-6064.74	1	6124.05	-82.0193	2.50432E-007	-0.333997	8
