EXPLAIN
TAG	EISPOT
TITLE	LABEL	Tomato_open	Test &Identifier
DATE	LABEL	5/10/2006	Date
TIME	LABEL	15:42:37	Time
NOTES	NOTES	1	&Notes...
	
PSTAT	PSTAT	300	Potentiostat
VDC	POTEN	1.00000E-001	T	DC &Voltage (V)
FREQINIT	QUANT	1.00000E+005	Initial Fre&q. (Hz)
FREQFINAL	QUANT	1.00000E+001	Final Fre&q. (Hz)
PTSPERDEC	QUANT	2.00000E+001	Points/&decade
VAC	QUANT	1.00000E+001	AC &Voltage (mV rms)
AREA	QUANT	1.00000E+000	&Area (cm²)
DENSITY	QUANT	7.87000E+000	&Density (gm/cm³)
EQUIV	QUANT	7.00000E+000	Equiv. &Wt
CONDIT	TWOPARAM	F	1.50000E+001	0.00000E+000	Conditionin&g	Time(s)	E(V)
DELAY	TWOPARAM	F	6.00000E+002	0.00000E+000	Init. De&lay	Time(s)	Stab.(mV/s)
SPEED	SELECTOR	1	&Optimize for:
ZGUESS	QUANT	1.00000E+002	E&stimated Z (ohms)
OCVCURVE	TABLE	39
	Pt	T	Vf	Vm	Ach	Over
	#	s	V vs. Ref.	V	V	bits
	0	0.258332	-5.19094E-001	3.70424E-006	1.54000E-005	......
	1	0.516663	-5.19044E-001	3.70424E-006	1.54000E-005	......
	2	0.774994	-5.19493E-001	3.70424E-006	3.15400E-004	......
	3	1.03333	-5.20243E-001	3.70424E-006	1.54000E-005	......
	4	1.29166	-5.21043E-001	3.70424E-006	1.15400E-004	......
	5	1.54999	-5.23344E-001	3.70424E-006	1.54000E-005	......
	6	1.80832	-5.24144E-001	3.70424E-006	3.15400E-004	......
	7	2.06665	-5.25093E-001	3.70424E-006	1.54000E-005	......
	8	2.32498	-5.25043E-001	3.70424E-006	2.15400E-004	......
	9	2.58332	-5.24543E-001	3.70424E-006	-8.46000E-005	......
	10	2.84165	-5.24893E-001	3.70424E-006	2.15400E-004	......
	11	3.09998	-5.24643E-001	3.70424E-006	1.54000E-005	......
	12	3.35831	-5.19643E-001	3.70424E-006	2.15400E-004	......
	13	3.61664	-5.18694E-001	3.70424E-006	1.54000E-005	......
	14	3.87497	-5.19794E-001	3.70424E-006	3.15400E-004	......
	15	4.1333	-5.20793E-001	3.70424E-006	1.15400E-004	......
	16	4.39164	-5.21693E-001	3.70424E-006	2.15400E-004	......
	17	4.64997	-5.23193E-001	3.70424E-006	1.54000E-005	......
	18	4.9083	-5.25844E-001	3.70424E-006	2.15400E-004	......
	19	5.16663	-5.27294E-001	3.70424E-006	1.54000E-005	......
	20	5.42496	-5.27543E-001	3.70424E-006	2.15400E-004	......
	21	5.68329	-5.26244E-001	3.70424E-006	1.54000E-005	......
	22	5.94162	-5.26543E-001	3.70424E-006	2.15400E-004	......
	23	6.19996	-5.26343E-001	3.70424E-006	1.54000E-005	......
	24	6.45829	-5.26244E-001	3.70424E-006	2.15400E-004	......
	25	6.71662	-5.26993E-001	3.70424E-006	1.54000E-005	......
	26	6.97495	-5.27593E-001	3.70424E-006	3.15400E-004	......
	27	7.23328	-5.27644E-001	3.70424E-006	-8.46000E-005	......
	28	7.49161	-5.21843E-001	3.70424E-006	2.15400E-004	......
	29	7.74995	-5.16944E-001	3.70424E-006	-8.46000E-005	......
	30	8.00828	-5.15894E-001	3.70424E-006	3.15400E-004	......
	31	8.26661	-5.17393E-001	3.70424E-006	-8.46000E-005	......
	32	8.52494	-5.18843E-001	3.70424E-006	2.15400E-004	......
	33	8.78327	-5.20343E-001	3.70424E-006	1.54000E-005	......
	34	9.0416	-5.21643E-001	3.70424E-006	2.15400E-004	......
	35	9.29993	-5.23993E-001	3.70424E-006	1.54000E-005	......
	36	9.5583	-5.24493E-001	3.70424E-006	2.15400E-004	......
	37	9.8166	-5.25594E-001	3.70424E-006	1.54000E-005	......
	38	10.0749	-5.30194E-001	3.70424E-006	3.15400E-004	......
EOC	QUANT	-0.530194	Open Circuit (V)
PSTATMODEL	IQUANT	32	Pstat Model
PSTATSECTION	LABEL	PStat0	Pstat Section
CTRLMODE	IQUANT	1	Control Mode
IESTAB	IQUANT	0	I/E Stability
CASPEED	IQUANT	1	Control Amp Speed
CONVENTION	IQUANT	1	Current Convention
ICHRANGE	IQUANT	2	Ich Range
ICHRANGEMODE	TOGGLE	F	Ich Auto Range
ICHOFFSETENABLE	TOGGLE	T	Ich Offset Enable
ICHOFFSET	QUANT	0	Ich Offset (V)
ICHFILTER	IQUANT	3	Ich Filter
VCHRANGE	IQUANT	2	Vch Range
VCHRANGEMODE	TOGGLE	F	Vch Auto Range
VCHOFFSETENABLE	TOGGLE	T	Vch Offset Enable
VCHOFFSET	QUANT	0	Vch Offset (V)
VCHFILTER	IQUANT	3	Vch Filter
ACHRANGE	IQUANT	0	Ach Range
IERANGELOWERLIMIT	IQUANT	3	I/E Range Lower Limit
IERANGEMODE	TOGGLE	F	I/E AutoRange
IERANGE	IQUANT	11	I/E Range
POSFEEDENABLE	TOGGLE	F	Positive Feedback IR Comp
POSFEEDRESISTANCE	QUANT	0	Positive Feedback Resistance (ohm)
FC350IDIVISOR	IQUANT	0	FC350 I Divisor
FC350VRANGE	IQUANT	0	FC350 V Range
FRAMEWORKVERSION	QUANT	4.35	Framework Version
ZCURVE	TABLE
	Pt	Time	Freq	Zreal	Zimag	Zsig	Zmod	Zphz	Idc	Vdc	IERange
	#	s	Hz	ohm	ohm	V	ohm	°	A	V	#
	0	4	100007	232.451	0.114684	1	232.451	0.028268	2.02602E-006	-0.430144	9
	1	6	89134.1	231.574	-0.151584	1	231.574	-0.037505	1.59969E-006	-0.43012	9
	2	8	79433.6	230.915	-0.873748	1	230.916	-0.216798	1.5867E-006	-0.430116	9
	3	10	70800.8	230.701	-1.12101	1	230.704	-0.278405	1.93095E-006	-0.430147	9
	4	12	63105.5	230.26	-1.63489	1	230.266	-0.406804	1.55081E-006	-0.430126	9
	5	14	56243.5	230.093	-1.59577	1	230.098	-0.397359	1.93864E-006	-0.430148	9
	6	16	50123.7	229.882	-2.2415	1	229.893	-0.558654	1.90777E-006	-0.430159	9
	7	18	44681	230.002	-2.56494	1	230.016	-0.638927	1.94577E-006	-0.430159	9
	8	20	39811.2	229.796	-3.24451	1	229.819	-0.808912	1.56161E-006	-0.430118	9
	9	22	35488.3	229.721	-3.68126	1	229.75	-0.918081	1.77733E-006	-0.430125	9
	10	24	31634.1	229.673	-4.18649	1	229.712	-1.04427	1.74611E-006	-0.430144	9
	11	26	28173.1	229.753	-4.8014	1	229.803	-1.1972	1.79706E-006	-0.43013	9
	12	28	25123.7	229.965	-5.36355	1	230.028	-1.33608	1.85119E-006	-0.43012	9
	13	30	22389.3	230.102	-6.11174	1	230.183	-1.52148	1.56583E-006	-0.430109	9
	14	32	19954.4	229.888	-6.47879	1	229.979	-1.61431	1.65331E-006	-0.430106	9
	15	34	17778.2	230.003	-7.43215	1	230.123	-1.85077	1.75741E-006	-0.430133	9
	16	36	15852.9	230.043	-7.86097	1	230.177	-1.95714	1.58791E-006	-0.430108	9
	17	38	14122.3	230.53	-9.01633	1	230.706	-2.23977	1.83664E-006	-0.430126	9
	18	40	12587.2	230.706	-9.9421	1	230.92	-2.46759	1.79314E-006	-0.430131	9
	19	42	11221.1	230.9	-10.8168	1	231.153	-2.68214	1.77859E-006	-0.430124	9
	20	44	9998.2	231.227	-12.0476	1	231.54	-2.98259	1.79527E-006	-0.430132	9
	21	46	8912.76	231.23	-13.1888	1	231.606	-3.26448	1.98441E-006	-0.430133	9
	22	48	7942.6	231.678	-14.7815	1	232.149	-3.65065	1.78467E-006	-0.430135	9
	23	50	7078.05	232.367	-16.3144	1	232.939	-4.01614	1.82234E-006	-0.430124	9
	24	52	6311.1	232.222	-17.9622	1	232.916	-4.42298	1.82734E-006	-0.430124	9
	25	54	5622.14	232.574	-19.7235	1	233.408	-4.8474	1.88447E-006	-0.430121	9
	26	56	5011.18	232.725	-22.106	1	233.772	-5.42612	1.92675E-006	-0.430131	9
	27	58	4465.21	233.805	-24.2866	1	235.063	-5.93034	1.87266E-006	-0.430126	9
	28	59	3980.93	233.762	-27.3909	1	235.361	-6.68312	1.83353E-006	-0.430126	9
	29	61	3548.18	234.812	-29.6143	1	236.672	-7.18813	1.88869E-006	-0.430122	9
	30	63	3162.67	234.66	-33.2943	1	237.01	-8.07542	2.0578E-006	-0.430138	9
	31	65	2819.01	235.489	-36.6383	1	238.322	-8.8434	2.00389E-006	-0.430155	9
	32	67	2511.16	236.351	-40.9174	1	239.867	-9.8218	1.79719E-006	-0.430125	9
	33	69	2238.63	236.882	-45.1077	1	241.139	-10.7813	1.84402E-006	-0.43013	9
	34	71	1995.37	237.822	-49.6503	1	242.95	-11.7923	1.88234E-006	-0.430134	9
	35	73	1778.51	238.465	-55.2773	1	244.787	-13.051	1.87097E-006	-0.430126	9
	36	75	1584.49	240.041	-61.2764	1	247.739	-14.3203	1.86141E-006	-0.430122	9
	37	77	1412.76	241.098	-67.652	1	250.409	-15.6741	1.70887E-006	-0.430109	9
	38	79	1259.04	242.371	-75.0255	1	253.717	-17.1998	1.88442E-006	-0.430131	9
	39	81	1121.63	243.474	-82.9579	1	257.219	-18.8153	1.94481E-006	-0.430129	9
	40	83	999.95	245.489	-91.9897	1	262.158	-20.542	1.92781E-006	-0.430124	9
	41	85	891.184	247.083	-101.711	1	267.199	-22.3743	1.93931E-006	-0.430138	9
	42	87	794.163	248.718	-112.3	1	272.895	-24.2999	1.88711E-006	-0.430122	9
	43	89	707.867	250.973	-124.748	1	280.267	-26.43	1.90756E-006	-0.430142	9
	44	91	630.984	253.444	-138.267	1	288.707	-28.6147	1.92777E-006	-0.430134	9
	45	93	562.189	255.747	-153.076	1	298.058	-30.9024	2.12027E-006	-0.430142	9
	46	95	501.303	257.98	-168.988	1	308.401	-33.2265	1.92812E-006	-0.430138	9
	47	97	446.614	260.624	-187.281	1	320.935	-35.7005	1.88097E-006	-0.430133	9
	48	99	398.209	263.529	-207.505	1	335.419	-38.2172	1.88562E-006	-0.430137	9
	49	101	354.821	266.668	-230.016	1	352.163	-40.7796	1.90833E-006	-0.430134	9
	50	103	316.113	270.108	-255.153	1	371.566	-43.3691	1.99131E-006	-0.430131	9
	51	105	281.926	273.802	-282.864	1	393.674	-45.9327	1.99591E-006	-0.430132	9
	52	107	251.185	277.886	-313.931	1	419.254	-48.4853	1.98422E-006	-0.430133	9
	53	109	223.946	282.268	-348.263	1	448.288	-50.9752	1.92606E-006	-0.43013	9
	54	111	199.495	287.134	-386.842	1	481.76	-53.4153	2.01837E-006	-0.430139	9
	55	113	177.836	292.539	-429.675	1	519.807	-55.7515	2.08881E-006	-0.430141	9
	56	115	158.533	298.382	-477.101	1	562.723	-57.9778	1.99151E-006	-0.430142	9
	57	117	141.263	304.789	-530.322	1	611.668	-60.1129	2.10098E-006	-0.430133	9
	58	119	125.911	311.9	-589.417	1	666.854	-62.1137	2.12723E-006	-0.43014	9
	59	121	112.198	319.729	-655.203	1	729.053	-63.9883	2.0524E-006	-0.430141	9
	60	123	100.009	328.54	-728.419	1	799.083	-65.7231	2.04857E-006	-0.430143	9
	61	125	89.1164	338.069	-810.326	1	878.02	-67.354	2.04213E-006	-0.430146	9
	62	127	79.4083	348.911	-901.171	1	966.36	-68.8348	2.01164E-006	-0.430148	9
	63	129	70.788	360.876	-1002.55	1	1065.53	-70.2033	2.00355E-006	-0.430153	9
	64	131	63.0971	373.811	-1114.36	1	1175.39	-71.456	1.28291E-006	-0.430157	8
	65	134	54.5476	392.76	-1275.45	1	1334.55	-72.8844	1.32139E-006	-0.43015	8
	66	136	50.0083	406.026	-1382.41	1	1440.8	-73.632	1.34282E-006	-0.430149	8
	67	138	46.1675	418.672	-1489.11	1	1546.85	-74.2964	1.2497E-006	-0.430151	8
	68	140	40.0059	444.768	-1700.35	1	1757.56	-75.3413	1.30879E-006	-0.430151	8
	69	142	35.3046	471.224	-1910.34	1	1967.6	-76.1435	1.27034E-006	-0.430155	8
	70	144	31.5793	497.428	-2118.95	1	2176.55	-76.7889	1.31246E-006	-0.430151	8
	71	146	28.5748	524.287	-2326.33	1	2384.68	-77.2994	1.26283E-006	-0.430158	8
	72	148	24.9911	568.062	-2635.13	1	2695.66	-77.8348	1.32003E-006	-0.430156	8
	73	151	22.2195	607.425	-2939.86	1	3001.96	-78.326	1.32462E-006	-0.430153	8
	74	153	20.0011	651.836	-3240.19	1	3305.11	-78.6255	1.24057E-006	-0.430149	8
	75	156	17.6486	712.086	-3645.58	1	3714.47	-78.9476	1.25902E-006	-0.430145	8
	76	158	15.7934	769.555	-4036.62	1	4109.32	-79.2065	1.29232E-006	-0.430154	8
	77	160	14.2828	829.134	-4432.07	1	4508.96	-79.4038	1.27094E-006	-0.430143	8
	78	162	12.5002	931.299	-5027.04	1	5112.58	-79.5045	1.23361E-006	-0.430148	8
	79	165	11.323	1000.79	-5499.94	1	5590.25	-79.6871	1.24541E-006	-0.430151	8
	80	167	9.9987	1126.34	-6190.92	1	6292.54	-79.6887	1.18764E-006	-0.43016	8
