EXPLAIN
TAG	EISPOT
TITLE	LABEL	Tomato_open	Test &Identifier
DATE	LABEL	5/10/2006	Date
TIME	LABEL	15:32:28	Time
NOTES	NOTES	1	&Notes...
	
PSTAT	PSTAT	300	Potentiostat
VDC	POTEN	1.00000E-001	T	DC &Voltage (V)
FREQINIT	QUANT	1.00000E+005	Initial Fre&q. (Hz)
FREQFINAL	QUANT	1.00000E+001	Final Fre&q. (Hz)
PTSPERDEC	QUANT	2.00000E+001	Points/&decade
VAC	QUANT	1.00000E+001	AC &Voltage (mV rms)
AREA	QUANT	1.00000E+000	&Area (cm²)
DENSITY	QUANT	7.87000E+000	&Density (gm/cm³)
EQUIV	QUANT	7.00000E+000	Equiv. &Wt
CONDIT	TWOPARAM	F	1.50000E+001	0.00000E+000	Conditionin&g	Time(s)	E(V)
DELAY	TWOPARAM	F	6.00000E+002	0.00000E+000	Init. De&lay	Time(s)	Stab.(mV/s)
SPEED	SELECTOR	1	&Optimize for:
ZGUESS	QUANT	1.00000E+002	E&stimated Z (ohms)
OCVCURVE	TABLE	39
	Pt	T	Vf	Vm	Ach	Over
	#	s	V vs. Ref.	V	V	bits
	0	0.258332	-4.93593E-001	5.34807E-006	3.15400E-004	......
	1	0.516663	-4.93243E-001	5.34807E-006	2.15400E-004	......
	2	0.774994	-4.92743E-001	5.34807E-006	3.15400E-004	......
	3	1.03333	-4.92143E-001	5.34807E-006	2.15400E-004	......
	4	1.29166	-4.91643E-001	5.34807E-006	2.15400E-004	......
	5	1.54999	-4.91343E-001	5.34807E-006	2.15400E-004	......
	6	1.80832	-4.90693E-001	5.34807E-006	2.15400E-004	......
	7	2.06665	-4.90343E-001	5.34807E-006	2.15400E-004	......
	8	2.32498	-4.89643E-001	5.34807E-006	3.15400E-004	......
	9	2.58332	-4.89243E-001	5.34807E-006	2.15400E-004	......
	10	2.84165	-4.89043E-001	5.34807E-006	3.15400E-004	......
	11	3.09998	-4.88893E-001	5.34807E-006	4.15400E-004	......
	12	3.35831	-4.89443E-001	5.34807E-006	1.15400E-004	......
	13	3.61664	-4.91993E-001	5.34807E-006	2.15400E-004	......
	14	3.87497	-4.92943E-001	5.34807E-006	3.15400E-004	......
	15	4.1333	-4.93093E-001	5.34807E-006	3.15400E-004	......
	16	4.39164	-4.93894E-001	5.34807E-006	2.15400E-004	......
	17	4.64997	-4.96843E-001	5.34807E-006	3.15400E-004	......
	18	4.9083	-5.02443E-001	5.34807E-006	2.15400E-004	......
	19	5.16663	-5.05593E-001	5.34807E-006	3.15400E-004	......
	20	5.42496	-5.07843E-001	5.34807E-006	1.15400E-004	......
	21	5.68329	-5.09443E-001	5.34807E-006	3.15400E-004	......
	22	5.94162	-5.08043E-001	5.34807E-006	2.15400E-004	......
	23	6.19996	-5.06343E-001	5.34807E-006	3.15400E-004	......
	24	6.45829	-5.04344E-001	5.34807E-006	2.15400E-004	......
	25	6.71662	-5.03644E-001	5.34807E-006	2.15400E-004	......
	26	6.97495	-5.02343E-001	5.34807E-006	3.15400E-004	......
	27	7.23328	-5.00293E-001	5.34807E-006	2.15400E-004	......
	28	7.49161	-4.99843E-001	5.34807E-006	2.15400E-004	......
	29	7.74995	-5.05993E-001	5.34807E-006	3.15400E-004	......
	30	8.00828	-5.07643E-001	5.34807E-006	2.15400E-004	......
	31	8.26661	-5.10844E-001	5.34807E-006	1.15400E-004	......
	32	8.52494	-5.11693E-001	5.34807E-006	2.15400E-004	......
	33	8.78327	-5.12343E-001	5.34807E-006	4.15400E-004	......
	34	9.0416	-5.11293E-001	5.34807E-006	1.15400E-004	......
	35	9.29993	-5.10543E-001	5.34807E-006	3.15400E-004	......
	36	9.5583	-5.10543E-001	5.34807E-006	1.54000E-005	......
	37	9.8166	-5.10693E-001	5.34807E-006	3.15400E-004	......
	38	10.0749	-5.10394E-001	5.34807E-006	2.15400E-004	......
EOC	QUANT	-0.510394	Open Circuit (V)
PSTATMODEL	IQUANT	32	Pstat Model
PSTATSECTION	LABEL	PStat0	Pstat Section
CTRLMODE	IQUANT	1	Control Mode
IESTAB	IQUANT	0	I/E Stability
CASPEED	IQUANT	1	Control Amp Speed
CONVENTION	IQUANT	1	Current Convention
ICHRANGE	IQUANT	2	Ich Range
ICHRANGEMODE	TOGGLE	F	Ich Auto Range
ICHOFFSETENABLE	TOGGLE	T	Ich Offset Enable
ICHOFFSET	QUANT	0	Ich Offset (V)
ICHFILTER	IQUANT	3	Ich Filter
VCHRANGE	IQUANT	2	Vch Range
VCHRANGEMODE	TOGGLE	F	Vch Auto Range
VCHOFFSETENABLE	TOGGLE	T	Vch Offset Enable
VCHOFFSET	QUANT	0	Vch Offset (V)
VCHFILTER	IQUANT	3	Vch Filter
ACHRANGE	IQUANT	0	Ach Range
IERANGELOWERLIMIT	IQUANT	3	I/E Range Lower Limit
IERANGEMODE	TOGGLE	F	I/E AutoRange
IERANGE	IQUANT	11	I/E Range
POSFEEDENABLE	TOGGLE	F	Positive Feedback IR Comp
POSFEEDRESISTANCE	QUANT	0	Positive Feedback Resistance (ohm)
FC350IDIVISOR	IQUANT	0	FC350 I Divisor
FC350VRANGE	IQUANT	0	FC350 V Range
FRAMEWORKVERSION	QUANT	4.35	Framework Version
ZCURVE	TABLE
	Pt	Time	Freq	Zreal	Zimag	Zsig	Zmod	Zphz	Idc	Vdc	IERange
	#	s	Hz	ohm	ohm	V	ohm	°	A	V	#
	0	4	100007	232.22	0.007081	1	232.22	0.001747	1.87809E-006	-0.410324	9
	1	6	89134.1	231.494	-0.286154	1	231.494	-0.070824	2.1768E-006	-0.410359	9
	2	8	79433.6	230.849	-1.14885	1	230.852	-0.285137	1.94325E-006	-0.41034	9
	3	10	70800.8	230.453	-1.15143	1	230.456	-0.286268	2.13559E-006	-0.410356	9
	4	12	63105.5	229.831	-1.59645	1	229.837	-0.397981	2.45814E-006	-0.410356	9
	5	14	56243.5	229.92	-2.18536	1	229.93	-0.544572	2.523E-006	-0.410353	9
	6	16	50123.7	229.728	-2.36832	1	229.74	-0.590657	2.58572E-006	-0.41033	9
	7	18	44681	229.495	-2.98604	1	229.515	-0.745453	2.46219E-006	-0.410356	9
	8	20	39811.2	229.322	-3.2435	1	229.344	-0.810332	2.16595E-006	-0.410319	9
	9	22	35488.3	229.739	-3.36781	1	229.763	-0.839857	2.00533E-006	-0.410343	9
	10	24	31634.1	229.528	-4.35914	1	229.569	-1.08802	2.13809E-006	-0.410371	9
	11	26	28173.1	229.591	-4.69398	1	229.639	-1.17125	2.03992E-006	-0.41033	9
	12	28	25123.7	229.726	-5.26289	1	229.786	-1.31239	1.90489E-006	-0.410323	9
	13	30	22389.3	229.943	-6.0671	1	230.023	-1.51141	2.04538E-006	-0.41033	9
	14	32	19954.4	230.074	-6.3924	1	230.162	-1.5915	1.76606E-006	-0.41031	9
	15	34	17778.2	230.391	-7.4787	1	230.512	-1.85922	2.06606E-006	-0.410333	9
	16	36	15852.9	230.196	-7.83577	1	230.33	-1.94957	2.18597E-006	-0.410356	9
	17	38	14122.3	230.833	-9.18537	1	231.015	-2.27873	1.94923E-006	-0.410336	9
	18	40	12587.2	230.905	-10.0658	1	231.124	-2.49611	2.05558E-006	-0.410321	9
	19	42	11221.1	231.222	-10.933	1	231.481	-2.70712	1.95563E-006	-0.410322	9
	20	44	9998.2	231.292	-11.9303	1	231.6	-2.95275	1.9115E-006	-0.410331	9
	21	46	8912.76	231.541	-13.3858	1	231.928	-3.30869	2.00011E-006	-0.410316	9
	22	48	7942.6	231.695	-14.7101	1	232.161	-3.63278	1.8753E-006	-0.410315	9
	23	50	7078.05	232.215	-16.0204	1	232.766	-3.94657	1.83325E-006	-0.410315	9
	24	52	6311.1	232.397	-17.7114	1	233.071	-4.35818	1.834E-006	-0.410309	9
	25	54	5622.14	232.549	-20.0985	1	233.416	-4.93963	1.81847E-006	-0.410303	9
	26	56	5011.18	233.355	-21.6526	1	234.358	-5.30119	1.84495E-006	-0.410314	9
	27	58	4465.21	233.398	-24.5782	1	234.688	-6.01144	1.86855E-006	-0.410318	9
	28	60	3980.93	234.304	-26.7438	1	235.826	-6.51165	1.93834E-006	-0.410348	9
	29	62	3548.18	234.905	-30.0036	1	236.814	-7.27877	1.55195E-006	-0.410301	9
	30	64	3162.67	235.405	-32.9946	1	237.706	-7.97866	1.55594E-006	-0.410302	9
	31	66	2819.01	235.571	-36.5858	1	238.396	-8.82788	1.60561E-006	-0.410294	9
	32	68	2511.16	236.537	-40.55	1	239.987	-9.7278	1.66275E-006	-0.410318	9
	33	70	2238.63	237.523	-44.8007	1	241.711	-10.6814	1.77588E-006	-0.410323	9
	34	72	1995.37	238.512	-49.6008	1	243.615	-11.7478	1.8025E-006	-0.410324	9
	35	74	1778.51	239.232	-55.1982	1	245.518	-12.9925	1.75477E-006	-0.410318	9
	36	76	1584.49	240.387	-60.6423	1	247.918	-14.1585	1.86819E-006	-0.410333	9
	37	78	1412.76	241.723	-67.5161	1	250.975	-15.6057	2.06597E-006	-0.410335	9
	38	80	1259.04	243.175	-74.3358	1	254.283	-16.9978	1.84005E-006	-0.410324	9
	39	82	1121.63	244.811	-82.2467	1	258.258	-18.5703	1.81998E-006	-0.410338	9
	40	84	999.95	246.443	-91.0072	1	262.71	-20.2683	1.8388E-006	-0.410323	9
	41	86	891.184	247.896	-101.17	1	267.746	-22.201	1.75664E-006	-0.410318	9
	42	88	794.163	250.129	-111.755	1	273.959	-24.0746	1.75538E-006	-0.410321	9
	43	90	707.867	251.437	-123.279	1	280.033	-26.1185	1.73028E-006	-0.410295	9
	44	91	630.984	254.16	-136.843	1	288.658	-28.2987	1.83463E-006	-0.410322	9
	45	93	562.189	256.53	-151.158	1	297.752	-30.5084	1.92727E-006	-0.410317	9
	46	95	501.303	259.172	-167.218	1	308.434	-32.8301	1.80244E-006	-0.410334	9
	47	97	446.614	261.934	-185.262	1	320.829	-35.2712	1.91156E-006	-0.410332	9
	48	99	398.209	264.886	-205.172	1	335.053	-37.7601	1.99458E-006	-0.410331	9
	49	101	354.821	268.151	-227.362	1	351.566	-40.2941	1.9472E-006	-0.41033	9
	50	103	316.113	271.678	-252.118	1	370.638	-42.8614	1.89758E-006	-0.410331	9
	51	105	281.926	275.499	-279.394	1	392.378	-45.4022	1.85673E-006	-0.410331	9
	52	107	251.185	279.657	-309.943	1	417.46	-47.9405	1.89311E-006	-0.41033	9
	53	109	223.946	284.217	-343.782	1	446.056	-50.4182	1.84286E-006	-0.410327	9
	54	111	199.495	289.235	-381.736	1	478.935	-52.8494	1.86264E-006	-0.410331	9
	55	113	177.836	294.79	-423.717	1	516.175	-55.1727	1.89039E-006	-0.410337	9
	56	115	158.533	300.824	-470.432	1	558.392	-57.4025	1.97914E-006	-0.410325	9
	57	117	141.263	307.41	-522.626	1	606.332	-59.5359	1.91017E-006	-0.410326	9
	58	119	125.911	314.75	-580.682	1	660.5	-61.5407	1.87794E-006	-0.410327	9
	59	121	112.198	322.819	-645.296	1	721.539	-63.4228	1.84573E-006	-0.410326	9
	60	124	100.009	331.638	-717.181	1	790.147	-65.1833	1.87509E-006	-0.410331	9
	61	126	89.1164	341.709	-797.397	1	867.529	-66.8034	1.80559E-006	-0.410333	9
	62	128	79.4083	352.65	-886.758	1	954.31	-68.3131	1.86247E-006	-0.410331	9
	63	130	70.788	365.415	-986.12	1	1051.65	-69.6674	1.96829E-006	-0.410324	9
	64	132	63.0971	378.792	-1095.52	1	1159.15	-70.9264	1.26261E-006	-0.410334	8
	65	134	54.5476	398.72	-1253.21	1	1315.11	-72.3511	1.30271E-006	-0.410334	8
	66	136	50.0083	412.343	-1358.15	1	1419.37	-73.1114	1.38874E-006	-0.410331	8
	67	138	46.1675	425.986	-1462.65	1	1523.42	-73.7621	1.36444E-006	-0.410331	8
	68	140	40.0059	453.679	-1669.82	1	1730.35	-74.8	1.43855E-006	-0.410336	8
	69	142	35.3046	479.929	-1875.15	1	1935.6	-75.6438	1.3854E-006	-0.410336	8
	70	144	31.5793	508.014	-2078.84	1	2140.02	-76.2676	1.42973E-006	-0.410332	8
	71	146	28.5748	535.621	-2281.75	1	2343.77	-76.7895	1.48768E-006	-0.410341	8
	72	149	24.9911	582.073	-2581.77	1	2646.57	-77.2948	1.49901E-006	-0.410345	8
	73	151	22.2195	623.251	-2880.99	1	2947.63	-77.7932	1.45013E-006	-0.41034	8
	74	153	20.0011	672.235	-3174.9	1	3245.29	-78.0451	1.66991E-006	-0.410338	8
	75	156	17.6486	737.351	-3562.24	1	3637.75	-78.3055	1.68298E-006	-0.410343	8
	76	158	15.7934	794.124	-3952.19	1	4031.18	-78.6387	1.64874E-006	-0.410353	8
	77	160	14.2828	860.038	-4336.98	1	4421.43	-78.7836	1.62957E-006	-0.410348	8
	78	162	12.5002	954.2	-4904.49	1	4996.45	-78.9902	1.56541E-006	-0.410342	8
	79	165	11.323	1047.38	-5378.49	1	5479.52	-78.9805	1.62537E-006	-0.410341	8
	80	167	9.9987	1175.2	-6038.03	1	6151.33	-78.986	1.54481E-006	-0.41034	8
