EXPLAIN
TAG	EISPOT
TITLE	LABEL	Tomato_open	Test &Identifier
DATE	LABEL	5/15/2006	Date
TIME	LABEL	11:12:40	Time
NOTES	NOTES	1	&Notes...
	
PSTAT	PSTAT	300	Potentiostat
VDC	POTEN	1.00000E-001	T	DC &Voltage (V)
FREQINIT	QUANT	1.00000E+005	Initial Fre&q. (Hz)
FREQFINAL	QUANT	1.00000E+001	Final Fre&q. (Hz)
PTSPERDEC	QUANT	2.00000E+001	Points/&decade
VAC	QUANT	1.00000E+001	AC &Voltage (mV rms)
AREA	QUANT	1.00000E+000	&Area (cm²)
DENSITY	QUANT	7.87000E+000	&Density (gm/cm³)
EQUIV	QUANT	7.00000E+000	Equiv. &Wt
CONDIT	TWOPARAM	F	1.50000E+001	0.00000E+000	Conditionin&g	Time(s)	E(V)
DELAY	TWOPARAM	F	6.00000E+002	0.00000E+000	Init. De&lay	Time(s)	Stab.(mV/s)
SPEED	SELECTOR	1	&Optimize for:
ZGUESS	QUANT	1.00000E+002	E&stimated Z (ohms)
OCVCURVE	TABLE	39
	Pt	T	Vf	Vm	Ach	Over
	#	s	V vs. Ref.	V	V	bits
	0	0.258332	-2.15133E-001	6.86393E-008	-6.34000E-005	......
	1	0.516663	-2.14902E-001	6.86393E-008	2.36600E-004	......
	2	0.774994	-2.15487E-001	6.86393E-008	-6.34000E-005	......
	3	1.03333	-2.15243E-001	6.86393E-008	-6.34000E-005	......
	4	1.29166	-2.15037E-001	6.86393E-008	-1.63400E-004	......
	5	1.54999	-2.14847E-001	6.86393E-008	2.36600E-004	......
	6	1.80832	-2.14982E-001	6.86393E-008	-6.34000E-005	......
	7	2.06665	-2.15282E-001	6.86393E-008	3.66000E-005	......
	8	2.32498	-2.15878E-001	6.86393E-008	-6.34000E-005	......
	9	2.58332	-2.16118E-001	6.86393E-008	1.36600E-004	......
	10	2.84165	-2.16112E-001	6.86393E-008	-6.34000E-005	......
	11	3.09998	-2.16017E-001	6.86393E-008	1.36600E-004	......
	12	3.35831	-2.15837E-001	6.86393E-008	-1.63400E-004	......
	13	3.61664	-2.15677E-001	6.86393E-008	3.66000E-005	......
	14	3.87497	-2.15558E-001	6.86393E-008	-1.63400E-004	......
	15	4.1333	-2.15902E-001	6.86393E-008	3.66000E-005	......
	16	4.39164	-2.15962E-001	6.86393E-008	-6.34000E-005	......
	17	4.64997	-2.16017E-001	6.86393E-008	3.66000E-005	......
	18	4.9083	-2.15972E-001	6.86393E-008	-6.34000E-005	......
	19	5.16663	-2.15907E-001	6.86393E-008	3.66000E-005	......
	20	5.42496	-2.15852E-001	6.86393E-008	-1.63400E-004	......
	21	5.68329	-2.15802E-001	6.86393E-008	2.36600E-004	......
	22	5.94162	-2.15747E-001	6.86393E-008	-1.63400E-004	......
	23	6.19996	-2.15668E-001	6.86393E-008	-6.34000E-005	......
	24	6.45829	-2.15587E-001	6.86393E-008	-6.34000E-005	......
	25	6.71662	-2.15517E-001	6.86393E-008	3.66000E-005	......
	26	6.97495	-2.15397E-001	6.86393E-008	-1.63400E-004	......
	27	7.23328	-2.15267E-001	6.86393E-008	1.36600E-004	......
	28	7.49161	-2.15163E-001	6.86393E-008	-1.63400E-004	......
	29	7.74995	-2.15053E-001	6.86393E-008	3.66000E-005	......
	30	8.00828	-2.14927E-001	6.86393E-008	-6.34000E-005	......
	31	8.26661	-2.14817E-001	6.86393E-008	3.66000E-005	......
	32	8.52494	-2.14658E-001	6.86393E-008	-1.63400E-004	......
	33	8.78327	-2.14538E-001	6.86393E-008	2.36600E-004	......
	34	9.0416	-2.14432E-001	6.86393E-008	-1.63400E-004	......
	35	9.29993	-2.14332E-001	6.86393E-008	3.66000E-005	......
	36	9.5583	-2.14192E-001	6.86393E-008	-6.34000E-005	......
	37	9.8166	-2.14037E-001	6.86393E-008	3.66000E-005	......
	38	10.0749	-2.14047E-001	6.86393E-008	-6.34000E-005	......
EOC	QUANT	-0.214047	Open Circuit (V)
PSTATMODEL	IQUANT	32	Pstat Model
PSTATSECTION	LABEL	PStat0	Pstat Section
CTRLMODE	IQUANT	1	Control Mode
IESTAB	IQUANT	0	I/E Stability
CASPEED	IQUANT	1	Control Amp Speed
CONVENTION	IQUANT	1	Current Convention
ICHRANGE	IQUANT	2	Ich Range
ICHRANGEMODE	TOGGLE	F	Ich Auto Range
ICHOFFSETENABLE	TOGGLE	T	Ich Offset Enable
ICHOFFSET	QUANT	0	Ich Offset (V)
ICHFILTER	IQUANT	3	Ich Filter
VCHRANGE	IQUANT	2	Vch Range
VCHRANGEMODE	TOGGLE	F	Vch Auto Range
VCHOFFSETENABLE	TOGGLE	T	Vch Offset Enable
VCHOFFSET	QUANT	0	Vch Offset (V)
VCHFILTER	IQUANT	3	Vch Filter
ACHRANGE	IQUANT	0	Ach Range
IERANGELOWERLIMIT	IQUANT	3	I/E Range Lower Limit
IERANGEMODE	TOGGLE	F	I/E AutoRange
IERANGE	IQUANT	11	I/E Range
POSFEEDENABLE	TOGGLE	F	Positive Feedback IR Comp
POSFEEDRESISTANCE	QUANT	0	Positive Feedback Resistance (ohm)
FC350IDIVISOR	IQUANT	0	FC350 I Divisor
FC350VRANGE	IQUANT	0	FC350 V Range
FRAMEWORKVERSION	QUANT	4.35	Framework Version
ZCURVE	TABLE
	Pt	Time	Freq	Zreal	Zimag	Zsig	Zmod	Zphz	Idc	Vdc	IERange
	#	s	Hz	ohm	ohm	V	ohm	°	A	V	#
	0	4	100007	239.036	-0.524735	1	239.037	-0.125776	6.43916E-007	-0.113728	9
	1	6	89134.1	238.275	-0.643554	1	238.276	-0.154749	6.89322E-007	-0.113726	9
	2	8	79433.6	237.655	-1.0786	1	237.657	-0.260037	8.36338E-007	-0.113766	9
	3	10	70800.8	237.639	-1.43796	1	237.644	-0.346694	6.06603E-007	-0.113726	9
	4	12	63105.5	237.316	-2.43616	1	237.328	-0.588147	6.98525E-007	-0.113734	9
	5	14	56243.5	237.654	-2.12788	1	237.664	-0.512995	6.9426E-007	-0.11372	9
	6	16	50123.7	237.593	-2.50932	1	237.606	-0.605103	8.96869E-007	-0.113736	9
	7	18	44681	237.652	-3.15396	1	237.673	-0.760349	6.47822E-007	-0.113736	9
	8	20	39811.2	237.565	-3.22539	1	237.587	-0.777848	9.31056E-007	-0.113762	9
	9	22	35488.3	237.689	-4.17827	1	237.726	-1.00708	8.78447E-007	-0.113766	9
	10	24	31634.1	237.629	-4.39757	1	237.669	-1.0602	7.75369E-007	-0.11376	9
	11	26	28173.1	238.054	-5.31205	1	238.113	-1.27832	7.53291E-007	-0.113733	9
	12	28	25123.7	238.151	-5.82334	1	238.222	-1.40073	8.19244E-007	-0.113734	9
	13	30	22389.3	238.222	-6.88603	1	238.322	-1.65573	6.35197E-007	-0.113733	9
	14	32	19954.4	238.612	-7.05784	1	238.717	-1.69424	9.134E-007	-0.113742	9
	15	34	17778.2	238.696	-8.0483	1	238.832	-1.93116	7.89634E-007	-0.113741	9
	16	36	15852.9	239.274	-8.38052	1	239.421	-2.00595	7.404E-007	-0.113724	9
	17	37	14122.3	239.596	-8.95941	1	239.763	-2.14151	8.47619E-007	-0.113734	9
	18	39	12587.2	240.107	-10.7618	1	240.349	-2.56631	7.83978E-007	-0.113736	9
	19	41	11221.1	240.03	-11.2809	1	240.295	-2.69079	8.21181E-007	-0.113743	9
	20	43	9998.2	240.798	-12.9162	1	241.144	-3.07035	8.28541E-007	-0.11374	9
	21	45	8912.76	241.209	-13.8643	1	241.608	-3.28964	7.77431E-007	-0.113752	9
	22	47	7942.6	241.299	-14.9952	1	241.765	-3.556	8.23369E-007	-0.113727	9
	23	49	7078.05	241.789	-16.8963	1	242.378	-3.99737	7.56666E-007	-0.113738	9
	24	51	6311.1	242.612	-18.4493	1	243.312	-4.34867	7.77759E-007	-0.113728	9
	25	53	5622.14	242.699	-20.2728	1	243.544	-4.77487	7.53494E-007	-0.113732	9
	26	55	5011.18	243.233	-22.3885	1	244.261	-5.25899	8.01556E-007	-0.113733	9
	27	57	4465.21	244.16	-24.8191	1	245.418	-5.80424	8.54478E-007	-0.113724	9
	28	59	3980.93	244.154	-26.9047	1	245.632	-6.28837	7.95994E-007	-0.1137	9
	29	61	3548.18	245.482	-30.1548	1	247.327	-7.00307	8.74994E-007	-0.113735	9
	30	63	3162.67	246.331	-33.111	1	248.546	-7.65561	9.62103E-007	-0.113751	9
	31	65	2819.01	247.195	-36.7915	1	249.918	-8.46552	8.24775E-007	-0.113737	9
	32	67	2511.16	247.68	-40.6091	1	250.987	-9.31127	8.4501E-007	-0.113728	9
	33	69	2238.63	248.752	-44.6224	1	252.722	-10.1699	8.25931E-007	-0.113728	9
	34	71	1995.37	250.223	-49.5026	1	255.073	-11.1905	8.47697E-007	-0.113731	9
	35	73	1778.51	250.892	-54.4667	1	256.736	-12.2484	8.44338E-007	-0.113715	9
	36	75	1584.49	252.625	-60.0568	1	259.665	-13.3728	8.41041E-007	-0.113736	9
	37	77	1412.76	254.056	-65.8403	1	262.449	-14.5289	7.12056E-007	-0.113721	9
	38	79	1259.04	255.838	-72.8305	1	266.002	-15.8903	9.21337E-007	-0.113724	9
	39	81	1121.63	257.477	-80.4149	1	269.743	-17.3445	8.60259E-007	-0.113731	9
	40	83	999.95	259.373	-88.5279	1	274.065	-18.8455	8.56572E-007	-0.113725	9
	41	85	891.184	261.689	-97.931	1	279.413	-20.5171	8.22244E-007	-0.113733	9
	42	87	794.163	263.878	-107.208	1	284.825	-22.111	8.29619E-007	-0.113727	9
	43	89	707.867	265.642	-118.504	1	290.876	-24.0418	7.67119E-007	-0.11371	9
	44	91	630.984	267.713	-130.771	1	297.945	-26.0343	8.52228E-007	-0.113726	9
	45	93	562.189	271.04	-144.079	1	306.955	-27.9942	7.18041E-007	-0.113727	9
	46	95	501.303	273.55	-159.097	1	316.452	-30.1824	8.44416E-007	-0.113736	9
	47	97	446.614	276.319	-175.838	1	327.523	-32.471	8.209E-007	-0.11373	9
	48	99	398.209	279.248	-194.288	1	340.187	-34.8284	8.01478E-007	-0.113728	9
	49	101	354.821	282.448	-214.941	1	354.932	-37.271	8.12462E-007	-0.113733	9
	50	103	316.113	285.755	-237.908	1	371.828	-39.7794	8.09588E-007	-0.113732	9
	51	105	281.926	289.351	-263.293	1	391.213	-42.3004	8.04603E-007	-0.113737	9
	52	107	251.185	293.202	-291.801	1	413.66	-44.8628	8.17056E-007	-0.113734	9
	53	109	223.946	297.295	-323.349	1	439.248	-47.4037	8.25103E-007	-0.113723	9
	54	111	199.495	301.8	-358.837	1	468.879	-49.9345	8.00337E-007	-0.113734	9
	55	113	177.836	306.643	-398.134	1	502.534	-52.3965	7.94166E-007	-0.11374	9
	56	115	158.533	312.003	-441.988	1	541.017	-54.7814	8.06727E-007	-0.113735	9
	57	117	141.263	317.735	-490.96	1	584.806	-57.0902	7.19813E-007	-0.11374	9
	58	119	125.911	323.837	-545.419	1	634.313	-59.3007	7.64835E-007	-0.113739	9
	59	121	112.198	330.721	-606.39	1	690.714	-61.3922	7.53052E-007	-0.113738	9
	60	123	100.009	338.334	-674.074	1	754.219	-63.3468	6.97848E-007	-0.113741	9
	61	125	89.1164	346.535	-749.731	1	825.943	-65.193	7.43694E-007	-0.113736	9
	62	127	79.4083	355.518	-834.005	1	906.618	-66.9125	8.00532E-007	-0.113735	9
	63	129	70.788	365.678	-927.769	1	997.23	-68.4883	7.07682E-007	-0.113738	9
	64	131	63.0971	376.683	-1032.4	1	1098.97	-69.9548	7.66735E-007	-0.113731	9
	65	133	54.5476	392.094	-1181.03	1	1244.42	-71.6342	2.85193E-007	-0.113732	8
	66	135	50.0083	402.558	-1280.58	1	1342.37	-72.5492	2.71029E-007	-0.113742	8
	67	137	46.1675	412.964	-1379.8	1	1440.27	-73.3379	2.65537E-007	-0.113736	8
	68	140	40.0059	433.346	-1577.12	1	1635.57	-74.636	2.78209E-007	-0.113745	8
	69	142	35.3046	453.616	-1772.34	1	1829.47	-75.6438	2.56946E-007	-0.113745	8
	70	144	31.5793	474.326	-1967.26	1	2023.63	-76.4441	3.09693E-007	-0.113731	8
	71	146	28.5748	494.773	-2159.93	1	2215.87	-77.0979	2.82831E-007	-0.113729	8
	72	148	24.9911	524.983	-2449.93	1	2505.55	-77.9053	2.63629E-007	-0.113736	8
	73	150	22.2195	554.737	-2734.82	1	2790.52	-78.5336	2.36432E-007	-0.11374	8
	74	153	20.0011	584.837	-3017.71	1	3073.85	-79.0319	2.34103E-007	-0.113744	8
	75	155	17.6486	625.489	-3394.75	1	3451.89	-79.5602	2.81634E-007	-0.113741	8
	76	157	15.7934	667.623	-3766.86	1	3825.57	-79.9495	2.61804E-007	-0.113744	8
	77	160	14.2828	709.725	-4138.29	1	4198.71	-80.2683	3.08882E-007	-0.113741	8
	78	162	12.5002	773.238	-4694.26	1	4757.52	-80.6462	2.77526E-007	-0.11374	8
	79	164	11.323	825.299	-5150.03	1	5215.74	-80.8957	2.57252E-007	-0.113731	8
	80	167	9.9987	898.343	-5790.26	1	5859.53	-81.181	2.49512E-007	-0.113746	8
