EXPLAIN
TAG	EISPOT
TITLE	LABEL	Tomato_open	Test &Identifier
DATE	LABEL	5/10/2006	Date
TIME	LABEL	15:37:34	Time
NOTES	NOTES	1	&Notes...
	
PSTAT	PSTAT	300	Potentiostat
VDC	POTEN	1.00000E-001	T	DC &Voltage (V)
FREQINIT	QUANT	1.00000E+005	Initial Fre&q. (Hz)
FREQFINAL	QUANT	1.00000E+001	Final Fre&q. (Hz)
PTSPERDEC	QUANT	2.00000E+001	Points/&decade
VAC	QUANT	1.00000E+001	AC &Voltage (mV rms)
AREA	QUANT	1.00000E+000	&Area (cm²)
DENSITY	QUANT	7.87000E+000	&Density (gm/cm³)
EQUIV	QUANT	7.00000E+000	Equiv. &Wt
CONDIT	TWOPARAM	F	1.50000E+001	0.00000E+000	Conditionin&g	Time(s)	E(V)
DELAY	TWOPARAM	F	6.00000E+002	0.00000E+000	Init. De&lay	Time(s)	Stab.(mV/s)
SPEED	SELECTOR	1	&Optimize for:
ZGUESS	QUANT	1.00000E+002	E&stimated Z (ohms)
OCVCURVE	TABLE	39
	Pt	T	Vf	Vm	Ach	Over
	#	s	V vs. Ref.	V	V	bits
	0	0.258332	-4.99943E-001	3.72944E-006	-1.84600E-004	......
	1	0.516663	-4.98793E-001	3.72944E-006	-1.84600E-004	......
	2	0.774994	-4.97793E-001	3.72944E-006	-8.46000E-005	......
	3	1.03333	-4.97093E-001	3.72944E-006	-1.84600E-004	......
	4	1.29166	-4.96843E-001	3.72944E-006	-1.84600E-004	......
	5	1.54999	-4.96493E-001	3.72944E-006	-1.84600E-004	......
	6	1.80832	-4.96343E-001	3.72944E-006	-8.46000E-005	......
	7	2.06665	-4.96493E-001	3.72944E-006	-1.84600E-004	......
	8	2.32498	-4.96893E-001	3.72944E-006	-1.84600E-004	......
	9	2.58332	-4.98093E-001	3.72944E-006	-1.84600E-004	......
	10	2.84165	-4.98793E-001	3.72944E-006	-1.84600E-004	......
	11	3.09998	-5.00993E-001	3.72944E-006	-8.46000E-005	......
	12	3.35831	-5.02494E-001	3.72944E-006	-8.46000E-005	......
	13	3.61664	-5.04643E-001	3.72944E-006	-8.46000E-005	......
	14	3.87497	-5.05643E-001	3.72944E-006	-1.84600E-004	......
	15	4.1333	-5.06343E-001	3.72944E-006	-1.84600E-004	......
	16	4.39164	-5.06043E-001	3.72944E-006	-1.84600E-004	......
	17	4.64997	-5.05044E-001	3.72944E-006	-1.84600E-004	......
	18	4.9083	-5.04843E-001	3.72944E-006	-8.46000E-005	......
	19	5.16663	-5.04943E-001	3.72944E-006	-1.84600E-004	......
	20	5.42496	-5.05143E-001	3.72944E-006	-1.84600E-004	......
	21	5.68329	-5.05193E-001	3.72944E-006	-1.84600E-004	......
	22	5.94162	-5.04393E-001	3.72944E-006	-8.46000E-005	......
	23	6.19996	-5.03594E-001	3.72944E-006	-1.84600E-004	......
	24	6.45829	-5.03393E-001	3.72944E-006	-8.46000E-005	......
	25	6.71662	-5.03543E-001	3.72944E-006	-2.84600E-004	......
	26	6.97495	-5.03493E-001	3.72944E-006	-8.46000E-005	......
	27	7.23328	-5.02793E-001	3.72944E-006	-1.84600E-004	......
	28	7.49161	-5.02144E-001	3.72944E-006	-1.84600E-004	......
	29	7.74995	-5.01243E-001	3.72944E-006	-8.46000E-005	......
	30	8.00828	-5.01494E-001	3.72944E-006	-1.84600E-004	......
	31	8.26661	-5.02993E-001	3.72944E-006	-8.46000E-005	......
	32	8.52494	-5.03644E-001	3.72944E-006	-1.84600E-004	......
	33	8.78327	-5.04294E-001	3.72944E-006	-1.84600E-004	......
	34	9.0416	-5.04493E-001	3.72944E-006	-1.84600E-004	......
	35	9.29993	-5.05693E-001	3.72944E-006	-2.84600E-004	......
	36	9.5583	-5.06743E-001	3.72944E-006	-8.46000E-005	......
	37	9.8166	-5.07343E-001	3.72944E-006	-8.46000E-005	......
	38	10.0749	-5.07293E-001	3.72944E-006	-1.84600E-004	......
EOC	QUANT	-0.507293	Open Circuit (V)
PSTATMODEL	IQUANT	32	Pstat Model
PSTATSECTION	LABEL	PStat0	Pstat Section
CTRLMODE	IQUANT	1	Control Mode
IESTAB	IQUANT	0	I/E Stability
CASPEED	IQUANT	1	Control Amp Speed
CONVENTION	IQUANT	1	Current Convention
ICHRANGE	IQUANT	2	Ich Range
ICHRANGEMODE	TOGGLE	F	Ich Auto Range
ICHOFFSETENABLE	TOGGLE	T	Ich Offset Enable
ICHOFFSET	QUANT	0	Ich Offset (V)
ICHFILTER	IQUANT	3	Ich Filter
VCHRANGE	IQUANT	2	Vch Range
VCHRANGEMODE	TOGGLE	F	Vch Auto Range
VCHOFFSETENABLE	TOGGLE	T	Vch Offset Enable
VCHOFFSET	QUANT	0	Vch Offset (V)
VCHFILTER	IQUANT	3	Vch Filter
ACHRANGE	IQUANT	0	Ach Range
IERANGELOWERLIMIT	IQUANT	3	I/E Range Lower Limit
IERANGEMODE	TOGGLE	F	I/E AutoRange
IERANGE	IQUANT	11	I/E Range
POSFEEDENABLE	TOGGLE	F	Positive Feedback IR Comp
POSFEEDRESISTANCE	QUANT	0	Positive Feedback Resistance (ohm)
FC350IDIVISOR	IQUANT	0	FC350 I Divisor
FC350VRANGE	IQUANT	0	FC350 V Range
FRAMEWORKVERSION	QUANT	4.35	Framework Version
ZCURVE	TABLE
	Pt	Time	Freq	Zreal	Zimag	Zsig	Zmod	Zphz	Idc	Vdc	IERange
	#	s	Hz	ohm	ohm	V	ohm	°	A	V	#
	0	5	100007	233.281	-0.071061	1	233.281	-0.017453	1.40092E-006	-0.407102	9
	1	7	89134.1	231.67	-0.341908	1	231.671	-0.084559	1.59403E-006	-0.40712	9
	2	9	79433.6	231.311	-0.835533	1	231.312	-0.206961	1.57962E-006	-0.407118	9
	3	11	70800.8	230.697	-0.861816	1	230.699	-0.214039	1.52259E-006	-0.407132	9
	4	13	63105.5	230.701	-1.68037	1	230.707	-0.417321	1.63022E-006	-0.407122	9
	5	14	56243.5	230.512	-1.67188	1	230.518	-0.415554	1.55878E-006	-0.407136	9
	6	16	50123.7	230.13	-2.54698	1	230.144	-0.634099	1.39642E-006	-0.407102	9
	7	18	44681	230.186	-2.39324	1	230.198	-0.595682	1.69391E-006	-0.407106	9
	8	20	39811.2	229.948	-3.04465	1	229.968	-0.758587	1.70761E-006	-0.407113	9
	9	22	35488.3	229.756	-3.78235	1	229.787	-0.943143	1.85231E-006	-0.407141	9
	10	24	31634.1	229.851	-4.43013	1	229.893	-1.10418	1.85869E-006	-0.40713	9
	11	26	28173.1	229.775	-4.98729	1	229.83	-1.24341	1.67456E-006	-0.407109	9
	12	28	25123.7	230.044	-5.34321	1	230.106	-1.33056	1.51377E-006	-0.407098	9
	13	30	22389.3	230.388	-6.14312	1	230.469	-1.52739	1.53436E-006	-0.407105	9
	14	32	19954.4	230.315	-6.71302	1	230.413	-1.66953	1.82044E-006	-0.407118	9
	15	34	17778.2	230.483	-7.28661	1	230.598	-1.81078	1.73867E-006	-0.407133	9
	16	36	15852.9	230.635	-8.29258	1	230.784	-2.05921	1.9428E-006	-0.407141	9
	17	38	14122.3	230.683	-8.92512	1	230.856	-2.21567	1.75356E-006	-0.407122	9
	18	40	12587.2	231.172	-9.8643	1	231.383	-2.44337	1.67266E-006	-0.407114	9
	19	42	11221.1	231.228	-10.8518	1	231.482	-2.687	1.69983E-006	-0.407114	9
	20	44	9998.2	231.434	-12.3959	1	231.766	-3.06592	1.73752E-006	-0.407121	9
	21	46	8912.76	231.594	-13.1709	1	231.968	-3.25494	1.80944E-006	-0.407105	9
	22	48	7942.6	232.282	-14.5635	1	232.738	-3.58762	1.80969E-006	-0.407129	9
	23	50	7078.05	232.044	-16.3866	1	232.622	-4.03944	1.79148E-006	-0.407113	9
	24	52	6311.1	232.432	-18.1371	1	233.139	-4.46185	1.82609E-006	-0.407122	9
	25	54	5622.14	232.615	-19.7175	1	233.449	-4.84507	1.78503E-006	-0.407116	9
	26	56	5011.18	233.121	-22.0312	1	234.16	-5.39872	1.77381E-006	-0.407117	9
	27	58	4465.21	233.762	-24.2503	1	235.017	-5.92264	1.87067E-006	-0.407102	9
	28	60	3980.93	233.885	-27.1094	1	235.451	-6.61159	1.67652E-006	-0.407082	9
	29	62	3548.18	234.608	-29.8153	1	236.495	-7.24263	1.71358E-006	-0.407093	9
	30	64	3162.67	235.139	-33.3	1	237.485	-8.06053	2.01205E-006	-0.407124	9
	31	66	2819.01	235.887	-36.9349	1	238.761	-8.89904	2.05028E-006	-0.407132	9
	32	68	2511.16	236.545	-40.8028	1	240.038	-9.7869	1.93191E-006	-0.407124	9
	33	70	2238.63	237.277	-44.9412	1	241.496	-10.725	1.93013E-006	-0.40712	9
	34	72	1995.37	238.313	-50.1	1	243.522	-11.8723	1.94866E-006	-0.40712	9
	35	74	1778.51	239.053	-55.3454	1	245.377	-13.0354	1.93377E-006	-0.407123	9
	36	76	1584.49	240.326	-61.0064	1	247.948	-14.2436	1.94436E-006	-0.407122	9
	37	78	1412.76	241.742	-67.1502	1	250.895	-15.524	1.90997E-006	-0.407138	9
	38	80	1259.04	243	-75.2308	1	254.379	-17.2021	1.931E-006	-0.407124	9
	39	82	1121.63	244.122	-82.6544	1	257.735	-18.705	2.03952E-006	-0.407126	9
	40	84	999.95	245.576	-92.0884	1	262.275	-20.5555	1.97002E-006	-0.407127	9
	41	86	891.184	247.585	-101.4	1	267.545	-22.2719	2.01023E-006	-0.407121	9
	42	88	794.163	249.638	-112.209	1	273.697	-24.2033	2.03137E-006	-0.407135	9
	43	90	707.867	251.237	-124.307	1	280.308	-26.3253	1.91489E-006	-0.407107	9
	44	92	630.984	252.919	-137.511	1	287.884	-28.5327	2.02328E-006	-0.407132	9
	45	94	562.189	256.148	-152.176	1	297.942	-30.7143	1.93813E-006	-0.407111	9
	46	96	501.303	258.594	-168.532	1	308.665	-33.0933	2.20877E-006	-0.407135	9
	47	97	446.614	261.284	-186.781	1	321.18	-35.5594	2.16752E-006	-0.407139	9
	48	99	398.209	264.19	-206.872	1	335.548	-38.0625	2.07661E-006	-0.407138	9
	49	101	354.821	267.406	-229.331	1	352.277	-40.6169	2.19602E-006	-0.407136	9
	50	103	316.113	270.85	-254.323	1	371.537	-43.1974	2.09847E-006	-0.407135	9
	51	105	281.926	274.577	-281.908	1	393.528	-45.7548	2.18914E-006	-0.407138	9
	52	107	251.185	278.701	-312.821	1	418.964	-48.3012	2.2122E-006	-0.407141	9
	53	109	223.946	283.152	-347.032	1	447.891	-50.7882	2.26845E-006	-0.407137	9
	54	112	199.495	288.075	-385.43	1	481.19	-53.2251	2.44639E-006	-0.407134	9
	55	114	177.836	293.55	-427.95	1	518.953	-55.5521	2.40445E-006	-0.407135	9
	56	116	158.533	299.396	-475.139	1	561.601	-57.784	2.34597E-006	-0.407136	9
	57	118	141.263	305.853	-528.076	1	610.254	-59.9213	2.3794E-006	-0.407127	9
	58	120	125.911	313.03	-586.729	1	665.01	-61.9193	2.3474E-006	-0.407128	9
	59	122	112.198	321.01	-652.309	1	727.017	-63.7976	2.40607E-006	-0.407138	9
	60	124	100.009	329.684	-725.054	1	796.489	-65.5486	2.36371E-006	-0.407133	9
	61	126	89.1164	339.601	-806.38	1	874.973	-67.162	2.42558E-006	-0.40713	9
	62	128	79.4083	350.407	-896.819	1	962.84	-68.6583	2.42599E-006	-0.40713	9
	63	130	70.788	362.59	-997.53	1	1061.39	-70.0244	2.43798E-006	-0.407131	9
	64	132	63.0971	375.824	-1108.53	1	1170.51	-71.2719	1.56359E-006	-0.407139	8
	65	134	54.5476	395.279	-1268.49	1	1328.65	-72.6922	1.57927E-006	-0.40713	8
	66	136	50.0083	408.394	-1374.74	1	1434.12	-73.4549	1.52969E-006	-0.407134	8
	67	138	46.1675	422.043	-1480.97	1	1539.93	-74.0937	1.59035E-006	-0.407132	8
	68	141	40.0059	448.132	-1691.58	1	1749.93	-75.1621	1.62484E-006	-0.407127	8
	69	143	35.3046	474.211	-1899.95	1	1958.24	-75.9858	1.50625E-006	-0.40714	8
	70	145	31.5793	501.133	-2107.44	1	2166.21	-76.6239	1.5562E-006	-0.407133	8
	71	147	28.5748	527.962	-2312.41	1	2371.92	-77.1389	1.53857E-006	-0.40713	8
	72	149	24.9911	571.244	-2618.76	1	2680.34	-77.6945	1.53564E-006	-0.407139	8
	73	151	22.2195	611.546	-2922.1	1	2985.41	-78.1796	1.56563E-006	-0.407133	8
	74	154	20.0011	656.833	-3222.34	1	3288.6	-78.4788	1.56426E-006	-0.407128	8
	75	156	17.6486	715.283	-3616.16	1	3686.23	-78.8112	1.62281E-006	-0.407124	8
	76	158	15.7934	777.711	-4009.66	1	4084.38	-79.0232	1.56701E-006	-0.407128	8
	77	160	14.2828	837.417	-4405.46	1	4484.35	-79.2373	1.6197E-006	-0.407121	8
	78	163	12.5002	937.872	-4979.43	1	5066.99	-79.3334	1.60579E-006	-0.407126	8
	79	165	11.323	1024.45	-5463.47	1	5558.69	-79.3799	1.56536E-006	-0.407124	8
	80	168	9.9987	1148.97	-6134.33	1	6241.01	-79.3913	1.57611E-006	-0.407136	8
