EXPLAIN
TAG	EISPOT
TITLE	LABEL	Tomato_open	Test &Identifier
DATE	LABEL	5/15/2006	Date
TIME	LABEL	11:17:40	Time
NOTES	NOTES	1	&Notes...
	
PSTAT	PSTAT	300	Potentiostat
VDC	POTEN	1.00000E-001	T	DC &Voltage (V)
FREQINIT	QUANT	1.00000E+005	Initial Fre&q. (Hz)
FREQFINAL	QUANT	1.00000E+001	Final Fre&q. (Hz)
PTSPERDEC	QUANT	2.00000E+001	Points/&decade
VAC	QUANT	1.00000E+001	AC &Voltage (mV rms)
AREA	QUANT	1.00000E+000	&Area (cm²)
DENSITY	QUANT	7.87000E+000	&Density (gm/cm³)
EQUIV	QUANT	7.00000E+000	Equiv. &Wt
CONDIT	TWOPARAM	F	1.50000E+001	0.00000E+000	Conditionin&g	Time(s)	E(V)
DELAY	TWOPARAM	F	6.00000E+002	0.00000E+000	Init. De&lay	Time(s)	Stab.(mV/s)
SPEED	SELECTOR	1	&Optimize for:
ZGUESS	QUANT	1.00000E+002	E&stimated Z (ohms)
OCVCURVE	TABLE	39
	Pt	T	Vf	Vm	Ach	Over
	#	s	V vs. Ref.	V	V	bits
	0	0.258332	-4.07770E-001	2.56354E-006	3.66000E-005	......
	1	0.516663	-4.07919E-001	2.56354E-006	-1.63400E-004	......
	2	0.774994	-4.08019E-001	2.56354E-006	3.36600E-004	......
	3	1.03333	-4.08269E-001	2.56354E-006	-6.34000E-005	......
	4	1.29166	-4.08369E-001	2.56354E-006	3.66000E-005	......
	5	1.54999	-4.08419E-001	2.56354E-006	-6.34000E-005	......
	6	1.80832	-4.08519E-001	2.56354E-006	2.36600E-004	......
	7	2.06665	-4.08619E-001	2.56354E-006	-6.34000E-005	......
	8	2.32498	-4.08719E-001	2.56354E-006	3.66000E-005	......
	9	2.58332	-4.08719E-001	2.56354E-006	-1.63400E-004	......
	10	2.84165	-4.08769E-001	2.56354E-006	3.66000E-005	......
	11	3.09998	-4.08869E-001	2.56354E-006	-1.63400E-004	......
	12	3.35831	-4.08919E-001	2.56354E-006	1.36600E-004	......
	13	3.61664	-4.09119E-001	2.56354E-006	-1.63400E-004	......
	14	3.87497	-4.09169E-001	2.56354E-006	1.36600E-004	......
	15	4.1333	-4.09169E-001	2.56354E-006	-1.63400E-004	......
	16	4.39164	-4.09169E-001	2.56354E-006	1.36600E-004	......
	17	4.64997	-4.09069E-001	2.56354E-006	-6.34000E-005	......
	18	4.9083	-4.09220E-001	2.56354E-006	1.36600E-004	......
	19	5.16663	-4.09219E-001	2.56354E-006	-6.34000E-005	......
	20	5.42496	-4.09269E-001	2.56354E-006	3.66000E-005	......
	21	5.68329	-4.09269E-001	2.56354E-006	-1.63400E-004	......
	22	5.94162	-4.09269E-001	2.56354E-006	3.66000E-005	......
	23	6.19996	-4.09269E-001	2.56354E-006	-1.63400E-004	......
	24	6.45829	-4.09319E-001	2.56354E-006	1.36600E-004	......
	25	6.71662	-4.09419E-001	2.56354E-006	-1.63400E-004	......
	26	6.97495	-4.09319E-001	2.56354E-006	1.36600E-004	......
	27	7.23328	-4.09469E-001	2.56354E-006	-2.63400E-004	......
	28	7.49161	-4.09519E-001	2.56354E-006	2.36600E-004	......
	29	7.74995	-4.09619E-001	2.56354E-006	-1.63400E-004	......
	30	8.00828	-4.09620E-001	2.56354E-006	3.66000E-005	......
	31	8.26661	-4.09769E-001	2.56354E-006	-1.63400E-004	......
	32	8.52494	-4.09669E-001	2.56354E-006	3.66000E-005	......
	33	8.78327	-4.09819E-001	2.56354E-006	-1.63400E-004	......
	34	9.0416	-4.09869E-001	2.56354E-006	3.66000E-005	......
	35	9.29993	-4.09969E-001	2.56354E-006	-1.63400E-004	......
	36	9.5583	-4.09969E-001	2.56354E-006	3.66000E-005	......
	37	9.8166	-4.10019E-001	2.56354E-006	-6.34000E-005	......
	38	10.0749	-4.10069E-001	2.56354E-006	1.36600E-004	......
EOC	QUANT	-0.410069	Open Circuit (V)
PSTATMODEL	IQUANT	32	Pstat Model
PSTATSECTION	LABEL	PStat0	Pstat Section
CTRLMODE	IQUANT	1	Control Mode
IESTAB	IQUANT	0	I/E Stability
CASPEED	IQUANT	1	Control Amp Speed
CONVENTION	IQUANT	1	Current Convention
ICHRANGE	IQUANT	2	Ich Range
ICHRANGEMODE	TOGGLE	F	Ich Auto Range
ICHOFFSETENABLE	TOGGLE	T	Ich Offset Enable
ICHOFFSET	QUANT	0	Ich Offset (V)
ICHFILTER	IQUANT	3	Ich Filter
VCHRANGE	IQUANT	2	Vch Range
VCHRANGEMODE	TOGGLE	F	Vch Auto Range
VCHOFFSETENABLE	TOGGLE	T	Vch Offset Enable
VCHOFFSET	QUANT	0	Vch Offset (V)
VCHFILTER	IQUANT	3	Vch Filter
ACHRANGE	IQUANT	0	Ach Range
IERANGELOWERLIMIT	IQUANT	3	I/E Range Lower Limit
IERANGEMODE	TOGGLE	F	I/E AutoRange
IERANGE	IQUANT	11	I/E Range
POSFEEDENABLE	TOGGLE	F	Positive Feedback IR Comp
POSFEEDRESISTANCE	QUANT	0	Positive Feedback Resistance (ohm)
FC350IDIVISOR	IQUANT	0	FC350 I Divisor
FC350VRANGE	IQUANT	0	FC350 V Range
FRAMEWORKVERSION	QUANT	4.35	Framework Version
ZCURVE	TABLE
	Pt	Time	Freq	Zreal	Zimag	Zsig	Zmod	Zphz	Idc	Vdc	IERange
	#	s	Hz	ohm	ohm	V	ohm	°	A	V	#
	0	5	100007	246.056	-0.687223	1	246.057	-0.160024	1.07435E-006	-0.309983	9
	1	7	89134.1	245.181	-0.921906	1	245.182	-0.215438	9.62931E-007	-0.309984	9
	2	9	79433.6	244.438	-1.25101	1	244.441	-0.293233	7.54572E-007	-0.309964	9
	3	11	70800.8	244.132	-1.53504	1	244.137	-0.360257	7.60416E-007	-0.309954	9
	4	13	63105.5	243.737	-1.85009	1	243.744	-0.434895	8.95525E-007	-0.309942	9
	5	15	56243.5	243.371	-2.06025	1	243.38	-0.485024	7.46978E-007	-0.309951	9
	6	17	50123.7	243.119	-2.45212	1	243.131	-0.577872	8.01291E-007	-0.309938	9
	7	19	44681	242.898	-2.85236	1	242.915	-0.672794	7.29682E-007	-0.309946	9
	8	21	39811.2	242.911	-3.29703	1	242.933	-0.777628	9.10322E-007	-0.309947	9
	9	23	35488.3	242.895	-4.06237	1	242.929	-0.95817	7.15275E-007	-0.309949	9
	10	25	31634.1	242.835	-4.58079	1	242.878	-1.08069	8.57291E-007	-0.309982	9
	11	27	28173.1	242.977	-5.2298	1	243.033	-1.23304	7.89447E-007	-0.309955	9
	12	29	25123.7	243.362	-5.54239	1	243.425	-1.30464	8.4576E-007	-0.309956	9
	13	31	22389.3	243.403	-6.06532	1	243.479	-1.42745	7.15431E-007	-0.309965	9
	14	33	19954.4	243.245	-6.8276	1	243.341	-1.6078	7.94791E-007	-0.309985	9
	15	35	17778.2	243.689	-7.54757	1	243.806	-1.774	7.88665E-007	-0.309978	9
	16	37	15852.9	244.151	-8.68017	1	244.305	-2.03615	7.86963E-007	-0.309962	9
	17	39	14122.3	244.163	-9.6171	1	244.352	-2.25561	7.0801E-007	-0.309965	9
	18	41	12587.2	244.005	-10.5472	1	244.232	-2.4751	7.55369E-007	-0.309965	9
	19	43	11221.1	244.65	-11.4015	1	244.916	-2.66825	6.67072E-007	-0.309961	9
	20	45	9998.2	245.084	-12.6895	1	245.412	-2.96391	7.77791E-007	-0.309967	9
	21	47	8912.76	244.939	-13.8007	1	245.327	-3.22484	7.50447E-007	-0.309958	9
	22	49	7942.6	245.058	-14.8921	1	245.51	-3.47757	7.20634E-007	-0.309965	9
	23	51	7078.05	245.751	-16.8648	1	246.329	-3.9258	7.78197E-007	-0.309969	9
	24	53	6311.1	246.072	-18.5436	1	246.77	-4.30957	7.29869E-007	-0.309965	9
	25	55	5622.14	246.354	-20.2941	1	247.188	-4.70927	7.49588E-007	-0.309969	9
	26	56	5011.18	246.868	-22.8351	1	247.922	-5.28479	7.69791E-007	-0.309962	9
	27	58	4465.21	247.6	-24.6918	1	248.828	-5.69496	7.72384E-007	-0.309974	9
	28	60	3980.93	247.929	-27.5005	1	249.45	-6.32941	7.71603E-007	-0.309957	9
	29	62	3548.18	248.877	-30.405	1	250.727	-6.96524	8.26353E-007	-0.309961	9
	30	64	3162.67	249.629	-33.6862	1	251.892	-7.68534	8.2301E-007	-0.309991	9
	31	66	2819.01	250.035	-36.7948	1	252.728	-8.37148	7.90322E-007	-0.309959	9
	32	68	2511.16	251.163	-40.8902	1	254.47	-9.24683	7.30541E-007	-0.309965	9
	33	70	2238.63	252.264	-45.2894	1	256.297	-10.178	7.75869E-007	-0.30996	9
	34	72	1995.37	252.984	-49.8645	1	257.851	-11.1504	7.53322E-007	-0.30996	9
	35	74	1778.51	254.528	-55.1717	1	260.439	-12.2303	7.04791E-007	-0.309958	9
	36	76	1584.49	255.733	-60.9303	1	262.891	-13.4013	7.95088E-007	-0.309968	9
	37	78	1412.76	257.012	-67.057	1	265.616	-14.623	7.73384E-007	-0.309965	9
	38	80	1259.04	258.438	-73.9661	1	268.815	-15.9713	7.54525E-007	-0.309971	9
	39	82	1121.63	260.716	-81.7565	1	273.235	-17.4106	7.82603E-007	-0.309968	9
	40	84	999.95	262.268	-90.1398	1	277.326	-18.9675	7.84697E-007	-0.309968	9
	41	86	891.184	263.993	-98.699	1	281.84	-20.4992	7.63244E-007	-0.309961	9
	42	88	794.163	266.358	-109.799	1	288.102	-22.4026	7.40556E-007	-0.309962	9
	43	90	707.867	268.315	-120.631	1	294.185	-24.2081	8.9165E-007	-0.30996	9
	44	92	630.984	270.956	-133.122	1	301.891	-26.1651	7.71306E-007	-0.309965	9
	45	94	562.189	273.556	-147.282	1	310.684	-28.2979	6.46088E-007	-0.309961	9
	46	96	501.303	275.82	-162.35	1	320.054	-30.4814	8.40181E-007	-0.309957	9
	47	98	446.614	278.537	-179.492	1	331.361	-32.7982	8.0476E-007	-0.309957	9
	48	100	398.209	281.443	-198.427	1	344.359	-35.1852	8.09869E-007	-0.309963	9
	49	102	354.821	284.496	-219.557	1	359.365	-37.6587	8.13072E-007	-0.30996	9
	50	104	316.113	287.791	-243.135	1	376.747	-40.1922	8.07306E-007	-0.309966	9
	51	106	281.926	291.26	-269.105	1	396.547	-42.7359	7.91353E-007	-0.309965	9
	52	108	251.185	295.025	-298.296	1	419.548	-45.3159	7.87541E-007	-0.309969	9
	53	110	223.946	299.03	-330.695	1	445.845	-47.8787	7.81744E-007	-0.309963	9
	54	112	199.495	303.413	-367.064	1	476.23	-50.423	7.73416E-007	-0.309965	9
	55	114	177.836	308.187	-407.425	1	510.857	-52.8951	8.15571E-007	-0.309963	9
	56	116	158.533	313.265	-452.35	1	550.232	-55.2964	7.67735E-007	-0.309972	9
	57	118	141.263	318.851	-502.665	1	595.263	-57.6122	7.88058E-007	-0.309967	9
	58	120	125.911	324.836	-558.577	1	646.164	-59.8202	7.48958E-007	-0.309971	9
	59	122	112.198	331.406	-621.135	1	704.016	-61.9179	8.17655E-007	-0.309969	9
	60	124	100.009	338.682	-690.678	1	769.247	-63.8785	8.03977E-007	-0.309967	9
	61	126	89.1164	346.513	-768.322	1	842.847	-65.7246	7.61879E-007	-0.309971	9
	62	128	79.4083	355.356	-855.25	1	926.137	-67.4371	7.68969E-007	-0.30997	9
	63	130	70.788	364.879	-951.76	1	1019.3	-69.0245	8.44137E-007	-0.309964	9
	64	132	63.0971	375.187	-1058.41	1	1122.94	-70.4815	2.5569E-007	-0.309964	8
	65	134	54.5476	390.118	-1212.43	1	1273.65	-72.1636	2.51084E-007	-0.309963	8
	66	136	50.0083	400.104	-1314.81	1	1374.34	-73.0747	2.29492E-007	-0.309964	8
	67	139	46.1675	410.041	-1417.06	1	1475.19	-73.8616	2.27988E-007	-0.309953	8
	68	141	40.0059	429.133	-1620.6	1	1676.46	-75.1686	2.32437E-007	-0.309965	8
	69	143	35.3046	448.046	-1822.17	1	1876.44	-76.1858	2.12254E-007	-0.309969	8
	70	145	31.5793	467.049	-2023.12	1	2076.33	-77.0007	2.52462E-007	-0.30996	8
	71	147	28.5748	486.351	-2222.4	1	2275	-77.656	2.35292E-007	-0.309968	8
	72	149	24.9911	514.943	-2521.69	1	2573.73	-78.4586	2.10913E-007	-0.309975	8
	73	151	22.2195	543.17	-2815.45	1	2867.37	-79.0804	1.93323E-007	-0.309963	8
	74	154	20.0011	571.914	-3110.25	1	3162.4	-79.5808	1.82257E-007	-0.309961	8
	75	156	17.6486	610.048	-3499.02	1	3551.8	-80.11	2.31929E-007	-0.309964	8
	76	158	15.7934	646.643	-3885.58	1	3939.02	-80.5514	2.1667E-007	-0.309973	8
	77	161	14.2828	684.595	-4273.83	1	4328.31	-80.8995	1.96157E-007	-0.30997	8
	78	163	12.5002	742.022	-4847.19	1	4903.65	-81.2966	1.82879E-007	-0.309968	8
	79	165	11.323	789.954	-5320.88	1	5379.2	-81.5554	1.73814E-007	-0.309968	8
	80	168	9.9987	862.317	-5985.52	1	6047.31	-81.802	1.64455E-007	-0.309969	8
