EXPLAIN
TAG	EISPOT
TITLE	LABEL	Tomato_open	Test &Identifier
DATE	LABEL	5/10/2006	Date
TIME	LABEL	15:47:40	Time
NOTES	NOTES	1	&Notes...
	
PSTAT	PSTAT	300	Potentiostat
VDC	POTEN	1.00000E-001	T	DC &Voltage (V)
FREQINIT	QUANT	1.00000E+005	Initial Fre&q. (Hz)
FREQFINAL	QUANT	1.00000E+001	Final Fre&q. (Hz)
PTSPERDEC	QUANT	2.00000E+001	Points/&decade
VAC	QUANT	1.00000E+001	AC &Voltage (mV rms)
AREA	QUANT	1.00000E+000	&Area (cm²)
DENSITY	QUANT	7.87000E+000	&Density (gm/cm³)
EQUIV	QUANT	7.00000E+000	Equiv. &Wt
CONDIT	TWOPARAM	F	1.50000E+001	0.00000E+000	Conditionin&g	Time(s)	E(V)
DELAY	TWOPARAM	F	6.00000E+002	0.00000E+000	Init. De&lay	Time(s)	Stab.(mV/s)
SPEED	SELECTOR	1	&Optimize for:
ZGUESS	QUANT	1.00000E+002	E&stimated Z (ohms)
OCVCURVE	TABLE	39
	Pt	T	Vf	Vm	Ach	Over
	#	s	V vs. Ref.	V	V	bits
	0	0.258332	-5.14394E-001	3.44714E-006	1.15400E-004	......
	1	0.516663	-5.14394E-001	3.44714E-006	3.15400E-004	......
	2	0.774994	-5.14093E-001	3.44714E-006	-8.46000E-005	......
	3	1.03333	-5.14193E-001	3.44714E-006	2.15400E-004	......
	4	1.29166	-5.14044E-001	3.44714E-006	1.54000E-005	......
	5	1.54999	-5.13793E-001	3.44714E-006	2.15400E-004	......
	6	1.80832	-5.13543E-001	3.44714E-006	1.15400E-004	......
	7	2.06665	-5.12993E-001	3.44714E-006	2.15400E-004	......
	8	2.32498	-5.12293E-001	3.44714E-006	1.54000E-005	......
	9	2.58332	-5.14493E-001	3.44714E-006	1.15400E-004	......
	10	2.84165	-5.14943E-001	3.44714E-006	-8.46000E-005	......
	11	3.09998	-5.14843E-001	3.44714E-006	2.15400E-004	......
	12	3.35831	-5.15193E-001	3.44714E-006	1.54000E-005	......
	13	3.61664	-5.14843E-001	3.44714E-006	3.15400E-004	......
	14	3.87497	-5.13693E-001	3.44714E-006	1.54000E-005	......
	15	4.1333	-5.13443E-001	3.44714E-006	2.15400E-004	......
	16	4.39164	-5.12343E-001	3.44714E-006	-8.46000E-005	......
	17	4.64997	-5.09744E-001	3.44714E-006	2.15400E-004	......
	18	4.9083	-5.07493E-001	3.44714E-006	1.54000E-005	......
	19	5.16663	-5.04943E-001	3.44714E-006	2.15400E-004	......
	20	5.42496	-5.04543E-001	3.44714E-006	1.15400E-004	......
	21	5.68329	-5.04943E-001	3.44714E-006	1.15400E-004	......
	22	5.94162	-5.05643E-001	3.44714E-006	1.15400E-004	......
	23	6.19996	-5.07443E-001	3.44714E-006	2.15400E-004	......
	24	6.45829	-5.07743E-001	3.44714E-006	1.54000E-005	......
	25	6.71662	-5.08244E-001	3.44714E-006	2.15400E-004	......
	26	6.97495	-5.09193E-001	3.44714E-006	1.54000E-005	......
	27	7.23328	-5.10243E-001	3.44714E-006	2.15400E-004	......
	28	7.49161	-5.10493E-001	3.44714E-006	1.54000E-005	......
	29	7.74995	-5.10143E-001	3.44714E-006	1.54000E-005	......
	30	8.00828	-5.09943E-001	3.44714E-006	1.54000E-005	......
	31	8.26661	-5.10243E-001	3.44714E-006	3.15400E-004	......
	32	8.52494	-5.10243E-001	3.44714E-006	1.15400E-004	......
	33	8.78327	-5.10543E-001	3.44714E-006	2.15400E-004	......
	34	9.0416	-5.10643E-001	3.44714E-006	1.54000E-005	......
	35	9.29993	-5.10943E-001	3.44714E-006	3.15400E-004	......
	36	9.5583	-5.10643E-001	3.44714E-006	1.15400E-004	......
	37	9.8166	-5.10743E-001	3.44714E-006	2.15400E-004	......
	38	10.0749	-5.11693E-001	3.44714E-006	1.54000E-005	......
EOC	QUANT	-0.511693	Open Circuit (V)
PSTATMODEL	IQUANT	32	Pstat Model
PSTATSECTION	LABEL	PStat0	Pstat Section
CTRLMODE	IQUANT	1	Control Mode
IESTAB	IQUANT	0	I/E Stability
CASPEED	IQUANT	1	Control Amp Speed
CONVENTION	IQUANT	1	Current Convention
ICHRANGE	IQUANT	2	Ich Range
ICHRANGEMODE	TOGGLE	F	Ich Auto Range
ICHOFFSETENABLE	TOGGLE	T	Ich Offset Enable
ICHOFFSET	QUANT	0	Ich Offset (V)
ICHFILTER	IQUANT	3	Ich Filter
VCHRANGE	IQUANT	2	Vch Range
VCHRANGEMODE	TOGGLE	F	Vch Auto Range
VCHOFFSETENABLE	TOGGLE	T	Vch Offset Enable
VCHOFFSET	QUANT	0	Vch Offset (V)
VCHFILTER	IQUANT	3	Vch Filter
ACHRANGE	IQUANT	0	Ach Range
IERANGELOWERLIMIT	IQUANT	3	I/E Range Lower Limit
IERANGEMODE	TOGGLE	F	I/E AutoRange
IERANGE	IQUANT	11	I/E Range
POSFEEDENABLE	TOGGLE	F	Positive Feedback IR Comp
POSFEEDRESISTANCE	QUANT	0	Positive Feedback Resistance (ohm)
FC350IDIVISOR	IQUANT	0	FC350 I Divisor
FC350VRANGE	IQUANT	0	FC350 V Range
FRAMEWORKVERSION	QUANT	4.35	Framework Version
ZCURVE	TABLE
	Pt	Time	Freq	Zreal	Zimag	Zsig	Zmod	Zphz	Idc	Vdc	IERange
	#	s	Hz	ohm	ohm	V	ohm	°	A	V	#
	0	4	100007	231.759	-0.031493	1	231.759	-0.007786	1.89123E-006	-0.411602	9
	1	6	89134.1	231.184	-0.087208	1	231.184	-0.021613	1.75752E-006	-0.4116	9
	2	8	79433.6	230.903	-0.663002	1	230.904	-0.164516	1.60361E-006	-0.411572	9
	3	10	70800.8	230.489	-1.10935	1	230.491	-0.275764	1.44739E-006	-0.411556	9
	4	12	63105.5	229.898	-1.25307	1	229.901	-0.31229	1.4838E-006	-0.411567	9
	5	14	56243.5	229.749	-1.56063	1	229.755	-0.389189	1.80797E-006	-0.411609	9
	6	16	50123.7	229.421	-2.27542	1	229.432	-0.568247	1.52602E-006	-0.41155	9
	7	18	44681	229.372	-2.63589	1	229.387	-0.658401	1.66392E-006	-0.411587	9
	8	20	39811.2	229.372	-3.23972	1	229.395	-0.809208	1.54997E-006	-0.411552	9
	9	22	35488.3	229.728	-3.6627	1	229.757	-0.913427	1.7088E-006	-0.41157	9
	10	24	31634.1	229.516	-4.45205	1	229.559	-1.11126	1.56142E-006	-0.411578	9
	11	26	28173.1	229.501	-4.59069	1	229.547	-1.14593	1.64508E-006	-0.411579	9
	12	28	25123.7	229.623	-5.33325	1	229.685	-1.33052	1.62536E-006	-0.411583	9
	13	30	22389.3	229.494	-5.50029	1	229.56	-1.37295	1.47175E-006	-0.411558	9
	14	32	19954.4	229.7	-6.47233	1	229.791	-1.61401	1.45236E-006	-0.411562	9
	15	34	17778.2	229.698	-7.56572	1	229.822	-1.88651	1.66425E-006	-0.411571	9
	16	36	15852.9	230.214	-8.08001	1	230.356	-2.01013	1.66692E-006	-0.411592	9
	17	38	14122.3	230.468	-8.76727	1	230.635	-2.17854	1.67694E-006	-0.411574	9
	18	40	12587.2	230.562	-9.39879	1	230.754	-2.33435	1.68287E-006	-0.411579	9
	19	42	11221.1	230.486	-10.7827	1	230.738	-2.67848	1.66294E-006	-0.411577	9
	20	44	9998.2	230.944	-12.1466	1	231.263	-3.01073	1.66314E-006	-0.411569	9
	21	46	8912.76	231.344	-13.2899	1	231.726	-3.28782	1.62264E-006	-0.411579	9
	22	48	7942.6	231.464	-14.4971	1	231.918	-3.58387	1.70264E-006	-0.411573	9
	23	50	7078.05	231.586	-16.215	1	232.153	-4.00517	1.69678E-006	-0.41157	9
	24	52	6311.1	231.867	-18.1154	1	232.573	-4.46737	1.73905E-006	-0.411567	9
	25	53	5622.14	232.759	-19.9502	1	233.612	-4.89895	1.76277E-006	-0.411564	9
	26	55	5011.18	232.94	-21.7367	1	233.952	-5.3311	1.73886E-006	-0.411575	9
	27	57	4465.21	232.661	-24.039	1	233.899	-5.89899	1.74509E-006	-0.411567	9
	28	59	3980.93	233.382	-26.8029	1	234.916	-6.55147	1.55773E-006	-0.411554	9
	29	61	3548.18	233.876	-30.0105	1	235.794	-7.3121	1.62756E-006	-0.411551	9
	30	63	3162.67	234.455	-32.7291	1	236.729	-7.94693	1.90073E-006	-0.411575	9
	31	65	2819.01	235.035	-36.6513	1	237.875	-8.86331	1.71316E-006	-0.411571	9
	32	67	2511.16	235.865	-40.39	1	239.298	-9.7172	1.77059E-006	-0.411554	9
	33	69	2238.63	236.425	-44.915	1	240.653	-10.7567	1.74698E-006	-0.41156	9
	34	71	1995.37	237.733	-49.8828	1	242.91	-11.8503	1.76937E-006	-0.411562	9
	35	73	1778.51	238.372	-54.9102	1	244.615	-12.9721	1.78362E-006	-0.411556	9
	36	75	1584.49	239.191	-61.0646	1	246.863	-14.3215	1.76034E-006	-0.411557	9
	37	77	1412.76	240.954	-67.7547	1	250.299	-15.7057	1.92433E-006	-0.411573	9
	38	79	1259.04	242.626	-75.205	1	254.014	-17.2215	1.75364E-006	-0.411563	9
	39	81	1121.63	243.204	-82.8887	1	256.941	-18.8201	1.71297E-006	-0.411566	9
	40	83	999.95	244.416	-91.9398	1	261.136	-20.6144	1.73955E-006	-0.411556	9
	41	85	891.184	246.474	-101.614	1	266.599	-22.4049	1.77944E-006	-0.411555	9
	42	87	794.163	248.611	-112.589	1	272.917	-24.3644	1.76381E-006	-0.411559	9
	43	89	707.867	250.271	-124.678	1	279.608	-26.4812	1.69927E-006	-0.411569	9
	44	91	630.984	252.243	-138.102	1	287.574	-28.7005	1.76223E-006	-0.411558	9
	45	93	562.189	254.635	-152.541	1	296.829	-30.9241	1.71269E-006	-0.41158	9
	46	95	501.303	257.444	-168.993	1	307.954	-33.2819	1.77709E-006	-0.411576	9
	47	97	446.614	260.107	-187.308	1	320.531	-35.7584	1.80508E-006	-0.411575	9
	48	99	398.209	262.937	-207.542	1	334.977	-38.2848	1.84506E-006	-0.41157	9
	49	101	354.821	266.065	-230.128	1	351.781	-40.8575	1.83183E-006	-0.411571	9
	50	103	316.113	269.476	-255.261	1	371.181	-43.4483	1.9178E-006	-0.411568	9
	51	105	281.926	273.141	-282.98	1	393.299	-46.0135	1.89711E-006	-0.41157	9
	52	107	251.185	277.161	-314.079	1	418.884	-48.573	1.81258E-006	-0.411577	9
	53	109	223.946	281.513	-348.562	1	448.046	-51.0742	2.00052E-006	-0.411576	9
	54	111	199.495	286.301	-387.216	1	481.565	-53.5214	1.89164E-006	-0.411575	9
	55	113	177.836	291.643	-429.95	1	519.532	-55.8502	1.77254E-006	-0.411576	9
	56	115	158.533	297.364	-477.586	1	562.595	-58.0919	1.86752E-006	-0.411579	9
	57	117	141.263	303.664	-530.817	1	611.538	-60.2275	1.88013E-006	-0.411575	9
	58	119	125.911	310.554	-589.98	1	666.724	-62.2385	1.84041E-006	-0.411576	9
	59	121	112.198	318.372	-656.006	1	729.181	-64.1118	1.88348E-006	-0.411572	9
	60	123	100.009	326.879	-729.337	1	799.238	-65.8587	1.86616E-006	-0.411578	9
	61	125	89.1164	336.306	-811.214	1	878.163	-67.4825	1.8976E-006	-0.411578	9
	62	127	79.4083	346.996	-902.567	1	966.97	-68.9705	1.87982E-006	-0.411577	9
	63	129	70.788	358.56	-1003.84	1	1065.96	-70.3438	1.91014E-006	-0.411577	9
	64	131	63.0971	371.384	-1115.85	1	1176.03	-71.5912	1.15642E-006	-0.411581	8
	65	133	54.5476	390.466	-1277.47	1	1335.81	-73.004	1.23784E-006	-0.411576	8
	66	136	50.0083	402.998	-1384.85	1	1442.3	-73.7748	1.23887E-006	-0.411576	8
	67	138	46.1675	415.479	-1491.47	1	1548.26	-74.4338	1.21687E-006	-0.411578	8
	68	140	40.0059	440.821	-1704.03	1	1760.12	-75.4959	1.2039E-006	-0.411578	8
	69	142	35.3046	468.063	-1914.47	1	1970.85	-76.2614	1.30732E-006	-0.411574	8
	70	144	31.5793	494.475	-2124.25	1	2181.04	-76.8962	1.37896E-006	-0.411563	8
	71	146	28.5748	520.189	-2331.45	1	2388.77	-77.4223	1.39028E-006	-0.411577	8
	72	148	24.9911	561.85	-2641.32	1	2700.41	-77.9913	1.35309E-006	-0.411584	8
	73	151	22.2195	601.726	-2947.23	1	3008.03	-78.4607	1.3043E-006	-0.411585	8
	74	153	20.0011	645.43	-3250.11	1	3313.58	-78.7679	1.39169E-006	-0.411576	8
	75	156	17.6486	701.66	-3649.83	1	3716.66	-79.118	1.42107E-006	-0.41158	8
	76	158	15.7934	755.3	-4048.76	1	4118.61	-79.4329	1.42645E-006	-0.411579	8
	77	160	14.2828	816.329	-4442.87	1	4517.24	-79.5887	1.39699E-006	-0.411587	8
	78	162	12.5002	911.886	-5033.55	1	5115.48	-79.7316	1.47371E-006	-0.411577	8
	79	165	11.323	1008.74	-5515.48	1	5606.96	-79.6355	1.54365E-006	-0.411574	8
	80	167	9.9987	1132.5	-6199.68	1	6302.26	-79.6479	1.52955E-006	-0.411577	8
