EXPLAIN
TAG	EISPOT
TITLE	LABEL	Tomato_open	Test &Identifier
DATE	LABEL	5/16/2006	Date
TIME	LABEL	13:03:39	Time
NOTES	NOTES	1	&Notes...
	
PSTAT	PSTAT	300	Potentiostat
VDC	POTEN	1.00000E-001	T	DC &Voltage (V)
FREQINIT	QUANT	1.00000E+005	Initial Fre&q. (Hz)
FREQFINAL	QUANT	1.00000E+001	Final Fre&q. (Hz)
PTSPERDEC	QUANT	2.00000E+001	Points/&decade
VAC	QUANT	1.00000E+001	AC &Voltage (mV rms)
AREA	QUANT	1.00000E+000	&Area (cm²)
DENSITY	QUANT	7.87000E+000	&Density (gm/cm³)
EQUIV	QUANT	7.00000E+000	Equiv. &Wt
CONDIT	TWOPARAM	F	1.50000E+001	0.00000E+000	Conditionin&g	Time(s)	E(V)
DELAY	TWOPARAM	F	6.00000E+002	0.00000E+000	Init. De&lay	Time(s)	Stab.(mV/s)
SPEED	SELECTOR	1	&Optimize for:
ZGUESS	QUANT	1.00000E+002	E&stimated Z (ohms)
OCVCURVE	TABLE	39
	Pt	T	Vf	Vm	Ach	Over
	#	s	V vs. Ref.	V	V	bits
	0	0.258332	-5.66269E-001	2.83134E-006	-6.34000E-005	......
	1	0.516663	-5.65820E-001	2.83134E-006	1.36600E-004	......
	2	0.774994	-5.69619E-001	2.83134E-006	-1.63400E-004	......
	3	1.03333	-5.66920E-001	2.83134E-006	-6.34000E-005	......
	4	1.29166	-5.59269E-001	2.83134E-006	-2.63400E-004	......
	5	1.54999	-5.58769E-001	2.83134E-006	3.66000E-005	......
	6	1.80832	-5.59819E-001	2.83134E-006	-1.63400E-004	......
	7	2.06665	-5.59770E-001	2.83134E-006	3.66000E-005	......
	8	2.32498	-5.65170E-001	2.83134E-006	-6.34000E-005	......
	9	2.58332	-5.64569E-001	2.83134E-006	-6.34000E-005	......
	10	2.84165	-5.61919E-001	2.83134E-006	-1.63400E-004	......
	11	3.09998	-5.59919E-001	2.83134E-006	-6.34000E-005	......
	12	3.35831	-5.65369E-001	2.83134E-006	-1.63400E-004	......
	13	3.61664	-5.64269E-001	2.83134E-006	3.66000E-005	......
	14	3.87497	-5.66220E-001	2.83134E-006	-1.63400E-004	......
	15	4.1333	-5.65870E-001	2.83134E-006	3.66000E-005	......
	16	4.39164	-5.63670E-001	2.83134E-006	-1.63400E-004	......
	17	4.64997	-5.66119E-001	2.83134E-006	3.66000E-005	......
	18	4.9083	-5.64269E-001	2.83134E-006	-1.63400E-004	......
	19	5.16663	-5.62019E-001	2.83134E-006	-6.34000E-005	......
	20	5.42496	-5.64719E-001	2.83134E-006	-1.63400E-004	......
	21	5.68329	-5.63269E-001	2.83134E-006	3.66000E-005	......
	22	5.94162	-5.61520E-001	2.83134E-006	-6.34000E-005	......
	23	6.19996	-5.53569E-001	2.83134E-006	-6.34000E-005	......
	24	6.45829	-5.50419E-001	2.83134E-006	-1.63400E-004	......
	25	6.71662	-5.51820E-001	2.83134E-006	1.36600E-004	......
	26	6.97495	-5.55369E-001	2.83134E-006	-6.34000E-005	......
	27	7.23328	-5.56519E-001	2.83134E-006	3.66000E-005	......
	28	7.49161	-5.54969E-001	2.83134E-006	-1.63400E-004	......
	29	7.74995	-5.60019E-001	2.83134E-006	3.66000E-005	......
	30	8.00828	-5.59720E-001	2.83134E-006	3.66000E-005	......
	31	8.26661	-5.55369E-001	2.83134E-006	2.36600E-004	......
	32	8.52494	-5.59569E-001	2.83134E-006	-1.63400E-004	......
	33	8.78327	-5.58569E-001	2.83134E-006	2.36600E-004	......
	34	9.0416	-5.57069E-001	2.83134E-006	-6.34000E-005	......
	35	9.29993	-5.60520E-001	2.83134E-006	3.66000E-005	......
	36	9.5583	-5.60769E-001	2.83134E-006	-6.34000E-005	......
	37	9.8166	-5.59469E-001	2.83134E-006	2.36600E-004	......
	38	10.0749	-5.63219E-001	2.83134E-006	-2.63400E-004	......
EOC	QUANT	-0.563219	Open Circuit (V)
PSTATMODEL	IQUANT	32	Pstat Model
PSTATSECTION	LABEL	PStat0	Pstat Section
CTRLMODE	IQUANT	1	Control Mode
IESTAB	IQUANT	0	I/E Stability
CASPEED	IQUANT	1	Control Amp Speed
CONVENTION	IQUANT	1	Current Convention
ICHRANGE	IQUANT	2	Ich Range
ICHRANGEMODE	TOGGLE	F	Ich Auto Range
ICHOFFSETENABLE	TOGGLE	T	Ich Offset Enable
ICHOFFSET	QUANT	0	Ich Offset (V)
ICHFILTER	IQUANT	3	Ich Filter
VCHRANGE	IQUANT	2	Vch Range
VCHRANGEMODE	TOGGLE	F	Vch Auto Range
VCHOFFSETENABLE	TOGGLE	T	Vch Offset Enable
VCHOFFSET	QUANT	0	Vch Offset (V)
VCHFILTER	IQUANT	3	Vch Filter
ACHRANGE	IQUANT	0	Ach Range
IERANGELOWERLIMIT	IQUANT	3	I/E Range Lower Limit
IERANGEMODE	TOGGLE	F	I/E AutoRange
IERANGE	IQUANT	11	I/E Range
POSFEEDENABLE	TOGGLE	F	Positive Feedback IR Comp
POSFEEDRESISTANCE	QUANT	0	Positive Feedback Resistance (ohm)
FC350IDIVISOR	IQUANT	0	FC350 I Divisor
FC350VRANGE	IQUANT	0	FC350 V Range
FRAMEWORKVERSION	QUANT	4.35	Framework Version
ZCURVE	TABLE
	Pt	Time	Freq	Zreal	Zimag	Zsig	Zmod	Zphz	Idc	Vdc	IERange
	#	s	Hz	ohm	ohm	V	ohm	°	A	V	#
	0	4	100007	156.26	-0.749456	1	156.262	-0.2748	4.81817E-006	-0.463027	9
	1	6	89134.1	155.278	-0.9768	1	155.281	-0.360423	4.88395E-006	-0.463053	9
	2	8	79433.6	154.924	-1.28512	1	154.929	-0.475266	4.69924E-006	-0.463049	9
	3	10	70800.8	154.487	-1.61971	1	154.495	-0.60069	4.56843E-006	-0.463042	9
	4	12	63105.5	154.16	-1.89265	1	154.172	-0.703395	4.20513E-006	-0.463055	9
	5	14	56243.5	154.298	-2.25298	1	154.314	-0.836544	4.25835E-006	-0.463082	9
	6	16	50123.7	154.367	-2.64923	1	154.389	-0.98321	4.11293E-006	-0.46305	9
	7	18	44681	154.271	-3.12028	1	154.302	-1.15871	4.2259E-006	-0.463045	9
	8	20	39811.2	154.124	-3.31605	1	154.159	-1.23256	3.6844E-006	-0.463051	9
	9	22	35488.3	154.372	-3.76335	1	154.418	-1.3965	3.88757E-006	-0.463086	9
	10	24	31634.1	154.171	-4.27447	1	154.231	-1.58814	3.6844E-006	-0.463049	9
	11	26	28173.1	154.457	-4.8555	1	154.533	-1.80056	3.17793E-006	-0.463055	9
	12	28	25123.7	154.426	-5.4875	1	154.523	-2.03514	3.35204E-006	-0.463049	9
	13	30	22389.3	154.614	-5.75594	1	154.721	-2.13201	3.46393E-006	-0.463088	9
	14	32	19954.4	154.736	-6.48635	1	154.872	-2.40036	3.20282E-006	-0.463075	9
	15	34	17778.2	154.935	-7.41781	1	155.113	-2.74105	3.13318E-006	-0.463053	9
	16	36	15852.9	155.159	-7.88087	1	155.359	-2.90768	3.21715E-006	-0.463052	9
	17	38	14122.3	155.381	-8.85144	1	155.633	-3.26039	3.17159E-006	-0.463061	9
	18	40	12587.2	155.596	-9.7937	1	155.904	-3.6016	3.09393E-006	-0.463052	9
	19	42	11221.1	155.988	-10.7124	1	156.355	-3.92858	3.21587E-006	-0.463061	9
	20	44	9998.2	156.339	-11.4786	1	156.76	-4.1992	2.94707E-006	-0.463059	9
	21	46	8912.76	156.378	-12.9388	1	156.912	-4.72992	2.6621E-006	-0.463058	9
	22	48	7942.6	156.799	-14.3102	1	157.451	-5.21464	2.77453E-006	-0.463053	9
	23	50	7078.05	157.335	-15.5946	1	158.106	-5.66049	2.76367E-006	-0.463063	9
	24	52	6311.1	157.835	-17.0218	1	158.75	-6.15529	2.76757E-006	-0.463064	9
	25	54	5622.14	158.154	-18.7264	1	159.259	-6.75273	2.63113E-006	-0.463067	9
	26	56	5011.18	158.444	-20.5246	1	159.768	-7.38088	2.38107E-006	-0.463055	9
	27	58	4465.21	159.401	-22.7386	1	161.015	-8.11849	2.51765E-006	-0.463068	9
	28	60	3980.93	159.754	-24.8508	1	161.675	-8.84189	2.55507E-006	-0.463078	9
	29	62	3548.18	160.596	-27.369	1	162.911	-9.6716	2.55165E-006	-0.463044	9
	30	64	3162.67	161.179	-30.1075	1	163.967	-10.5806	2.66682E-006	-0.463085	9
	31	66	2819.01	161.418	-33.0062	1	164.758	-11.5564	2.34871E-006	-0.463051	9
	32	68	2511.16	162.685	-36.6159	1	166.755	-12.6844	2.63713E-006	-0.463067	9
	33	70	2238.63	163.209	-39.9447	1	168.026	-13.7526	2.41112E-006	-0.46306	9
	34	72	1995.37	164.246	-44.1185	1	170.068	-15.0355	2.44673E-006	-0.463062	9
	35	74	1778.51	165.232	-48.6801	1	172.253	-16.4159	2.64535E-006	-0.463067	9
	36	76	1584.49	166.193	-53.7001	1	174.653	-17.9067	2.41243E-006	-0.463061	9
	37	78	1412.76	167.126	-59.0177	1	177.24	-19.4498	2.48656E-006	-0.463084	9
	38	80	1259.04	168.497	-65.2549	1	180.691	-21.1702	2.57578E-006	-0.463067	9
	39	81	1121.63	169.734	-71.7626	1	184.281	-22.9183	2.07976E-006	-0.463062	9
	40	83	999.95	170.797	-79.4716	1	188.381	-24.9524	2.33152E-006	-0.463064	9
	41	85	891.184	172.318	-87.8064	1	193.4	-27.0015	2.43896E-006	-0.463065	9
	42	87	794.163	173.764	-96.691	1	198.854	-29.0939	2.54584E-006	-0.463063	9
	43	89	707.867	175.105	-106.917	1	205.166	-31.4076	2.52396E-006	-0.463047	9
	44	91	630.984	176.768	-118.588	1	212.862	-33.8565	2.24553E-006	-0.463052	9
	45	93	562.189	178.421	-130.899	1	221.289	-36.2656	2.34668E-006	-0.463071	9
	46	95	501.303	180.48	-145.417	1	231.774	-38.8592	2.39384E-006	-0.46306	9
	47	97	446.614	182.435	-161.337	1	243.541	-41.4881	2.28846E-006	-0.463057	9
	48	99	398.209	184.497	-178.928	1	257.01	-44.1221	2.1952E-006	-0.463063	9
	49	101	354.821	186.826	-198.653	1	272.704	-46.7573	2.12362E-006	-0.463064	9
	50	103	316.113	189.359	-220.682	1	290.788	-49.3684	2.36573E-006	-0.463052	9
	51	105	281.926	192.115	-245.04	1	311.373	-51.903	2.43626E-006	-0.463055	9
	52	107	251.185	195.113	-272.426	1	335.089	-54.3896	2.41815E-006	-0.46305	9
	53	109	223.946	198.447	-302.796	1	362.031	-56.7598	2.33363E-006	-0.463054	9
	54	111	199.495	202.143	-336.909	1	392.899	-59.0365	2.39212E-006	-0.463051	9
	55	113	177.836	206.156	-374.717	1	427.683	-61.182	2.10148E-006	-0.463058	9
	56	115	158.533	210.606	-416.936	1	467.109	-63.2004	1.90323E-006	-0.463054	9
	57	117	141.263	215.7	-464.231	1	511.896	-65.0785	1.84546E-006	-0.463064	9
	58	119	125.911	221.71	-517.027	1	562.559	-66.7895	2.11742E-006	-0.463069	9
	59	121	112.198	228.104	-575.824	1	619.359	-68.3897	2.13198E-006	-0.463067	9
	60	123	100.009	235.397	-641.244	1	683.086	-69.8421	2.10141E-006	-0.463061	9
	61	126	89.1164	243.776	-714.339	1	754.79	-71.1572	2.02535E-006	-0.463063	9
	62	128	79.4083	253.345	-796.108	1	835.447	-72.3474	2.16474E-006	-0.46306	9
	63	130	70.788	264.664	-886.999	1	925.643	-73.3859	2.35136E-006	-0.463056	9
	64	132	63.0971	275.885	-988.24	1	1026.03	-74.402	2.18326E-006	-0.463055	9
	65	134	54.5476	294.898	-1133.07	1	1170.81	-75.4115	1.63494E-006	-0.463054	8
	66	136	50.0083	307.842	-1229.1	1	1267.06	-75.9389	1.59631E-006	-0.463057	8
	67	138	46.1675	322.014	-1324.97	1	1363.54	-76.3399	1.63579E-006	-0.463056	8
	68	140	40.0059	349.499	-1516.03	1	1555.8	-77.0181	1.60293E-006	-0.463055	8
	69	142	35.3046	375.584	-1705.06	1	1745.94	-77.5775	1.45316E-006	-0.463065	8
	70	144	31.5793	404.255	-1894.15	1	1936.81	-77.9525	1.34258E-006	-0.463054	8
	71	146	28.5748	437.425	-2081.05	1	2126.53	-78.1296	1.38598E-006	-0.46305	8
	72	149	24.9911	484.258	-2361.08	1	2410.23	-78.4094	1.34281E-006	-0.463049	8
	73	151	22.2195	541.891	-2633.84	1	2689	-78.3741	1.35533E-006	-0.463058	8
	74	153	20.0011	597.02	-2909.61	1	2970.23	-78.4045	1.3774E-006	-0.463054	8
	75	156	17.6486	678.931	-3268.04	1	3337.82	-78.2638	1.44553E-006	-0.463058	8
	76	158	15.7934	773.581	-3625.29	1	3706.91	-77.9546	1.54018E-006	-0.463059	8
	77	160	14.2828	863.583	-3981.43	1	4074.01	-77.762	1.56272E-006	-0.463061	8
	78	162	12.5002	1002.02	-4499.35	1	4609.57	-77.445	1.46604E-006	-0.463058	8
	79	165	11.323	1141.45	-4924.53	1	5055.08	-76.95	1.46199E-006	-0.463065	8
	80	167	9.9987	1330.75	-5522.42	1	5680.49	-76.4516	1.49572E-006	-0.46306	8
