EXPLAIN
TAG	EISPOT
TITLE	LABEL	Tomato_open	Test &Identifier
DATE	LABEL	5/16/2006	Date
TIME	LABEL	13:13:37	Time
NOTES	NOTES	1	&Notes...
	
PSTAT	PSTAT	300	Potentiostat
VDC	POTEN	1.00000E-001	T	DC &Voltage (V)
FREQINIT	QUANT	1.00000E+005	Initial Fre&q. (Hz)
FREQFINAL	QUANT	1.00000E+001	Final Fre&q. (Hz)
PTSPERDEC	QUANT	2.00000E+001	Points/&decade
VAC	QUANT	1.00000E+001	AC &Voltage (mV rms)
AREA	QUANT	1.00000E+000	&Area (cm²)
DENSITY	QUANT	7.87000E+000	&Density (gm/cm³)
EQUIV	QUANT	7.00000E+000	Equiv. &Wt
CONDIT	TWOPARAM	F	1.50000E+001	0.00000E+000	Conditionin&g	Time(s)	E(V)
DELAY	TWOPARAM	F	6.00000E+002	0.00000E+000	Init. De&lay	Time(s)	Stab.(mV/s)
SPEED	SELECTOR	1	&Optimize for:
ZGUESS	QUANT	1.00000E+002	E&stimated Z (ohms)
OCVCURVE	TABLE	39
	Pt	T	Vf	Vm	Ach	Over
	#	s	V vs. Ref.	V	V	bits
	0	0.258332	-5.34220E-001	4.16114E-006	2.36600E-004	......
	1	0.516663	-5.33069E-001	4.16114E-006	-6.34000E-005	......
	2	0.774994	-5.33220E-001	4.16114E-006	3.66000E-005	......
	3	1.03333	-5.33419E-001	4.16114E-006	-1.63400E-004	......
	4	1.29166	-5.34469E-001	4.16114E-006	3.66000E-005	......
	5	1.54999	-5.34419E-001	4.16114E-006	-6.34000E-005	......
	6	1.80832	-5.35020E-001	4.16114E-006	3.66000E-005	......
	7	2.06665	-5.35269E-001	4.16114E-006	-6.34000E-005	......
	8	2.32498	-5.35069E-001	4.16114E-006	2.36600E-004	......
	9	2.58332	-5.35469E-001	4.16114E-006	-1.63400E-004	......
	10	2.84165	-5.34669E-001	4.16114E-006	2.36600E-004	......
	11	3.09998	-5.35670E-001	4.16114E-006	-1.63400E-004	......
	12	3.35831	-5.35719E-001	4.16114E-006	3.66000E-005	......
	13	3.61664	-5.35519E-001	4.16114E-006	-1.63400E-004	......
	14	3.87497	-5.36519E-001	4.16114E-006	1.36600E-004	......
	15	4.1333	-5.37519E-001	4.16114E-006	-6.34000E-005	......
	16	4.39164	-5.38369E-001	4.16114E-006	1.36600E-004	......
	17	4.64997	-5.39019E-001	4.16114E-006	-6.34000E-005	......
	18	4.9083	-5.39219E-001	4.16114E-006	3.66000E-005	......
	19	5.16663	-5.34519E-001	4.16114E-006	-6.34000E-005	......
	20	5.42496	-5.33170E-001	4.16114E-006	-6.34000E-005	......
	21	5.68329	-5.33819E-001	4.16114E-006	-1.63400E-004	......
	22	5.94162	-5.35469E-001	4.16114E-006	3.66000E-005	......
	23	6.19996	-5.35719E-001	4.16114E-006	3.66000E-005	......
	24	6.45829	-5.38019E-001	4.16114E-006	-1.63400E-004	......
	25	6.71662	-5.38219E-001	4.16114E-006	-6.34000E-005	......
	26	6.97495	-5.37220E-001	4.16114E-006	3.66000E-005	......
	27	7.23328	-5.35519E-001	4.16114E-006	-1.63400E-004	......
	28	7.49161	-5.35619E-001	4.16114E-006	2.36600E-004	......
	29	7.74995	-5.35869E-001	4.16114E-006	-1.63400E-004	......
	30	8.00828	-5.33870E-001	4.16114E-006	3.66000E-005	......
	31	8.26661	-5.34220E-001	4.16114E-006	-1.63400E-004	......
	32	8.52494	-5.35219E-001	4.16114E-006	1.36600E-004	......
	33	8.78327	-5.36370E-001	4.16114E-006	3.66000E-005	......
	34	9.0416	-5.36370E-001	4.16114E-006	3.66000E-005	......
	35	9.29993	-5.33269E-001	4.16114E-006	-1.63400E-004	......
	36	9.5583	-5.32669E-001	4.16114E-006	3.66000E-005	......
	37	9.8166	-5.31969E-001	4.16114E-006	-6.34000E-005	......
	38	10.0749	-5.33019E-001	4.16114E-006	3.66000E-005	......
EOC	QUANT	-0.533019	Open Circuit (V)
PSTATMODEL	IQUANT	32	Pstat Model
PSTATSECTION	LABEL	PStat0	Pstat Section
CTRLMODE	IQUANT	1	Control Mode
IESTAB	IQUANT	0	I/E Stability
CASPEED	IQUANT	1	Control Amp Speed
CONVENTION	IQUANT	1	Current Convention
ICHRANGE	IQUANT	2	Ich Range
ICHRANGEMODE	TOGGLE	F	Ich Auto Range
ICHOFFSETENABLE	TOGGLE	T	Ich Offset Enable
ICHOFFSET	QUANT	0	Ich Offset (V)
ICHFILTER	IQUANT	3	Ich Filter
VCHRANGE	IQUANT	2	Vch Range
VCHRANGEMODE	TOGGLE	F	Vch Auto Range
VCHOFFSETENABLE	TOGGLE	T	Vch Offset Enable
VCHOFFSET	QUANT	0	Vch Offset (V)
VCHFILTER	IQUANT	3	Vch Filter
ACHRANGE	IQUANT	0	Ach Range
IERANGELOWERLIMIT	IQUANT	3	I/E Range Lower Limit
IERANGEMODE	TOGGLE	F	I/E AutoRange
IERANGE	IQUANT	11	I/E Range
POSFEEDENABLE	TOGGLE	F	Positive Feedback IR Comp
POSFEEDRESISTANCE	QUANT	0	Positive Feedback Resistance (ohm)
FC350IDIVISOR	IQUANT	0	FC350 I Divisor
FC350VRANGE	IQUANT	0	FC350 V Range
FRAMEWORKVERSION	QUANT	4.35	Framework Version
ZCURVE	TABLE
	Pt	Time	Freq	Zreal	Zimag	Zsig	Zmod	Zphz	Idc	Vdc	IERange
	#	s	Hz	ohm	ohm	V	ohm	°	A	V	#
	0	4	100007	156.065	-0.654537	1	156.067	-0.240297	5.01304E-006	-0.432916	9
	1	6	89134.1	155.22	-0.95659	1	155.223	-0.3531	4.88046E-006	-0.432902	9
	2	8	79433.6	154.997	-1.11215	1	155.001	-0.411107	4.66963E-006	-0.432924	9
	3	10	70800.8	154.651	-1.65866	1	154.66	-0.614486	4.59285E-006	-0.432899	9
	4	12	63105.5	154.394	-1.92999	1	154.406	-0.716184	4.59676E-006	-0.432904	9
	5	14	56243.5	154.406	-2.11329	1	154.42	-0.784133	4.39353E-006	-0.432908	9
	6	16	50123.7	154.142	-2.60589	1	154.164	-0.96854	4.56474E-006	-0.432894	9
	7	18	44681	154.218	-3.07039	1	154.248	-1.14057	4.49942E-006	-0.4329	9
	8	20	39811.2	154.142	-3.49024	1	154.182	-1.29713	4.34987E-006	-0.432893	9
	9	22	35488.3	154.115	-3.88068	1	154.164	-1.44242	4.50498E-006	-0.432889	9
	10	24	31634.1	154.244	-4.21578	1	154.301	-1.56562	4.45532E-006	-0.432928	9
	11	26	28173.1	154.564	-4.79728	1	154.638	-1.77775	4.22435E-006	-0.432912	9
	12	28	25123.7	154.343	-5.34604	1	154.436	-1.98378	4.07235E-006	-0.432935	9
	13	30	22389.3	154.69	-5.93861	1	154.804	-2.19854	3.80606E-006	-0.432894	9
	14	32	19954.4	154.838	-6.8018	1	154.988	-2.51529	3.89904E-006	-0.432924	9
	15	34	17778.2	155.088	-7.31845	1	155.26	-2.70173	3.59899E-006	-0.432898	9
	16	36	15852.9	155.297	-8.04414	1	155.505	-2.96519	3.56806E-006	-0.432898	9
	17	38	14122.3	155.404	-8.85243	1	155.656	-3.26027	3.72893E-006	-0.432903	9
	18	40	12587.2	155.59	-9.5842	1	155.885	-3.5249	3.91753E-006	-0.43291	9
	19	42	11221.1	155.789	-10.6764	1	156.154	-3.92042	3.82418E-006	-0.432906	9
	20	44	9998.2	156.282	-11.7252	1	156.721	-4.29064	3.96271E-006	-0.432897	9
	21	46	8912.76	156.522	-12.7749	1	157.042	-4.66599	3.77707E-006	-0.4329	9
	22	48	7942.6	156.996	-14.3385	1	157.65	-5.21836	3.66971E-006	-0.432905	9
	23	50	7078.05	157.552	-15.4888	1	158.312	-5.61465	3.65232E-006	-0.432898	9
	24	52	6311.1	157.812	-17.1732	1	158.744	-6.2105	3.60526E-006	-0.432909	9
	25	54	5622.14	158.317	-18.6866	1	159.416	-6.73165	3.5561E-006	-0.432902	9
	26	56	5011.18	158.819	-20.6927	1	160.161	-7.4233	3.77698E-006	-0.432906	9
	27	58	4465.21	159.271	-22.6951	1	160.88	-8.1097	3.9264E-006	-0.432891	9
	28	60	3980.93	159.556	-25.0791	1	161.515	-8.93268	4.05868E-006	-0.432895	9
	29	62	3548.18	160.453	-27.5083	1	162.794	-9.7283	3.8164E-006	-0.432886	9
	30	64	3162.67	161.259	-30.1807	1	164.059	-10.6006	3.88148E-006	-0.432905	9
	31	66	2819.01	161.841	-33.3235	1	165.236	-11.6347	3.54499E-006	-0.432877	9
	32	68	2511.16	162.67	-36.527	1	166.72	-12.6557	3.40771E-006	-0.432897	9
	33	70	2238.63	163.322	-39.997	1	168.148	-13.7607	3.35117E-006	-0.432898	9
	34	72	1995.37	164.326	-44.3878	1	170.215	-15.116	3.32062E-006	-0.43289	9
	35	74	1778.51	165.408	-48.8893	1	172.482	-16.466	3.24906E-006	-0.432892	9
	36	76	1584.49	166.652	-53.6912	1	175.087	-17.8577	3.12045E-006	-0.432892	9
	37	78	1412.76	167.406	-59.3698	1	177.622	-19.5268	2.8981E-006	-0.432885	9
	38	80	1259.04	168.715	-65.3568	1	180.932	-21.1754	3.07154E-006	-0.432896	9
	39	82	1121.63	169.82	-71.9321	1	184.427	-22.9564	3.25553E-006	-0.432896	9
	40	84	999.95	171.318	-79.4579	1	188.848	-24.8821	3.34632E-006	-0.432895	9
	41	86	891.184	172.553	-88.0099	1	193.701	-27.0237	3.03518E-006	-0.43289	9
	42	88	794.163	173.852	-97.395	1	199.274	-29.2584	3.28243E-006	-0.432895	9
	43	90	707.867	175.334	-107.443	1	205.636	-31.4996	3.02526E-006	-0.432881	9
	44	91	630.984	176.902	-119.123	1	213.271	-33.9556	3.15376E-006	-0.43289	9
	45	93	562.189	178.642	-131.508	1	221.828	-36.3588	3.52915E-006	-0.432909	9
	46	95	501.303	180.699	-145.928	1	232.265	-38.9234	3.49468E-006	-0.43289	9
	47	97	446.614	182.702	-161.876	1	244.098	-41.5413	3.65981E-006	-0.432894	9
	48	99	398.209	184.861	-179.546	1	257.702	-44.1644	3.54742E-006	-0.432893	9
	49	101	354.821	187.26	-199.314	1	273.482	-46.786	3.7667E-006	-0.432893	9
	50	103	316.113	189.841	-221.419	1	291.66	-49.3908	3.76388E-006	-0.43289	9
	51	105	281.926	192.651	-245.778	1	312.283	-51.9092	3.59043E-006	-0.432891	9
	52	107	251.185	195.818	-273.271	1	336.187	-54.3757	3.41721E-006	-0.432893	9
	53	109	223.946	199.218	-303.684	1	363.197	-56.7349	3.42085E-006	-0.432892	9
	54	111	199.495	203.08	-337.898	1	394.229	-58.9938	3.54551E-006	-0.432884	9
	55	113	177.836	207.359	-375.82	1	429.23	-61.1122	3.49392E-006	-0.432891	9
	56	115	158.533	212.118	-418.098	1	468.829	-63.0995	3.4711E-006	-0.432883	9
	57	117	141.263	217.554	-465.582	1	513.903	-64.9546	3.43695E-006	-0.432883	9
	58	119	125.911	224.105	-518.444	1	564.807	-66.6229	3.70896E-006	-0.432889	9
	59	122	112.198	231.11	-577.329	1	621.869	-68.1833	3.77716E-006	-0.432894	9
	60	124	100.009	238.81	-642.618	1	685.556	-69.6139	3.40125E-006	-0.432898	9
	61	126	89.1164	247.579	-716.259	1	757.841	-70.932	3.33102E-006	-0.432887	9
	62	128	79.4083	258.579	-797.95	1	838.801	-72.0449	3.41924E-006	-0.432891	9
	63	130	70.788	270.149	-888.881	1	929.026	-73.0949	3.31461E-006	-0.432889	9
	64	132	63.0971	283.142	-990.27	1	1029.95	-74.0435	3.07177E-006	-0.43289	9
	65	134	54.5476	303.316	-1134.73	1	1174.57	-75.0346	2.47057E-006	-0.432896	8
	66	136	50.0083	317.001	-1230.97	1	1271.14	-75.5589	2.3003E-006	-0.432897	8
	67	138	46.1675	332.746	-1327.17	1	1368.25	-75.9251	2.47363E-006	-0.432902	8
	68	140	40.0059	364.306	-1518.29	1	1561.38	-76.5072	2.48361E-006	-0.432907	8
	69	142	35.3046	400.516	-1707.77	1	1754.11	-76.8012	2.56738E-006	-0.432911	8
	70	145	31.5793	433.986	-1897.61	1	1946.61	-77.118	2.53831E-006	-0.432901	8
	71	147	28.5748	469.144	-2082.89	1	2135.08	-77.3067	2.57752E-006	-0.432895	8
	72	149	24.9911	531.404	-2360.07	1	2419.16	-77.3106	2.49927E-006	-0.432894	8
	73	151	22.2195	591.248	-2632.62	1	2698.2	-77.3422	2.35446E-006	-0.4329	8
	74	153	20.0011	661.889	-2908.21	1	2982.58	-77.1783	2.41389E-006	-0.432893	8
	75	156	17.6486	754.405	-3261.21	1	3347.33	-76.9751	2.36035E-006	-0.432893	8
	76	158	15.7934	858.813	-3619.87	1	3720.36	-76.6534	2.23973E-006	-0.432891	8
	77	160	14.2828	940.362	-3972.38	1	4082.17	-76.6818	2.0467E-006	-0.432897	8
	78	162	12.5002	1109.58	-4482.17	1	4617.47	-76.0957	1.92054E-006	-0.432898	8
	79	165	11.323	1276.69	-4911.59	1	5074.81	-75.4293	1.90551E-006	-0.432899	8
	80	168	9.9987	1471.07	-5498.9	1	5692.27	-75.0229	1.84352E-006	-0.432907	8
