EXPLAIN
TAG	EISPOT
TITLE	LABEL	Tomato_open	Test &Identifier
DATE	LABEL	5/16/2006	Date
TIME	LABEL	12:58:36	Time
NOTES	NOTES	1	&Notes...
	
PSTAT	PSTAT	300	Potentiostat
VDC	POTEN	1.00000E-001	T	DC &Voltage (V)
FREQINIT	QUANT	1.00000E+005	Initial Fre&q. (Hz)
FREQFINAL	QUANT	1.00000E+001	Final Fre&q. (Hz)
PTSPERDEC	QUANT	2.00000E+001	Points/&decade
VAC	QUANT	1.00000E+001	AC &Voltage (mV rms)
AREA	QUANT	1.00000E+000	&Area (cm²)
DENSITY	QUANT	7.87000E+000	&Density (gm/cm³)
EQUIV	QUANT	7.00000E+000	Equiv. &Wt
CONDIT	TWOPARAM	F	1.50000E+001	0.00000E+000	Conditionin&g	Time(s)	E(V)
DELAY	TWOPARAM	F	6.00000E+002	0.00000E+000	Init. De&lay	Time(s)	Stab.(mV/s)
SPEED	SELECTOR	1	&Optimize for:
ZGUESS	QUANT	1.00000E+002	E&stimated Z (ohms)
OCVCURVE	TABLE	39
	Pt	T	Vf	Vm	Ach	Over
	#	s	V vs. Ref.	V	V	bits
	0	0.258332	-6.19669E-001	5.12976E-006	3.66000E-005	......
	1	0.516663	-6.19619E-001	5.12976E-006	-6.34000E-005	......
	2	0.774994	-6.17319E-001	5.12976E-006	3.66000E-005	......
	3	1.03333	-6.12669E-001	5.12976E-006	-1.63400E-004	......
	4	1.29166	-6.13419E-001	5.12976E-006	3.66000E-005	......
	5	1.54999	-6.15269E-001	5.12976E-006	-6.34000E-005	......
	6	1.80832	-6.15719E-001	5.12976E-006	1.36600E-004	......
	7	2.06665	-6.16369E-001	5.12976E-006	-2.63400E-004	......
	8	2.32498	-6.18819E-001	5.12976E-006	3.66000E-005	......
	9	2.58332	-6.21519E-001	5.12976E-006	-6.34000E-005	......
	10	2.84165	-6.21769E-001	5.12976E-006	3.66000E-005	......
	11	3.09998	-6.24469E-001	5.12976E-006	-6.34000E-005	......
	12	3.35831	-6.20420E-001	5.12976E-006	1.36600E-004	......
	13	3.61664	-6.18319E-001	5.12976E-006	-1.63400E-004	......
	14	3.87497	-6.17769E-001	5.12976E-006	3.66000E-005	......
	15	4.1333	-6.20719E-001	5.12976E-006	-6.34000E-005	......
	16	4.39164	-6.20919E-001	5.12976E-006	-6.34000E-005	......
	17	4.64997	-6.21469E-001	5.12976E-006	-6.34000E-005	......
	18	4.9083	-6.21619E-001	5.12976E-006	1.36600E-004	......
	19	5.16663	-6.22669E-001	5.12976E-006	-1.63400E-004	......
	20	5.42496	-6.24569E-001	5.12976E-006	3.66000E-005	......
	21	5.68329	-6.21069E-001	5.12976E-006	-1.63400E-004	......
	22	5.94162	-6.17019E-001	5.12976E-006	3.66000E-005	......
	23	6.19996	-6.15519E-001	5.12976E-006	-6.34000E-005	......
	24	6.45829	-6.12219E-001	5.12976E-006	3.66000E-005	......
	25	6.71662	-6.13519E-001	5.12976E-006	3.66000E-005	......
	26	6.97495	-6.16769E-001	5.12976E-006	3.66000E-005	......
	27	7.23328	-6.16619E-001	5.12976E-006	-1.63400E-004	......
	28	7.49161	-6.17869E-001	5.12976E-006	1.36600E-004	......
	29	7.74995	-6.16319E-001	5.12976E-006	-6.34000E-005	......
	30	8.00828	-6.14670E-001	5.12976E-006	-6.34000E-005	......
	31	8.26661	-6.13719E-001	5.12976E-006	-1.63400E-004	......
	32	8.52494	-6.17019E-001	5.12976E-006	3.66000E-005	......
	33	8.78327	-6.19369E-001	5.12976E-006	-1.63400E-004	......
	34	9.0416	-6.17069E-001	5.12976E-006	3.66000E-005	......
	35	9.29993	-6.16419E-001	5.12976E-006	-6.34000E-005	......
	36	9.5583	-6.18169E-001	5.12976E-006	3.66000E-005	......
	37	9.8166	-6.18670E-001	5.12976E-006	-1.63400E-004	......
	38	10.0749	-6.17219E-001	5.12976E-006	3.66000E-005	......
EOC	QUANT	-0.617219	Open Circuit (V)
PSTATMODEL	IQUANT	32	Pstat Model
PSTATSECTION	LABEL	PStat0	Pstat Section
CTRLMODE	IQUANT	1	Control Mode
IESTAB	IQUANT	0	I/E Stability
CASPEED	IQUANT	1	Control Amp Speed
CONVENTION	IQUANT	1	Current Convention
ICHRANGE	IQUANT	2	Ich Range
ICHRANGEMODE	TOGGLE	F	Ich Auto Range
ICHOFFSETENABLE	TOGGLE	T	Ich Offset Enable
ICHOFFSET	QUANT	0	Ich Offset (V)
ICHFILTER	IQUANT	3	Ich Filter
VCHRANGE	IQUANT	2	Vch Range
VCHRANGEMODE	TOGGLE	F	Vch Auto Range
VCHOFFSETENABLE	TOGGLE	T	Vch Offset Enable
VCHOFFSET	QUANT	0	Vch Offset (V)
VCHFILTER	IQUANT	3	Vch Filter
ACHRANGE	IQUANT	0	Ach Range
IERANGELOWERLIMIT	IQUANT	3	I/E Range Lower Limit
IERANGEMODE	TOGGLE	F	I/E AutoRange
IERANGE	IQUANT	11	I/E Range
POSFEEDENABLE	TOGGLE	F	Positive Feedback IR Comp
POSFEEDRESISTANCE	QUANT	0	Positive Feedback Resistance (ohm)
FC350IDIVISOR	IQUANT	0	FC350 I Divisor
FC350VRANGE	IQUANT	0	FC350 V Range
FRAMEWORKVERSION	QUANT	4.35	Framework Version
ZCURVE	TABLE
	Pt	Time	Freq	Zreal	Zimag	Zsig	Zmod	Zphz	Idc	Vdc	IERange
	#	s	Hz	ohm	ohm	V	ohm	°	A	V	#
	0	4	100007	156.662	-0.506458	1	156.663	-0.185226	4.88134E-006	-0.517222	9
	1	6	89134.1	155.981	-0.839441	1	155.983	-0.308345	4.79177E-006	-0.517202	9
	2	8	79433.6	155.391	-1.53799	1	155.399	-0.56707	4.85187E-006	-0.517196	9
	3	10	70800.8	155.219	-1.43804	1	155.226	-0.530806	4.76709E-006	-0.517196	9
	4	12	63105.5	154.911	-1.71124	1	154.921	-0.632898	4.68292E-006	-0.51724	9
	5	13	56243.5	154.984	-2.27856	1	155.001	-0.842293	4.66949E-006	-0.517226	9
	6	15	50123.7	154.887	-2.63016	1	154.91	-0.97285	4.48024E-006	-0.517227	9
	7	17	44681	154.786	-2.96188	1	154.814	-1.09624	4.19837E-006	-0.517198	9
	8	19	39811.2	154.635	-3.5845	1	154.676	-1.3279	4.33587E-006	-0.517194	9
	9	21	35488.3	154.644	-3.87896	1	154.693	-1.43686	4.10846E-006	-0.51721	9
	10	23	31634.1	154.953	-4.30047	1	155.013	-1.58974	4.19571E-006	-0.517201	9
	11	25	28173.1	154.763	-4.73636	1	154.835	-1.75293	3.7642E-006	-0.517215	9
	12	27	25123.7	154.965	-5.21843	1	155.052	-1.92871	3.54395E-006	-0.517215	9
	13	29	22389.3	155.231	-5.99168	1	155.346	-2.21044	3.07787E-006	-0.517195	9
	14	31	19954.4	155.198	-6.58576	1	155.338	-2.42986	3.17367E-006	-0.517198	9
	15	33	17778.2	155.313	-6.95467	1	155.469	-2.56389	2.51171E-006	-0.517199	9
	16	35	15852.9	155.765	-7.89075	1	155.965	-2.90001	2.22348E-006	-0.517215	9
	17	37	14122.3	155.843	-8.83263	1	156.093	-3.24385	1.94984E-006	-0.517216	9
	18	39	12587.2	156.307	-9.6025	1	156.601	-3.51546	1.82312E-006	-0.517202	9
	19	41	11221.1	156.285	-10.4725	1	156.635	-3.83359	2.02937E-006	-0.51721	9
	20	43	9998.2	156.678	-11.4996	1	157.1	-4.19775	2.02684E-006	-0.517197	9
	21	45	8912.76	156.962	-12.8317	1	157.486	-4.67355	1.78431E-006	-0.517186	9
	22	47	7942.6	157.176	-14.0624	1	157.803	-5.11261	1.89009E-006	-0.517203	9
	23	49	7078.05	157.7	-15.2895	1	158.439	-5.5377	1.86579E-006	-0.517213	9
	24	51	6311.1	157.918	-16.8405	1	158.814	-6.08706	1.66971E-006	-0.517207	9
	25	53	5622.14	158.395	-18.619	1	159.485	-6.70427	1.55896E-006	-0.517207	9
	26	55	5011.18	158.957	-20.2584	1	160.243	-7.26295	1.82573E-006	-0.517195	9
	27	57	4465.21	159.37	-22.6811	1	160.976	-8.09979	1.77237E-006	-0.517199	9
	28	59	3980.93	159.946	-24.8354	1	161.863	-8.82604	1.55999E-006	-0.517197	9
	29	61	3548.18	160.599	-27.3053	1	162.904	-9.6492	1.35967E-006	-0.51719	9
	30	63	3162.67	161.568	-29.9404	1	164.318	-10.4985	1.53935E-006	-0.517208	9
	31	65	2819.01	161.783	-33.018	1	165.118	-11.5349	1.66831E-006	-0.517181	9
	32	67	2511.16	162.843	-36.2845	1	166.837	-12.5614	1.52265E-006	-0.517193	9
	33	69	2238.63	163.676	-39.95	1	168.481	-13.7165	1.44721E-006	-0.517185	9
	34	71	1995.37	164.537	-43.7633	1	170.258	-14.8946	1.54173E-006	-0.51719	9
	35	73	1778.51	165.749	-48.1109	1	172.591	-16.1861	1.33699E-006	-0.517175	9
	36	75	1584.49	166.314	-53.1734	1	174.607	-17.7299	1.39527E-006	-0.51719	9
	37	76	1412.76	167.613	-58.6918	1	177.592	-19.2983	1.28284E-006	-0.517162	9
	38	78	1259.04	168.622	-64.3871	1	180.497	-20.899	1.32649E-006	-0.517183	9
	39	80	1121.63	170.153	-71.3692	1	184.515	-22.7552	1.32078E-006	-0.517186	9
	40	82	999.95	171.092	-79.0835	1	188.486	-24.8076	1.41213E-006	-0.517183	9
	41	84	891.184	172.225	-87.2416	1	193.061	-26.8647	1.55707E-006	-0.517186	9
	42	86	794.163	174.187	-96.282	1	199.026	-28.9316	1.46174E-006	-0.517187	9
	43	88	707.867	175.624	-106.161	1	205.217	-31.1519	1.51949E-006	-0.517174	9
	44	90	630.984	176.706	-117.88	1	212.417	-33.7071	1.32063E-006	-0.517195	9
	45	92	562.189	179.073	-130.536	1	221.6	-36.0903	1.42062E-006	-0.517184	9
	46	94	501.303	180.766	-144.451	1	231.393	-38.6284	1.42996E-006	-0.517194	9
	47	96	446.614	182.716	-160.257	1	243.038	-41.2534	1.37323E-006	-0.517184	9
	48	98	398.209	184.806	-177.73	1	256.4	-43.8817	1.27406E-006	-0.517193	9
	49	100	354.821	187.123	-197.283	1	271.911	-46.514	1.14526E-006	-0.517188	9
	50	102	316.113	189.608	-219.181	1	289.813	-49.1377	1.12612E-006	-0.517191	9
	51	104	281.926	192.334	-243.36	1	310.188	-51.6798	1.10974E-006	-0.51719	9
	52	106	251.185	195.326	-270.551	1	333.691	-54.1723	1.04113E-006	-0.517194	9
	53	108	223.946	198.644	-300.731	1	360.414	-56.5537	1.06315E-006	-0.517187	9
	54	110	199.495	202.364	-334.637	1	391.066	-58.8375	1.15979E-006	-0.517188	9
	55	112	177.836	206.43	-372.224	1	425.633	-60.9879	1.18756E-006	-0.517194	9
	56	114	158.533	211.006	-414.143	1	464.798	-63.0011	1.33321E-006	-0.517194	9
	57	116	141.263	216.205	-461.119	1	509.289	-64.8795	1.39121E-006	-0.517191	9
	58	118	125.911	222.276	-513.486	1	559.53	-66.5933	1.64279E-006	-0.517189	9
	59	120	112.198	228.801	-571.854	1	615.928	-68.1934	1.64581E-006	-0.517187	9
	60	122	100.009	235.661	-636.779	1	678.987	-69.6914	1.21022E-006	-0.517194	9
	61	124	89.1164	243.921	-709.627	1	750.379	-71.0306	1.30711E-006	-0.517192	9
	62	126	79.4083	253.5	-790.833	1	830.47	-72.2268	1.35819E-006	-0.517191	9
	63	128	70.788	264.1	-880.913	1	919.651	-73.3111	1.34645E-006	-0.517186	9
	64	130	63.0971	275.826	-981.56	1	1019.58	-74.3042	1.29629E-006	-0.517185	9
	65	133	54.5476	293.161	-1124.46	1	1162.04	-75.3875	5.27165E-007	-0.517194	8
	66	135	50.0083	305.418	-1220.71	1	1258.34	-75.9531	5.79152E-007	-0.517192	8
	67	137	46.1675	316.517	-1315.38	1	1352.92	-76.4702	4.34002E-007	-0.517193	8
	68	139	40.0059	341.8	-1506.07	1	1544.37	-77.2134	3.63551E-007	-0.517183	8
	69	141	35.3046	369.969	-1693.64	1	1733.58	-77.6775	5.32829E-007	-0.517183	8
	70	143	31.5793	395.986	-1882.24	1	1923.44	-78.1193	4.00031E-007	-0.517189	8
	71	145	28.5748	427.982	-2067.09	1	2110.93	-78.3024	4.23443E-007	-0.517185	8
	72	147	24.9911	471.453	-2346.74	1	2393.63	-78.6407	2.77546E-007	-0.517183	8
	73	150	22.2195	512.234	-2621.48	1	2671.06	-78.9438	1.54488E-007	-0.517185	8
	74	152	20.0011	562.856	-2894.37	1	2948.59	-78.9953	2.36107E-007	-0.517185	8
	75	155	17.6486	627.825	-3251.65	1	3311.71	-79.0719	3.01146E-007	-0.517194	8
	76	157	15.7934	706.958	-3608.32	1	3676.92	-78.9148	2.66088E-007	-0.517191	8
	77	159	14.2828	787.842	-3963.87	1	4041.41	-78.7586	3.86263E-007	-0.517194	8
	78	161	12.5002	906.288	-4485.9	1	4576.53	-78.5783	3.10995E-007	-0.517192	8
	79	164	11.323	1025.07	-4922.45	1	5028.05	-78.2366	3.42317E-007	-0.517204	8
	80	166	9.9987	1191.92	-5521.81	1	5648.99	-77.8193	3.86921E-007	-0.517197	8
