EXPLAIN
TAG	EISPOT
TITLE	LABEL	Tomato_open	Test &Identifier
DATE	LABEL	5/16/2006	Date
TIME	LABEL	13:08:42	Time
NOTES	NOTES	1	&Notes...
	
PSTAT	PSTAT	300	Potentiostat
VDC	POTEN	1.00000E-001	T	DC &Voltage (V)
FREQINIT	QUANT	1.00000E+005	Initial Fre&q. (Hz)
FREQFINAL	QUANT	1.00000E+001	Final Fre&q. (Hz)
PTSPERDEC	QUANT	2.00000E+001	Points/&decade
VAC	QUANT	1.00000E+001	AC &Voltage (mV rms)
AREA	QUANT	1.00000E+000	&Area (cm²)
DENSITY	QUANT	7.87000E+000	&Density (gm/cm³)
EQUIV	QUANT	7.00000E+000	Equiv. &Wt
CONDIT	TWOPARAM	F	1.50000E+001	0.00000E+000	Conditionin&g	Time(s)	E(V)
DELAY	TWOPARAM	F	6.00000E+002	0.00000E+000	Init. De&lay	Time(s)	Stab.(mV/s)
SPEED	SELECTOR	1	&Optimize for:
ZGUESS	QUANT	1.00000E+002	E&stimated Z (ohms)
OCVCURVE	TABLE	39
	Pt	T	Vf	Vm	Ach	Over
	#	s	V vs. Ref.	V	V	bits
	0	0.258332	-5.37919E-001	3.79724E-006	3.66000E-005	......
	1	0.516663	-5.37069E-001	3.79724E-006	-1.63400E-004	......
	2	0.774994	-5.37669E-001	3.79724E-006	1.36600E-004	......
	3	1.03333	-5.38469E-001	3.79724E-006	-1.63400E-004	......
	4	1.29166	-5.39069E-001	3.79724E-006	3.66000E-005	......
	5	1.54999	-5.40019E-001	3.79724E-006	-1.63400E-004	......
	6	1.80832	-5.40069E-001	3.79724E-006	3.66000E-005	......
	7	2.06665	-5.40969E-001	3.79724E-006	-1.63400E-004	......
	8	2.32498	-5.39670E-001	3.79724E-006	1.36600E-004	......
	9	2.58332	-5.38419E-001	3.79724E-006	-1.63400E-004	......
	10	2.84165	-5.36219E-001	3.79724E-006	3.66000E-005	......
	11	3.09998	-5.34469E-001	3.79724E-006	-6.34000E-005	......
	12	3.35831	-5.35469E-001	3.79724E-006	3.66000E-005	......
	13	3.61664	-5.38570E-001	3.79724E-006	-1.63400E-004	......
	14	3.87497	-5.41470E-001	3.79724E-006	3.66000E-005	......
	15	4.1333	-5.42669E-001	3.79724E-006	-1.63400E-004	......
	16	4.39164	-5.42819E-001	3.79724E-006	3.66000E-005	......
	17	4.64997	-5.44069E-001	3.79724E-006	-1.63400E-004	......
	18	4.9083	-5.43570E-001	3.79724E-006	2.36600E-004	......
	19	5.16663	-5.43620E-001	3.79724E-006	-6.34000E-005	......
	20	5.42496	-5.43019E-001	3.79724E-006	1.36600E-004	......
	21	5.68329	-5.43169E-001	3.79724E-006	-6.34000E-005	......
	22	5.94162	-5.41719E-001	3.79724E-006	3.66000E-005	......
	23	6.19996	-5.41119E-001	3.79724E-006	-1.63400E-004	......
	24	6.45829	-5.43169E-001	3.79724E-006	3.66000E-005	......
	25	6.71662	-5.43419E-001	3.79724E-006	-1.63400E-004	......
	26	6.97495	-5.43619E-001	3.79724E-006	3.66000E-005	......
	27	7.23328	-5.45519E-001	3.79724E-006	-1.63400E-004	......
	28	7.49161	-5.46470E-001	3.79724E-006	3.66000E-005	......
	29	7.74995	-5.45519E-001	3.79724E-006	-1.63400E-004	......
	30	8.00828	-5.45319E-001	3.79724E-006	-6.34000E-005	......
	31	8.26661	-5.42619E-001	3.79724E-006	-1.63400E-004	......
	32	8.52494	-5.44270E-001	3.79724E-006	3.66000E-005	......
	33	8.78327	-5.42769E-001	3.79724E-006	-6.34000E-005	......
	34	9.0416	-5.42969E-001	3.79724E-006	1.36600E-004	......
	35	9.29993	-5.43669E-001	3.79724E-006	-1.63400E-004	......
	36	9.5583	-5.43669E-001	3.79724E-006	3.66000E-005	......
	37	9.8166	-5.40819E-001	3.79724E-006	-6.34000E-005	......
	38	10.0749	-5.40819E-001	3.79724E-006	3.66000E-005	......
EOC	QUANT	-0.540819	Open Circuit (V)
PSTATMODEL	IQUANT	32	Pstat Model
PSTATSECTION	LABEL	PStat0	Pstat Section
CTRLMODE	IQUANT	1	Control Mode
IESTAB	IQUANT	0	I/E Stability
CASPEED	IQUANT	1	Control Amp Speed
CONVENTION	IQUANT	1	Current Convention
ICHRANGE	IQUANT	2	Ich Range
ICHRANGEMODE	TOGGLE	F	Ich Auto Range
ICHOFFSETENABLE	TOGGLE	T	Ich Offset Enable
ICHOFFSET	QUANT	0	Ich Offset (V)
ICHFILTER	IQUANT	3	Ich Filter
VCHRANGE	IQUANT	2	Vch Range
VCHRANGEMODE	TOGGLE	F	Vch Auto Range
VCHOFFSETENABLE	TOGGLE	T	Vch Offset Enable
VCHOFFSET	QUANT	0	Vch Offset (V)
VCHFILTER	IQUANT	3	Vch Filter
ACHRANGE	IQUANT	0	Ach Range
IERANGELOWERLIMIT	IQUANT	3	I/E Range Lower Limit
IERANGEMODE	TOGGLE	F	I/E AutoRange
IERANGE	IQUANT	11	I/E Range
POSFEEDENABLE	TOGGLE	F	Positive Feedback IR Comp
POSFEEDRESISTANCE	QUANT	0	Positive Feedback Resistance (ohm)
FC350IDIVISOR	IQUANT	0	FC350 I Divisor
FC350VRANGE	IQUANT	0	FC350 V Range
FRAMEWORKVERSION	QUANT	4.35	Framework Version
ZCURVE	TABLE
	Pt	Time	Freq	Zreal	Zimag	Zsig	Zmod	Zphz	Idc	Vdc	IERange
	#	s	Hz	ohm	ohm	V	ohm	°	A	V	#
	0	4	100007	156.015	-0.820765	1	156.018	-0.301419	3.89604E-006	-0.440515	9
	1	6	89134.1	155.21	-0.760762	1	155.212	-0.280834	4.18182E-006	-0.440535	9
	2	8	79433.6	154.786	-1.43222	1	154.793	-0.530137	4.21649E-006	-0.440534	9
	3	10	70800.8	154.64	-1.71111	1	154.65	-0.633958	4.39953E-006	-0.440566	9
	4	12	63105.5	154.311	-2.08705	1	154.325	-0.774873	4.35401E-006	-0.440568	9
	5	14	56243.5	154.425	-2.20487	1	154.441	-0.818008	4.17007E-006	-0.440552	9
	6	16	50123.7	154.17	-2.75512	1	154.194	-1.02381	4.41999E-006	-0.440537	9
	7	18	44681	154.193	-2.9207	1	154.221	-1.08516	4.12637E-006	-0.440536	9
	8	20	39811.2	153.925	-3.45639	1	153.964	-1.28636	4.4527E-006	-0.440574	9
	9	22	35488.3	154.193	-3.81608	1	154.24	-1.41771	4.34223E-006	-0.440567	9
	10	24	31634.1	154.238	-4.32259	1	154.299	-1.60532	4.42488E-006	-0.440569	9
	11	26	28173.1	154.139	-5.051	1	154.222	-1.87686	4.4081E-006	-0.440557	9
	12	28	25123.7	154.322	-5.31613	1	154.413	-1.97296	4.56462E-006	-0.440582	9
	13	30	22389.3	154.536	-5.97755	1	154.652	-2.21513	4.20482E-006	-0.440542	9
	14	32	19954.4	154.715	-6.4559	1	154.85	-2.38943	4.22898E-006	-0.440545	9
	15	34	17778.2	154.75	-7.18061	1	154.917	-2.65669	4.24323E-006	-0.440565	9
	16	36	15852.9	155.304	-8.01382	1	155.511	-2.95388	4.24699E-006	-0.440543	9
	17	38	14122.3	155.3	-8.8437	1	155.551	-3.25925	3.95242E-006	-0.440539	9
	18	40	12587.2	155.521	-9.7241	1	155.825	-3.57782	3.93484E-006	-0.44055	9
	19	42	11221.1	155.83	-10.6927	1	156.197	-3.92534	3.88709E-006	-0.44054	9
	20	44	9998.2	156.243	-11.752	1	156.684	-4.30148	3.8406E-006	-0.440534	9
	21	46	8912.76	156.411	-12.8564	1	156.939	-4.69892	3.7021E-006	-0.44056	9
	22	48	7942.6	156.862	-14.1023	1	157.494	-5.13725	3.53682E-006	-0.440544	9
	23	50	7078.05	157.225	-15.5128	1	157.988	-5.63495	3.54218E-006	-0.440541	9
	24	52	6311.1	157.725	-17.1319	1	158.653	-6.1991	3.41856E-006	-0.440547	9
	25	54	5622.14	158.101	-18.6945	1	159.202	-6.7436	3.17563E-006	-0.440543	9
	26	55	5011.18	158.873	-20.7152	1	160.218	-7.4288	3.29106E-006	-0.440551	9
	27	57	4465.21	158.896	-22.7145	1	160.512	-8.13544	3.03159E-006	-0.440545	9
	28	59	3980.93	159.856	-25.0817	1	161.811	-8.91713	3.13978E-006	-0.44054	9
	29	61	3548.18	160.171	-27.5354	1	162.521	-9.7545	3.3296E-006	-0.440541	9
	30	63	3162.67	161.087	-30.123	1	163.879	-10.5919	3.3424E-006	-0.440541	9
	31	65	2819.01	161.764	-33.0844	1	165.113	-11.5589	2.98995E-006	-0.440546	9
	32	67	2511.16	162.508	-36.7067	1	166.602	-12.7282	3.01962E-006	-0.44056	9
	33	69	2238.63	163.423	-40.4253	1	168.348	-13.8942	3.01182E-006	-0.440562	9
	34	71	1995.37	164.077	-44.0595	1	169.89	-15.031	2.9787E-006	-0.440559	9
	35	73	1778.51	165.01	-48.8444	1	172.088	-16.4892	2.78262E-006	-0.440556	9
	36	75	1584.49	165.881	-53.78	1	174.382	-17.9631	2.80599E-006	-0.440559	9
	37	77	1412.76	166.954	-59.268	1	177.162	-19.5446	2.67607E-006	-0.440548	9
	38	79	1259.04	168.409	-65.3878	1	180.657	-21.2196	2.82013E-006	-0.440558	9
	39	81	1121.63	169.696	-72.152	1	184.398	-23.0344	2.67985E-006	-0.440558	9
	40	83	999.95	170.835	-79.5384	1	188.444	-24.966	2.84859E-006	-0.440552	9
	41	85	891.184	172.045	-87.6991	1	193.108	-27.01	2.84117E-006	-0.440558	9
	42	87	794.163	173.515	-97.045	1	198.809	-29.2176	2.73096E-006	-0.44055	9
	43	89	707.867	175.336	-107.301	1	205.564	-31.4656	2.73948E-006	-0.440549	9
	44	91	630.984	177.133	-118.861	1	213.317	-33.8625	2.77856E-006	-0.440543	9
	45	93	562.189	178.335	-131.797	1	221.752	-36.4658	3.17271E-006	-0.440572	9
	46	95	501.303	180.522	-145.805	1	232.05	-38.9272	3.46376E-006	-0.440555	9
	47	97	446.614	182.5	-161.732	1	243.851	-41.5474	3.2224E-006	-0.440554	9
	48	99	398.209	184.625	-179.393	1	257.426	-44.1765	3.01674E-006	-0.44056	9
	49	101	354.821	186.944	-199.152	1	273.147	-46.811	3.04188E-006	-0.440559	9
	50	103	316.113	189.505	-221.219	1	291.291	-49.4154	2.83818E-006	-0.440561	9
	51	105	281.926	192.26	-245.636	1	311.931	-51.9496	2.85285E-006	-0.440559	9
	52	107	251.185	195.335	-273.074	1	335.745	-54.4231	2.70913E-006	-0.440567	9
	53	109	223.946	198.736	-303.541	1	362.813	-56.7862	2.8156E-006	-0.440558	9
	54	111	199.495	202.51	-337.774	1	393.829	-59.0555	2.83771E-006	-0.440564	9
	55	113	177.836	206.713	-375.663	1	428.781	-61.1777	2.88502E-006	-0.440564	9
	56	115	158.533	211.302	-418	1	468.372	-63.1831	2.7646E-006	-0.440565	9
	57	117	141.263	216.579	-465.495	1	513.412	-65.049	2.69551E-006	-0.440559	9
	58	119	125.911	222.673	-518.352	1	564.156	-66.7526	2.75692E-006	-0.44056	9
	59	121	112.198	229.163	-577.343	1	621.16	-68.3505	2.63807E-006	-0.440567	9
	60	123	100.009	236.643	-642.936	1	685.103	-69.7931	2.71848E-006	-0.440562	9
	61	125	89.1164	245.363	-716.101	1	756.97	-71.0866	2.88784E-006	-0.440556	9
	62	127	79.4083	255.139	-798.189	1	837.975	-72.2737	2.71719E-006	-0.44056	9
	63	129	70.788	266.892	-889.313	1	928.498	-73.295	2.81358E-006	-0.440556	9
	64	131	63.0971	278.638	-990.66	1	1029.1	-74.2905	2.49613E-006	-0.440563	9
	65	133	54.5476	299	-1135.29	1	1174	-75.2451	2.08023E-006	-0.440559	8
	66	135	50.0083	313.506	-1231.69	1	1270.96	-75.7195	2.22746E-006	-0.440569	8
	67	137	46.1675	326.524	-1328.54	1	1368.07	-76.1917	1.90693E-006	-0.440555	8
	68	140	40.0059	356.888	-1520.2	1	1561.53	-76.7883	2.08936E-006	-0.440562	8
	69	142	35.3046	391.257	-1709.01	1	1753.22	-77.105	2.39749E-006	-0.440566	8
	70	144	31.5793	424.074	-1896.83	1	1943.65	-77.3976	2.27654E-006	-0.44056	8
	71	146	28.5748	462.099	-2084.3	1	2134.91	-77.4995	2.49701E-006	-0.440554	8
	72	148	24.9911	519.589	-2359.44	1	2415.97	-77.5807	2.37774E-006	-0.440551	8
	73	150	22.2195	569.561	-2637.1	1	2697.9	-77.8124	2.14781E-006	-0.440553	8
	74	153	20.0011	632.995	-2905.67	1	2973.82	-77.7103	2.09005E-006	-0.440568	8
	75	155	17.6486	714.776	-3271.56	1	3348.73	-77.6756	1.92095E-006	-0.440558	8
	76	157	15.7934	812.337	-3624.45	1	3714.37	-77.3672	1.99959E-006	-0.440565	8
	77	159	14.2828	924.704	-3965.68	1	4072.06	-76.8745	2.04271E-006	-0.440573	8
	78	162	12.5002	1073.54	-4486.96	1	4613.6	-76.5446	1.92927E-006	-0.440564	8
	79	164	11.323	1211.42	-4918.26	1	5065.26	-76.1629	1.85708E-006	-0.440552	8
	80	167	9.9987	1410.05	-5503.93	1	5681.68	-75.6304	1.80278E-006	-0.440561	8
