EXPLAIN
TAG	EISPOT
TITLE	LABEL	Tomato_open	Test &Identifier
DATE	LABEL	5/16/2006	Date
TIME	LABEL	13:18:36	Time
NOTES	NOTES	1	&Notes...
	
PSTAT	PSTAT	300	Potentiostat
VDC	POTEN	1.00000E-001	T	DC &Voltage (V)
FREQINIT	QUANT	1.00000E+005	Initial Fre&q. (Hz)
FREQFINAL	QUANT	1.00000E+001	Final Fre&q. (Hz)
PTSPERDEC	QUANT	2.00000E+001	Points/&decade
VAC	QUANT	1.00000E+001	AC &Voltage (mV rms)
AREA	QUANT	1.00000E+000	&Area (cm²)
DENSITY	QUANT	7.87000E+000	&Density (gm/cm³)
EQUIV	QUANT	7.00000E+000	Equiv. &Wt
CONDIT	TWOPARAM	F	1.50000E+001	0.00000E+000	Conditionin&g	Time(s)	E(V)
DELAY	TWOPARAM	F	6.00000E+002	0.00000E+000	Init. De&lay	Time(s)	Stab.(mV/s)
SPEED	SELECTOR	1	&Optimize for:
ZGUESS	QUANT	1.00000E+002	E&stimated Z (ohms)
OCVCURVE	TABLE	39
	Pt	T	Vf	Vm	Ach	Over
	#	s	V vs. Ref.	V	V	bits
	0	0.258332	-5.20869E-001	4.19074E-006	3.66000E-005	......
	1	0.516663	-5.21519E-001	4.19074E-006	-1.63400E-004	......
	2	0.774994	-5.21519E-001	4.19074E-006	3.66000E-005	......
	3	1.03333	-5.21919E-001	4.19074E-006	-1.63400E-004	......
	4	1.29166	-5.20369E-001	4.19074E-006	-6.34000E-005	......
	5	1.54999	-5.20319E-001	4.19074E-006	-1.63400E-004	......
	6	1.80832	-5.19019E-001	4.19074E-006	3.66000E-005	......
	7	2.06665	-5.20469E-001	4.19074E-006	-6.34000E-005	......
	8	2.32498	-5.22869E-001	4.19074E-006	3.66000E-005	......
	9	2.58332	-5.22519E-001	4.19074E-006	-1.63400E-004	......
	10	2.84165	-5.21969E-001	4.19074E-006	3.66000E-005	......
	11	3.09998	-5.22469E-001	4.19074E-006	-1.63400E-004	......
	12	3.35831	-5.21969E-001	4.19074E-006	3.66000E-005	......
	13	3.61664	-5.23369E-001	4.19074E-006	-1.63400E-004	......
	14	3.87497	-5.23769E-001	4.19074E-006	3.66000E-005	......
	15	4.1333	-5.23070E-001	4.19074E-006	-6.34000E-005	......
	16	4.39164	-5.21469E-001	4.19074E-006	3.66000E-005	......
	17	4.64997	-5.20970E-001	4.19074E-006	-6.34000E-005	......
	18	4.9083	-5.21069E-001	4.19074E-006	3.66000E-005	......
	19	5.16663	-5.22420E-001	4.19074E-006	-6.34000E-005	......
	20	5.42496	-5.22720E-001	4.19074E-006	3.66000E-005	......
	21	5.68329	-5.23870E-001	4.19074E-006	-6.34000E-005	......
	22	5.94162	-5.24220E-001	4.19074E-006	3.66000E-005	......
	23	6.19996	-5.24269E-001	4.19074E-006	-6.34000E-005	......
	24	6.45829	-5.26069E-001	4.19074E-006	3.66000E-005	......
	25	6.71662	-5.26569E-001	4.19074E-006	-1.63400E-004	......
	26	6.97495	-5.27169E-001	4.19074E-006	-6.34000E-005	......
	27	7.23328	-5.27070E-001	4.19074E-006	-1.63400E-004	......
	28	7.49161	-5.27020E-001	4.19074E-006	3.66000E-005	......
	29	7.74995	-5.26469E-001	4.19074E-006	-6.34000E-005	......
	30	8.00828	-5.25869E-001	4.19074E-006	2.36600E-004	......
	31	8.26661	-5.26119E-001	4.19074E-006	-1.63400E-004	......
	32	8.52494	-5.25620E-001	4.19074E-006	2.36600E-004	......
	33	8.78327	-5.25469E-001	4.19074E-006	-1.63400E-004	......
	34	9.0416	-5.24119E-001	4.19074E-006	3.66000E-005	......
	35	9.29993	-5.20920E-001	4.19074E-006	-1.63400E-004	......
	36	9.5583	-5.20619E-001	4.19074E-006	3.66000E-005	......
	37	9.8166	-5.22020E-001	4.19074E-006	-6.34000E-005	......
	38	10.0749	-5.22619E-001	4.19074E-006	3.66000E-005	......
EOC	QUANT	-0.522619	Open Circuit (V)
PSTATMODEL	IQUANT	32	Pstat Model
PSTATSECTION	LABEL	PStat0	Pstat Section
CTRLMODE	IQUANT	1	Control Mode
IESTAB	IQUANT	0	I/E Stability
CASPEED	IQUANT	1	Control Amp Speed
CONVENTION	IQUANT	1	Current Convention
ICHRANGE	IQUANT	2	Ich Range
ICHRANGEMODE	TOGGLE	F	Ich Auto Range
ICHOFFSETENABLE	TOGGLE	T	Ich Offset Enable
ICHOFFSET	QUANT	0	Ich Offset (V)
ICHFILTER	IQUANT	3	Ich Filter
VCHRANGE	IQUANT	2	Vch Range
VCHRANGEMODE	TOGGLE	F	Vch Auto Range
VCHOFFSETENABLE	TOGGLE	T	Vch Offset Enable
VCHOFFSET	QUANT	0	Vch Offset (V)
VCHFILTER	IQUANT	3	Vch Filter
ACHRANGE	IQUANT	0	Ach Range
IERANGELOWERLIMIT	IQUANT	3	I/E Range Lower Limit
IERANGEMODE	TOGGLE	F	I/E AutoRange
IERANGE	IQUANT	11	I/E Range
POSFEEDENABLE	TOGGLE	F	Positive Feedback IR Comp
POSFEEDRESISTANCE	QUANT	0	Positive Feedback Resistance (ohm)
FC350IDIVISOR	IQUANT	0	FC350 I Divisor
FC350VRANGE	IQUANT	0	FC350 V Range
FRAMEWORKVERSION	QUANT	4.35	Framework Version
ZCURVE	TABLE
	Pt	Time	Freq	Zreal	Zimag	Zsig	Zmod	Zphz	Idc	Vdc	IERange
	#	s	Hz	ohm	ohm	V	ohm	°	A	V	#
	0	4	100007	156.393	-0.619103	1	156.394	-0.226812	4.43388E-006	-0.422333	9
	1	6	89134.1	155.562	-0.740147	1	155.564	-0.272604	4.55943E-006	-0.422359	9
	2	8	79433.6	154.986	-1.12473	1	154.99	-0.415789	4.83173E-006	-0.422325	9
	3	10	70800.8	154.778	-1.64977	1	154.787	-0.610689	5.34348E-006	-0.422328	9
	4	12	63105.5	154.428	-1.87425	1	154.439	-0.695348	5.64024E-006	-0.422325	9
	5	14	56243.5	154.418	-2.14432	1	154.432	-0.795588	5.70096E-006	-0.42236	9
	6	16	50123.7	154.332	-2.74189	1	154.356	-1.01782	5.64915E-006	-0.422331	9
	7	18	44681	154.249	-3.12069	1	154.28	-1.15902	5.23346E-006	-0.422325	9
	8	20	39811.2	154.344	-3.63566	1	154.387	-1.34938	5.08887E-006	-0.422331	9
	9	22	35488.3	154.545	-3.85406	1	154.593	-1.42855	5.21351E-006	-0.422366	9
	10	24	31634.1	154.47	-4.29423	1	154.53	-1.5924	4.50492E-006	-0.422319	9
	11	26	28173.1	154.52	-4.73273	1	154.593	-1.75434	4.72849E-006	-0.422338	9
	12	28	25123.7	154.57	-5.37826	1	154.663	-1.9928	4.98251E-006	-0.422336	9
	13	30	22389.3	154.793	-6.05487	1	154.911	-2.24004	4.78023E-006	-0.422321	9
	14	32	19954.4	155.131	-6.63633	1	155.273	-2.44956	4.91051E-006	-0.422338	9
	15	34	17778.2	155.295	-7.09127	1	155.456	-2.6145	4.66674E-006	-0.422344	9
	16	36	15852.9	155.558	-8.11552	1	155.77	-2.98643	4.56017E-006	-0.42233	9
	17	38	14122.3	155.641	-8.85814	1	155.893	-3.25742	4.23654E-006	-0.422339	9
	18	40	12587.2	155.92	-9.6397	1	156.218	-3.53779	4.18892E-006	-0.422334	9
	19	42	11221.1	156.214	-10.7318	1	156.583	-3.92999	4.18995E-006	-0.422335	9
	20	44	9998.2	156.411	-11.8241	1	156.857	-4.32313	3.92753E-006	-0.422345	9
	21	46	8912.76	156.653	-13.0438	1	157.195	-4.75979	3.90743E-006	-0.422337	9
	22	48	7942.6	157.139	-14.1685	1	157.777	-5.15216	3.58198E-006	-0.422338	9
	23	50	7078.05	157.501	-15.616	1	158.273	-5.6623	3.60126E-006	-0.422333	9
	24	52	6311.1	157.893	-16.9664	1	158.802	-6.13316	3.67267E-006	-0.422329	9
	25	54	5622.14	158.227	-18.6981	1	159.328	-6.73953	3.62076E-006	-0.422333	9
	26	55	5011.18	159.055	-20.7876	1	160.408	-7.44603	3.47185E-006	-0.422329	9
	27	57	4465.21	159.464	-22.758	1	161.08	-8.12212	3.44757E-006	-0.422327	9
	28	59	3980.93	160.01	-24.9305	1	161.941	-8.8558	3.37768E-006	-0.422333	9
	29	61	3548.18	160.692	-27.4811	1	163.025	-9.7047	3.58106E-006	-0.422371	9
	30	63	3162.67	161.298	-30.2076	1	164.102	-10.6074	3.34218E-006	-0.422328	9
	31	65	2819.01	162.069	-33.2627	1	165.447	-11.5982	3.40585E-006	-0.422328	9
	32	67	2511.16	162.553	-36.6686	1	166.638	-12.712	3.66035E-006	-0.422339	9
	33	69	2238.63	163.681	-40.3611	1	168.583	-13.8519	3.8142E-006	-0.422346	9
	34	71	1995.37	164.542	-44.5065	1	170.455	-15.1356	3.84709E-006	-0.422339	9
	35	73	1778.51	165.453	-48.5466	1	172.429	-16.3525	3.77845E-006	-0.422334	9
	36	75	1584.49	166.356	-53.6927	1	174.806	-17.8879	3.71106E-006	-0.422349	9
	37	77	1412.76	167.579	-59.0802	1	177.689	-19.4202	3.73885E-006	-0.422318	9
	38	79	1259.04	168.84	-65.3217	1	181.036	-21.1507	3.60493E-006	-0.422346	9
	39	81	1121.63	169.695	-72.1517	1	184.397	-23.0344	3.39193E-006	-0.422337	9
	40	83	999.95	171.008	-79.6309	1	188.64	-24.9693	3.33843E-006	-0.422344	9
	41	85	891.184	172.783	-87.9397	1	193.874	-26.9743	3.00888E-006	-0.42235	9
	42	87	794.163	174.178	-97.305	1	199.515	-29.1901	2.92256E-006	-0.422358	9
	43	89	707.867	175.638	-107.625	1	205.99	-31.4987	2.96768E-006	-0.422334	9
	44	91	630.984	176.954	-119.292	1	213.409	-33.9857	3.16846E-006	-0.422348	9
	45	93	562.189	178.808	-132.064	1	222.291	-36.449	3.42588E-006	-0.422337	9
	46	95	501.303	180.807	-146.027	1	232.411	-38.9258	3.34279E-006	-0.422337	9
	47	97	446.614	182.786	-161.987	1	244.235	-41.5477	3.38324E-006	-0.422344	9
	48	99	398.209	184.919	-179.694	1	257.846	-44.179	3.04582E-006	-0.422346	9
	49	101	354.821	187.28	-199.484	1	273.62	-46.8074	3.11017E-006	-0.42235	9
	50	103	316.113	189.872	-221.614	1	291.829	-49.4111	3.03131E-006	-0.422346	9
	51	105	281.926	192.643	-246.061	1	312.502	-51.9422	2.82437E-006	-0.422345	9
	52	107	251.185	195.765	-273.541	1	336.376	-54.4099	2.92023E-006	-0.42235	9
	53	109	223.946	199.179	-304.042	1	363.474	-56.771	2.92938E-006	-0.422344	9
	54	111	199.495	202.934	-338.275	1	394.477	-59.04	2.69206E-006	-0.422344	9
	55	113	177.836	207.152	-376.309	1	429.558	-61.1679	2.83777E-006	-0.422344	9
	56	115	158.533	211.996	-418.726	1	469.333	-63.1475	3.12278E-006	-0.422345	9
	57	117	141.263	217.231	-466.119	1	514.253	-65.0125	2.96892E-006	-0.422333	9
	58	119	125.911	223.309	-519.036	1	565.036	-66.7208	2.95214E-006	-0.422336	9
	59	121	112.198	230.017	-578.142	1	622.219	-68.3046	3.04727E-006	-0.422343	9
	60	123	100.009	237.732	-643.682	1	686.18	-69.7292	3.04492E-006	-0.422337	9
	61	125	89.1164	246.447	-717.177	1	758.34	-71.0355	2.98347E-006	-0.422337	9
	62	127	79.4083	256.142	-799.048	1	839.099	-72.2263	2.90087E-006	-0.422337	9
	63	129	70.788	267.429	-890.082	1	929.389	-73.2769	2.89892E-006	-0.422334	9
	64	131	63.0971	281.056	-991.98	1	1031.03	-74.181	3.05128E-006	-0.422342	9
	65	133	54.5476	300.429	-1136.26	1	1175.31	-75.1899	2.26084E-006	-0.422346	8
	66	135	50.0083	314.137	-1232.86	1	1272.25	-75.705	2.28498E-006	-0.422343	8
	67	138	46.1675	328.252	-1329.24	1	1369.17	-76.1285	2.1775E-006	-0.422342	8
	68	140	40.0059	357	-1521.6	1	1562.92	-76.796	2.07484E-006	-0.422343	8
	69	142	35.3046	388.483	-1711.38	1	1754.92	-77.2106	2.05886E-006	-0.422345	8
	70	144	31.5793	425.455	-1899.85	1	1946.91	-77.3774	2.39605E-006	-0.422333	8
	71	146	28.5748	459.906	-2087.04	1	2137.11	-77.5727	2.36585E-006	-0.422336	8
	72	148	24.9911	514.078	-2364.87	1	2420.1	-77.7358	2.35863E-006	-0.422337	8
	73	150	22.2195	574.498	-2639.25	1	2701.06	-77.7197	2.20873E-006	-0.422339	8
	74	153	20.0011	638.532	-2913.46	1	2982.61	-77.6382	2.26744E-006	-0.42234	8
	75	155	17.6486	743.66	-3270.36	1	3353.85	-77.1891	2.37511E-006	-0.422344	8
	76	158	15.7934	848.535	-3618.6	1	3716.76	-76.803	2.66654E-006	-0.42235	8
	77	160	14.2828	940.806	-3972.35	1	4082.24	-76.6756	2.2806E-006	-0.422341	8
	78	162	12.5002	1129.6	-4472.89	1	4613.32	-75.8266	2.44447E-006	-0.422344	8
	79	164	11.323	1296.82	-4893.78	1	5062.69	-75.1581	2.51164E-006	-0.422349	8
	80	167	9.9987	1526.54	-5492.19	1	5700.39	-74.4668	2.36617E-006	-0.422345	8
