EXPLAIN
TAG	EISPOT
TITLE	LABEL	Tomato_open	Test &Identifier
DATE	LABEL	5/15/2006	Date
TIME	LABEL	15:47:38	Time
NOTES	NOTES	1	&Notes...
	
PSTAT	PSTAT	300	Potentiostat
VDC	POTEN	1.00000E-001	T	DC &Voltage (V)
FREQINIT	QUANT	1.00000E+005	Initial Fre&q. (Hz)
FREQFINAL	QUANT	1.00000E+001	Final Fre&q. (Hz)
PTSPERDEC	QUANT	2.00000E+001	Points/&decade
VAC	QUANT	1.00000E+001	AC &Voltage (mV rms)
AREA	QUANT	1.00000E+000	&Area (cm²)
DENSITY	QUANT	7.87000E+000	&Density (gm/cm³)
EQUIV	QUANT	7.00000E+000	Equiv. &Wt
CONDIT	TWOPARAM	F	1.50000E+001	0.00000E+000	Conditionin&g	Time(s)	E(V)
DELAY	TWOPARAM	F	6.00000E+002	0.00000E+000	Init. De&lay	Time(s)	Stab.(mV/s)
SPEED	SELECTOR	1	&Optimize for:
ZGUESS	QUANT	1.00000E+002	E&stimated Z (ohms)
OCVCURVE	TABLE	39
	Pt	T	Vf	Vm	Ach	Over
	#	s	V vs. Ref.	V	V	bits
	0	0.258332	-6.41769E-001	3.81874E-006	-1.63400E-004	......
	1	0.516663	-6.41169E-001	3.81874E-006	1.36600E-004	......
	2	0.774994	-6.47219E-001	3.81874E-006	-6.34000E-005	......
	3	1.03333	-6.40519E-001	3.81874E-006	-6.34000E-005	......
	4	1.29166	-6.38070E-001	3.81874E-006	-2.63400E-004	......
	5	1.54999	-6.31369E-001	3.81874E-006	1.36600E-004	......
	6	1.80832	-6.29420E-001	3.81874E-006	-1.63400E-004	......
	7	2.06665	-6.30319E-001	3.81874E-006	3.66000E-005	......
	8	2.32498	-6.31669E-001	3.81874E-006	-6.34000E-005	......
	9	2.58332	-6.27819E-001	3.81874E-006	2.36600E-004	......
	10	2.84165	-6.29470E-001	3.81874E-006	-6.34000E-005	......
	11	3.09998	-6.29470E-001	3.81874E-006	2.36600E-004	......
	12	3.35831	-6.25619E-001	3.81874E-006	-1.63400E-004	......
	13	3.61664	-6.32219E-001	3.81874E-006	2.36600E-004	......
	14	3.87497	-6.32969E-001	3.81874E-006	-1.63400E-004	......
	15	4.1333	-6.29019E-001	3.81874E-006	3.66000E-005	......
	16	4.39164	-6.27519E-001	3.81874E-006	-1.63400E-004	......
	17	4.64997	-6.30470E-001	3.81874E-006	3.66000E-005	......
	18	4.9083	-6.29369E-001	3.81874E-006	3.66000E-005	......
	19	5.16663	-6.35570E-001	3.81874E-006	2.36600E-004	......
	20	5.42496	-6.42619E-001	3.81874E-006	-6.34000E-005	......
	21	5.68329	-6.53870E-001	3.81874E-006	3.66000E-005	......
	22	5.94162	-6.40469E-001	3.81874E-006	-6.34000E-005	......
	23	6.19996	-6.39219E-001	3.81874E-006	3.66000E-005	......
	24	6.45829	-6.43420E-001	3.81874E-006	-6.34000E-005	......
	25	6.71662	-6.32620E-001	3.81874E-006	3.66000E-005	......
	26	6.97495	-6.42069E-001	3.81874E-006	-6.34000E-005	......
	27	7.23328	-6.47069E-001	3.81874E-006	3.66000E-005	......
	28	7.49161	-6.44769E-001	3.81874E-006	-6.34000E-005	......
	29	7.74995	-6.46270E-001	3.81874E-006	3.66000E-005	......
	30	8.00828	-6.42619E-001	3.81874E-006	-1.63400E-004	......
	31	8.26661	-6.34169E-001	3.81874E-006	3.66000E-005	......
	32	8.52494	-6.28320E-001	3.81874E-006	-1.63400E-004	......
	33	8.78327	-6.24469E-001	3.81874E-006	3.66000E-005	......
	34	9.0416	-6.27620E-001	3.81874E-006	-6.34000E-005	......
	35	9.29993	-6.28819E-001	3.81874E-006	2.36600E-004	......
	36	9.5583	-6.15669E-001	3.81874E-006	-1.63400E-004	......
	37	9.8166	-6.19119E-001	3.81874E-006	3.66000E-005	......
	38	10.0749	-6.21419E-001	3.81874E-006	-6.34000E-005	......
EOC	QUANT	-0.621419	Open Circuit (V)
PSTATMODEL	IQUANT	32	Pstat Model
PSTATSECTION	LABEL	PStat0	Pstat Section
CTRLMODE	IQUANT	1	Control Mode
IESTAB	IQUANT	0	I/E Stability
CASPEED	IQUANT	1	Control Amp Speed
CONVENTION	IQUANT	1	Current Convention
ICHRANGE	IQUANT	2	Ich Range
ICHRANGEMODE	TOGGLE	F	Ich Auto Range
ICHOFFSETENABLE	TOGGLE	T	Ich Offset Enable
ICHOFFSET	QUANT	0	Ich Offset (V)
ICHFILTER	IQUANT	3	Ich Filter
VCHRANGE	IQUANT	2	Vch Range
VCHRANGEMODE	TOGGLE	F	Vch Auto Range
VCHOFFSETENABLE	TOGGLE	T	Vch Offset Enable
VCHOFFSET	QUANT	0	Vch Offset (V)
VCHFILTER	IQUANT	3	Vch Filter
ACHRANGE	IQUANT	0	Ach Range
IERANGELOWERLIMIT	IQUANT	3	I/E Range Lower Limit
IERANGEMODE	TOGGLE	F	I/E AutoRange
IERANGE	IQUANT	11	I/E Range
POSFEEDENABLE	TOGGLE	F	Positive Feedback IR Comp
POSFEEDRESISTANCE	QUANT	0	Positive Feedback Resistance (ohm)
FC350IDIVISOR	IQUANT	0	FC350 I Divisor
FC350VRANGE	IQUANT	0	FC350 V Range
FRAMEWORKVERSION	QUANT	4.35	Framework Version
ZCURVE	TABLE
	Pt	Time	Freq	Zreal	Zimag	Zsig	Zmod	Zphz	Idc	Vdc	IERange
	#	s	Hz	ohm	ohm	V	ohm	°	A	V	#
	0	4	100007	155.096	-0.634725	1	155.097	-0.23448	8.13871E-006	-0.521542	9
	1	6	89134.1	154.339	-0.788846	1	154.341	-0.292843	6.57959E-006	-0.521533	9
	2	8	79433.6	154.039	-1.31585	1	154.044	-0.489429	7.58193E-006	-0.5215	9
	3	10	70800.8	153.795	-1.44797	1	153.802	-0.53942	7.1197E-006	-0.5215	9
	4	12	63105.5	153.625	-1.81875	1	153.636	-0.678287	6.28679E-006	-0.521533	9
	5	14	56243.5	153.404	-2.19204	1	153.42	-0.818661	5.94523E-006	-0.521507	9
	6	16	50123.7	153.276	-2.50656	1	153.297	-0.936888	4.60193E-006	-0.521492	9
	7	18	44681	153.212	-2.84721	1	153.238	-1.06464	5.32388E-006	-0.521491	9
	8	20	39811.2	153.088	-3.55618	1	153.129	-1.33072	3.96573E-006	-0.521502	9
	9	22	35488.3	152.998	-3.79743	1	153.045	-1.42179	3.39059E-006	-0.521509	9
	10	24	31634.1	153.126	-4.38698	1	153.189	-1.64105	3.00207E-006	-0.521501	9
	11	26	28173.1	153.301	-4.71278	1	153.373	-1.76083	3.68471E-006	-0.521499	9
	12	28	25123.7	153.567	-5.34413	1	153.66	-1.99309	2.95517E-006	-0.521495	9
	13	30	22389.3	153.512	-5.89907	1	153.626	-2.20064	3.36468E-006	-0.521497	9
	14	32	19954.4	153.842	-6.53494	1	153.98	-2.43237	2.8344E-006	-0.521478	9
	15	34	17778.2	153.911	-7.29132	1	154.083	-2.71229	3.73803E-006	-0.521495	9
	16	36	15852.9	153.943	-7.84052	1	154.143	-2.91563	3.42865E-006	-0.521507	9
	17	38	14122.3	154.178	-8.80756	1	154.429	-3.26952	2.90026E-006	-0.521499	9
	18	40	12587.2	154.667	-9.6201	1	154.966	-3.55914	3.07237E-006	-0.521509	9
	19	42	11221.1	154.812	-10.8002	1	155.188	-3.99068	3.19634E-006	-0.521492	9
	20	44	9998.2	154.86	-11.7639	1	155.306	-4.34413	1.93965E-006	-0.521496	9
	21	46	8912.76	155.395	-12.962	1	155.935	-4.7682	1.57704E-006	-0.521499	9
	22	48	7942.6	155.727	-14.1168	1	156.366	-5.17977	1.92126E-006	-0.521501	9
	23	50	7078.05	156.161	-15.5915	1	156.938	-5.70163	2.16506E-006	-0.521505	9
	24	52	6311.1	156.498	-17.3506	1	157.457	-6.32642	2.30946E-006	-0.521507	9
	25	54	5622.14	156.959	-18.9678	1	158.101	-6.89052	2.66367E-006	-0.521515	9
	26	56	5011.18	157.348	-20.887	1	158.729	-7.56144	2.90312E-006	-0.521501	9
	27	58	4465.21	157.89	-23.047	1	159.564	-8.30472	3.57878E-006	-0.521504	9
	28	59	3980.93	158.622	-25.0492	1	160.588	-8.97392	1.99754E-006	-0.521487	9
	29	61	3548.18	159.309	-27.468	1	161.66	-9.7827	1.92729E-006	-0.521515	9
	30	63	3162.67	159.952	-30.4379	1	162.822	-10.7742	1.28359E-006	-0.521528	9
	31	65	2819.01	160.988	-33.6452	1	164.466	-11.8044	9.09869E-007	-0.521504	9
	32	67	2511.16	161.664	-36.6851	1	165.774	-12.7852	8.65197E-007	-0.521508	9
	33	69	2238.63	162.469	-40.5818	1	167.46	-14.0245	8.16072E-007	-0.521514	9
	34	71	1995.37	163.772	-44.3425	1	169.669	-15.15	9.23104E-007	-0.521513	9
	35	73	1778.51	165.023	-49.1451	1	172.185	-16.5839	1.11935E-006	-0.521511	9
	36	75	1584.49	165.764	-53.6947	1	174.244	-17.9483	1.04626E-006	-0.521505	9
	37	77	1412.76	167.069	-58.9547	1	177.166	-19.4367	1.36582E-006	-0.521507	9
	38	79	1259.04	168.239	-65.1351	1	180.408	-21.1643	1.3537E-006	-0.52151	9
	39	81	1121.63	169.63	-71.4851	1	184.077	-22.8514	1.30731E-006	-0.521521	9
	40	83	999.95	170.983	-78.8879	1	188.304	-24.7676	1.41103E-006	-0.521518	9
	41	85	891.184	172.506	-86.7283	1	193.08	-26.6913	1.25826E-006	-0.521523	9
	42	87	794.163	174.003	-96.022	1	198.739	-28.8916	1.58601E-006	-0.521509	9
	43	89	707.867	175.74	-105.957	1	205.21	-31.0867	1.57131E-006	-0.521503	9
	44	91	630.984	177.546	-116.606	1	212.414	-33.2955	1.93295E-006	-0.521521	9
	45	93	562.189	179.379	-129.63	1	221.316	-35.8541	1.36695E-006	-0.521504	9
	46	95	501.303	181.284	-143.046	1	230.924	-38.2761	1.51801E-006	-0.521524	9
	47	97	446.614	183.309	-158.494	1	242.328	-40.8476	1.32418E-006	-0.521514	9
	48	99	398.209	185.495	-175.599	1	255.428	-43.4301	1.66571E-006	-0.521519	9
	49	101	354.821	187.853	-194.733	1	270.573	-46.0302	1.27571E-006	-0.521517	9
	50	103	316.113	190.423	-216.15	1	288.065	-48.6207	1.22402E-006	-0.521521	9
	51	105	281.926	193.182	-239.833	1	307.96	-51.1491	1.19085E-006	-0.52152	9
	52	107	251.185	196.322	-266.472	1	330.983	-53.6192	1.36559E-006	-0.521521	9
	53	109	223.946	199.575	-296.013	1	357.007	-56.0117	1.05462E-006	-0.521521	9
	54	111	199.495	203.2	-329.21	1	386.872	-58.3156	7.94994E-007	-0.521521	9
	55	113	177.836	207.281	-366.073	1	420.684	-60.4802	9.299E-007	-0.521523	9
	56	115	158.533	212.015	-407.277	1	459.157	-62.5	1.20749E-006	-0.521523	9
	57	117	141.263	217.482	-453.292	1	502.764	-64.3691	1.81106E-006	-0.52151	9
	58	119	125.911	223.773	-504.58	1	551.974	-66.0835	2.03935E-006	-0.521514	9
	59	121	112.198	230.093	-561.793	1	607.086	-67.7276	1.89501E-006	-0.521519	9
	60	123	100.009	237.575	-625.472	1	669.072	-69.2015	1.76223E-006	-0.521513	9
	61	125	89.1164	246.655	-696.796	1	739.164	-70.5068	1.98145E-006	-0.521509	9
	62	127	79.4083	256.514	-776.198	1	817.485	-71.7126	2.07076E-006	-0.521511	9
	63	129	70.788	267.187	-865.065	1	905.388	-72.836	1.78652E-006	-0.521504	9
	64	131	63.0971	279.243	-962.85	1	1002.53	-73.827	1.52023E-006	-0.521506	9
	65	133	54.5476	296.415	-1103.41	1	1142.53	-74.9633	6.07888E-007	-0.521508	8
	66	136	50.0083	307.808	-1197.42	1	1236.35	-75.5837	3.28096E-007	-0.521514	8
	67	138	46.1675	319.992	-1291.62	1	1330.67	-76.0855	5.3961E-007	-0.52151	8
	68	140	40.0059	348.143	-1477.36	1	1517.82	-76.74	4.76338E-007	-0.521515	8
	69	142	35.3046	376.835	-1662.02	1	1704.2	-77.2251	6.98363E-007	-0.521513	8
	70	144	31.5793	410.739	-1845.87	1	1891.02	-77.4551	9.55723E-007	-0.521508	8
	71	146	28.5748	440.891	-2025.71	1	2073.13	-77.7212	8.26829E-007	-0.521518	8
	72	148	24.9911	493.414	-2298.87	1	2351.23	-77.8862	1.04291E-006	-0.521504	8
	73	151	22.2195	540.038	-2567.45	1	2623.63	-78.1216	6.46582E-007	-0.521514	8
	74	153	20.0011	585.498	-2843.1	1	2902.76	-78.3634	5.31165E-007	-0.521515	8
	75	156	17.6486	670.903	-3182.91	1	3252.85	-78.0973	8.70138E-007	-0.52151	8
	76	158	15.7934	772.662	-3532.34	1	3615.85	-77.6615	6.93552E-007	-0.5215	8
	77	160	14.2828	843.935	-3881.93	1	3972.61	-77.7347	4.55312E-007	-0.521501	8
	78	162	12.5002	1011.87	-4352.29	1	4468.36	-76.9117	8.0419E-007	-0.521507	8
	79	165	11.323	1126.75	-4791.35	1	4922.05	-76.7666	4.53881E-007	-0.521509	8
	80	167	9.9987	1267.39	-5410.36	1	5556.82	-76.8161	4.6921E-007	-0.521503	8
