EXPLAIN
TAG	EISPOT
TITLE	LABEL	Tomato_open	Test &Identifier
DATE	LABEL	5/15/2006	Date
TIME	LABEL	16:07:41	Time
NOTES	NOTES	1	&Notes...
	
PSTAT	PSTAT	300	Potentiostat
VDC	POTEN	1.00000E-001	T	DC &Voltage (V)
FREQINIT	QUANT	1.00000E+005	Initial Fre&q. (Hz)
FREQFINAL	QUANT	1.00000E+001	Final Fre&q. (Hz)
PTSPERDEC	QUANT	2.00000E+001	Points/&decade
VAC	QUANT	1.00000E+001	AC &Voltage (mV rms)
AREA	QUANT	1.00000E+000	&Area (cm²)
DENSITY	QUANT	7.87000E+000	&Density (gm/cm³)
EQUIV	QUANT	7.00000E+000	Equiv. &Wt
CONDIT	TWOPARAM	F	1.50000E+001	0.00000E+000	Conditionin&g	Time(s)	E(V)
DELAY	TWOPARAM	F	6.00000E+002	0.00000E+000	Init. De&lay	Time(s)	Stab.(mV/s)
SPEED	SELECTOR	1	&Optimize for:
ZGUESS	QUANT	1.00000E+002	E&stimated Z (ohms)
OCVCURVE	TABLE	39
	Pt	T	Vf	Vm	Ach	Over
	#	s	V vs. Ref.	V	V	bits
	0	0.258332	-5.54969E-001	4.10404E-006	3.66000E-005	......
	1	0.516663	-5.54919E-001	4.10404E-006	-1.63400E-004	......
	2	0.774994	-5.58469E-001	4.10404E-006	1.36600E-004	......
	3	1.03333	-5.58119E-001	4.10404E-006	-6.34000E-005	......
	4	1.29166	-5.58319E-001	4.10404E-006	2.36600E-004	......
	5	1.54999	-5.54669E-001	4.10404E-006	-1.63400E-004	......
	6	1.80832	-5.55569E-001	4.10404E-006	3.66000E-005	......
	7	2.06665	-5.55619E-001	4.10404E-006	-2.63400E-004	......
	8	2.32498	-5.57469E-001	4.10404E-006	-6.34000E-005	......
	9	2.58332	-5.56969E-001	4.10404E-006	-1.63400E-004	......
	10	2.84165	-5.54119E-001	4.10404E-006	3.66000E-005	......
	11	3.09998	-5.54819E-001	4.10404E-006	-1.63400E-004	......
	12	3.35831	-5.55369E-001	4.10404E-006	3.66000E-005	......
	13	3.61664	-5.55470E-001	4.10404E-006	-1.63400E-004	......
	14	3.87497	-5.55770E-001	4.10404E-006	3.66000E-005	......
	15	4.1333	-5.57220E-001	4.10404E-006	-1.63400E-004	......
	16	4.39164	-5.55619E-001	4.10404E-006	3.66000E-005	......
	17	4.64997	-5.61069E-001	4.10404E-006	-1.63400E-004	......
	18	4.9083	-5.60569E-001	4.10404E-006	2.36600E-004	......
	19	5.16663	-5.59669E-001	4.10404E-006	-1.63400E-004	......
	20	5.42496	-5.57419E-001	4.10404E-006	3.66000E-005	......
	21	5.68329	-5.46869E-001	4.10404E-006	-1.63400E-004	......
	22	5.94162	-5.43769E-001	4.10404E-006	3.66000E-005	......
	23	6.19996	-5.46919E-001	4.10404E-006	-6.34000E-005	......
	24	6.45829	-5.49469E-001	4.10404E-006	3.66000E-005	......
	25	6.71662	-5.46719E-001	4.10404E-006	-6.34000E-005	......
	26	6.97495	-5.49269E-001	4.10404E-006	3.66000E-005	......
	27	7.23328	-5.49719E-001	4.10404E-006	-6.34000E-005	......
	28	7.49161	-5.51019E-001	4.10404E-006	3.66000E-005	......
	29	7.74995	-5.52069E-001	4.10404E-006	-1.63400E-004	......
	30	8.00828	-5.51319E-001	4.10404E-006	3.66000E-005	......
	31	8.26661	-5.50569E-001	4.10404E-006	-1.63400E-004	......
	32	8.52494	-5.50119E-001	4.10404E-006	-6.34000E-005	......
	33	8.78327	-5.51470E-001	4.10404E-006	-1.63400E-004	......
	34	9.0416	-5.48669E-001	4.10404E-006	3.66000E-005	......
	35	9.29993	-5.49569E-001	4.10404E-006	-6.34000E-005	......
	36	9.5583	-5.49919E-001	4.10404E-006	-6.34000E-005	......
	37	9.8166	-5.49819E-001	4.10404E-006	-1.63400E-004	......
	38	10.0749	-5.51369E-001	4.10404E-006	1.36600E-004	......
EOC	QUANT	-0.551369	Open Circuit (V)
PSTATMODEL	IQUANT	32	Pstat Model
PSTATSECTION	LABEL	PStat0	Pstat Section
CTRLMODE	IQUANT	1	Control Mode
IESTAB	IQUANT	0	I/E Stability
CASPEED	IQUANT	1	Control Amp Speed
CONVENTION	IQUANT	1	Current Convention
ICHRANGE	IQUANT	2	Ich Range
ICHRANGEMODE	TOGGLE	F	Ich Auto Range
ICHOFFSETENABLE	TOGGLE	T	Ich Offset Enable
ICHOFFSET	QUANT	0	Ich Offset (V)
ICHFILTER	IQUANT	3	Ich Filter
VCHRANGE	IQUANT	2	Vch Range
VCHRANGEMODE	TOGGLE	F	Vch Auto Range
VCHOFFSETENABLE	TOGGLE	T	Vch Offset Enable
VCHOFFSET	QUANT	0	Vch Offset (V)
VCHFILTER	IQUANT	3	Vch Filter
ACHRANGE	IQUANT	0	Ach Range
IERANGELOWERLIMIT	IQUANT	3	I/E Range Lower Limit
IERANGEMODE	TOGGLE	F	I/E AutoRange
IERANGE	IQUANT	11	I/E Range
POSFEEDENABLE	TOGGLE	F	Positive Feedback IR Comp
POSFEEDRESISTANCE	QUANT	0	Positive Feedback Resistance (ohm)
FC350IDIVISOR	IQUANT	0	FC350 I Divisor
FC350VRANGE	IQUANT	0	FC350 V Range
FRAMEWORKVERSION	QUANT	4.35	Framework Version
ZCURVE	TABLE
	Pt	Time	Freq	Zreal	Zimag	Zsig	Zmod	Zphz	Idc	Vdc	IERange
	#	s	Hz	ohm	ohm	V	ohm	°	A	V	#
	0	4	100007	154.055	-0.584589	1	154.056	-0.217418	4.46845E-006	-0.451086	9
	1	6	89134.1	153.121	-0.878216	1	153.123	-0.328614	4.86249E-006	-0.451074	9
	2	8	79433.6	152.696	-1.27765	1	152.702	-0.479397	4.84745E-006	-0.451077	9
	3	10	70800.8	152.407	-1.6774	1	152.416	-0.630575	4.4819E-006	-0.451071	9
	4	12	63105.5	152.22	-2.06355	1	152.234	-0.776673	4.27376E-006	-0.451085	9
	5	14	56243.5	152.238	-2.07565	1	152.252	-0.781135	4.51565E-006	-0.451124	9
	6	16	50123.7	152.097	-2.76844	1	152.122	-1.04277	4.62287E-006	-0.451086	9
	7	18	44681	152.032	-2.91978	1	152.06	-1.10023	4.58698E-006	-0.451099	9
	8	20	39811.2	151.838	-3.53607	1	151.879	-1.33409	4.49034E-006	-0.451075	9
	9	22	35488.3	151.931	-3.86945	1	151.98	-1.45892	4.43748E-006	-0.451111	9
	10	24	31634.1	151.981	-4.30552	1	152.042	-1.62271	4.48674E-006	-0.45108	9
	11	26	28173.1	152.135	-4.92321	1	152.215	-1.85349	4.17835E-006	-0.451094	9
	12	28	25123.7	152.236	-5.43246	1	152.333	-2.0437	4.13034E-006	-0.451085	9
	13	30	22389.3	152.29	-5.97737	1	152.408	-2.2477	3.94607E-006	-0.451091	9
	14	32	19954.4	152.535	-6.61826	1	152.679	-2.48442	3.91179E-006	-0.451104	9
	15	34	17778.2	152.575	-7.5022	1	152.759	-2.815	3.80763E-006	-0.451096	9
	16	36	15852.9	152.993	-8.31165	1	153.219	-3.10965	3.88792E-006	-0.451111	9
	17	38	14122.3	153.236	-9.15829	1	153.509	-3.42027	3.36756E-006	-0.451088	9
	18	40	12587.2	153.439	-9.8676	1	153.756	-3.67961	3.63831E-006	-0.451092	9
	19	42	11221.1	153.778	-10.8247	1	154.158	-4.02653	3.53756E-006	-0.451081	9
	20	44	9998.2	154.029	-11.909	1	154.488	-4.42112	3.45912E-006	-0.451081	9
	21	46	8912.76	154.445	-13.3218	1	155.019	-4.92991	3.31668E-006	-0.451062	9
	22	48	7942.6	154.553	-14.4259	1	155.225	-5.33253	3.54213E-006	-0.451086	9
	23	49	7078.05	155.236	-15.834	1	156.042	-5.82399	3.27726E-006	-0.451093	9
	24	51	6311.1	155.558	-17.4537	1	156.534	-6.40183	3.4187E-006	-0.451081	9
	25	53	5622.14	156.145	-19.3267	1	157.336	-7.05586	3.20343E-006	-0.451083	9
	26	55	5011.18	156.521	-21.3795	1	157.974	-7.77801	3.07551E-006	-0.451079	9
	27	57	4465.21	156.879	-23.2028	1	158.585	-8.41321	3.29484E-006	-0.451069	9
	28	59	3980.93	157.823	-25.6622	1	159.895	-9.23556	3.18718E-006	-0.451073	9
	29	61	3548.18	158.718	-28.0783	1	161.182	-10.0322	3.67871E-006	-0.451086	9
	30	63	3162.67	159.117	-30.8638	1	162.083	-10.9773	3.49413E-006	-0.451065	9
	31	65	2819.01	160.131	-34.1038	1	163.722	-12.0229	3.72187E-006	-0.451097	9
	32	67	2511.16	161.09	-37.413	1	165.378	-13.0751	3.18042E-006	-0.45107	9
	33	69	2238.63	161.844	-40.9548	1	166.945	-14.2007	3.08962E-006	-0.451076	9
	34	71	1995.37	163.057	-45.2952	1	169.231	-15.5247	3.0747E-006	-0.451086	9
	35	73	1778.51	164.239	-49.6088	1	171.568	-16.8071	2.84529E-006	-0.451085	9
	36	75	1584.49	165.443	-54.4988	1	174.188	-18.2325	2.90159E-006	-0.451081	9
	37	77	1412.76	166.437	-59.7588	1	176.84	-19.7506	2.48707E-006	-0.451072	9
	38	79	1259.04	167.603	-65.6437	1	180	-21.3884	2.84103E-006	-0.451081	9
	39	81	1121.63	169.126	-72.4321	1	183.984	-23.1842	2.88343E-006	-0.451086	9
	40	83	999.95	170.669	-80.0246	1	188.499	-25.1213	2.99601E-006	-0.451081	9
	41	85	891.184	172.215	-87.9171	1	193.358	-27.0447	3.19024E-006	-0.45109	9
	42	87	794.163	173.659	-96.855	1	198.842	-29.1498	2.88153E-006	-0.451082	9
	43	89	707.867	175.078	-107.034	1	205.203	-31.4395	2.80709E-006	-0.451071	9
	44	91	630.984	177.042	-118.203	1	212.875	-33.7293	3.10023E-006	-0.451083	9
	45	93	562.189	179.074	-130.628	1	221.656	-36.1094	3.12771E-006	-0.4511	9
	46	95	501.303	180.965	-144.54	1	231.603	-38.6148	2.87459E-006	-0.45109	9
	47	97	446.614	182.983	-160.108	1	243.141	-41.1856	2.81968E-006	-0.451084	9
	48	99	398.209	185.151	-177.369	1	256.4	-43.7702	2.73746E-006	-0.451081	9
	49	101	354.821	187.541	-196.684	1	271.765	-46.3631	2.59881E-006	-0.45109	9
	50	103	316.113	190.107	-218.305	1	289.478	-48.9497	2.61865E-006	-0.451083	9
	51	105	281.926	192.972	-242.228	1	309.698	-51.4573	3.05993E-006	-0.451087	9
	52	107	251.185	196	-269.052	1	332.874	-53.9273	2.68818E-006	-0.451094	9
	53	109	223.946	199.328	-298.841	1	359.218	-56.2966	2.57301E-006	-0.451091	9
	54	111	199.495	203.054	-332.379	1	389.496	-58.5788	2.73913E-006	-0.451089	9
	55	113	177.836	207.136	-369.609	1	423.693	-60.7329	2.75724E-006	-0.451096	9
	56	115	158.533	211.685	-411.086	1	462.388	-62.7543	2.7819E-006	-0.451091	9
	57	117	141.263	217.173	-457.715	1	506.623	-64.6169	3.15467E-006	-0.45109	9
	58	119	125.911	222.707	-509.309	1	555.873	-66.3815	2.68671E-006	-0.451093	9
	59	121	112.198	229.264	-567.28	1	611.857	-67.9941	2.8204E-006	-0.451095	9
	60	123	100.009	236.932	-631.888	1	674.847	-69.4461	2.79496E-006	-0.451091	9
	61	125	89.1164	245.358	-703.927	1	745.462	-70.7837	2.80635E-006	-0.45109	9
	62	127	79.4083	254.606	-784.412	1	824.698	-72.0175	2.68299E-006	-0.451099	9
	63	129	70.788	265.286	-873.517	1	912.912	-73.1066	2.78941E-006	-0.451093	9
	64	131	63.0971	278.071	-973.19	1	1012.14	-74.0537	2.52915E-006	-0.451092	9
	65	133	54.5476	297.331	-1115.85	1	1154.79	-75.0796	1.98098E-006	-0.451095	8
	66	135	50.0083	310.655	-1211.22	1	1250.43	-75.6148	1.78363E-006	-0.451097	8
	67	138	46.1675	324.354	-1306.39	1	1346.05	-76.0564	1.9065E-006	-0.451088	8
	68	140	40.0059	353.309	-1494.69	1	1535.88	-76.7007	2.08635E-006	-0.451095	8
	69	142	35.3046	382.751	-1681.02	1	1724.04	-77.173	2.05054E-006	-0.451086	8
	70	144	31.5793	420.766	-1867.83	1	1914.64	-77.3049	2.27027E-006	-0.451081	8
	71	146	28.5748	455.346	-2051.73	1	2101.65	-77.487	2.12975E-006	-0.451087	8
	72	148	24.9911	507.889	-2324.51	1	2379.35	-77.675	2.16297E-006	-0.451074	8
	73	151	22.2195	571.813	-2597.33	1	2659.53	-77.5842	2.02336E-006	-0.451082	8
	74	153	20.0011	627.885	-2860.01	1	2928.12	-77.6178	2.05314E-006	-0.451095	8
	75	155	17.6486	724.669	-3216.15	1	3296.78	-77.3021	2.22492E-006	-0.45109	8
	76	158	15.7934	819.013	-3566.66	1	3659.49	-77.0674	2.18142E-006	-0.451087	8
	77	160	14.2828	912.427	-3909.03	1	4014.1	-76.8615	2.00372E-006	-0.451096	8
	78	162	12.5002	1070.6	-4417	1	4544.89	-76.3753	1.78419E-006	-0.451097	8
	79	165	11.323	1214.24	-4835.8	1	4985.91	-75.9048	1.91498E-006	-0.451097	8
	80	167	9.9987	1410.33	-5409.34	1	5590.17	-75.3871	1.80758E-006	-0.451086	8
