EXPLAIN
TAG	EISPOT
TITLE	LABEL	Tomato_open	Test &Identifier
DATE	LABEL	5/15/2006	Date
TIME	LABEL	16:02:47	Time
NOTES	NOTES	1	&Notes...
	
PSTAT	PSTAT	300	Potentiostat
VDC	POTEN	1.00000E-001	T	DC &Voltage (V)
FREQINIT	QUANT	1.00000E+005	Initial Fre&q. (Hz)
FREQFINAL	QUANT	1.00000E+001	Final Fre&q. (Hz)
PTSPERDEC	QUANT	2.00000E+001	Points/&decade
VAC	QUANT	1.00000E+001	AC &Voltage (mV rms)
AREA	QUANT	1.00000E+000	&Area (cm²)
DENSITY	QUANT	7.87000E+000	&Density (gm/cm³)
EQUIV	QUANT	7.00000E+000	Equiv. &Wt
CONDIT	TWOPARAM	F	1.50000E+001	0.00000E+000	Conditionin&g	Time(s)	E(V)
DELAY	TWOPARAM	F	6.00000E+002	0.00000E+000	Init. De&lay	Time(s)	Stab.(mV/s)
SPEED	SELECTOR	1	&Optimize for:
ZGUESS	QUANT	1.00000E+002	E&stimated Z (ohms)
OCVCURVE	TABLE	39
	Pt	T	Vf	Vm	Ach	Over
	#	s	V vs. Ref.	V	V	bits
	0	0.258332	-5.50719E-001	4.12604E-006	-6.34000E-005	......
	1	0.516663	-5.53519E-001	4.12604E-006	1.36600E-004	......
	2	0.774994	-5.52669E-001	4.12604E-006	-1.63400E-004	......
	3	1.03333	-5.56769E-001	4.12604E-006	3.66000E-005	......
	4	1.29166	-5.55919E-001	4.12604E-006	-1.63400E-004	......
	5	1.54999	-5.57619E-001	4.12604E-006	3.66000E-005	......
	6	1.80832	-5.53670E-001	4.12604E-006	3.66000E-005	......
	7	2.06665	-5.48119E-001	4.12604E-006	2.36600E-004	......
	8	2.32498	-5.50969E-001	4.12604E-006	-1.63400E-004	......
	9	2.58332	-5.49969E-001	4.12604E-006	-6.34000E-005	......
	10	2.84165	-5.52819E-001	4.12604E-006	-1.63400E-004	......
	11	3.09998	-5.59420E-001	4.12604E-006	3.66000E-005	......
	12	3.35831	-5.57669E-001	4.12604E-006	-6.34000E-005	......
	13	3.61664	-5.58670E-001	4.12604E-006	1.36600E-004	......
	14	3.87497	-5.58869E-001	4.12604E-006	-1.63400E-004	......
	15	4.1333	-5.57620E-001	4.12604E-006	1.36600E-004	......
	16	4.39164	-5.61069E-001	4.12604E-006	-6.34000E-005	......
	17	4.64997	-5.60719E-001	4.12604E-006	2.36600E-004	......
	18	4.9083	-5.59370E-001	4.12604E-006	-1.63400E-004	......
	19	5.16663	-5.63370E-001	4.12604E-006	3.66000E-005	......
	20	5.42496	-5.67519E-001	4.12604E-006	-1.63400E-004	......
	21	5.68329	-5.67419E-001	4.12604E-006	1.36600E-004	......
	22	5.94162	-5.66619E-001	4.12604E-006	-2.63400E-004	......
	23	6.19996	-5.67469E-001	4.12604E-006	3.66000E-005	......
	24	6.45829	-5.67169E-001	4.12604E-006	-1.63400E-004	......
	25	6.71662	-5.59869E-001	4.12604E-006	3.66000E-005	......
	26	6.97495	-5.59969E-001	4.12604E-006	-1.63400E-004	......
	27	7.23328	-5.60769E-001	4.12604E-006	3.66000E-005	......
	28	7.49161	-5.58319E-001	4.12604E-006	-1.63400E-004	......
	29	7.74995	-5.58270E-001	4.12604E-006	3.66000E-005	......
	30	8.00828	-5.61819E-001	4.12604E-006	-1.63400E-004	......
	31	8.26661	-5.62819E-001	4.12604E-006	3.66000E-005	......
	32	8.52494	-5.63469E-001	4.12604E-006	-2.63400E-004	......
	33	8.78327	-5.62320E-001	4.12604E-006	3.66000E-005	......
	34	9.0416	-5.65870E-001	4.12604E-006	-6.34000E-005	......
	35	9.29993	-5.65269E-001	4.12604E-006	1.36600E-004	......
	36	9.5583	-5.55719E-001	4.12604E-006	-1.63400E-004	......
	37	9.8166	-5.61569E-001	4.12604E-006	3.36600E-004	......
	38	10.0749	-5.66220E-001	4.12604E-006	-6.34000E-005	......
EOC	QUANT	-0.56622	Open Circuit (V)
PSTATMODEL	IQUANT	32	Pstat Model
PSTATSECTION	LABEL	PStat0	Pstat Section
CTRLMODE	IQUANT	1	Control Mode
IESTAB	IQUANT	0	I/E Stability
CASPEED	IQUANT	1	Control Amp Speed
CONVENTION	IQUANT	1	Current Convention
ICHRANGE	IQUANT	2	Ich Range
ICHRANGEMODE	TOGGLE	F	Ich Auto Range
ICHOFFSETENABLE	TOGGLE	T	Ich Offset Enable
ICHOFFSET	QUANT	0	Ich Offset (V)
ICHFILTER	IQUANT	3	Ich Filter
VCHRANGE	IQUANT	2	Vch Range
VCHRANGEMODE	TOGGLE	F	Vch Auto Range
VCHOFFSETENABLE	TOGGLE	T	Vch Offset Enable
VCHOFFSET	QUANT	0	Vch Offset (V)
VCHFILTER	IQUANT	3	Vch Filter
ACHRANGE	IQUANT	0	Ach Range
IERANGELOWERLIMIT	IQUANT	3	I/E Range Lower Limit
IERANGEMODE	TOGGLE	F	I/E AutoRange
IERANGE	IQUANT	11	I/E Range
POSFEEDENABLE	TOGGLE	F	Positive Feedback IR Comp
POSFEEDRESISTANCE	QUANT	0	Positive Feedback Resistance (ohm)
FC350IDIVISOR	IQUANT	0	FC350 I Divisor
FC350VRANGE	IQUANT	0	FC350 V Range
FRAMEWORKVERSION	QUANT	4.35	Framework Version
ZCURVE	TABLE
	Pt	Time	Freq	Zreal	Zimag	Zsig	Zmod	Zphz	Idc	Vdc	IERange
	#	s	Hz	ohm	ohm	V	ohm	°	A	V	#
	0	5	100007	153.568	-0.778082	1	153.57	-0.290297	5.17173E-006	-0.466183	9
	1	7	89134.1	152.881	-0.97434	1	152.884	-0.365151	5.06662E-006	-0.466187	9
	2	9	79433.6	152.546	-1.34472	1	152.551	-0.50506	4.97592E-006	-0.466194	9
	3	11	70800.8	152.31	-1.75604	1	152.32	-0.660558	4.84476E-006	-0.466204	9
	4	13	63105.5	152.039	-1.83401	1	152.05	-0.691111	4.54046E-006	-0.466179	9
	5	14	56243.5	151.869	-2.32603	1	151.887	-0.877475	4.44382E-006	-0.466207	9
	6	16	50123.7	151.992	-2.82633	1	152.018	-1.06531	4.29262E-006	-0.466198	9
	7	18	44681	151.807	-2.9799	1	151.836	-1.12454	3.79734E-006	-0.466182	9
	8	20	39811.2	151.695	-3.68361	1	151.739	-1.39104	3.86377E-006	-0.466176	9
	9	22	35488.3	151.711	-3.91609	1	151.762	-1.47863	3.62076E-006	-0.466183	9
	10	24	31634.1	151.937	-4.52636	1	152.005	-1.70639	3.65876E-006	-0.466207	9
	11	26	28173.1	151.909	-4.87302	1	151.987	-1.83734	3.41768E-006	-0.466192	9
	12	28	25123.7	151.891	-5.38719	1	151.986	-2.03129	3.41718E-006	-0.466211	9
	13	30	22389.3	152.035	-5.96906	1	152.153	-2.24833	3.28673E-006	-0.466208	9
	14	32	19954.4	152.562	-6.57852	1	152.704	-2.46909	3.43621E-006	-0.466209	9
	15	34	17778.2	152.579	-7.47374	1	152.762	-2.80426	3.38259E-006	-0.466196	9
	16	36	15852.9	152.826	-8.32354	1	153.053	-3.11748	2.89348E-006	-0.466169	9
	17	38	14122.3	153.111	-9.05186	1	153.378	-3.38336	2.90849E-006	-0.466194	9
	18	40	12587.2	153.4	-9.8461	1	153.715	-3.67256	3.02335E-006	-0.466195	9
	19	42	11221.1	153.686	-10.9083	1	154.072	-4.05991	3.00495E-006	-0.466192	9
	20	44	9998.2	153.81	-11.809	1	154.263	-4.39033	3.0719E-006	-0.46618	9
	21	46	8912.76	154.409	-13.2762	1	154.978	-4.91426	2.89831E-006	-0.466181	9
	22	48	7942.6	154.619	-14.4117	1	155.29	-5.32503	2.78974E-006	-0.466189	9
	23	50	7078.05	155.057	-16.0045	1	155.881	-5.89303	2.85788E-006	-0.46619	9
	24	52	6311.1	155.475	-17.6151	1	156.47	-6.46396	2.88924E-006	-0.466181	9
	25	54	5622.14	155.7	-19.206	1	156.88	-7.03208	2.58349E-006	-0.466195	9
	26	56	5011.18	156.391	-21.1265	1	157.811	-7.69337	2.64357E-006	-0.466185	9
	27	58	4465.21	157.073	-23.1619	1	158.771	-8.38836	2.59092E-006	-0.46617	9
	28	60	3980.93	157.779	-25.6088	1	159.844	-9.21916	2.74948E-006	-0.4662	9
	29	62	3548.18	158.236	-28.2896	1	160.745	-10.1363	2.43467E-006	-0.46619	9
	30	64	3162.67	159.289	-31.1372	1	162.304	-11.0605	2.66768E-006	-0.466181	9
	31	66	2819.01	159.669	-34.1069	1	163.271	-12.0578	2.60921E-006	-0.466166	9
	32	68	2511.16	160.986	-37.4284	1	165.279	-13.0885	2.53368E-006	-0.466171	9
	33	70	2238.63	162.04	-41.0361	1	167.156	-14.2111	2.64509E-006	-0.466178	9
	34	72	1995.37	163.231	-45.3459	1	169.413	-15.5254	2.66065E-006	-0.466182	9
	35	74	1778.51	163.941	-49.6704	1	171.3	-16.8556	2.52954E-006	-0.466176	9
	36	76	1584.49	165.329	-54.5947	1	174.11	-18.2741	2.64074E-006	-0.466183	9
	37	78	1412.76	166.235	-59.7508	1	176.647	-19.7703	2.46759E-006	-0.466194	9
	38	80	1259.04	167.52	-65.753	1	179.962	-21.4305	2.42667E-006	-0.46617	9
	39	82	1121.63	168.982	-72.3911	1	183.835	-23.1901	2.30256E-006	-0.466182	9
	40	84	999.95	170.66	-79.9964	1	188.478	-25.1147	2.44743E-006	-0.466172	9
	41	86	891.184	171.993	-87.8259	1	193.119	-27.0505	2.36551E-006	-0.466168	9
	42	87	794.163	173.678	-97.264	1	199.059	-29.25	2.56671E-006	-0.466164	9
	43	89	707.867	175.086	-106.987	1	205.186	-31.4272	2.61071E-006	-0.466146	9
	44	91	630.984	176.923	-117.927	1	212.623	-33.6851	2.55365E-006	-0.466171	9
	45	93	562.189	178.939	-131.006	1	221.77	-36.2089	2.60826E-006	-0.466168	9
	46	95	501.303	180.806	-144.552	1	231.487	-38.6418	2.53054E-006	-0.466163	9
	47	97	446.614	182.83	-160.131	1	243.041	-41.2133	2.5847E-006	-0.466167	9
	48	99	398.209	185.005	-177.378	1	256.3	-43.7943	2.4549E-006	-0.466164	9
	49	101	354.821	187.396	-196.708	1	271.682	-46.3886	2.47356E-006	-0.466173	9
	50	103	316.113	189.926	-218.286	1	289.346	-48.9742	2.42821E-006	-0.46617	9
	51	105	281.926	192.709	-242.176	1	309.493	-51.4893	2.30274E-006	-0.466172	9
	52	107	251.185	195.793	-269.036	1	332.739	-53.9546	2.45757E-006	-0.466176	9
	53	109	223.946	199.09	-298.887	1	359.124	-56.3322	2.3496E-006	-0.466182	9
	54	111	199.495	202.785	-332.379	1	389.355	-58.6125	2.3617E-006	-0.466177	9
	55	113	177.836	206.773	-369.599	1	423.508	-60.775	2.21817E-006	-0.466168	9
	56	115	158.533	211.338	-411.097	1	462.238	-62.793	2.16056E-006	-0.466175	9
	57	117	141.263	216.382	-457.599	1	506.18	-64.6923	2.26718E-006	-0.466173	9
	58	119	125.911	222.274	-509.512	1	555.885	-66.4308	2.57739E-006	-0.46617	9
	59	121	112.198	228.895	-567.368	1	611.8	-68.0292	2.57442E-006	-0.466175	9
	60	124	100.009	236.082	-631.762	1	674.431	-69.5099	2.5E-006	-0.466175	9
	61	126	89.1164	244.393	-703.808	1	745.032	-70.8508	2.55901E-006	-0.46617	9
	62	128	79.4083	253.75	-784.401	1	824.423	-72.0739	2.38682E-006	-0.466182	9
	63	130	70.788	264.828	-873.728	1	912.981	-73.1379	2.52161E-006	-0.466181	9
	64	132	63.0971	277.709	-973.4	1	1012.24	-74.0767	2.58978E-006	-0.46618	9
	65	134	54.5476	296.468	-1115.95	1	1154.66	-75.1222	1.96367E-006	-0.46619	8
	66	136	50.0083	309.552	-1210.61	1	1249.56	-75.6568	1.85815E-006	-0.466184	8
	67	138	46.1675	323.056	-1305.59	1	1344.97	-76.1019	1.88754E-006	-0.466185	8
	68	140	40.0059	351.838	-1493.25	1	1534.14	-76.7419	1.80392E-006	-0.466188	8
	69	142	35.3046	379.837	-1679.78	1	1722.19	-77.2584	1.66319E-006	-0.466187	8
	70	145	31.5793	414.134	-1866.62	1	1912.01	-77.4908	1.79622E-006	-0.466183	8
	71	147	28.5748	450.081	-2050.38	1	2099.2	-77.6193	1.80601E-006	-0.466181	8
	72	149	24.9911	507.358	-2325.38	1	2380.08	-77.6919	1.90753E-006	-0.466181	8
	73	151	22.2195	558.046	-2593.05	1	2652.42	-77.8547	1.70873E-006	-0.466185	8
	74	153	20.0011	617.382	-2864.01	1	2929.79	-77.8351	1.75542E-006	-0.466184	8
	75	156	17.6486	706.63	-3217.53	1	3294.21	-77.6134	1.91024E-006	-0.466186	8
	76	158	15.7934	812.73	-3559.63	1	3651.23	-77.1388	2.05853E-006	-0.466183	8
	77	160	14.2828	902.196	-3908.16	1	4010.95	-77.001	1.9486E-006	-0.466182	8
	78	162	12.5002	1093.13	-4408.34	1	4541.85	-76.0733	2.03002E-006	-0.46619	8
	79	165	11.323	1279.98	-4802.7	1	4970.34	-75.0768	2.27103E-006	-0.466189	8
	80	168	9.9987	1447.53	-5400.81	1	5591.43	-74.9961	1.79392E-006	-0.466192	8
