EXPLAIN
TAG	EISPOT
TITLE	LABEL	Tomato_open	Test &Identifier
DATE	LABEL	5/15/2006	Date
TIME	LABEL	15:57:44	Time
NOTES	NOTES	1	&Notes...
	
PSTAT	PSTAT	300	Potentiostat
VDC	POTEN	1.00000E-001	T	DC &Voltage (V)
FREQINIT	QUANT	1.00000E+005	Initial Fre&q. (Hz)
FREQFINAL	QUANT	1.00000E+001	Final Fre&q. (Hz)
PTSPERDEC	QUANT	2.00000E+001	Points/&decade
VAC	QUANT	1.00000E+001	AC &Voltage (mV rms)
AREA	QUANT	1.00000E+000	&Area (cm²)
DENSITY	QUANT	7.87000E+000	&Density (gm/cm³)
EQUIV	QUANT	7.00000E+000	Equiv. &Wt
CONDIT	TWOPARAM	F	1.50000E+001	0.00000E+000	Conditionin&g	Time(s)	E(V)
DELAY	TWOPARAM	F	6.00000E+002	0.00000E+000	Init. De&lay	Time(s)	Stab.(mV/s)
SPEED	SELECTOR	1	&Optimize for:
ZGUESS	QUANT	1.00000E+002	E&stimated Z (ohms)
OCVCURVE	TABLE	39
	Pt	T	Vf	Vm	Ach	Over
	#	s	V vs. Ref.	V	V	bits
	0	0.258332	-5.55169E-001	3.79954E-006	3.66000E-005	......
	1	0.516663	-5.54119E-001	3.79954E-006	1.36600E-004	......
	2	0.774994	-5.53819E-001	3.79954E-006	-6.34000E-005	......
	3	1.03333	-5.58069E-001	3.79954E-006	-6.34000E-005	......
	4	1.29166	-5.58169E-001	3.79954E-006	-6.34000E-005	......
	5	1.54999	-5.56470E-001	3.79954E-006	3.66000E-005	......
	6	1.80832	-5.51120E-001	3.79954E-006	-1.63400E-004	......
	7	2.06665	-5.53970E-001	3.79954E-006	3.66000E-005	......
	8	2.32498	-5.57169E-001	3.79954E-006	-2.63400E-004	......
	9	2.58332	-5.58469E-001	3.79954E-006	3.66000E-005	......
	10	2.84165	-5.58319E-001	3.79954E-006	-1.63400E-004	......
	11	3.09998	-5.55519E-001	3.79954E-006	-6.34000E-005	......
	12	3.35831	-5.58069E-001	3.79954E-006	-1.63400E-004	......
	13	3.61664	-5.57920E-001	3.79954E-006	3.66000E-005	......
	14	3.87497	-5.56069E-001	3.79954E-006	-1.63400E-004	......
	15	4.1333	-5.55019E-001	3.79954E-006	3.66000E-005	......
	16	4.39164	-5.55019E-001	3.79954E-006	-1.63400E-004	......
	17	4.64997	-5.58069E-001	3.79954E-006	3.66000E-005	......
	18	4.9083	-5.58019E-001	3.79954E-006	-1.63400E-004	......
	19	5.16663	-5.56369E-001	3.79954E-006	3.66000E-005	......
	20	5.42496	-5.51669E-001	3.79954E-006	-2.63400E-004	......
	21	5.68329	-5.47170E-001	3.79954E-006	3.66000E-005	......
	22	5.94162	-5.43519E-001	3.79954E-006	-2.63400E-004	......
	23	6.19996	-5.47269E-001	3.79954E-006	3.66000E-005	......
	24	6.45829	-5.51369E-001	3.79954E-006	-1.63400E-004	......
	25	6.71662	-5.52269E-001	3.79954E-006	3.66000E-005	......
	26	6.97495	-5.54719E-001	3.79954E-006	-1.63400E-004	......
	27	7.23328	-5.57669E-001	3.79954E-006	3.66000E-005	......
	28	7.49161	-5.60519E-001	3.79954E-006	-6.34000E-005	......
	29	7.74995	-5.60619E-001	3.79954E-006	-1.63400E-004	......
	30	8.00828	-5.59369E-001	3.79954E-006	3.66000E-005	......
	31	8.26661	-5.58670E-001	3.79954E-006	3.66000E-005	......
	32	8.52494	-5.62019E-001	3.79954E-006	-1.63400E-004	......
	33	8.78327	-5.61870E-001	3.79954E-006	2.36600E-004	......
	34	9.0416	-5.59969E-001	3.79954E-006	-1.63400E-004	......
	35	9.29993	-5.58669E-001	3.79954E-006	3.66000E-005	......
	36	9.5583	-5.62220E-001	3.79954E-006	-1.63400E-004	......
	37	9.8166	-5.65820E-001	3.79954E-006	3.66000E-005	......
	38	10.0749	-5.65269E-001	3.79954E-006	-1.63400E-004	......
EOC	QUANT	-0.565269	Open Circuit (V)
PSTATMODEL	IQUANT	32	Pstat Model
PSTATSECTION	LABEL	PStat0	Pstat Section
CTRLMODE	IQUANT	1	Control Mode
IESTAB	IQUANT	0	I/E Stability
CASPEED	IQUANT	1	Control Amp Speed
CONVENTION	IQUANT	1	Current Convention
ICHRANGE	IQUANT	2	Ich Range
ICHRANGEMODE	TOGGLE	F	Ich Auto Range
ICHOFFSETENABLE	TOGGLE	T	Ich Offset Enable
ICHOFFSET	QUANT	0	Ich Offset (V)
ICHFILTER	IQUANT	3	Ich Filter
VCHRANGE	IQUANT	2	Vch Range
VCHRANGEMODE	TOGGLE	F	Vch Auto Range
VCHOFFSETENABLE	TOGGLE	T	Vch Offset Enable
VCHOFFSET	QUANT	0	Vch Offset (V)
VCHFILTER	IQUANT	3	Vch Filter
ACHRANGE	IQUANT	0	Ach Range
IERANGELOWERLIMIT	IQUANT	3	I/E Range Lower Limit
IERANGEMODE	TOGGLE	F	I/E AutoRange
IERANGE	IQUANT	11	I/E Range
POSFEEDENABLE	TOGGLE	F	Positive Feedback IR Comp
POSFEEDRESISTANCE	QUANT	0	Positive Feedback Resistance (ohm)
FC350IDIVISOR	IQUANT	0	FC350 I Divisor
FC350VRANGE	IQUANT	0	FC350 V Range
FRAMEWORKVERSION	QUANT	4.35	Framework Version
ZCURVE	TABLE
	Pt	Time	Freq	Zreal	Zimag	Zsig	Zmod	Zphz	Idc	Vdc	IERange
	#	s	Hz	ohm	ohm	V	ohm	°	A	V	#
	0	4	100007	153.334	-0.919749	1	153.337	-0.343675	4.66999E-006	-0.465086	9
	1	6	89134.1	152.904	-0.909717	1	152.907	-0.340882	4.16757E-006	-0.46506	9
	2	8	79433.6	152.532	-1.35714	1	152.538	-0.509771	4.44713E-006	-0.465108	9
	3	10	70800.8	152.165	-1.53047	1	152.173	-0.576258	3.76817E-006	-0.465073	9
	4	12	63105.5	152.082	-2.0871	1	152.096	-0.786253	3.91537E-006	-0.465101	9
	5	14	56243.5	151.89	-2.18569	1	151.905	-0.82443	3.77657E-006	-0.465086	9
	6	16	50123.7	151.866	-2.75332	1	151.891	-1.03865	4.28149E-006	-0.465107	9
	7	18	44681	151.73	-3.26236	1	151.765	-1.23174	4.06393E-006	-0.465101	9
	8	20	39811.2	151.497	-3.29291	1	151.533	-1.24517	3.99015E-006	-0.465071	9
	9	22	35488.3	151.722	-4.05561	1	151.776	-1.53118	3.74492E-006	-0.465091	9
	10	24	31634.1	151.881	-4.37983	1	151.944	-1.65179	3.72157E-006	-0.46507	9
	11	26	28173.1	151.901	-5.00322	1	151.983	-1.8865	3.64531E-006	-0.465079	9
	12	28	25123.7	152.054	-5.43896	1	152.151	-2.04859	3.32768E-006	-0.46508	9
	13	30	22389.3	152.016	-5.91354	1	152.131	-2.22773	3.51871E-006	-0.465075	9
	14	32	19954.4	152.334	-6.72494	1	152.483	-2.52773	3.74245E-006	-0.465071	9
	15	34	17778.2	152.482	-7.47015	1	152.665	-2.8047	3.61099E-006	-0.465078	9
	16	36	15852.9	152.675	-8.0216	1	152.886	-3.00757	3.37474E-006	-0.465068	9
	17	38	14122.3	152.922	-9.04657	1	153.189	-3.38557	3.51121E-006	-0.465069	9
	18	40	12587.2	153.274	-9.9811	1	153.598	-3.72582	3.33045E-006	-0.465081	9
	19	42	11221.1	153.399	-10.9875	1	153.792	-4.09692	3.2459E-006	-0.465077	9
	20	44	9998.2	153.744	-11.9875	1	154.211	-4.45837	3.01096E-006	-0.465065	9
	21	46	8912.76	154.218	-13.138	1	154.777	-4.86931	2.9651E-006	-0.465058	9
	22	48	7942.6	154.387	-14.4162	1	155.059	-5.33461	3.07312E-006	-0.465066	9
	23	50	7078.05	154.932	-15.9767	1	155.754	-5.88755	3.13877E-006	-0.465074	9
	24	52	6311.1	155.486	-17.5837	1	156.477	-6.45208	3.06998E-006	-0.46507	9
	25	54	5622.14	155.673	-19.2534	1	156.859	-7.05043	2.93001E-006	-0.465079	9
	26	56	5011.18	156.314	-21.1701	1	157.741	-7.71283	2.96532E-006	-0.465068	9
	27	58	4465.21	157.099	-23.3612	1	158.827	-8.45811	2.73403E-006	-0.465068	9
	28	60	3980.93	157.59	-25.5636	1	159.65	-9.21399	2.62882E-006	-0.465068	9
	29	62	3548.18	158.573	-28.2721	1	161.073	-10.1091	2.65487E-006	-0.465095	9
	30	64	3162.67	159.238	-31.0535	1	162.237	-11.0349	2.80137E-006	-0.465074	9
	31	66	2819.01	159.937	-33.7697	1	163.463	-11.9226	2.80154E-006	-0.465093	9
	32	68	2511.16	160.869	-37.4085	1	165.161	-13.0909	2.73163E-006	-0.465083	9
	33	70	2238.63	161.818	-41.0796	1	166.951	-14.2444	2.64135E-006	-0.465077	9
	34	72	1995.37	162.879	-45.0536	1	168.995	-15.4619	2.49959E-006	-0.46507	9
	35	74	1778.51	163.875	-49.4008	1	171.159	-16.7757	2.74463E-006	-0.465076	9
	36	75	1584.49	165.052	-54.3037	1	173.756	-18.2117	2.78562E-006	-0.465077	9
	37	77	1412.76	166.407	-59.5165	1	176.73	-19.6799	2.65663E-006	-0.465051	9
	38	79	1259.04	167.446	-65.9649	1	179.971	-21.5018	2.48471E-006	-0.46507	9
	39	81	1121.63	169.091	-72.4416	1	183.955	-23.1911	2.50946E-006	-0.465074	9
	40	83	999.95	170.447	-79.7406	1	188.177	-25.0717	2.44092E-006	-0.465075	9
	41	85	891.184	171.763	-87.6849	1	192.85	-27.0443	2.64263E-006	-0.465079	9
	42	87	794.163	173.357	-97.128	1	198.712	-29.2609	2.53909E-006	-0.465066	9
	43	89	707.867	175.094	-106.817	1	205.104	-31.3855	2.70276E-006	-0.465079	9
	44	91	630.984	176.91	-117.99	1	212.647	-33.7012	2.43848E-006	-0.465066	9
	45	93	562.189	179.143	-130.791	1	221.807	-36.1328	2.51587E-006	-0.46505	9
	46	95	501.303	180.766	-144.4	1	231.36	-38.6187	2.48684E-006	-0.465072	9
	47	97	446.614	182.822	-159.942	1	242.91	-41.1812	2.54587E-006	-0.465065	9
	48	99	398.209	185.003	-177.202	1	256.177	-43.7661	2.66423E-006	-0.465074	9
	49	101	354.821	187.375	-196.474	1	271.498	-46.358	2.59013E-006	-0.465064	9
	50	103	316.113	189.96	-218.085	1	289.216	-48.9429	2.61088E-006	-0.465069	9
	51	105	281.926	192.746	-241.926	1	309.32	-51.4551	2.60676E-006	-0.465072	9
	52	107	251.185	195.825	-268.784	1	332.554	-53.9245	2.72792E-006	-0.465067	9
	53	109	223.946	199.142	-298.527	1	358.853	-56.2935	2.45763E-006	-0.465072	9
	54	111	199.495	202.77	-332	1	389.024	-58.5854	2.22831E-006	-0.465064	9
	55	113	177.836	206.9	-369.161	1	423.187	-60.7312	2.25723E-006	-0.465068	9
	56	115	158.533	211.428	-410.613	1	461.849	-62.7558	2.39827E-006	-0.465065	9
	57	117	141.263	216.613	-457.137	1	505.861	-64.6462	2.44406E-006	-0.465072	9
	58	119	125.911	222.508	-508.893	1	555.412	-66.3832	2.57635E-006	-0.465072	9
	59	121	112.198	228.954	-566.674	1	611.179	-67.9998	2.60941E-006	-0.465068	9
	60	123	100.009	236.351	-630.973	1	673.787	-69.4649	2.61014E-006	-0.465073	9
	61	126	89.1164	245.087	-703.029	1	744.525	-70.7807	2.62945E-006	-0.465067	9
	62	128	79.4083	254.508	-783.351	1	823.658	-72.0012	2.5001E-006	-0.465073	9
	63	130	70.788	265.162	-872.764	1	912.156	-73.1002	2.42864E-006	-0.465064	9
	64	132	63.0971	278.301	-972.5	1	1011.54	-74.0304	2.45869E-006	-0.465073	9
	65	134	54.5476	298.261	-1114.43	1	1153.66	-75.0168	1.97091E-006	-0.465088	8
	66	136	50.0083	312.051	-1209.26	1	1248.87	-75.5303	2.00177E-006	-0.465082	8
	67	138	46.1675	326.271	-1304.1	1	1344.3	-75.9537	1.80399E-006	-0.465079	8
	68	140	40.0059	354.034	-1491.75	1	1533.18	-76.6491	1.75141E-006	-0.465085	8
	69	142	35.3046	382.202	-1678.02	1	1720.99	-77.1686	1.60766E-006	-0.465084	8
	70	145	31.5793	413.827	-1862.21	1	1907.63	-77.4711	1.77159E-006	-0.465093	8
	71	147	28.5748	445.475	-2045.25	1	2093.2	-77.7123	1.73515E-006	-0.465089	8
	72	149	24.9911	500.02	-2321.2	1	2374.44	-77.8434	1.61259E-006	-0.465093	8
	73	151	22.2195	573.571	-2593.48	1	2656.14	-77.5293	1.94704E-006	-0.465096	8
	74	153	20.0011	620.568	-2858.28	1	2924.87	-77.7505	1.77048E-006	-0.465092	8
	75	156	17.6486	697.053	-3219.12	1	3293.73	-77.7821	1.51201E-006	-0.465093	8
	76	158	15.7934	773.342	-3554.57	1	3637.72	-77.7258	1.47581E-006	-0.465087	8
	77	160	14.2828	901.974	-3903.07	1	4005.93	-76.9877	1.66449E-006	-0.465088	8
	78	162	12.5002	1046.26	-4426.42	1	4548.39	-76.7012	1.56529E-006	-0.465089	8
	79	165	11.323	1239.84	-4878.44	1	5033.52	-75.7403	1.87176E-006	-0.465095	8
	80	168	9.9987	1426.85	-5399.23	1	5584.59	-75.1969	1.7646E-006	-0.46508	8
