EXPLAIN
TAG	EISPOT
TITLE	LABEL	Tomato_open	Test &Identifier
DATE	LABEL	5/15/2006	Date
TIME	LABEL	15:52:42	Time
NOTES	NOTES	1	&Notes...
	
PSTAT	PSTAT	300	Potentiostat
VDC	POTEN	1.00000E-001	T	DC &Voltage (V)
FREQINIT	QUANT	1.00000E+005	Initial Fre&q. (Hz)
FREQFINAL	QUANT	1.00000E+001	Final Fre&q. (Hz)
PTSPERDEC	QUANT	2.00000E+001	Points/&decade
VAC	QUANT	1.00000E+001	AC &Voltage (mV rms)
AREA	QUANT	1.00000E+000	&Area (cm²)
DENSITY	QUANT	7.87000E+000	&Density (gm/cm³)
EQUIV	QUANT	7.00000E+000	Equiv. &Wt
CONDIT	TWOPARAM	F	1.50000E+001	0.00000E+000	Conditionin&g	Time(s)	E(V)
DELAY	TWOPARAM	F	6.00000E+002	0.00000E+000	Init. De&lay	Time(s)	Stab.(mV/s)
SPEED	SELECTOR	1	&Optimize for:
ZGUESS	QUANT	1.00000E+002	E&stimated Z (ohms)
OCVCURVE	TABLE	39
	Pt	T	Vf	Vm	Ach	Over
	#	s	V vs. Ref.	V	V	bits
	0	0.258332	-5.68219E-001	2.84804E-006	3.66000E-005	......
	1	0.516663	-5.67270E-001	2.84804E-006	-1.63400E-004	......
	2	0.774994	-5.68469E-001	2.84804E-006	3.66000E-005	......
	3	1.03333	-5.70520E-001	2.84804E-006	-1.63400E-004	......
	4	1.29166	-5.71369E-001	2.84804E-006	3.66000E-005	......
	5	1.54999	-5.71920E-001	2.84804E-006	-1.63400E-004	......
	6	1.80832	-5.66669E-001	2.84804E-006	3.66000E-005	......
	7	2.06665	-5.64070E-001	2.84804E-006	-6.34000E-005	......
	8	2.32498	-5.64669E-001	2.84804E-006	1.36600E-004	......
	9	2.58332	-5.66469E-001	2.84804E-006	-1.63400E-004	......
	10	2.84165	-5.65919E-001	2.84804E-006	3.66000E-005	......
	11	3.09998	-5.66019E-001	2.84804E-006	-1.63400E-004	......
	12	3.35831	-5.67019E-001	2.84804E-006	3.66000E-005	......
	13	3.61664	-5.68269E-001	2.84804E-006	-1.63400E-004	......
	14	3.87497	-5.69919E-001	2.84804E-006	3.66000E-005	......
	15	4.1333	-5.71069E-001	2.84804E-006	-1.63400E-004	......
	16	4.39164	-5.71869E-001	2.84804E-006	1.36600E-004	......
	17	4.64997	-5.71019E-001	2.84804E-006	-1.63400E-004	......
	18	4.9083	-5.69019E-001	2.84804E-006	1.36600E-004	......
	19	5.16663	-5.68119E-001	2.84804E-006	-1.63400E-004	......
	20	5.42496	-5.69119E-001	2.84804E-006	3.66000E-005	......
	21	5.68329	-5.69219E-001	2.84804E-006	-2.63400E-004	......
	22	5.94162	-5.68869E-001	2.84804E-006	3.66000E-005	......
	23	6.19996	-5.69169E-001	2.84804E-006	-1.63400E-004	......
	24	6.45829	-5.70269E-001	2.84804E-006	3.66000E-005	......
	25	6.71662	-5.70469E-001	2.84804E-006	-6.34000E-005	......
	26	6.97495	-5.70969E-001	2.84804E-006	3.66000E-005	......
	27	7.23328	-5.70120E-001	2.84804E-006	-6.34000E-005	......
	28	7.49161	-5.70669E-001	2.84804E-006	1.36600E-004	......
	29	7.74995	-5.71719E-001	2.84804E-006	-6.34000E-005	......
	30	8.00828	-5.71570E-001	2.84804E-006	3.66000E-005	......
	31	8.26661	-5.71869E-001	2.84804E-006	-1.63400E-004	......
	32	8.52494	-5.72569E-001	2.84804E-006	3.66000E-005	......
	33	8.78327	-5.73119E-001	2.84804E-006	-6.34000E-005	......
	34	9.0416	-5.71869E-001	2.84804E-006	1.36600E-004	......
	35	9.29993	-5.71369E-001	2.84804E-006	-6.34000E-005	......
	36	9.5583	-5.67270E-001	2.84804E-006	1.36600E-004	......
	37	9.8166	-5.68720E-001	2.84804E-006	-1.63400E-004	......
	38	10.0749	-5.69169E-001	2.84804E-006	3.66000E-005	......
EOC	QUANT	-0.569169	Open Circuit (V)
PSTATMODEL	IQUANT	32	Pstat Model
PSTATSECTION	LABEL	PStat0	Pstat Section
CTRLMODE	IQUANT	1	Control Mode
IESTAB	IQUANT	0	I/E Stability
CASPEED	IQUANT	1	Control Amp Speed
CONVENTION	IQUANT	1	Current Convention
ICHRANGE	IQUANT	2	Ich Range
ICHRANGEMODE	TOGGLE	F	Ich Auto Range
ICHOFFSETENABLE	TOGGLE	T	Ich Offset Enable
ICHOFFSET	QUANT	0	Ich Offset (V)
ICHFILTER	IQUANT	3	Ich Filter
VCHRANGE	IQUANT	2	Vch Range
VCHRANGEMODE	TOGGLE	F	Vch Auto Range
VCHOFFSETENABLE	TOGGLE	T	Vch Offset Enable
VCHOFFSET	QUANT	0	Vch Offset (V)
VCHFILTER	IQUANT	3	Vch Filter
ACHRANGE	IQUANT	0	Ach Range
IERANGELOWERLIMIT	IQUANT	3	I/E Range Lower Limit
IERANGEMODE	TOGGLE	F	I/E AutoRange
IERANGE	IQUANT	11	I/E Range
POSFEEDENABLE	TOGGLE	F	Positive Feedback IR Comp
POSFEEDRESISTANCE	QUANT	0	Positive Feedback Resistance (ohm)
FC350IDIVISOR	IQUANT	0	FC350 I Divisor
FC350VRANGE	IQUANT	0	FC350 V Range
FRAMEWORKVERSION	QUANT	4.35	Framework Version
ZCURVE	TABLE
	Pt	Time	Freq	Zreal	Zimag	Zsig	Zmod	Zphz	Idc	Vdc	IERange
	#	s	Hz	ohm	ohm	V	ohm	°	A	V	#
	0	4	100007	153.911	-0.627445	1	153.912	-0.233575	4.67451E-006	-0.46912	9
	1	6	89134.1	153.293	-0.87056	1	153.295	-0.325383	4.41285E-006	-0.469128	9
	2	8	79433.6	152.842	-1.33664	1	152.847	-0.501056	4.43912E-006	-0.469129	9
	3	10	70800.8	152.732	-1.75339	1	152.742	-0.657737	3.92574E-006	-0.469099	9
	4	12	63105.5	152.186	-1.8466	1	152.197	-0.695186	3.77424E-006	-0.469101	9
	5	14	56243.5	152.376	-2.20497	1	152.392	-0.829043	3.97723E-006	-0.4691	9
	6	16	50123.7	151.869	-2.80143	1	151.895	-1.05677	3.90731E-006	-0.469128	9
	7	18	44681	151.88	-2.98926	1	151.909	-1.12754	3.94788E-006	-0.469128	9
	8	20	39811.2	151.977	-3.55255	1	152.018	-1.33908	3.80249E-006	-0.469125	9
	9	22	35488.3	152.002	-4.21062	1	152.06	-1.58675	3.78298E-006	-0.469098	9
	10	24	31634.1	151.88	-4.62465	1	151.95	-1.74408	3.43913E-006	-0.469087	9
	11	25	28173.1	152.092	-4.95029	1	152.173	-1.8642	3.55293E-006	-0.469102	9
	12	27	25123.7	152.237	-5.44677	1	152.334	-2.04907	3.38776E-006	-0.469117	9
	13	29	22389.3	152.475	-6.12263	1	152.597	-2.29948	3.37545E-006	-0.469119	9
	14	31	19954.4	152.511	-6.70423	1	152.658	-2.51705	3.17378E-006	-0.469093	9
	15	33	17778.2	152.722	-7.57672	1	152.909	-2.84019	3.17928E-006	-0.469104	9
	16	35	15852.9	153.147	-8.17687	1	153.365	-3.05625	3.21602E-006	-0.469105	9
	17	37	14122.3	153.295	-8.99626	1	153.559	-3.3586	3.08196E-006	-0.469111	9
	18	39	12587.2	153.497	-9.93	1	153.818	-3.70141	3.38315E-006	-0.469109	9
	19	41	11221.1	153.516	-10.8259	1	153.898	-4.03378	3.53129E-006	-0.469093	9
	20	43	9998.2	154.009	-11.827	1	154.462	-4.39137	3.66309E-006	-0.469103	9
	21	45	8912.76	154.531	-13.2013	1	155.094	-4.88282	3.62256E-006	-0.469095	9
	22	47	7942.6	154.933	-14.4645	1	155.607	-5.33365	3.64656E-006	-0.469116	9
	23	49	7078.05	155.068	-15.7927	1	155.87	-5.81517	3.28737E-006	-0.469105	9
	24	51	6311.1	155.405	-17.5352	1	156.391	-6.43777	2.8096E-006	-0.469101	9
	25	53	5622.14	156.058	-19.2991	1	157.247	-7.04975	3.21193E-006	-0.469103	9
	26	55	5011.18	156.464	-21.1624	1	157.888	-7.70276	3.09007E-006	-0.469105	9
	27	57	4465.21	157.404	-23.2189	1	159.107	-8.39126	3.00538E-006	-0.469093	9
	28	59	3980.93	157.766	-25.5031	1	159.814	-9.18253	3.02243E-006	-0.469113	9
	29	61	3548.18	158.263	-27.981	1	160.718	-10.0263	3.15307E-006	-0.469079	9
	30	63	3162.67	159.45	-30.8161	1	162.401	-10.9384	3.30378E-006	-0.469086	9
	31	65	2819.01	159.857	-33.9387	1	163.42	-11.9863	2.70473E-006	-0.469093	9
	32	67	2511.16	160.818	-37.1153	1	165.045	-12.9958	2.80703E-006	-0.469098	9
	33	69	2238.63	161.988	-40.8553	1	167.061	-14.1555	2.46973E-006	-0.4691	9
	34	71	1995.37	162.781	-44.7897	1	168.83	-15.3844	2.47385E-006	-0.469114	9
	35	73	1778.51	163.977	-49.3939	1	171.255	-16.7636	2.37976E-006	-0.4691	9
	36	75	1584.49	165.283	-54.2877	1	173.97	-18.1829	2.0409E-006	-0.469099	9
	37	77	1412.76	166.743	-59.6627	1	177.095	-19.6879	2.13992E-006	-0.469091	9
	38	79	1259.04	168.008	-65.6782	1	180.39	-21.3516	2.24734E-006	-0.46911	9
	39	81	1121.63	169.226	-72.2369	1	183.999	-23.116	2.31515E-006	-0.469103	9
	40	83	999.95	170.534	-79.6333	1	188.21	-25.031	2.31549E-006	-0.469101	9
	41	85	891.184	172.186	-87.7625	1	193.262	-27.0078	2.33882E-006	-0.469104	9
	42	87	794.163	173.869	-96.646	1	198.924	-29.0677	3.00953E-006	-0.469106	9
	43	89	707.867	175.521	-106.786	1	205.453	-31.3161	2.73223E-006	-0.469093	9
	44	91	630.984	176.893	-117.846	1	212.553	-33.6715	2.62274E-006	-0.469103	9
	45	93	562.189	178.714	-130.117	1	221.063	-36.0574	2.6782E-006	-0.469131	9
	46	95	501.303	180.851	-144.035	1	231.199	-38.5348	2.68117E-006	-0.469102	9
	47	97	446.614	182.867	-159.562	1	242.695	-41.1066	2.41063E-006	-0.469108	9
	48	99	398.209	184.999	-176.747	1	255.859	-43.6933	2.09882E-006	-0.469099	9
	49	101	354.821	187.387	-196.004	1	271.167	-46.2875	2.10831E-006	-0.469108	9
	50	103	316.113	190.008	-217.57	1	288.859	-48.8686	2.42143E-006	-0.469102	9
	51	105	281.926	192.744	-241.355	1	308.873	-51.3894	2.38856E-006	-0.469105	9
	52	107	251.185	195.78	-268.145	1	332.012	-53.8658	2.25468E-006	-0.469108	9
	53	109	223.946	199.098	-297.879	1	358.291	-56.2419	2.20242E-006	-0.469104	9
	54	111	199.495	202.744	-331.314	1	388.425	-58.5359	1.97732E-006	-0.469108	9
	55	113	177.836	206.756	-368.371	1	422.428	-60.6957	1.88413E-006	-0.469113	9
	56	115	158.533	211.28	-409.798	1	461.057	-62.7257	1.93873E-006	-0.469101	9
	57	117	141.263	216.367	-456.059	1	504.782	-64.619	2.00057E-006	-0.469105	9
	58	119	125.911	222.137	-507.787	1	554.249	-66.3725	2.02572E-006	-0.469099	9
	59	121	112.198	228.584	-565.611	1	610.054	-67.9945	1.9829E-006	-0.4691	9
	60	123	100.009	235.763	-629.804	1	672.485	-69.4769	1.94843E-006	-0.469109	9
	61	125	89.1164	244.075	-701.571	1	742.815	-70.8173	2.10899E-006	-0.4691	9
	62	127	79.4083	253.617	-781.798	1	821.906	-72.0268	2.07889E-006	-0.469103	9
	63	129	70.788	265.523	-870.893	1	910.471	-73.0443	2.31489E-006	-0.469094	9
	64	131	63.0971	278.4	-970.65	1	1009.78	-73.9961	2.45471E-006	-0.4691	9
	65	133	54.5476	298.664	-1111.82	1	1151.24	-74.9639	2.15263E-006	-0.469111	8
	66	135	50.0083	312.839	-1206.35	1	1246.26	-75.462	2.23853E-006	-0.469115	8
	67	137	46.1675	327.132	-1299.09	1	1339.65	-75.8659	2.36093E-006	-0.469109	8
	68	140	40.0059	361.296	-1486.91	1	1530.18	-76.3427	2.8239E-006	-0.469112	8
	69	142	35.3046	393.673	-1672.61	1	1718.31	-76.7557	2.35905E-006	-0.469119	8
	70	144	31.5793	419.76	-1858.64	1	1905.45	-77.2737	2.06269E-006	-0.469112	8
	71	146	28.5748	453.53	-2036.43	1	2086.32	-77.4447	1.97937E-006	-0.46911	8
	72	148	24.9911	512.548	-2309.66	1	2365.85	-77.488	2.05367E-006	-0.469122	8
	73	150	22.2195	560.291	-2586.74	1	2646.73	-77.7785	1.68636E-006	-0.469119	8
	74	153	20.0011	629.5	-2850.43	1	2919.11	-77.5465	1.8591E-006	-0.469115	8
	75	155	17.6486	732.554	-3194.61	1	3277.52	-77.0848	1.9238E-006	-0.469114	8
	76	157	15.7934	832.515	-3540.67	1	3637.23	-76.7684	1.96698E-006	-0.469108	8
	77	159	14.2828	928.857	-3875.54	1	3985.3	-76.5221	1.55219E-006	-0.469115	8
	78	162	12.5002	1034.53	-4416.95	1	4536.49	-76.8179	1.29578E-006	-0.46912	8
	79	165	11.323	1158.03	-4820.56	1	4957.7	-76.4919	1.29294E-006	-0.469114	8
	80	167	9.9987	1361.54	-5369.17	1	5539.12	-75.7706	1.34097E-006	-0.469116	8
