EXPLAIN
TAG	EISPOT
TITLE	LABEL	Tomato_open	Test &Identifier
DATE	LABEL	5/15/2006	Date
TIME	LABEL	16:32:19	Time
NOTES	NOTES	1	&Notes...
	
PSTAT	PSTAT	300	Potentiostat
VDC	POTEN	1.00000E-001	T	DC &Voltage (V)
FREQINIT	QUANT	1.00000E+005	Initial Fre&q. (Hz)
FREQFINAL	QUANT	1.00000E+001	Final Fre&q. (Hz)
PTSPERDEC	QUANT	2.00000E+001	Points/&decade
VAC	QUANT	1.00000E+001	AC &Voltage (mV rms)
AREA	QUANT	1.00000E+000	&Area (cm²)
DENSITY	QUANT	7.87000E+000	&Density (gm/cm³)
EQUIV	QUANT	7.00000E+000	Equiv. &Wt
CONDIT	TWOPARAM	F	1.50000E+001	0.00000E+000	Conditionin&g	Time(s)	E(V)
DELAY	TWOPARAM	F	6.00000E+002	0.00000E+000	Init. De&lay	Time(s)	Stab.(mV/s)
SPEED	SELECTOR	1	&Optimize for:
ZGUESS	QUANT	1.00000E+002	E&stimated Z (ohms)
OCVCURVE	TABLE	39
	Pt	T	Vf	Vm	Ach	Over
	#	s	V vs. Ref.	V	V	bits
	0	0.258332	-5.37069E-001	4.59074E-006	-6.34000E-005	......
	1	0.516663	-5.32969E-001	4.59074E-006	3.66000E-005	......
	2	0.774994	-5.34369E-001	4.59074E-006	-1.63400E-004	......
	3	1.03333	-5.33069E-001	4.59074E-006	-6.34000E-005	......
	4	1.29166	-5.27869E-001	4.59074E-006	-1.63400E-004	......
	5	1.54999	-5.31869E-001	4.59074E-006	3.66000E-005	......
	6	1.80832	-5.18070E-001	4.59074E-006	-1.63400E-004	......
	7	2.06665	-5.17469E-001	4.59074E-006	3.66000E-005	......
	8	2.32498	-5.30169E-001	4.59074E-006	-1.63400E-004	......
	9	2.58332	-5.36519E-001	4.59074E-006	3.66000E-005	......
	10	2.84165	-5.35169E-001	4.59074E-006	-2.63400E-004	......
	11	3.09998	-5.40869E-001	4.59074E-006	3.66000E-005	......
	12	3.35831	-5.37870E-001	4.59074E-006	-1.63400E-004	......
	13	3.61664	-5.40519E-001	4.59074E-006	3.66000E-005	......
	14	3.87497	-5.43920E-001	4.59074E-006	-6.34000E-005	......
	15	4.1333	-5.41869E-001	4.59074E-006	3.66000E-005	......
	16	4.39164	-5.45619E-001	4.59074E-006	-1.63400E-004	......
	17	4.64997	-5.43419E-001	4.59074E-006	3.66000E-005	......
	18	4.9083	-5.35869E-001	4.59074E-006	-6.34000E-005	......
	19	5.16663	-5.37120E-001	4.59074E-006	-6.34000E-005	......
	20	5.42496	-5.34620E-001	4.59074E-006	-1.63400E-004	......
	21	5.68329	-5.36669E-001	4.59074E-006	1.36600E-004	......
	22	5.94162	-5.40019E-001	4.59074E-006	-6.34000E-005	......
	23	6.19996	-5.38870E-001	4.59074E-006	3.66000E-005	......
	24	6.45829	-5.45469E-001	4.59074E-006	-1.63400E-004	......
	25	6.71662	-5.44270E-001	4.59074E-006	-6.34000E-005	......
	26	6.97495	-5.40869E-001	4.59074E-006	-6.34000E-005	......
	27	7.23328	-5.40819E-001	4.59074E-006	3.66000E-005	......
	28	7.49161	-5.39670E-001	4.59074E-006	-1.63400E-004	......
	29	7.74995	-5.38069E-001	4.59074E-006	3.66000E-005	......
	30	8.00828	-5.46169E-001	4.59074E-006	-1.63400E-004	......
	31	8.26661	-5.39219E-001	4.59074E-006	3.66000E-005	......
	32	8.52494	-5.41770E-001	4.59074E-006	-2.63400E-004	......
	33	8.78327	-5.46420E-001	4.59074E-006	3.66000E-005	......
	34	9.0416	-5.40869E-001	4.59074E-006	-2.63400E-004	......
	35	9.29993	-5.48570E-001	4.59074E-006	2.36600E-004	......
	36	9.5583	-5.47269E-001	4.59074E-006	-1.63400E-004	......
	37	9.8166	-5.49370E-001	4.59074E-006	3.66000E-005	......
	38	10.0749	-5.47069E-001	4.59074E-006	-6.34000E-005	......
EOC	QUANT	-0.547069	Open Circuit (V)
PSTATMODEL	IQUANT	32	Pstat Model
PSTATSECTION	LABEL	PStat0	Pstat Section
CTRLMODE	IQUANT	1	Control Mode
IESTAB	IQUANT	0	I/E Stability
CASPEED	IQUANT	1	Control Amp Speed
CONVENTION	IQUANT	1	Current Convention
ICHRANGE	IQUANT	2	Ich Range
ICHRANGEMODE	TOGGLE	F	Ich Auto Range
ICHOFFSETENABLE	TOGGLE	T	Ich Offset Enable
ICHOFFSET	QUANT	0	Ich Offset (V)
ICHFILTER	IQUANT	3	Ich Filter
VCHRANGE	IQUANT	2	Vch Range
VCHRANGEMODE	TOGGLE	F	Vch Auto Range
VCHOFFSETENABLE	TOGGLE	T	Vch Offset Enable
VCHOFFSET	QUANT	0	Vch Offset (V)
VCHFILTER	IQUANT	3	Vch Filter
ACHRANGE	IQUANT	0	Ach Range
IERANGELOWERLIMIT	IQUANT	3	I/E Range Lower Limit
IERANGEMODE	TOGGLE	F	I/E AutoRange
IERANGE	IQUANT	11	I/E Range
POSFEEDENABLE	TOGGLE	F	Positive Feedback IR Comp
POSFEEDRESISTANCE	QUANT	0	Positive Feedback Resistance (ohm)
FC350IDIVISOR	IQUANT	0	FC350 I Divisor
FC350VRANGE	IQUANT	0	FC350 V Range
FRAMEWORKVERSION	QUANT	4.35	Framework Version
ZCURVE	TABLE
	Pt	Time	Freq	Zreal	Zimag	Zsig	Zmod	Zphz	Idc	Vdc	IERange
	#	s	Hz	ohm	ohm	V	ohm	°	A	V	#
	0	4	100007	164.611	-0.612732	1	164.612	-0.213272	4.23376E-006	-0.446748	9
	1	6	89134.1	163.753	-0.632403	1	163.755	-0.221271	4.26713E-006	-0.446756	9
	2	8	79433.6	163.626	-1.46444	1	163.632	-0.51278	4.28446E-006	-0.44675	9
	3	10	70800.8	163.223	-1.54651	1	163.231	-0.542851	4.46845E-006	-0.446771	9
	4	12	63105.5	163.179	-1.71264	1	163.188	-0.601323	4.14245E-006	-0.446755	9
	5	14	56243.5	162.99	-2.05011	1	163.002	-0.720639	4.05396E-006	-0.44674	9
	6	16	50123.7	162.812	-2.63276	1	162.833	-0.926424	3.97979E-006	-0.44674	9
	7	18	44681	162.718	-2.83132	1	162.742	-0.99686	4.37693E-006	-0.446781	9
	8	20	39811.2	162.558	-3.34556	1	162.593	-1.17902	3.80192E-006	-0.446743	9
	9	22	35488.3	162.745	-3.77095	1	162.789	-1.32736	3.84431E-006	-0.446756	9
	10	24	31634.1	162.751	-4.30214	1	162.808	-1.5142	3.60298E-006	-0.446762	9
	11	26	28173.1	163.018	-4.80425	1	163.089	-1.68806	3.47193E-006	-0.446756	9
	12	28	25123.7	162.707	-5.34951	1	162.795	-1.8831	3.37831E-006	-0.446768	9
	13	30	22389.3	163.185	-5.90148	1	163.292	-2.07116	3.47648E-006	-0.446753	9
	14	32	19954.4	163.166	-6.53206	1	163.297	-2.29251	3.20242E-006	-0.446733	9
	15	34	17778.2	163.574	-7.34091	1	163.739	-2.56961	3.30271E-006	-0.446757	9
	16	36	15852.9	163.674	-7.90037	1	163.864	-2.76347	3.22262E-006	-0.446736	9
	17	38	14122.3	163.518	-8.84231	1	163.757	-3.09528	2.99529E-006	-0.446748	9
	18	40	12587.2	163.805	-9.40326	1	164.075	-3.28546	2.95942E-006	-0.44675	9
	19	42	11221.1	164.323	-10.4741	1	164.656	-3.64716	2.91701E-006	-0.446769	9
	20	44	9998.2	164.698	-11.7103	1	165.114	-4.06698	3.11671E-006	-0.44675	9
	21	46	8912.76	164.699	-12.581	1	165.179	-4.36823	2.66009E-006	-0.44674	9
	22	48	7942.6	165.146	-13.9001	1	165.73	-4.81116	2.78609E-006	-0.446751	9
	23	50	7078.05	165.67	-15.4868	1	166.392	-5.34047	2.65603E-006	-0.446747	9
	24	52	6311.1	165.92	-17.2037	1	166.809	-5.91965	2.67143E-006	-0.446759	9
	25	54	5622.14	166.306	-18.8381	1	167.37	-6.46253	2.73576E-006	-0.446766	9
	26	56	5011.18	166.712	-20.479	1	167.966	-7.00315	2.63095E-006	-0.44676	9
	27	58	4465.21	167.164	-22.7704	1	168.707	-7.75687	2.9957E-006	-0.446759	9
	28	60	3980.93	167.788	-25.1375	1	169.661	-8.52052	2.87667E-006	-0.446748	9
	29	62	3548.18	168.268	-27.7667	1	170.543	-9.3702	2.85796E-006	-0.446756	9
	30	64	3162.67	168.968	-30.4121	1	171.683	-10.2033	2.87217E-006	-0.446772	9
	31	66	2819.01	169.5	-33.4739	1	172.773	-11.1714	2.67434E-006	-0.446731	9
	32	68	2511.16	170.407	-36.9487	1	174.366	-12.2339	2.84851E-006	-0.44676	9
	33	70	2238.63	171.045	-41.0743	1	175.908	-13.5031	2.50123E-006	-0.446772	9
	34	72	1995.37	171.953	-45.2137	1	177.798	-14.732	2.34138E-006	-0.446776	9
	35	74	1778.51	172.719	-49.7008	1	179.727	-16.0535	2.44896E-006	-0.446769	9
	36	76	1584.49	173.849	-54.9392	1	182.323	-17.5374	2.67476E-006	-0.446776	9
	37	78	1412.76	174.881	-60.8508	1	185.165	-19.1856	2.68871E-006	-0.446785	9
	38	80	1259.04	176.146	-66.9952	1	188.457	-20.8237	2.61159E-006	-0.446775	9
	39	82	1121.63	177.48	-74.1416	1	192.344	-22.6726	2.51753E-006	-0.446768	9
	40	84	999.95	178.845	-82.0254	1	196.758	-24.6381	2.56199E-006	-0.44678	9
	41	86	891.184	180.112	-90.1765	1	201.425	-26.5958	2.61857E-006	-0.446773	9
	42	88	794.163	181.75	-100.363	1	207.62	-28.9075	2.67426E-006	-0.446774	9
	43	90	707.867	183.392	-110.748	1	214.238	-31.1273	2.57507E-006	-0.446801	9
	44	91	630.984	184.767	-122.257	1	221.552	-33.4919	2.61901E-006	-0.446769	9
	45	93	562.189	187.181	-135.354	1	230.993	-35.8713	2.59281E-006	-0.446758	9
	46	95	501.303	188.83	-150.383	1	241.395	-38.5336	2.70717E-006	-0.446766	9
	47	97	446.614	190.917	-166.813	1	253.527	-41.1452	2.5796E-006	-0.446774	9
	48	99	398.209	193.135	-184.971	1	267.424	-43.7631	2.38124E-006	-0.446779	9
	49	101	354.821	195.592	-205.339	1	283.585	-46.3926	2.61163E-006	-0.446775	9
	50	103	316.113	198.274	-228.071	1	302.207	-48.9979	2.55052E-006	-0.446775	9
	51	105	281.926	201.197	-253.206	1	323.409	-51.5295	2.72813E-006	-0.446773	9
	52	107	251.185	204.443	-281.47	1	347.883	-54.0076	2.79915E-006	-0.446766	9
	53	109	223.946	207.954	-312.763	1	375.587	-56.3804	2.59043E-006	-0.446767	9
	54	111	199.495	211.829	-347.986	1	407.389	-58.67	2.44567E-006	-0.446763	9
	55	113	177.836	216.207	-387.029	1	443.325	-60.8108	2.61438E-006	-0.446767	9
	56	115	158.533	220.92	-430.509	1	483.883	-62.8349	2.22334E-006	-0.446764	9
	57	117	141.263	226.541	-479.377	1	530.211	-64.7058	2.3124E-006	-0.446762	9
	58	119	125.911	232.549	-533.487	1	581.968	-66.4474	2.18978E-006	-0.446762	9
	59	122	112.198	239.801	-594.471	1	641.015	-68.0316	2.40288E-006	-0.446758	9
	60	124	100.009	246.923	-661.691	1	706.262	-69.5359	2.10094E-006	-0.446764	9
	61	126	89.1164	256.498	-737.189	1	780.538	-70.8151	2.28266E-006	-0.44676	9
	62	128	79.4083	268.362	-822.135	1	864.826	-71.9222	2.98404E-006	-0.446764	9
	63	130	70.788	280.702	-915.527	1	957.59	-72.9544	3.10904E-006	-0.446759	9
	64	132	63.0971	294.866	-1019.5	1	1061.29	-73.8688	3.02934E-006	-0.446766	9
	65	134	54.5476	314.069	-1169.04	1	1210.49	-74.9622	1.90874E-006	-0.446759	8
	66	136	50.0083	329.449	-1266.79	1	1308.93	-75.4223	1.87757E-006	-0.446764	8
	67	138	46.1675	346.762	-1367.16	1	1410.45	-75.7678	2.22836E-006	-0.446767	8
	68	140	40.0059	375.801	-1563.45	1	1607.99	-76.4845	1.91391E-006	-0.446759	8
	69	142	35.3046	405.631	-1761.15	1	1807.26	-77.0298	1.82527E-006	-0.44676	8
	70	145	31.5793	445.371	-1949.34	1	1999.57	-77.1304	1.64975E-006	-0.446756	8
	71	147	28.5748	478.699	-2147.39	1	2200.1	-77.433	1.59011E-006	-0.446754	8
	72	149	24.9911	544.554	-2426.88	1	2487.22	-77.3532	1.78734E-006	-0.446757	8
	73	151	22.2195	625.603	-2702.99	1	2774.44	-76.9684	1.99704E-006	-0.446754	8
	74	153	20.0011	688.397	-2989.79	1	3068.02	-77.0337	1.96076E-006	-0.446755	8
	75	156	17.6486	770.802	-3345.14	1	3432.8	-77.0242	2.0787E-006	-0.446756	8
	76	158	15.7934	885.89	-3720.41	1	3824.42	-76.6063	1.9426E-006	-0.446754	8
	77	160	14.2828	1009.34	-4079.54	1	4202.54	-76.1033	1.86335E-006	-0.446758	8
	78	163	12.5002	1207.33	-4637.98	1	4792.54	-75.409	1.99426E-006	-0.446758	8
	79	165	11.323	1362.44	-5067.36	1	5247.32	-74.951	1.5054E-006	-0.446765	8
	80	168	9.9987	1494.56	-5704.05	1	5896.6	-75.3175	1.44635E-006	-0.446756	8
