EXPLAIN
TAG	EISPOT
TITLE	LABEL	Tomato_open	Test &Identifier
DATE	LABEL	5/15/2006	Date
TIME	LABEL	16:17:18	Time
NOTES	NOTES	1	&Notes...
	
PSTAT	PSTAT	300	Potentiostat
VDC	POTEN	1.00000E-001	T	DC &Voltage (V)
FREQINIT	QUANT	1.00000E+005	Initial Fre&q. (Hz)
FREQFINAL	QUANT	1.00000E+001	Final Fre&q. (Hz)
PTSPERDEC	QUANT	2.00000E+001	Points/&decade
VAC	QUANT	1.00000E+001	AC &Voltage (mV rms)
AREA	QUANT	1.00000E+000	&Area (cm²)
DENSITY	QUANT	7.87000E+000	&Density (gm/cm³)
EQUIV	QUANT	7.00000E+000	Equiv. &Wt
CONDIT	TWOPARAM	F	1.50000E+001	0.00000E+000	Conditionin&g	Time(s)	E(V)
DELAY	TWOPARAM	F	6.00000E+002	0.00000E+000	Init. De&lay	Time(s)	Stab.(mV/s)
SPEED	SELECTOR	1	&Optimize for:
ZGUESS	QUANT	1.00000E+002	E&stimated Z (ohms)
OCVCURVE	TABLE	39
	Pt	T	Vf	Vm	Ach	Over
	#	s	V vs. Ref.	V	V	bits
	0	0.258332	-5.55169E-001	4.27044E-006	-1.63400E-004	......
	1	0.516663	-5.54420E-001	4.27044E-006	3.66000E-005	......
	2	0.774994	-5.54669E-001	4.27044E-006	-1.63400E-004	......
	3	1.03333	-5.55120E-001	4.27044E-006	1.36600E-004	......
	4	1.29166	-5.54469E-001	4.27044E-006	-6.34000E-005	......
	5	1.54999	-5.56269E-001	4.27044E-006	3.66000E-005	......
	6	1.80832	-5.57369E-001	4.27044E-006	-6.34000E-005	......
	7	2.06665	-5.56769E-001	4.27044E-006	3.66000E-005	......
	8	2.32498	-5.59070E-001	4.27044E-006	-1.63400E-004	......
	9	2.58332	-5.58619E-001	4.27044E-006	3.66000E-005	......
	10	2.84165	-5.59669E-001	4.27044E-006	-1.63400E-004	......
	11	3.09998	-5.60470E-001	4.27044E-006	3.66000E-005	......
	12	3.35831	-5.60319E-001	4.27044E-006	-1.63400E-004	......
	13	3.61664	-5.61819E-001	4.27044E-006	-6.34000E-005	......
	14	3.87497	-5.60820E-001	4.27044E-006	-1.63400E-004	......
	15	4.1333	-5.59619E-001	4.27044E-006	3.66000E-005	......
	16	4.39164	-5.61170E-001	4.27044E-006	-6.34000E-005	......
	17	4.64997	-5.62220E-001	4.27044E-006	3.66000E-005	......
	18	4.9083	-5.58969E-001	4.27044E-006	-1.63400E-004	......
	19	5.16663	-5.60269E-001	4.27044E-006	3.66000E-005	......
	20	5.42496	-5.58569E-001	4.27044E-006	-6.34000E-005	......
	21	5.68329	-5.58769E-001	4.27044E-006	3.66000E-005	......
	22	5.94162	-5.60219E-001	4.27044E-006	-1.63400E-004	......
	23	6.19996	-5.58169E-001	4.27044E-006	3.66000E-005	......
	24	6.45829	-5.57719E-001	4.27044E-006	-1.63400E-004	......
	25	6.71662	-5.59419E-001	4.27044E-006	1.36600E-004	......
	26	6.97495	-5.59619E-001	4.27044E-006	-6.34000E-005	......
	27	7.23328	-5.60369E-001	4.27044E-006	1.36600E-004	......
	28	7.49161	-5.60470E-001	4.27044E-006	-1.63400E-004	......
	29	7.74995	-5.59370E-001	4.27044E-006	3.66000E-005	......
	30	8.00828	-5.58769E-001	4.27044E-006	-6.34000E-005	......
	31	8.26661	-5.57220E-001	4.27044E-006	-6.34000E-005	......
	32	8.52494	-5.55919E-001	4.27044E-006	-1.63400E-004	......
	33	8.78327	-5.53169E-001	4.27044E-006	3.66000E-005	......
	34	9.0416	-5.49819E-001	4.27044E-006	-2.63400E-004	......
	35	9.29993	-5.49670E-001	4.27044E-006	2.36600E-004	......
	36	9.5583	-5.48669E-001	4.27044E-006	-6.34000E-005	......
	37	9.8166	-5.50469E-001	4.27044E-006	3.66000E-005	......
	38	10.0749	-5.54019E-001	4.27044E-006	-1.63400E-004	......
EOC	QUANT	-0.554019	Open Circuit (V)
PSTATMODEL	IQUANT	32	Pstat Model
PSTATSECTION	LABEL	PStat0	Pstat Section
CTRLMODE	IQUANT	1	Control Mode
IESTAB	IQUANT	0	I/E Stability
CASPEED	IQUANT	1	Control Amp Speed
CONVENTION	IQUANT	1	Current Convention
ICHRANGE	IQUANT	2	Ich Range
ICHRANGEMODE	TOGGLE	F	Ich Auto Range
ICHOFFSETENABLE	TOGGLE	T	Ich Offset Enable
ICHOFFSET	QUANT	0	Ich Offset (V)
ICHFILTER	IQUANT	3	Ich Filter
VCHRANGE	IQUANT	2	Vch Range
VCHRANGEMODE	TOGGLE	F	Vch Auto Range
VCHOFFSETENABLE	TOGGLE	T	Vch Offset Enable
VCHOFFSET	QUANT	0	Vch Offset (V)
VCHFILTER	IQUANT	3	Vch Filter
ACHRANGE	IQUANT	0	Ach Range
IERANGELOWERLIMIT	IQUANT	3	I/E Range Lower Limit
IERANGEMODE	TOGGLE	F	I/E AutoRange
IERANGE	IQUANT	11	I/E Range
POSFEEDENABLE	TOGGLE	F	Positive Feedback IR Comp
POSFEEDRESISTANCE	QUANT	0	Positive Feedback Resistance (ohm)
FC350IDIVISOR	IQUANT	0	FC350 I Divisor
FC350VRANGE	IQUANT	0	FC350 V Range
FRAMEWORKVERSION	QUANT	4.35	Framework Version
ZCURVE	TABLE
	Pt	Time	Freq	Zreal	Zimag	Zsig	Zmod	Zphz	Idc	Vdc	IERange
	#	s	Hz	ohm	ohm	V	ohm	°	A	V	#
	0	4	100007	166.163	-0.654869	1	166.165	-0.225808	7.22756E-006	-0.453973	9
	1	6	89134.1	165.328	-0.7647	1	165.33	-0.26501	6.57093E-006	-0.453984	9
	2	8	79433.6	164.646	-1.48852	1	164.653	-0.517981	6.10092E-006	-0.453948	9
	3	10	70800.8	164.416	-1.35714	1	164.422	-0.472925	5.87367E-006	-0.453985	9
	4	12	63105.5	164.173	-1.86565	1	164.184	-0.651075	6.12649E-006	-0.453946	9
	5	14	56243.5	164.241	-2.27831	1	164.256	-0.794742	5.28584E-006	-0.45399	9
	6	16	50123.7	163.977	-2.66594	1	163.998	-0.931436	5.07415E-006	-0.453959	9
	7	18	44681	163.853	-2.95456	1	163.88	-1.03303	4.6272E-006	-0.453943	9
	8	20	39811.2	163.945	-3.42446	1	163.981	-1.19661	4.36151E-006	-0.453948	9
	9	22	35488.3	163.881	-3.72725	1	163.923	-1.30289	4.55537E-006	-0.453953	9
	10	24	31634.1	163.994	-4.18687	1	164.047	-1.46248	4.38362E-006	-0.453943	9
	11	26	28173.1	164.062	-4.70032	1	164.129	-1.64106	3.94121E-006	-0.453954	9
	12	28	25123.7	164.098	-5.27754	1	164.183	-1.84205	3.43087E-006	-0.45395	9
	13	30	22389.3	164.285	-5.781	1	164.387	-2.01534	3.08513E-006	-0.453936	9
	14	32	19954.4	164.241	-6.38115	1	164.365	-2.22495	3.34749E-006	-0.453975	9
	15	34	17778.2	164.638	-7.14766	1	164.793	-2.4859	3.22856E-006	-0.453969	9
	16	36	15852.9	164.733	-8.04225	1	164.929	-2.79495	3.34567E-006	-0.453969	9
	17	38	14122.3	164.954	-8.66976	1	165.182	-3.00861	3.03142E-006	-0.453962	9
	18	40	12587.2	165.398	-9.6848	1	165.682	-3.35109	3.17112E-006	-0.453953	9
	19	41	11221.1	165.469	-10.4098	1	165.796	-3.59977	3.05354E-006	-0.453949	9
	20	43	9998.2	165.767	-11.4236	1	166.16	-3.94222	2.90015E-006	-0.45396	9
	21	45	8912.76	165.991	-12.7167	1	166.478	-4.3809	2.57245E-006	-0.453947	9
	22	47	7942.6	166.432	-14.1167	1	167.03	-4.8482	3.25879E-006	-0.453967	9
	23	49	7078.05	166.65	-15.5112	1	167.371	-5.31755	2.36399E-006	-0.453964	9
	24	51	6311.1	167.195	-17.0113	1	168.058	-5.80958	2.62665E-006	-0.45396	9
	25	53	5622.14	167.519	-18.4469	1	168.531	-6.28399	2.59074E-006	-0.453958	9
	26	55	5011.18	167.833	-20.6345	1	169.097	-7.00913	2.67057E-006	-0.453967	9
	27	57	4465.21	168.401	-22.8927	1	169.95	-7.74142	2.74517E-006	-0.453957	9
	28	59	3980.93	168.944	-25.0145	1	170.786	-8.42224	2.41523E-006	-0.453942	9
	29	61	3548.18	169.557	-27.3454	1	171.748	-9.1615	2.34873E-006	-0.453968	9
	30	63	3162.67	170.061	-30.2833	1	172.737	-10.097	1.92593E-006	-0.453958	9
	31	65	2819.01	170.705	-33.3764	1	173.938	-11.0629	1.75468E-006	-0.453944	9
	32	67	2511.16	171.498	-36.7851	1	175.399	-12.1061	1.6051E-006	-0.453958	9
	33	69	2238.63	172.347	-41.0224	1	177.162	-13.3885	1.79399E-006	-0.453946	9
	34	71	1995.37	173.132	-44.8897	1	178.857	-14.5356	1.97743E-006	-0.45395	9
	35	73	1778.51	174.368	-49.8812	1	181.362	-15.9642	2.51499E-006	-0.453958	9
	36	75	1584.49	174.988	-54.4586	1	183.266	-17.2869	2.48296E-006	-0.453957	9
	37	77	1412.76	176.133	-60.4056	1	186.203	-18.9296	2.82367E-006	-0.453945	9
	38	79	1259.04	177.347	-66.9305	1	189.556	-20.6765	3.0276E-006	-0.453963	9
	39	81	1121.63	178.573	-73.4758	1	193.098	-22.3653	2.83098E-006	-0.45396	9
	40	83	999.95	180.143	-81.5216	1	197.73	-24.3486	2.67698E-006	-0.453965	9
	41	85	891.184	181.405	-90.097	1	202.547	-26.4119	2.60485E-006	-0.453969	9
	42	87	794.163	183.239	-99.271	1	208.401	-28.4468	2.54649E-006	-0.453968	9
	43	89	707.867	184.448	-110.273	1	214.899	-30.8733	2.18556E-006	-0.453952	9
	44	91	630.984	186.411	-121.548	1	222.538	-33.1061	1.96701E-006	-0.453962	9
	45	93	562.189	188.064	-134.927	1	231.459	-35.6578	2.11609E-006	-0.453988	9
	46	95	501.303	190.269	-149.248	1	241.821	-38.1107	1.96778E-006	-0.453967	9
	47	97	446.614	192.356	-165.513	1	253.762	-40.7104	1.67035E-006	-0.45396	9
	48	99	398.209	194.633	-183.545	1	267.527	-43.3206	1.96556E-006	-0.453966	9
	49	101	354.821	197.146	-203.686	1	283.469	-45.9348	1.85826E-006	-0.453964	9
	50	103	316.113	199.847	-226.182	1	301.823	-48.5373	1.69245E-006	-0.453967	9
	51	105	281.926	202.812	-251.085	1	322.764	-51.0707	1.73742E-006	-0.453959	9
	52	107	251.185	206.065	-279.062	1	346.898	-53.5571	1.71173E-006	-0.453961	9
	53	109	223.946	209.694	-310.094	1	374.339	-55.9324	1.80995E-006	-0.453967	9
	54	111	199.495	213.956	-345.023	1	405.977	-58.196	2.35976E-006	-0.453957	9
	55	113	177.836	218.457	-383.69	1	441.521	-60.3446	2.55252E-006	-0.453964	9
	56	115	158.533	223.624	-426.729	1	481.773	-62.3436	2.6534E-006	-0.453964	9
	57	117	141.263	229.416	-475.005	1	527.505	-64.2206	2.71287E-006	-0.453964	9
	58	119	125.911	236.02	-528.752	1	579.037	-65.9454	2.63409E-006	-0.453964	9
	59	121	112.198	243.501	-588.69	1	637.063	-67.5284	2.69784E-006	-0.453953	9
	60	123	100.009	252.411	-655.631	1	702.541	-68.9438	2.79495E-006	-0.453963	9
	61	125	89.1164	262.244	-730.037	1	775.71	-70.2407	2.70341E-006	-0.45396	9
	62	127	79.4083	273.406	-813.409	1	858.129	-71.4213	2.60968E-006	-0.453959	9
	63	129	70.788	286.064	-905.664	1	949.769	-72.4707	2.60314E-006	-0.453957	9
	64	131	63.0971	301.77	-1009.01	1	1053.17	-73.3494	2.49676E-006	-0.453965	9
	65	133	54.5476	324.854	-1156.78	1	1201.53	-74.3139	2.04813E-006	-0.453966	8
	66	135	50.0083	339.697	-1254.11	1	1299.3	-74.8442	1.77039E-006	-0.453968	8
	67	137	46.1675	360.139	-1351.08	1	1398.26	-75.0745	2.2914E-006	-0.453973	8
	68	140	40.0059	393.025	-1545.76	1	1594.95	-75.7343	2.10283E-006	-0.453957	8
	69	142	35.3046	428.475	-1738.62	1	1790.64	-76.1556	2.10327E-006	-0.453963	8
	70	144	31.5793	468.65	-1927.55	1	1983.71	-76.3347	2.02147E-006	-0.453969	8
	71	146	28.5748	503.781	-2115.75	1	2174.9	-76.6067	1.58936E-006	-0.453974	8
	72	148	24.9911	566.243	-2398.8	1	2464.72	-76.7183	1.83167E-006	-0.453969	8
	73	150	22.2195	640.647	-2675.33	1	2750.97	-76.5333	1.88294E-006	-0.453961	8
	74	153	20.0011	710.898	-2945.49	1	3030.06	-76.4311	1.76281E-006	-0.453973	8
	75	155	17.6486	806.545	-3300.29	1	3397.42	-76.2669	1.80838E-006	-0.45397	8
	76	157	15.7934	937.634	-3646.74	1	3765.35	-75.5807	1.55981E-006	-0.453959	8
	77	159	14.2828	1007.37	-4034.92	1	4158.77	-75.9819	1.47671E-006	-0.453977	8
	78	162	12.5002	1243.43	-4516.31	1	4684.35	-74.6068	1.7204E-006	-0.453971	8
	79	164	11.323	1408.97	-4937.54	1	5134.64	-74.0734	1.67494E-006	-0.453962	8
	80	167	9.9987	1551.77	-5578.68	1	5790.48	-74.4555	1.23882E-006	-0.45397	8
