EXPLAIN
TAG	EISPOT
TITLE	LABEL	Tomato_open	Test &Identifier
DATE	LABEL	5/15/2006	Date
TIME	LABEL	16:22:18	Time
NOTES	NOTES	1	&Notes...
	
PSTAT	PSTAT	300	Potentiostat
VDC	POTEN	1.00000E-001	T	DC &Voltage (V)
FREQINIT	QUANT	1.00000E+005	Initial Fre&q. (Hz)
FREQFINAL	QUANT	1.00000E+001	Final Fre&q. (Hz)
PTSPERDEC	QUANT	2.00000E+001	Points/&decade
VAC	QUANT	1.00000E+001	AC &Voltage (mV rms)
AREA	QUANT	1.00000E+000	&Area (cm²)
DENSITY	QUANT	7.87000E+000	&Density (gm/cm³)
EQUIV	QUANT	7.00000E+000	Equiv. &Wt
CONDIT	TWOPARAM	F	1.50000E+001	0.00000E+000	Conditionin&g	Time(s)	E(V)
DELAY	TWOPARAM	F	6.00000E+002	0.00000E+000	Init. De&lay	Time(s)	Stab.(mV/s)
SPEED	SELECTOR	1	&Optimize for:
ZGUESS	QUANT	1.00000E+002	E&stimated Z (ohms)
OCVCURVE	TABLE	39
	Pt	T	Vf	Vm	Ach	Over
	#	s	V vs. Ref.	V	V	bits
	0	0.258332	-5.36519E-001	3.71864E-006	3.66000E-005	......
	1	0.516663	-5.36720E-001	3.71864E-006	-2.63400E-004	......
	2	0.774994	-5.37669E-001	3.71864E-006	3.66000E-005	......
	3	1.03333	-5.39469E-001	3.71864E-006	-6.34000E-005	......
	4	1.29166	-5.37969E-001	3.71864E-006	3.66000E-005	......
	5	1.54999	-5.38919E-001	3.71864E-006	-1.63400E-004	......
	6	1.80832	-5.40619E-001	3.71864E-006	-6.34000E-005	......
	7	2.06665	-5.42969E-001	3.71864E-006	-6.34000E-005	......
	8	2.32498	-5.42470E-001	3.71864E-006	3.66000E-005	......
	9	2.58332	-5.42269E-001	3.71864E-006	-1.63400E-004	......
	10	2.84165	-5.43069E-001	3.71864E-006	3.66000E-005	......
	11	3.09998	-5.43369E-001	3.71864E-006	-1.63400E-004	......
	12	3.35831	-5.44620E-001	3.71864E-006	3.66000E-005	......
	13	3.61664	-5.41420E-001	3.71864E-006	-6.34000E-005	......
	14	3.87497	-5.37969E-001	3.71864E-006	3.66000E-005	......
	15	4.1333	-5.38469E-001	3.71864E-006	-6.34000E-005	......
	16	4.39164	-5.39970E-001	3.71864E-006	3.66000E-005	......
	17	4.64997	-5.39519E-001	3.71864E-006	-1.63400E-004	......
	18	4.9083	-5.34769E-001	3.71864E-006	3.66000E-005	......
	19	5.16663	-5.31269E-001	3.71864E-006	-1.63400E-004	......
	20	5.42496	-5.30069E-001	3.71864E-006	3.66000E-005	......
	21	5.68329	-5.31119E-001	3.71864E-006	-6.34000E-005	......
	22	5.94162	-5.30670E-001	3.71864E-006	3.66000E-005	......
	23	6.19996	-5.27719E-001	3.71864E-006	-6.34000E-005	......
	24	6.45829	-5.29819E-001	3.71864E-006	3.66000E-005	......
	25	6.71662	-5.32569E-001	3.71864E-006	-2.63400E-004	......
	26	6.97495	-5.32969E-001	3.71864E-006	3.66000E-005	......
	27	7.23328	-5.30219E-001	3.71864E-006	-1.63400E-004	......
	28	7.49161	-5.30169E-001	3.71864E-006	2.36600E-004	......
	29	7.74995	-5.29970E-001	3.71864E-006	-6.34000E-005	......
	30	8.00828	-5.28820E-001	3.71864E-006	3.66000E-005	......
	31	8.26661	-5.28719E-001	3.71864E-006	-1.63400E-004	......
	32	8.52494	-5.30719E-001	3.71864E-006	3.66000E-005	......
	33	8.78327	-5.35069E-001	3.71864E-006	-6.34000E-005	......
	34	9.0416	-5.35020E-001	3.71864E-006	3.66000E-005	......
	35	9.29993	-5.33319E-001	3.71864E-006	-1.63400E-004	......
	36	9.5583	-5.32569E-001	3.71864E-006	3.66000E-005	......
	37	9.8166	-5.34270E-001	3.71864E-006	-1.63400E-004	......
	38	10.0749	-5.36370E-001	3.71864E-006	3.66000E-005	......
EOC	QUANT	-0.53637	Open Circuit (V)
PSTATMODEL	IQUANT	32	Pstat Model
PSTATSECTION	LABEL	PStat0	Pstat Section
CTRLMODE	IQUANT	1	Control Mode
IESTAB	IQUANT	0	I/E Stability
CASPEED	IQUANT	1	Control Amp Speed
CONVENTION	IQUANT	1	Current Convention
ICHRANGE	IQUANT	2	Ich Range
ICHRANGEMODE	TOGGLE	F	Ich Auto Range
ICHOFFSETENABLE	TOGGLE	T	Ich Offset Enable
ICHOFFSET	QUANT	0	Ich Offset (V)
ICHFILTER	IQUANT	3	Ich Filter
VCHRANGE	IQUANT	2	Vch Range
VCHRANGEMODE	TOGGLE	F	Vch Auto Range
VCHOFFSETENABLE	TOGGLE	T	Vch Offset Enable
VCHOFFSET	QUANT	0	Vch Offset (V)
VCHFILTER	IQUANT	3	Vch Filter
ACHRANGE	IQUANT	0	Ach Range
IERANGELOWERLIMIT	IQUANT	3	I/E Range Lower Limit
IERANGEMODE	TOGGLE	F	I/E AutoRange
IERANGE	IQUANT	11	I/E Range
POSFEEDENABLE	TOGGLE	F	Positive Feedback IR Comp
POSFEEDRESISTANCE	QUANT	0	Positive Feedback Resistance (ohm)
FC350IDIVISOR	IQUANT	0	FC350 I Divisor
FC350VRANGE	IQUANT	0	FC350 V Range
FRAMEWORKVERSION	QUANT	4.35	Framework Version
ZCURVE	TABLE
	Pt	Time	Freq	Zreal	Zimag	Zsig	Zmod	Zphz	Idc	Vdc	IERange
	#	s	Hz	ohm	ohm	V	ohm	°	A	V	#
	0	4	100007	165.075	-0.408007	1	165.075	-0.141615	4.71876E-006	-0.436104	9
	1	6	89134.1	164.346	-0.651347	1	164.348	-0.227077	5.03981E-006	-0.436135	9
	2	8	79433.6	164.161	-1.15516	1	164.165	-0.40317	5.07688E-006	-0.436133	9
	3	10	70800.8	163.634	-1.50923	1	163.641	-0.528433	5.87862E-006	-0.436168	9
	4	12	63105.5	163.568	-1.89649	1	163.579	-0.664288	5.87043E-006	-0.436143	9
	5	14	56243.5	163.652	-2.06541	1	163.665	-0.723078	5.82735E-006	-0.436139	9
	6	16	50123.7	163.288	-2.73933	1	163.311	-0.96111	5.44228E-006	-0.436147	9
	7	18	44681	163.032	-2.87513	1	163.058	-1.01032	5.63867E-006	-0.436169	9
	8	20	39811.2	163.293	-3.51527	1	163.331	-1.23324	5.35529E-006	-0.436149	9
	9	22	35488.3	163.243	-3.89217	1	163.289	-1.36583	5.30524E-006	-0.43615	9
	10	24	31634.1	163.262	-4.42161	1	163.322	-1.55136	5.24131E-006	-0.436118	9
	11	26	28173.1	163.402	-4.6559	1	163.468	-1.63212	5.45181E-006	-0.436128	9
	12	28	25123.7	163.337	-5.09763	1	163.417	-1.78758	4.39812E-006	-0.43612	9
	13	30	22389.3	163.498	-5.84749	1	163.603	-2.0483	4.99907E-006	-0.436151	9
	14	32	19954.4	163.752	-6.60964	1	163.886	-2.31141	4.49601E-006	-0.43613	9
	15	34	17778.2	163.964	-7.13744	1	164.119	-2.49254	4.43474E-006	-0.43613	9
	16	36	15852.9	164.136	-7.99422	1	164.331	-2.78838	4.04106E-006	-0.436136	9
	17	38	14122.3	164.187	-8.67381	1	164.416	-3.02406	3.92285E-006	-0.436148	9
	18	40	12587.2	164.373	-9.5432	1	164.65	-3.32274	3.73353E-006	-0.436153	9
	19	42	11221.1	164.602	-10.626	1	164.944	-3.69365	3.91309E-006	-0.436143	9
	20	44	9998.2	165.372	-11.4915	1	165.771	-3.97502	3.76921E-006	-0.436149	9
	21	46	8912.76	165.429	-12.6453	1	165.911	-4.37114	4.14243E-006	-0.436166	9
	22	48	7942.6	165.974	-13.9062	1	166.555	-4.78936	3.79952E-006	-0.436154	9
	23	50	7078.05	166.048	-15.3691	1	166.758	-5.28813	3.65129E-006	-0.436146	9
	24	52	6311.1	166.303	-16.944	1	167.164	-5.81758	3.52895E-006	-0.436156	9
	25	54	5622.14	166.865	-18.7079	1	167.91	-6.39694	3.17634E-006	-0.43616	9
	26	56	5011.18	167.139	-20.6742	1	168.413	-7.05138	3.52131E-006	-0.436146	9
	27	58	4465.21	167.791	-22.9092	1	169.347	-7.77476	3.48212E-006	-0.436144	9
	28	60	3980.93	168.186	-24.7583	1	169.999	-8.37423	3.61628E-006	-0.436142	9
	29	62	3548.18	168.912	-27.706	1	171.169	-9.31507	3.32845E-006	-0.436169	9
	30	64	3162.67	169.341	-30.4978	1	172.066	-10.2094	3.03176E-006	-0.436135	9
	31	65	2819.01	170.018	-33.733	1	173.332	-11.2222	2.93665E-006	-0.436134	9
	32	67	2511.16	170.895	-36.9059	1	174.834	-12.1863	3.30906E-006	-0.436162	9
	33	69	2238.63	171.806	-40.9417	1	176.617	-13.4037	3.26129E-006	-0.436161	9
	34	71	1995.37	172.605	-45.1819	1	178.421	-14.6688	3.20534E-006	-0.436142	9
	35	73	1778.51	173.542	-49.745	1	180.531	-15.9947	2.6069E-006	-0.436138	9
	36	75	1584.49	174.754	-55.1209	1	183.241	-17.5063	2.65135E-006	-0.436149	9
	37	77	1412.76	175.591	-60.5305	1	185.732	-19.0203	2.96387E-006	-0.436159	9
	38	79	1259.04	176.508	-66.7749	1	188.716	-20.7222	3.08924E-006	-0.43614	9
	39	81	1121.63	178.166	-73.8355	1	192.859	-22.5101	3.4567E-006	-0.43614	9
	40	83	999.95	179.251	-81.8424	1	197.051	-24.5405	2.89698E-006	-0.436154	9
	41	85	891.184	180.637	-90.0045	1	201.818	-26.4854	2.72521E-006	-0.43614	9
	42	87	794.163	181.973	-100.174	1	207.723	-28.8322	2.81788E-006	-0.436141	9
	43	89	707.867	184.078	-110.258	1	214.573	-30.9205	3.36748E-006	-0.436167	9
	44	91	630.984	185.38	-122.341	1	222.111	-33.4228	2.6514E-006	-0.436164	9
	45	93	562.189	187.337	-135.237	1	231.051	-35.8252	2.61006E-006	-0.436171	9
	46	95	501.303	189.495	-149.935	1	241.637	-38.3522	2.7386E-006	-0.436139	9
	47	97	446.614	191.574	-166.343	1	253.714	-40.9676	2.81442E-006	-0.436149	9
	48	99	398.209	193.852	-184.468	1	267.595	-43.5791	3.10215E-006	-0.436152	9
	49	101	354.821	196.416	-204.791	1	283.758	-46.1958	3.57893E-006	-0.436141	9
	50	103	316.113	199.065	-227.403	1	302.224	-48.8016	2.78659E-006	-0.436145	9
	51	105	281.926	202.104	-252.471	1	323.4	-51.3227	3.28276E-006	-0.436144	9
	52	107	251.185	205.365	-280.573	1	347.701	-53.7979	2.95401E-006	-0.436143	9
	53	109	223.946	208.87	-311.8	1	375.295	-56.1824	2.70192E-006	-0.436137	9
	54	111	199.495	212.827	-346.805	1	406.902	-58.4635	2.47746E-006	-0.436141	9
	55	113	177.836	217.304	-385.673	1	442.679	-60.6013	2.45774E-006	-0.436139	9
	56	115	158.533	222.043	-428.943	1	483.006	-62.6316	2.37188E-006	-0.436139	9
	57	117	141.263	227.918	-477.763	1	529.343	-64.4964	2.71484E-006	-0.436136	9
	58	119	125.911	234.271	-531.696	1	581.019	-66.2212	2.62188E-006	-0.436146	9
	59	121	112.198	241.498	-592.314	1	639.654	-67.8183	2.65311E-006	-0.436145	9
	60	123	100.009	250.156	-659.498	1	705.348	-69.2277	2.83991E-006	-0.436154	9
	61	125	89.1164	260.274	-734.75	1	779.487	-70.4941	3.11421E-006	-0.436153	9
	62	127	79.4083	269.874	-818.633	1	861.97	-71.7545	2.72763E-006	-0.436148	9
	63	129	70.788	282.722	-911.34	1	954.19	-72.7647	2.81569E-006	-0.436144	9
	64	131	63.0971	296.983	-1016.13	1	1058.64	-73.7081	2.52449E-006	-0.436151	9
	65	133	54.5476	319.3	-1164.38	1	1207.37	-74.6652	2.01349E-006	-0.436147	8
	66	135	50.0083	335.842	-1262.87	1	1306.77	-75.1077	2.44462E-006	-0.43615	8
	67	138	46.1675	349.159	-1358.52	1	1402.67	-75.5862	1.91988E-006	-0.436146	8
	68	140	40.0059	389.377	-1557.47	1	1605.41	-75.9634	2.35504E-006	-0.436152	8
	69	142	35.3046	418.899	-1746.07	1	1795.61	-76.5091	1.92856E-006	-0.436144	8
	70	144	31.5793	453.922	-1947.86	1	2000.05	-76.8821	1.76322E-006	-0.436145	8
	71	146	28.5748	496.956	-2131.62	1	2188.78	-76.8767	2.02729E-006	-0.43614	8
	72	148	24.9911	547.302	-2413.63	1	2474.91	-77.224	1.50376E-006	-0.436148	8
	73	151	22.2195	622.563	-2705.95	1	2776.64	-77.0433	1.82625E-006	-0.436139	8
	74	153	20.0011	679.285	-2955.56	1	3032.62	-77.0563	1.76712E-006	-0.43614	8
	75	155	17.6486	770.528	-3346	1	3433.58	-77.0318	1.72648E-006	-0.436139	8
	76	158	15.7934	831.829	-3717.23	1	3809.16	-77.3863	1.31988E-006	-0.436143	8
	77	160	14.2828	1019.79	-4044.15	1	4170.75	-75.8471	1.67967E-006	-0.436146	8
	78	162	12.5002	1162.47	-4544	1	4690.34	-75.65	1.77427E-006	-0.43615	8
	79	165	11.323	1362.37	-5090.17	1	5269.33	-75.0162	2.15881E-006	-0.43615	8
	80	169	9.9987	1635.89	-5558.53	1	5794.25	-73.6007	2.21424E-006	-0.436142	8
