EXPLAIN
TAG	EISPOT
TITLE	LABEL	Tomato_open	Test &Identifier
DATE	LABEL	5/15/2006	Date
TIME	LABEL	16:37:19	Time
NOTES	NOTES	1	&Notes...
	
PSTAT	PSTAT	300	Potentiostat
VDC	POTEN	1.00000E-001	T	DC &Voltage (V)
FREQINIT	QUANT	1.00000E+005	Initial Fre&q. (Hz)
FREQFINAL	QUANT	1.00000E+001	Final Fre&q. (Hz)
PTSPERDEC	QUANT	2.00000E+001	Points/&decade
VAC	QUANT	1.00000E+001	AC &Voltage (mV rms)
AREA	QUANT	1.00000E+000	&Area (cm²)
DENSITY	QUANT	7.87000E+000	&Density (gm/cm³)
EQUIV	QUANT	7.00000E+000	Equiv. &Wt
CONDIT	TWOPARAM	F	1.50000E+001	0.00000E+000	Conditionin&g	Time(s)	E(V)
DELAY	TWOPARAM	F	6.00000E+002	0.00000E+000	Init. De&lay	Time(s)	Stab.(mV/s)
SPEED	SELECTOR	1	&Optimize for:
ZGUESS	QUANT	1.00000E+002	E&stimated Z (ohms)
OCVCURVE	TABLE	39
	Pt	T	Vf	Vm	Ach	Over
	#	s	V vs. Ref.	V	V	bits
	0	0.258332	-5.45219E-001	3.87894E-006	1.36600E-004	......
	1	0.516663	-5.50619E-001	3.87894E-006	2.36600E-004	......
	2	0.774994	-5.46070E-001	3.87894E-006	3.36600E-004	......
	3	1.03333	-5.45319E-001	3.87894E-006	3.66000E-005	......
	4	1.29166	-5.51120E-001	3.87894E-006	3.36600E-004	......
	5	1.54999	-5.47619E-001	3.87894E-006	2.36600E-004	......
	6	1.80832	-5.50869E-001	3.87894E-006	2.36600E-004	......
	7	2.06665	-5.51269E-001	3.87894E-006	3.36600E-004	......
	8	2.32498	-5.46169E-001	3.87894E-006	3.36600E-004	......
	9	2.58332	-5.52069E-001	3.87894E-006	3.36600E-004	......
	10	2.84165	-5.50170E-001	3.87894E-006	3.36600E-004	......
	11	3.09998	-5.36669E-001	3.87894E-006	2.36600E-004	......
	12	3.35831	-5.49269E-001	3.87894E-006	3.36600E-004	......
	13	3.61664	-5.45070E-001	3.87894E-006	2.36600E-004	......
	14	3.87497	-5.30270E-001	3.87894E-006	1.36600E-004	......
	15	4.1333	-5.44869E-001	3.87894E-006	2.36600E-004	......
	16	4.39164	-5.35619E-001	3.87894E-006	2.36600E-004	......
	17	4.64997	-5.18119E-001	3.87894E-006	3.66000E-005	......
	18	4.9083	-5.12919E-001	3.87894E-006	3.36600E-004	......
	19	5.16663	-5.08070E-001	3.87894E-006	2.36600E-004	......
	20	5.42496	-5.29869E-001	3.87894E-006	3.36600E-004	......
	21	5.68329	-5.45319E-001	3.87894E-006	1.36600E-004	......
	22	5.94162	-5.37470E-001	3.87894E-006	2.36600E-004	......
	23	6.19996	-5.39869E-001	3.87894E-006	3.36600E-004	......
	24	6.45829	-5.52869E-001	3.87894E-006	2.36600E-004	......
	25	6.71662	-5.56219E-001	3.87894E-006	2.36600E-004	......
	26	6.97495	-5.51820E-001	3.87894E-006	2.36600E-004	......
	27	7.23328	-5.60119E-001	3.87894E-006	3.66000E-005	......
	28	7.49161	-5.57869E-001	3.87894E-006	1.36600E-004	......
	29	7.74995	-5.54419E-001	3.87894E-006	3.36600E-004	......
	30	8.00828	-5.63469E-001	3.87894E-006	2.36600E-004	......
	31	8.26661	-5.57619E-001	3.87894E-006	3.66000E-005	......
	32	8.52494	-5.59420E-001	3.87894E-006	3.36600E-004	......
	33	8.78327	-5.65269E-001	3.87894E-006	1.36600E-004	......
	34	9.0416	-5.53270E-001	3.87894E-006	3.36600E-004	......
	35	9.29993	-5.60319E-001	3.87894E-006	2.36600E-004	......
	36	9.5583	-5.53419E-001	3.87894E-006	2.36600E-004	......
	37	9.8166	-5.51969E-001	3.87894E-006	1.36600E-004	......
	38	10.0749	-5.59420E-001	3.87894E-006	1.36600E-004	......
EOC	QUANT	-0.55942	Open Circuit (V)
PSTATMODEL	IQUANT	32	Pstat Model
PSTATSECTION	LABEL	PStat0	Pstat Section
CTRLMODE	IQUANT	1	Control Mode
IESTAB	IQUANT	0	I/E Stability
CASPEED	IQUANT	1	Control Amp Speed
CONVENTION	IQUANT	1	Current Convention
ICHRANGE	IQUANT	2	Ich Range
ICHRANGEMODE	TOGGLE	F	Ich Auto Range
ICHOFFSETENABLE	TOGGLE	T	Ich Offset Enable
ICHOFFSET	QUANT	0	Ich Offset (V)
ICHFILTER	IQUANT	3	Ich Filter
VCHRANGE	IQUANT	2	Vch Range
VCHRANGEMODE	TOGGLE	F	Vch Auto Range
VCHOFFSETENABLE	TOGGLE	T	Vch Offset Enable
VCHOFFSET	QUANT	0	Vch Offset (V)
VCHFILTER	IQUANT	3	Vch Filter
ACHRANGE	IQUANT	0	Ach Range
IERANGELOWERLIMIT	IQUANT	3	I/E Range Lower Limit
IERANGEMODE	TOGGLE	F	I/E AutoRange
IERANGE	IQUANT	11	I/E Range
POSFEEDENABLE	TOGGLE	F	Positive Feedback IR Comp
POSFEEDRESISTANCE	QUANT	0	Positive Feedback Resistance (ohm)
FC350IDIVISOR	IQUANT	0	FC350 I Divisor
FC350VRANGE	IQUANT	0	FC350 V Range
FRAMEWORKVERSION	QUANT	4.35	Framework Version
ZCURVE	TABLE
	Pt	Time	Freq	Zreal	Zimag	Zsig	Zmod	Zphz	Idc	Vdc	IERange
	#	s	Hz	ohm	ohm	V	ohm	°	A	V	#
	0	4	100007	164.656	-0.552279	1	164.657	-0.192177	4.74649E-006	-0.459367	9
	1	6	89134.1	163.755	-0.742042	1	163.757	-0.259629	4.60423E-006	-0.459354	9
	2	8	79433.6	163.606	-1.3652	1	163.612	-0.47809	4.31579E-006	-0.459374	9
	3	10	70800.8	163.198	-1.38701	1	163.204	-0.486941	4.37401E-006	-0.459352	9
	4	12	63105.5	162.876	-1.6415	1	162.885	-0.577418	4.84599E-006	-0.459381	9
	5	14	56243.5	162.839	-2.1759	1	162.854	-0.765556	4.51263E-006	-0.459359	9
	6	16	50123.7	162.568	-2.78783	1	162.592	-0.98246	4.70785E-006	-0.459386	9
	7	18	44681	162.46	-2.88307	1	162.486	-1.01668	4.01779E-006	-0.459374	9
	8	20	39811.2	162.595	-3.23635	1	162.627	-1.14029	3.68784E-006	-0.459338	9
	9	22	35488.3	162.33	-3.70118	1	162.372	-1.30614	3.90576E-006	-0.459375	9
	10	24	31634.1	162.547	-4.41593	1	162.607	-1.55617	3.44193E-006	-0.459368	9
	11	26	28173.1	162.597	-4.80095	1	162.667	-1.69127	3.31262E-006	-0.459358	9
	12	28	25123.7	163.021	-5.30719	1	163.108	-1.86462	3.77323E-006	-0.459352	9
	13	30	22389.3	162.916	-5.91917	1	163.024	-2.08079	3.76399E-006	-0.459381	9
	14	32	19954.4	163.206	-6.35346	1	163.329	-2.22935	3.45332E-006	-0.459353	9
	15	34	17778.2	163.256	-7.1229	1	163.412	-2.49824	3.10135E-006	-0.459355	9
	16	36	15852.9	163.462	-7.85907	1	163.651	-2.75259	2.85788E-006	-0.459371	9
	17	38	14122.3	163.589	-8.75126	1	163.823	-3.06213	3.0187E-006	-0.459358	9
	18	40	12587.2	163.957	-9.5464	1	164.235	-3.3323	2.7534E-006	-0.459356	9
	19	42	11221.1	164.087	-10.5798	1	164.427	-3.68916	2.82927E-006	-0.45936	9
	20	44	9998.2	164.359	-11.4305	1	164.756	-3.97829	3.32426E-006	-0.459355	9
	21	46	8912.76	164.825	-12.9905	1	165.336	-4.50638	2.4706E-006	-0.459342	9
	22	48	7942.6	164.876	-13.9174	1	165.462	-4.82497	2.7966E-006	-0.459364	9
	23	50	7078.05	165.507	-15.4766	1	166.229	-5.3422	3.06923E-006	-0.459357	9
	24	52	6311.1	165.597	-16.6511	1	166.432	-5.7419	3.14801E-006	-0.459353	9
	25	54	5622.14	166.067	-18.8343	1	167.131	-6.4705	3.1531E-006	-0.459355	9
	26	56	5011.18	166.483	-20.6215	1	167.755	-7.06103	3.2232E-006	-0.459357	9
	27	58	4465.21	167.112	-22.8046	1	168.661	-7.77072	2.82503E-006	-0.459347	9
	28	59	3980.93	167.429	-24.8824	1	169.268	-8.45311	2.97901E-006	-0.459328	9
	29	61	3548.18	168.146	-27.7048	1	170.413	-9.35634	3.03345E-006	-0.459328	9
	30	63	3162.67	168.9	-30.6076	1	171.651	-10.2715	2.91263E-006	-0.459363	9
	31	65	2819.01	169.516	-33.5194	1	172.798	-11.1852	2.97309E-006	-0.459339	9
	32	67	2511.16	170.132	-37.1341	1	174.137	-12.3126	3.05904E-006	-0.459349	9
	33	69	2238.63	170.91	-41.0169	1	175.763	-13.4953	2.80128E-006	-0.459343	9
	34	71	1995.37	172.04	-45.2642	1	177.895	-14.7406	2.39028E-006	-0.459339	9
	35	73	1778.51	172.781	-49.9629	1	179.859	-16.1283	2.38335E-006	-0.459344	9
	36	75	1584.49	173.61	-55.1869	1	182.17	-17.6344	2.5877E-006	-0.459344	9
	37	77	1412.76	174.759	-60.7139	1	185.005	-19.158	2.85012E-006	-0.459336	9
	38	79	1259.04	175.992	-66.835	1	188.256	-20.7948	2.50523E-006	-0.45934	9
	39	81	1121.63	177.188	-74.2447	1	192.114	-22.7345	2.33793E-006	-0.459339	9
	40	83	999.95	178.677	-81.7102	1	196.474	-24.5749	2.78507E-006	-0.459346	9
	41	85	891.184	180.079	-90.6417	1	201.605	-26.7181	2.53579E-006	-0.459353	9
	42	87	794.163	181.229	-99.845	1	206.913	-28.8517	2.25154E-006	-0.459346	9
	43	89	707.867	182.977	-110.72	1	213.868	-31.1783	2.4369E-006	-0.459343	9
	44	91	630.984	185.047	-122.442	1	221.889	-33.4918	2.82499E-006	-0.459347	9
	45	93	562.189	186.927	-135.685	1	230.981	-35.9747	2.9771E-006	-0.459332	9
	46	95	501.303	188.709	-150.343	1	241.275	-38.5441	2.9382E-006	-0.45935	9
	47	97	446.614	190.772	-166.782	1	253.397	-41.1616	2.77109E-006	-0.459354	9
	48	99	398.209	193.016	-185.001	1	267.359	-43.7853	2.94365E-006	-0.459347	9
	49	101	354.821	195.491	-205.348	1	283.522	-46.4087	2.89804E-006	-0.459352	9
	50	103	316.113	198.193	-228.119	1	302.19	-49.0154	2.98454E-006	-0.459346	9
	51	105	281.926	201.146	-253.22	1	323.388	-51.5381	2.96263E-006	-0.459351	9
	52	107	251.185	204.295	-281.355	1	347.703	-54.0162	2.05177E-006	-0.45935	9
	53	109	223.946	207.773	-312.6	1	375.351	-56.3895	1.51304E-006	-0.459356	9
	54	111	199.495	211.81	-348.007	1	407.397	-58.6738	2.16126E-006	-0.459347	9
	55	113	177.836	216.309	-387.011	1	443.359	-60.7982	2.28237E-006	-0.45935	9
	56	115	158.533	221.122	-430.575	1	484.035	-62.8172	2.65371E-006	-0.459351	9
	57	117	141.263	226.723	-479.425	1	530.332	-64.6903	2.54873E-006	-0.459346	9
	58	119	125.911	233.147	-533.861	1	582.55	-66.4082	2.47608E-006	-0.459354	9
	59	121	112.198	240.371	-594.5	1	641.255	-67.9853	2.61713E-006	-0.459346	9
	60	123	100.009	248.433	-662.11	1	707.183	-69.4332	2.62399E-006	-0.459352	9
	61	125	89.1164	257.736	-737.319	1	781.068	-70.7325	2.47044E-006	-0.45935	9
	62	127	79.4083	268.017	-821.754	1	864.357	-71.9361	2.1154E-006	-0.459353	9
	63	129	70.788	280.331	-915.527	1	957.48	-72.9756	2.21676E-006	-0.459353	9
	64	131	63.0971	294.025	-1019.94	1	1061.47	-73.9189	2.17101E-006	-0.459351	9
	65	133	54.5476	317.708	-1168.9	1	1211.31	-74.7943	1.7585E-006	-0.459348	8
	66	135	50.0083	327.902	-1267.38	1	1309.11	-75.4943	1.90012E-006	-0.459351	8
	67	138	46.1675	342.712	-1366.01	1	1408.34	-75.916	1.46567E-006	-0.459359	8
	68	140	40.0059	377.966	-1564.85	1	1609.85	-76.4211	1.86178E-006	-0.459357	8
	69	142	35.3046	412.751	-1761.01	1	1808.74	-76.809	1.65935E-006	-0.459356	8
	70	144	31.5793	452.681	-1954.29	1	2006.03	-76.9583	2.13739E-006	-0.459346	8
	71	146	28.5748	491.673	-2145.26	1	2200.88	-77.0913	2.008E-006	-0.459356	8
	72	148	24.9911	562.973	-2428.01	1	2492.42	-76.9457	2.11816E-006	-0.459363	8
	73	150	22.2195	616.213	-2708.32	1	2777.53	-77.1819	1.95351E-006	-0.459342	8
	74	153	20.0011	713.58	-2978.33	1	3062.62	-76.5265	2.1491E-006	-0.459351	8
	75	155	17.6486	801.198	-3328.79	1	3423.85	-76.467	2.23609E-006	-0.459352	8
	76	157	15.7934	888.911	-3701.65	1	3806.88	-76.4967	1.88838E-006	-0.459355	8
	77	160	14.2828	1057.82	-4054.03	1	4189.77	-75.3759	2.21345E-006	-0.459353	8
	78	162	12.5002	1152.76	-4564.7	1	4708.01	-75.8269	1.49674E-006	-0.459355	8
	79	166	11.323	1314.47	-5071.49	1	5239.07	-75.4694	1.30784E-006	-0.459339	8
	80	169	9.9987	1567.38	-5620.56	1	5835.01	-74.4181	1.39075E-006	-0.459345	8
