EXPLAIN
TAG	EISPOT
TITLE	LABEL	Tomato_open	Test &Identifier
DATE	LABEL	5/15/2006	Date
TIME	LABEL	16:27:20	Time
NOTES	NOTES	1	&Notes...
	
PSTAT	PSTAT	300	Potentiostat
VDC	POTEN	1.00000E-001	T	DC &Voltage (V)
FREQINIT	QUANT	1.00000E+005	Initial Fre&q. (Hz)
FREQFINAL	QUANT	1.00000E+001	Final Fre&q. (Hz)
PTSPERDEC	QUANT	2.00000E+001	Points/&decade
VAC	QUANT	1.00000E+001	AC &Voltage (mV rms)
AREA	QUANT	1.00000E+000	&Area (cm²)
DENSITY	QUANT	7.87000E+000	&Density (gm/cm³)
EQUIV	QUANT	7.00000E+000	Equiv. &Wt
CONDIT	TWOPARAM	F	1.50000E+001	0.00000E+000	Conditionin&g	Time(s)	E(V)
DELAY	TWOPARAM	F	6.00000E+002	0.00000E+000	Init. De&lay	Time(s)	Stab.(mV/s)
SPEED	SELECTOR	1	&Optimize for:
ZGUESS	QUANT	1.00000E+002	E&stimated Z (ohms)
OCVCURVE	TABLE	39
	Pt	T	Vf	Vm	Ach	Over
	#	s	V vs. Ref.	V	V	bits
	0	0.258332	-5.08169E-001	4.65614E-006	2.36600E-004	......
	1	0.516663	-5.16919E-001	4.65614E-006	1.36600E-004	......
	2	0.774994	-5.23419E-001	4.65614E-006	3.66000E-005	......
	3	1.03333	-5.25269E-001	4.65614E-006	1.36600E-004	......
	4	1.29166	-5.26320E-001	4.65614E-006	1.36600E-004	......
	5	1.54999	-5.31919E-001	4.65614E-006	2.36600E-004	......
	6	1.80832	-5.32969E-001	4.65614E-006	3.66000E-005	......
	7	2.06665	-5.35569E-001	4.65614E-006	2.36600E-004	......
	8	2.32498	-5.33469E-001	4.65614E-006	3.36600E-004	......
	9	2.58332	-5.31869E-001	4.65614E-006	2.36600E-004	......
	10	2.84165	-5.33769E-001	4.65614E-006	2.36600E-004	......
	11	3.09998	-5.35219E-001	4.65614E-006	2.36600E-004	......
	12	3.35831	-5.34119E-001	4.65614E-006	3.66000E-005	......
	13	3.61664	-5.35670E-001	4.65614E-006	3.36600E-004	......
	14	3.87497	-5.36720E-001	4.65614E-006	2.36600E-004	......
	15	4.1333	-5.35619E-001	4.65614E-006	2.36600E-004	......
	16	4.39164	-5.37120E-001	4.65614E-006	3.36600E-004	......
	17	4.64997	-5.31969E-001	4.65614E-006	2.36600E-004	......
	18	4.9083	-5.30819E-001	4.65614E-006	3.66000E-005	......
	19	5.16663	-5.36370E-001	4.65614E-006	3.66000E-005	......
	20	5.42496	-5.36819E-001	4.65614E-006	2.36600E-004	......
	21	5.68329	-5.38419E-001	4.65614E-006	2.36600E-004	......
	22	5.94162	-5.40919E-001	4.65614E-006	3.66000E-005	......
	23	6.19996	-5.40119E-001	4.65614E-006	2.36600E-004	......
	24	6.45829	-5.41019E-001	4.65614E-006	2.36600E-004	......
	25	6.71662	-5.31869E-001	4.65614E-006	3.66000E-005	......
	26	6.97495	-5.28470E-001	4.65614E-006	3.66000E-005	......
	27	7.23328	-5.33319E-001	4.65614E-006	2.36600E-004	......
	28	7.49161	-5.36869E-001	4.65614E-006	3.66000E-005	......
	29	7.74995	-5.36619E-001	4.65614E-006	3.66000E-005	......
	30	8.00828	-5.38220E-001	4.65614E-006	1.36600E-004	......
	31	8.26661	-5.42969E-001	4.65614E-006	2.36600E-004	......
	32	8.52494	-5.42669E-001	4.65614E-006	2.36600E-004	......
	33	8.78327	-5.29619E-001	4.65614E-006	2.36600E-004	......
	34	9.0416	-5.22519E-001	4.65614E-006	3.36600E-004	......
	35	9.29993	-5.21569E-001	4.65614E-006	3.36600E-004	......
	36	9.5583	-5.27470E-001	4.65614E-006	2.36600E-004	......
	37	9.8166	-5.18669E-001	4.65614E-006	3.66000E-005	......
	38	10.0749	-5.32219E-001	4.65614E-006	2.36600E-004	......
EOC	QUANT	-0.532219	Open Circuit (V)
PSTATMODEL	IQUANT	32	Pstat Model
PSTATSECTION	LABEL	PStat0	Pstat Section
CTRLMODE	IQUANT	1	Control Mode
IESTAB	IQUANT	0	I/E Stability
CASPEED	IQUANT	1	Control Amp Speed
CONVENTION	IQUANT	1	Current Convention
ICHRANGE	IQUANT	2	Ich Range
ICHRANGEMODE	TOGGLE	F	Ich Auto Range
ICHOFFSETENABLE	TOGGLE	T	Ich Offset Enable
ICHOFFSET	QUANT	0	Ich Offset (V)
ICHFILTER	IQUANT	3	Ich Filter
VCHRANGE	IQUANT	2	Vch Range
VCHRANGEMODE	TOGGLE	F	Vch Auto Range
VCHOFFSETENABLE	TOGGLE	T	Vch Offset Enable
VCHOFFSET	QUANT	0	Vch Offset (V)
VCHFILTER	IQUANT	3	Vch Filter
ACHRANGE	IQUANT	0	Ach Range
IERANGELOWERLIMIT	IQUANT	3	I/E Range Lower Limit
IERANGEMODE	TOGGLE	F	I/E AutoRange
IERANGE	IQUANT	11	I/E Range
POSFEEDENABLE	TOGGLE	F	Positive Feedback IR Comp
POSFEEDRESISTANCE	QUANT	0	Positive Feedback Resistance (ohm)
FC350IDIVISOR	IQUANT	0	FC350 I Divisor
FC350VRANGE	IQUANT	0	FC350 V Range
FRAMEWORKVERSION	QUANT	4.35	Framework Version
ZCURVE	TABLE
	Pt	Time	Freq	Zreal	Zimag	Zsig	Zmod	Zphz	Idc	Vdc	IERange
	#	s	Hz	ohm	ohm	V	ohm	°	A	V	#
	0	4	100007	165.121	-0.34614	1	165.122	-0.120107	5.02224E-006	-0.432204	9
	1	6	89134.1	164.34	-0.650703	1	164.342	-0.22686	5.23448E-006	-0.432214	9
	2	8	79433.6	163.976	-1.26689	1	163.981	-0.442663	5.06845E-006	-0.432184	9
	3	10	70800.8	163.32	-1.48448	1	163.327	-0.520768	4.62712E-006	-0.432186	9
	4	12	63105.5	162.988	-2.02161	1	163.001	-0.710627	4.75281E-006	-0.432212	9
	5	13	56243.5	163.278	-2.17248	1	163.292	-0.762298	4.6641E-006	-0.432191	9
	6	15	50123.7	162.814	-2.79145	1	162.838	-0.98224	4.78426E-006	-0.432185	9
	7	17	44681	162.919	-2.88592	1	162.945	-1.01482	4.34762E-006	-0.432216	9
	8	19	39811.2	162.867	-3.24514	1	162.9	-1.14147	4.16087E-006	-0.432184	9
	9	21	35488.3	163.015	-3.83779	1	163.06	-1.34864	4.17221E-006	-0.432187	9
	10	23	31634.1	162.89	-4.3927	1	162.949	-1.54474	3.78221E-006	-0.43219	9
	11	25	28173.1	162.964	-4.91821	1	163.038	-1.72865	3.79101E-006	-0.432197	9
	12	27	25123.7	162.977	-5.47525	1	163.069	-1.92414	3.79995E-006	-0.432188	9
	13	29	22389.3	163.119	-5.88016	1	163.225	-2.06452	3.95421E-006	-0.432176	9
	14	31	19954.4	163.379	-6.48293	1	163.507	-2.27233	4.07199E-006	-0.432205	9
	15	33	17778.2	163.74	-7.22634	1	163.899	-2.527	3.95518E-006	-0.432197	9
	16	35	15852.9	163.896	-7.88989	1	164.085	-2.75607	4.03603E-006	-0.432209	9
	17	37	14122.3	163.976	-8.3594	1	164.189	-2.91838	3.9269E-006	-0.432179	9
	18	39	12587.2	164.189	-9.5742	1	164.468	-3.33727	3.79387E-006	-0.432191	9
	19	41	11221.1	164.538	-10.6669	1	164.883	-3.70928	3.81448E-006	-0.432186	9
	20	43	9998.2	164.853	-11.5523	1	165.257	-4.00853	3.90703E-006	-0.43219	9
	21	45	8912.76	164.943	-12.9003	1	165.447	-4.47204	3.55678E-006	-0.432171	9
	22	47	7942.6	165.175	-14.1299	1	165.779	-4.88944	3.75238E-006	-0.432183	9
	23	49	7078.05	165.54	-15.4915	1	166.263	-5.34625	3.51207E-006	-0.432186	9
	24	51	6311.1	166.188	-16.9279	1	167.048	-5.81607	3.68579E-006	-0.432189	9
	25	53	5622.14	166.464	-18.9138	1	167.535	-6.48222	3.66418E-006	-0.43218	9
	26	55	5011.18	166.754	-20.6509	1	168.028	-7.0596	3.80057E-006	-0.43219	9
	27	57	4465.21	167.481	-22.76	1	169.02	-7.73888	3.57479E-006	-0.432189	9
	28	59	3980.93	167.891	-24.9769	1	169.738	-8.46179	3.34938E-006	-0.43218	9
	29	61	3548.18	168.568	-27.3859	1	170.778	-9.22774	3.21337E-006	-0.432187	9
	30	63	3162.67	169.148	-30.6962	1	171.911	-10.2858	3.32376E-006	-0.432169	9
	31	65	2819.01	169.789	-33.5148	1	173.065	-11.1662	2.59934E-006	-0.432166	9
	32	67	2511.16	170.54	-37.1765	1	174.545	-12.2977	3.4422E-006	-0.432188	9
	33	69	2238.63	171.387	-40.6971	1	176.153	-13.3579	3.82529E-006	-0.432184	9
	34	71	1995.37	172	-45.2609	1	177.856	-14.7428	4.01034E-006	-0.43218	9
	35	73	1778.51	173.318	-50.0615	1	180.403	-16.1109	3.69903E-006	-0.432184	9
	36	75	1584.49	174.292	-54.9875	1	182.76	-17.51	3.28246E-006	-0.432187	9
	37	77	1412.76	175.137	-60.7969	1	185.39	-19.1439	3.73834E-006	-0.432181	9
	38	79	1259.04	176.319	-67.0255	1	188.629	-20.8137	3.30206E-006	-0.432186	9
	39	80	1121.63	177.694	-74.0063	1	192.489	-22.6108	3.36287E-006	-0.432182	9
	40	82	999.95	179.076	-81.8292	1	196.886	-24.5582	3.46513E-006	-0.432178	9
	41	84	891.184	180.079	-90.4635	1	201.525	-26.6728	2.95848E-006	-0.432175	9
	42	86	794.163	181.971	-99.846	1	207.564	-28.7532	3.06992E-006	-0.432171	9
	43	88	707.867	183.615	-110.321	1	214.208	-30.9986	3.30753E-006	-0.432197	9
	44	90	630.984	185.354	-122.181	1	222.001	-33.3918	3.19281E-006	-0.432169	9
	45	92	562.189	187.117	-135.812	1	231.209	-35.9728	2.49692E-006	-0.432201	9
	46	94	501.303	189.114	-150.161	1	241.479	-38.4504	2.9579E-006	-0.432168	9
	47	96	446.614	191.165	-166.565	1	253.551	-41.066	2.34573E-006	-0.432169	9
	48	98	398.209	193.418	-184.745	1	267.471	-43.6862	2.66742E-006	-0.432166	9
	49	100	354.821	195.91	-205.054	1	283.598	-46.3063	2.82156E-006	-0.43217	9
	50	102	316.113	198.645	-227.84	1	302.276	-48.9161	2.9707E-006	-0.432171	9
	51	104	281.926	201.575	-252.936	1	323.433	-51.4472	3.08973E-006	-0.432174	9
	52	106	251.185	204.894	-281.134	1	347.876	-53.915	2.92929E-006	-0.432173	9
	53	108	223.946	208.408	-312.377	1	375.517	-56.2901	2.90481E-006	-0.432171	9
	54	110	199.495	212.454	-347.573	1	407.362	-58.5646	3.02057E-006	-0.432174	9
	55	112	177.836	216.799	-386.534	1	443.182	-60.7129	2.9547E-006	-0.432169	9
	56	114	158.533	221.778	-430.002	1	483.826	-62.7171	2.84687E-006	-0.432174	9
	57	116	141.263	227.406	-478.769	1	530.032	-64.5932	2.74386E-006	-0.432183	9
	58	118	125.911	234.077	-533.151	1	582.273	-66.2964	3.03003E-006	-0.432175	9
	59	120	112.198	240.592	-593.498	1	640.41	-67.9334	2.61788E-006	-0.432179	9
	60	122	100.009	248.061	-660.71	1	705.742	-69.4215	2.29529E-006	-0.432179	9
	61	124	89.1164	256.999	-736.17	1	779.74	-70.7558	2.25175E-006	-0.432181	9
	62	127	79.4083	267.544	-819.846	1	862.397	-71.9267	2.34354E-006	-0.43219	9
	63	129	70.788	280.174	-913.484	1	955.48	-72.9487	2.38607E-006	-0.432186	9
	64	131	63.0971	292.951	-1018.47	1	1059.77	-73.9527	2.43528E-006	-0.432191	9
	65	133	54.5476	315.021	-1165.55	1	1207.37	-74.8757	1.80336E-006	-0.432184	8
	66	135	50.0083	327.993	-1265.54	1	1307.35	-75.4703	1.75002E-006	-0.432187	8
	67	137	46.1675	342.981	-1364.14	1	1406.6	-75.8869	1.92348E-006	-0.432193	8
	68	139	40.0059	373.011	-1561.73	1	1605.66	-76.5669	1.79673E-006	-0.432195	8
	69	141	35.3046	406.351	-1754.86	1	1801.29	-76.9625	1.77372E-006	-0.432189	8
	70	143	31.5793	439.333	-1944.61	1	1993.62	-77.2692	1.46744E-006	-0.432191	8
	71	145	28.5748	477.582	-2138.54	1	2191.22	-77.4112	1.78505E-006	-0.432189	8
	72	147	24.9911	533.94	-2433.22	1	2491.12	-77.6233	1.58908E-006	-0.432195	8
	73	150	22.2195	586.615	-2708.57	1	2771.37	-77.7798	1.58133E-006	-0.432191	8
	74	152	20.0011	657.22	-2989.57	1	3060.96	-77.6014	1.71525E-006	-0.432201	8
	75	155	17.6486	784.615	-3375.29	1	3465.29	-76.9135	1.97342E-006	-0.432191	8
	76	157	15.7934	873.097	-3719.71	1	3820.8	-76.7906	1.91215E-006	-0.432189	8
	77	159	14.2828	993.38	-4093.93	1	4212.73	-76.361	1.96188E-006	-0.432194	8
	78	161	12.5002	1162.28	-4588.28	1	4733.2	-75.7851	2.0932E-006	-0.432198	8
	79	164	11.323	1347.06	-5004.03	1	5182.17	-74.9334	2.22643E-006	-0.432201	8
	80	166	9.9987	1657.25	-5627.92	1	5866.85	-73.5919	2.23714E-006	-0.432196	8
