EXPLAIN
TAG	EISPOT
TITLE	LABEL	Tomato_open	Test &Identifier
DATE	LABEL	5/12/2006	Date
TIME	LABEL	11:19:28	Time
NOTES	NOTES	1	&Notes...
	
PSTAT	PSTAT	300	Potentiostat
VDC	POTEN	1.00000E-001	T	DC &Voltage (V)
FREQINIT	QUANT	1.00000E+005	Initial Fre&q. (Hz)
FREQFINAL	QUANT	1.00000E+001	Final Fre&q. (Hz)
PTSPERDEC	QUANT	2.00000E+001	Points/&decade
VAC	QUANT	1.00000E+001	AC &Voltage (mV rms)
AREA	QUANT	1.00000E+000	&Area (cm²)
DENSITY	QUANT	7.87000E+000	&Density (gm/cm³)
EQUIV	QUANT	7.00000E+000	Equiv. &Wt
CONDIT	TWOPARAM	F	1.50000E+001	0.00000E+000	Conditionin&g	Time(s)	E(V)
DELAY	TWOPARAM	F	6.00000E+002	0.00000E+000	Init. De&lay	Time(s)	Stab.(mV/s)
SPEED	SELECTOR	1	&Optimize for:
ZGUESS	QUANT	1.00000E+002	E&stimated Z (ohms)
OCVCURVE	TABLE	39
	Pt	T	Vf	Vm	Ach	Over
	#	s	V vs. Ref.	V	V	bits
	0	0.258332	-5.29669E-001	5.12394E-006	-6.34000E-005	......
	1	0.516663	-5.31569E-001	5.12394E-006	3.36600E-004	......
	2	0.774994	-5.33019E-001	5.12394E-006	3.66000E-005	......
	3	1.03333	-5.33520E-001	5.12394E-006	3.36600E-004	......
	4	1.29166	-5.34570E-001	5.12394E-006	-6.34000E-005	......
	5	1.54999	-5.35969E-001	5.12394E-006	2.36600E-004	......
	6	1.80832	-5.36819E-001	5.12394E-006	-6.34000E-005	......
	7	2.06665	-5.37069E-001	5.12394E-006	2.36600E-004	......
	8	2.32498	-5.37069E-001	5.12394E-006	3.66000E-005	......
	9	2.58332	-5.36469E-001	5.12394E-006	2.36600E-004	......
	10	2.84165	-5.34169E-001	5.12394E-006	3.66000E-005	......
	11	3.09998	-5.32919E-001	5.12394E-006	3.36600E-004	......
	12	3.35831	-5.32869E-001	5.12394E-006	-1.63400E-004	......
	13	3.61664	-5.32169E-001	5.12394E-006	2.36600E-004	......
	14	3.87497	-5.31370E-001	5.12394E-006	1.36600E-004	......
	15	4.1333	-5.31370E-001	5.12394E-006	3.36600E-004	......
	16	4.39164	-5.31019E-001	5.12394E-006	3.66000E-005	......
	17	4.64997	-5.31319E-001	5.12394E-006	3.36600E-004	......
	18	4.9083	-5.32070E-001	5.12394E-006	3.66000E-005	......
	19	5.16663	-5.32569E-001	5.12394E-006	3.36600E-004	......
	20	5.42496	-5.32869E-001	5.12394E-006	-6.34000E-005	......
	21	5.68329	-5.33369E-001	5.12394E-006	1.36600E-004	......
	22	5.94162	-5.33919E-001	5.12394E-006	3.66000E-005	......
	23	6.19996	-5.34669E-001	5.12394E-006	2.36600E-004	......
	24	6.45829	-5.35119E-001	5.12394E-006	3.66000E-005	......
	25	6.71662	-5.35419E-001	5.12394E-006	2.36600E-004	......
	26	6.97495	-5.35169E-001	5.12394E-006	-6.34000E-005	......
	27	7.23328	-5.35320E-001	5.12394E-006	2.36600E-004	......
	28	7.49161	-5.33919E-001	5.12394E-006	-6.34000E-005	......
	29	7.74995	-5.32969E-001	5.12394E-006	2.36600E-004	......
	30	8.00828	-5.32770E-001	5.12394E-006	-6.34000E-005	......
	31	8.26661	-5.32669E-001	5.12394E-006	2.36600E-004	......
	32	8.52494	-5.32470E-001	5.12394E-006	-6.34000E-005	......
	33	8.78327	-5.31669E-001	5.12394E-006	2.36600E-004	......
	34	9.0416	-5.31869E-001	5.12394E-006	-6.34000E-005	......
	35	9.29993	-5.32269E-001	5.12394E-006	2.36600E-004	......
	36	9.5583	-5.32819E-001	5.12394E-006	3.66000E-005	......
	37	9.8166	-5.33219E-001	5.12394E-006	2.36600E-004	......
	38	10.0749	-5.33620E-001	5.12394E-006	-6.34000E-005	......
EOC	QUANT	-0.53362	Open Circuit (V)
PSTATMODEL	IQUANT	32	Pstat Model
PSTATSECTION	LABEL	PStat0	Pstat Section
CTRLMODE	IQUANT	1	Control Mode
IESTAB	IQUANT	0	I/E Stability
CASPEED	IQUANT	1	Control Amp Speed
CONVENTION	IQUANT	1	Current Convention
ICHRANGE	IQUANT	2	Ich Range
ICHRANGEMODE	TOGGLE	F	Ich Auto Range
ICHOFFSETENABLE	TOGGLE	T	Ich Offset Enable
ICHOFFSET	QUANT	0	Ich Offset (V)
ICHFILTER	IQUANT	3	Ich Filter
VCHRANGE	IQUANT	2	Vch Range
VCHRANGEMODE	TOGGLE	F	Vch Auto Range
VCHOFFSETENABLE	TOGGLE	T	Vch Offset Enable
VCHOFFSET	QUANT	0	Vch Offset (V)
VCHFILTER	IQUANT	3	Vch Filter
ACHRANGE	IQUANT	0	Ach Range
IERANGELOWERLIMIT	IQUANT	3	I/E Range Lower Limit
IERANGEMODE	TOGGLE	F	I/E AutoRange
IERANGE	IQUANT	11	I/E Range
POSFEEDENABLE	TOGGLE	F	Positive Feedback IR Comp
POSFEEDRESISTANCE	QUANT	0	Positive Feedback Resistance (ohm)
FC350IDIVISOR	IQUANT	0	FC350 I Divisor
FC350VRANGE	IQUANT	0	FC350 V Range
FRAMEWORKVERSION	QUANT	4.35	Framework Version
ZCURVE	TABLE
	Pt	Time	Freq	Zreal	Zimag	Zsig	Zmod	Zphz	Idc	Vdc	IERange
	#	s	Hz	ohm	ohm	V	ohm	°	A	V	#
	0	4	100007	171.837	0.258849	1	171.837	0.086308	1.73893E-006	-0.433416	9
	1	6	89134.1	171.283	-0.430687	1	171.284	-0.144068	1.7582E-006	-0.433457	9
	2	8	79433.6	170.585	-0.721896	1	170.587	-0.242467	1.80612E-006	-0.433464	9
	3	10	70800.8	170.327	-0.97198	1	170.329	-0.32696	1.89237E-006	-0.433481	9
	4	12	63105.5	169.991	-1.69666	1	170	-0.571843	1.6299E-006	-0.433438	9
	5	13	56243.5	170.092	-1.66231	1	170.101	-0.559932	1.88763E-006	-0.433472	9
	6	15	50123.7	169.731	-2.07758	1	169.744	-0.701288	1.86649E-006	-0.433462	9
	7	17	44681	169.549	-2.51626	1	169.567	-0.85026	2.03287E-006	-0.433467	9
	8	19	39811.2	169.712	-2.74689	1	169.734	-0.927285	1.82843E-006	-0.433428	9
	9	21	35488.3	169.328	-3.08299	1	169.356	-1.04308	1.98887E-006	-0.433465	9
	10	23	31634.1	169.682	-3.63335	1	169.721	-1.22667	1.84363E-006	-0.433439	9
	11	25	28173.1	169.628	-4.04573	1	169.676	-1.36628	1.91256E-006	-0.433471	9
	12	27	25123.7	169.834	-4.65037	1	169.898	-1.56847	1.9906E-006	-0.433434	9
	13	29	22389.3	169.732	-5.07248	1	169.807	-1.71179	2.10329E-006	-0.433452	9
	14	31	19954.4	169.911	-5.71095	1	170.007	-1.92506	2.12576E-006	-0.43346	9
	15	33	17778.2	169.913	-6.18917	1	170.026	-2.0861	2.11371E-006	-0.433446	9
	16	35	15852.9	170.146	-6.88231	1	170.285	-2.31632	2.03923E-006	-0.433472	9
	17	37	14122.3	170.25	-7.64304	1	170.421	-2.57046	2.05487E-006	-0.433451	9
	18	39	12587.2	170.623	-8.60177	1	170.84	-2.88606	2.09449E-006	-0.433459	9
	19	41	11221.1	170.538	-9.39408	1	170.796	-3.15296	2.02485E-006	-0.433455	9
	20	43	9998.2	170.822	-10.5832	1	171.149	-3.54521	2.0454E-006	-0.433454	9
	21	45	8912.76	171.164	-11.1129	1	171.524	-3.71473	1.97081E-006	-0.433462	9
	22	47	7942.6	171.238	-12.7331	1	171.71	-4.25265	1.98381E-006	-0.433455	9
	23	49	7078.05	171.302	-14.1861	1	171.889	-4.73405	2.06457E-006	-0.433452	9
	24	51	6311.1	171.641	-15.5116	1	172.34	-5.16394	1.90017E-006	-0.433462	9
	25	53	5622.14	171.938	-16.997	1	172.776	-5.64564	1.90254E-006	-0.433453	9
	26	55	5011.18	172.355	-18.7363	1	173.37	-6.20413	2.37323E-006	-0.433458	9
	27	57	4465.21	172.751	-21.1915	1	174.046	-6.99359	2.80743E-006	-0.433446	9
	28	59	3980.93	173.179	-23.3367	1	174.744	-7.67466	2.84596E-006	-0.43346	9
	29	61	3548.18	173.251	-25.9575	1	175.185	-8.52101	3.01023E-006	-0.433462	9
	30	63	3162.67	173.94	-28.624	1	176.28	-9.34498	2.96446E-006	-0.433436	9
	31	65	2819.01	174.292	-31.7473	1	177.16	-10.3233	3.11121E-006	-0.433449	9
	32	67	2511.16	175.09	-35.2529	1	178.604	-11.3838	3.07229E-006	-0.433462	9
	33	69	2238.63	175.399	-39.1574	1	179.717	-12.5848	3.05481E-006	-0.433461	9
	34	71	1995.37	176.023	-43.4745	1	181.312	-13.8734	3.0796E-006	-0.433461	9
	35	73	1778.51	176.7	-47.6932	1	183.024	-15.1048	3.22059E-006	-0.433445	9
	36	75	1584.49	177.428	-53.2945	1	185.259	-16.7189	3.22462E-006	-0.433455	9
	37	77	1412.76	178.508	-59.0558	1	188.023	-18.3057	3.31024E-006	-0.43347	9
	38	79	1259.04	179.526	-65.4071	1	191.069	-20.0183	3.03195E-006	-0.433447	9
	39	81	1121.63	180.578	-72.5346	1	194.602	-21.8843	3.13588E-006	-0.433451	9
	40	83	999.95	181.763	-80.6953	1	198.871	-23.9392	3.10256E-006	-0.433452	9
	41	85	891.184	182.893	-89.3321	1	203.544	-26.0326	3.03249E-006	-0.433453	9
	42	87	794.163	184.397	-99.05	1	209.316	-28.2429	3.03712E-006	-0.433452	9
	43	89	707.867	185.788	-110.21	1	216.017	-30.6765	3.02924E-006	-0.433474	9
	44	91	630.984	187.618	-121.99	1	223.79	-33.0321	2.91226E-006	-0.433456	9
	45	93	562.189	189.711	-135.585	1	233.181	-35.5532	2.86734E-006	-0.433462	9
	46	95	501.303	191.518	-150.313	1	243.461	-38.1265	3.07353E-006	-0.433449	9
	47	97	446.614	193.714	-166.949	1	255.729	-40.7559	3.03979E-006	-0.433446	9
	48	99	398.209	196.152	-185.338	1	269.863	-43.3763	2.88571E-006	-0.43345	9
	49	101	354.821	198.843	-205.852	1	286.206	-45.9922	2.8947E-006	-0.433453	9
	50	102	316.113	201.83	-228.708	1	305.029	-48.5722	3.03229E-006	-0.43346	9
	51	104	281.926	205.14	-253.892	1	326.41	-51.0624	3.17459E-006	-0.433458	9
	52	107	251.185	208.814	-282.14	1	351.007	-53.4945	3.06931E-006	-0.433455	9
	53	109	223.946	212.875	-313.417	1	378.875	-55.8154	3.13054E-006	-0.433454	9
	54	111	199.495	217.407	-348.379	1	410.651	-58.0337	3.00471E-006	-0.433454	9
	55	113	177.836	222.261	-387.136	1	446.402	-60.1391	2.76424E-006	-0.433452	9
	56	115	158.533	227.787	-430.244	1	486.823	-62.1015	2.74873E-006	-0.43345	9
	57	117	141.263	234.027	-478.353	1	532.532	-63.9305	2.74743E-006	-0.433449	9
	58	119	125.911	240.897	-531.769	1	583.789	-65.629	2.75592E-006	-0.433452	9
	59	121	112.198	248.528	-591.221	1	641.333	-67.1998	2.6051E-006	-0.433452	9
	60	123	100.009	257.11	-657.329	1	705.824	-68.6374	2.62159E-006	-0.433447	9
	61	125	89.1164	266.881	-730.94	1	778.138	-69.9418	2.64678E-006	-0.433447	9
	62	127	79.4083	277.466	-812.92	1	858.968	-71.1542	2.67576E-006	-0.433451	9
	63	129	70.788	289.49	-903.848	1	949.076	-72.2404	2.6759E-006	-0.433444	9
	64	131	63.0971	303.25	-1005.15	1	1049.9	-73.2116	2.58374E-006	-0.433457	9
	65	133	54.5476	322.216	-1148.52	1	1192.86	-74.3286	1.84405E-006	-0.433453	8
	66	135	50.0083	334.931	-1244.29	1	1288.58	-74.9345	1.7805E-006	-0.433453	8
	67	137	46.1675	347.399	-1339.75	1	1384.06	-75.4633	1.64723E-006	-0.433452	8
	68	139	40.0059	373.861	-1529.4	1	1574.44	-76.2635	1.66575E-006	-0.433451	8
	69	142	35.3046	400.175	-1716.84	1	1762.86	-76.8793	1.66731E-006	-0.433452	8
	70	144	31.5793	429.633	-1904.37	1	1952.23	-77.2867	1.92207E-006	-0.433454	8
	71	146	28.5748	461.002	-2087.5	1	2137.8	-77.5467	1.94128E-006	-0.433457	8
	72	148	24.9911	500.603	-2363.13	1	2415.57	-78.0393	1.80239E-006	-0.433456	8
	73	150	22.2195	547.303	-2631.7	1	2688	-78.2519	1.9694E-006	-0.433455	8
	74	153	20.0011	602.601	-2900.67	1	2962.6	-78.264	2.05533E-006	-0.433448	8
	75	155	17.6486	655.826	-3257.28	1	3322.65	-78.6162	2.07529E-006	-0.433447	8
	76	157	15.7934	723.447	-3607.91	1	3679.72	-78.6616	2.01429E-006	-0.433449	8
	77	159	14.2828	825.123	-3966.3	1	4051.22	-78.2482	2.32212E-006	-0.433454	8
	78	162	12.5002	953.34	-4475.03	1	4575.45	-77.9738	2.36721E-006	-0.433455	8
	79	164	11.323	1055.81	-4899.25	1	5011.73	-77.8385	2.65922E-006	-0.433457	8
	80	167	9.9987	1273.15	-5517.52	1	5662.5	-77.0066	2.99617E-006	-0.43346	8
