EXPLAIN
TAG	EISPOT
TITLE	LABEL	Tomato_open	Test &Identifier
DATE	LABEL	5/12/2006	Date
TIME	LABEL	11:04:29	Time
NOTES	NOTES	1	&Notes...
	
PSTAT	PSTAT	300	Potentiostat
VDC	POTEN	1.00000E-001	T	DC &Voltage (V)
FREQINIT	QUANT	1.00000E+005	Initial Fre&q. (Hz)
FREQFINAL	QUANT	1.00000E+001	Final Fre&q. (Hz)
PTSPERDEC	QUANT	2.00000E+001	Points/&decade
VAC	QUANT	1.00000E+001	AC &Voltage (mV rms)
AREA	QUANT	1.00000E+000	&Area (cm²)
DENSITY	QUANT	7.87000E+000	&Density (gm/cm³)
EQUIV	QUANT	7.00000E+000	Equiv. &Wt
CONDIT	TWOPARAM	F	1.50000E+001	0.00000E+000	Conditionin&g	Time(s)	E(V)
DELAY	TWOPARAM	F	6.00000E+002	0.00000E+000	Init. De&lay	Time(s)	Stab.(mV/s)
SPEED	SELECTOR	1	&Optimize for:
ZGUESS	QUANT	1.00000E+002	E&stimated Z (ohms)
OCVCURVE	TABLE	39
	Pt	T	Vf	Vm	Ach	Over
	#	s	V vs. Ref.	V	V	bits
	0	0.258332	-5.42870E-001	3.96124E-006	-6.34000E-005	......
	1	0.516663	-5.43419E-001	3.96124E-006	-1.63400E-004	......
	2	0.774994	-5.44019E-001	3.96124E-006	-1.63400E-004	......
	3	1.03333	-5.44620E-001	3.96124E-006	-1.63400E-004	......
	4	1.29166	-5.45219E-001	3.96124E-006	3.66000E-005	......
	5	1.54999	-5.45569E-001	3.96124E-006	-1.63400E-004	......
	6	1.80832	-5.45969E-001	3.96124E-006	-6.34000E-005	......
	7	2.06665	-5.46520E-001	3.96124E-006	-1.63400E-004	......
	8	2.32498	-5.46869E-001	3.96124E-006	-1.63400E-004	......
	9	2.58332	-5.46869E-001	3.96124E-006	-2.63400E-004	......
	10	2.84165	-5.47220E-001	3.96124E-006	-6.34000E-005	......
	11	3.09998	-5.47669E-001	3.96124E-006	-1.63400E-004	......
	12	3.35831	-5.47520E-001	3.96124E-006	-6.34000E-005	......
	13	3.61664	-5.47570E-001	3.96124E-006	-1.63400E-004	......
	14	3.87497	-5.47819E-001	3.96124E-006	-1.63400E-004	......
	15	4.1333	-5.47619E-001	3.96124E-006	-1.63400E-004	......
	16	4.39164	-5.47819E-001	3.96124E-006	-6.34000E-005	......
	17	4.64997	-5.48619E-001	3.96124E-006	-1.63400E-004	......
	18	4.9083	-5.49219E-001	3.96124E-006	-1.63400E-004	......
	19	5.16663	-5.49670E-001	3.96124E-006	-6.34000E-005	......
	20	5.42496	-5.50169E-001	3.96124E-006	3.66000E-005	......
	21	5.68329	-5.50569E-001	3.96124E-006	-1.63400E-004	......
	22	5.94162	-5.50869E-001	3.96124E-006	-1.63400E-004	......
	23	6.19996	-5.50119E-001	3.96124E-006	-1.63400E-004	......
	24	6.45829	-5.49419E-001	3.96124E-006	3.66000E-005	......
	25	6.71662	-5.48919E-001	3.96124E-006	-6.34000E-005	......
	26	6.97495	-5.48819E-001	3.96124E-006	-6.34000E-005	......
	27	7.23328	-5.48669E-001	3.96124E-006	-1.63400E-004	......
	28	7.49161	-5.49019E-001	3.96124E-006	-1.63400E-004	......
	29	7.74995	-5.49269E-001	3.96124E-006	-1.63400E-004	......
	30	8.00828	-5.49519E-001	3.96124E-006	-1.63400E-004	......
	31	8.26661	-5.49569E-001	3.96124E-006	-2.63400E-004	......
	32	8.52494	-5.49670E-001	3.96124E-006	-1.63400E-004	......
	33	8.78327	-5.49969E-001	3.96124E-006	-1.63400E-004	......
	34	9.0416	-5.50519E-001	3.96124E-006	-6.34000E-005	......
	35	9.29993	-5.50869E-001	3.96124E-006	-1.63400E-004	......
	36	9.5583	-5.51269E-001	3.96124E-006	-1.63400E-004	......
	37	9.8166	-5.51569E-001	3.96124E-006	-6.34000E-005	......
	38	10.0749	-5.51869E-001	3.96124E-006	-1.63400E-004	......
EOC	QUANT	-0.551869	Open Circuit (V)
PSTATMODEL	IQUANT	32	Pstat Model
PSTATSECTION	LABEL	PStat0	Pstat Section
CTRLMODE	IQUANT	1	Control Mode
IESTAB	IQUANT	0	I/E Stability
CASPEED	IQUANT	1	Control Amp Speed
CONVENTION	IQUANT	1	Current Convention
ICHRANGE	IQUANT	2	Ich Range
ICHRANGEMODE	TOGGLE	F	Ich Auto Range
ICHOFFSETENABLE	TOGGLE	T	Ich Offset Enable
ICHOFFSET	QUANT	0	Ich Offset (V)
ICHFILTER	IQUANT	3	Ich Filter
VCHRANGE	IQUANT	2	Vch Range
VCHRANGEMODE	TOGGLE	F	Vch Auto Range
VCHOFFSETENABLE	TOGGLE	T	Vch Offset Enable
VCHOFFSET	QUANT	0	Vch Offset (V)
VCHFILTER	IQUANT	3	Vch Filter
ACHRANGE	IQUANT	0	Ach Range
IERANGELOWERLIMIT	IQUANT	3	I/E Range Lower Limit
IERANGEMODE	TOGGLE	F	I/E AutoRange
IERANGE	IQUANT	11	I/E Range
POSFEEDENABLE	TOGGLE	F	Positive Feedback IR Comp
POSFEEDRESISTANCE	QUANT	0	Positive Feedback Resistance (ohm)
FC350IDIVISOR	IQUANT	0	FC350 I Divisor
FC350VRANGE	IQUANT	0	FC350 V Range
FRAMEWORKVERSION	QUANT	4.35	Framework Version
ZCURVE	TABLE
	Pt	Time	Freq	Zreal	Zimag	Zsig	Zmod	Zphz	Idc	Vdc	IERange
	#	s	Hz	ohm	ohm	V	ohm	°	A	V	#
	0	4	100007	172.101	-0.486942	1	172.102	-0.162112	2.03284E-006	-0.451635	9
	1	6	89134.1	171.336	-0.416998	1	171.336	-0.139447	1.82382E-006	-0.451617	9
	2	8	79433.6	171.121	-0.97331	1	171.124	-0.325885	2.00521E-006	-0.451624	9
	3	10	70800.8	170.767	-0.99805	1	170.77	-0.334862	1.95624E-006	-0.451622	9
	4	12	63105.5	170.496	-1.19803	1	170.5	-0.402595	2.16353E-006	-0.451643	9
	5	14	56243.5	170.273	-1.74976	1	170.282	-0.588762	2.03107E-006	-0.451607	9
	6	16	50123.7	170.152	-2.21711	1	170.167	-0.74653	2.23824E-006	-0.451649	9
	7	18	44681	170.195	-2.4825	1	170.213	-0.835667	2.3029E-006	-0.451647	9
	8	20	39811.2	170.027	-2.91191	1	170.052	-0.98116	2.3801E-006	-0.451603	9
	9	22	35488.3	169.807	-3.29284	1	169.839	-1.11092	2.48017E-006	-0.451617	9
	10	24	31634.1	170.108	-3.60909	1	170.146	-1.21543	2.56643E-006	-0.451655	9
	11	26	28173.1	170.137	-4.04297	1	170.185	-1.36126	2.74051E-006	-0.451631	9
	12	28	25123.7	170.255	-4.44663	1	170.313	-1.49608	3.26998E-006	-0.451625	9
	13	30	22389.3	170.364	-5.31934	1	170.447	-1.78838	3.52492E-006	-0.451619	9
	14	32	19954.4	170.19	-5.59894	1	170.283	-1.88424	3.6119E-006	-0.45163	9
	15	34	17778.2	170.57	-6.12754	1	170.68	-2.0574	3.52618E-006	-0.451626	9
	16	35	15852.9	170.707	-7.05563	1	170.853	-2.36679	3.14282E-006	-0.451617	9
	17	37	14122.3	170.558	-7.94497	1	170.743	-2.66704	3.4121E-006	-0.451617	9
	18	39	12587.2	171.008	-8.5747	1	171.223	-2.87052	3.42559E-006	-0.451636	9
	19	41	11221.1	171.135	-9.41351	1	171.394	-3.14845	3.29068E-006	-0.451622	9
	20	43	9998.2	171.179	-10.3989	1	171.495	-3.47637	3.50532E-006	-0.45164	9
	21	45	8912.76	171.471	-11.3297	1	171.844	-3.78025	2.96617E-006	-0.451633	9
	22	47	7942.6	171.655	-12.7719	1	172.129	-4.25521	2.96603E-006	-0.451636	9
	23	49	7078.05	172.028	-14.0776	1	172.603	-4.67827	2.69845E-006	-0.451639	9
	24	51	6311.1	172.221	-15.4087	1	172.908	-5.11269	2.67032E-006	-0.451629	9
	25	53	5622.14	172.49	-17.0119	1	173.327	-5.6326	2.61476E-006	-0.451625	9
	26	55	5011.18	172.91	-19.1202	1	173.964	-6.31007	2.57274E-006	-0.451632	9
	27	57	4465.21	173.082	-20.9577	1	174.346	-6.90406	2.67993E-006	-0.451625	9
	28	59	3980.93	173.552	-23.3244	1	175.112	-7.65437	2.80674E-006	-0.451653	9
	29	61	3548.18	173.765	-26.0332	1	175.705	-8.52059	2.41479E-006	-0.451644	9
	30	63	3162.67	174.522	-28.7061	1	176.867	-9.34064	2.43451E-006	-0.45162	9
	31	65	2819.01	175.044	-31.7106	1	177.893	-10.2683	2.71737E-006	-0.451645	9
	32	67	2511.16	175.262	-35.1177	1	178.746	-11.3304	2.55556E-006	-0.451626	9
	33	69	2238.63	175.598	-38.7607	1	179.825	-12.4476	2.67393E-006	-0.451638	9
	34	71	1995.37	176.509	-43.2648	1	181.734	-13.7724	2.65321E-006	-0.45163	9
	35	73	1778.51	177.572	-47.9022	1	183.919	-15.0969	2.45838E-006	-0.451639	9
	36	75	1584.49	178.346	-53.197	1	186.111	-16.6088	2.40907E-006	-0.451641	9
	37	77	1412.76	178.945	-58.9071	1	188.391	-18.2211	2.51148E-006	-0.451651	9
	38	79	1259.04	180.15	-65.3389	1	191.633	-19.9353	2.36034E-006	-0.451637	9
	39	81	1121.63	181.203	-72.535	1	195.182	-21.8161	2.49963E-006	-0.451641	9
	40	83	999.95	182.624	-80.3303	1	199.511	-23.7431	2.43987E-006	-0.451654	9
	41	85	891.184	183.787	-89.1723	1	204.277	-25.8824	2.60037E-006	-0.451643	9
	42	87	794.163	185.111	-98.764	1	209.81	-28.0818	2.78106E-006	-0.451641	9
	43	89	707.867	186.694	-109.477	1	216.425	-30.3874	2.88362E-006	-0.451626	9
	44	91	630.984	188.701	-121.095	1	224.214	-32.6893	2.57479E-006	-0.451635	9
	45	93	562.189	190.263	-134.927	1	233.249	-35.3428	2.5989E-006	-0.451618	9
	46	95	501.303	192.539	-149.542	1	243.792	-37.8359	2.91195E-006	-0.451644	9
	47	97	446.614	194.794	-166.031	1	255.951	-40.4424	2.59226E-006	-0.45164	9
	48	99	398.209	197.276	-184.233	1	269.925	-43.0419	2.55656E-006	-0.451633	9
	49	101	354.821	200.046	-204.567	1	286.122	-45.6401	2.44321E-006	-0.451632	9
	50	103	316.113	203.114	-227.196	1	304.751	-48.2032	2.43163E-006	-0.451635	9
	51	105	281.926	206.485	-252.102	1	325.87	-50.6808	2.41067E-006	-0.451633	9
	52	107	251.185	210.215	-280.091	1	350.202	-53.1109	2.49545E-006	-0.45163	9
	53	109	223.946	214.343	-311.024	1	377.728	-55.4273	2.38295E-006	-0.451634	9
	54	111	199.495	218.981	-345.636	1	409.166	-57.6434	2.29081E-006	-0.451636	9
	55	113	177.836	224.13	-383.916	1	444.551	-59.7236	2.37092E-006	-0.451638	9
	56	115	158.533	229.848	-426.447	1	484.445	-61.6761	2.49145E-006	-0.451636	9
	57	117	141.263	236.33	-474.017	1	529.664	-63.5006	2.55049E-006	-0.451638	9
	58	119	125.911	243.313	-526.634	1	580.125	-65.2023	2.51276E-006	-0.451646	9
	59	121	112.198	251.202	-585.278	1	636.909	-66.7709	2.45111E-006	-0.451642	9
	60	123	100.009	259.949	-650.357	1	700.384	-68.2133	2.30568E-006	-0.451641	9
	61	125	89.1164	269.986	-723.004	1	771.769	-69.5232	2.42218E-006	-0.451642	9
	62	127	79.4083	280.96	-803.882	1	851.566	-70.7353	2.41054E-006	-0.451636	9
	63	130	70.788	293.109	-893.501	1	940.349	-71.8381	2.4502E-006	-0.451635	9
	64	131	63.0971	306.859	-993.19	1	1039.51	-72.8308	2.43648E-006	-0.451639	9
	65	134	54.5476	326.408	-1134.15	1	1180.19	-73.9442	1.59253E-006	-0.451635	8
	66	136	50.0083	339.906	-1229.36	1	1275.48	-74.5444	1.58331E-006	-0.45164	8
	67	138	46.1675	353.042	-1322.86	1	1369.16	-75.0572	1.62697E-006	-0.451642	8
	68	140	40.0059	382.01	-1509.57	1	1557.15	-75.7989	1.77209E-006	-0.451638	8
	69	142	35.3046	409.301	-1693.89	1	1742.64	-76.4158	1.66993E-006	-0.451646	8
	70	144	31.5793	436.057	-1876.62	1	1926.61	-76.9187	1.56071E-006	-0.45164	8
	71	146	28.5748	465.097	-2059.3	1	2111.17	-77.2732	1.56499E-006	-0.451641	8
	72	148	24.9911	507.053	-2330.31	1	2384.83	-77.7243	1.58457E-006	-0.45164	8
	73	151	22.2195	551.379	-2597.18	1	2655.06	-78.0141	1.5384E-006	-0.451633	8
	74	153	20.0011	598.459	-2861.62	1	2923.53	-78.1878	1.5655E-006	-0.451641	8
	75	156	17.6486	661.401	-3213.66	1	3281.01	-78.3704	1.54299E-006	-0.451641	8
	76	158	15.7934	730.327	-3560.4	1	3634.53	-78.408	1.48386E-006	-0.451641	8
	77	160	14.2828	811.153	-3905.39	1	3988.73	-78.2664	1.54297E-006	-0.451644	8
	78	162	12.5002	898.671	-4410.34	1	4500.97	-78.4828	1.55583E-006	-0.451642	8
	79	165	11.323	1025.75	-4850.96	1	4958.23	-78.0605	1.52862E-006	-0.451645	8
	80	167	9.9987	1132.26	-5414.08	1	5531.21	-78.1879	1.48241E-006	-0.451643	8
