EXPLAIN
TAG	EISPOT
TITLE	LABEL	Tomato_open	Test &Identifier
DATE	LABEL	5/12/2006	Date
TIME	LABEL	11:14:31	Time
NOTES	NOTES	1	&Notes...
	
PSTAT	PSTAT	300	Potentiostat
VDC	POTEN	1.00000E-001	T	DC &Voltage (V)
FREQINIT	QUANT	1.00000E+005	Initial Fre&q. (Hz)
FREQFINAL	QUANT	1.00000E+001	Final Fre&q. (Hz)
PTSPERDEC	QUANT	2.00000E+001	Points/&decade
VAC	QUANT	1.00000E+001	AC &Voltage (mV rms)
AREA	QUANT	1.00000E+000	&Area (cm²)
DENSITY	QUANT	7.87000E+000	&Density (gm/cm³)
EQUIV	QUANT	7.00000E+000	Equiv. &Wt
CONDIT	TWOPARAM	F	1.50000E+001	0.00000E+000	Conditionin&g	Time(s)	E(V)
DELAY	TWOPARAM	F	6.00000E+002	0.00000E+000	Init. De&lay	Time(s)	Stab.(mV/s)
SPEED	SELECTOR	1	&Optimize for:
ZGUESS	QUANT	1.00000E+002	E&stimated Z (ohms)
OCVCURVE	TABLE	39
	Pt	T	Vf	Vm	Ach	Over
	#	s	V vs. Ref.	V	V	bits
	0	0.258332	-5.42319E-001	4.40684E-006	1.36600E-004	......
	1	0.516663	-5.43019E-001	4.40684E-006	4.36600E-004	......
	2	0.774994	-5.43069E-001	4.40684E-006	1.36600E-004	......
	3	1.03333	-5.40919E-001	4.40684E-006	3.36600E-004	......
	4	1.29166	-5.39620E-001	4.40684E-006	2.36600E-004	......
	5	1.54999	-5.38819E-001	4.40684E-006	3.36600E-004	......
	6	1.80832	-5.39670E-001	4.40684E-006	3.36600E-004	......
	7	2.06665	-5.42919E-001	4.40684E-006	3.36600E-004	......
	8	2.32498	-5.44969E-001	4.40684E-006	2.36600E-004	......
	9	2.58332	-5.46070E-001	4.40684E-006	2.36600E-004	......
	10	2.84165	-5.46719E-001	4.40684E-006	3.36600E-004	......
	11	3.09998	-5.45819E-001	4.40684E-006	2.36600E-004	......
	12	3.35831	-5.44620E-001	4.40684E-006	3.36600E-004	......
	13	3.61664	-5.44219E-001	4.40684E-006	2.36600E-004	......
	14	3.87497	-5.44169E-001	4.40684E-006	1.36600E-004	......
	15	4.1333	-5.46219E-001	4.40684E-006	3.36600E-004	......
	16	4.39164	-5.47069E-001	4.40684E-006	3.66000E-005	......
	17	4.64997	-5.47619E-001	4.40684E-006	2.36600E-004	......
	18	4.9083	-5.47669E-001	4.40684E-006	1.36600E-004	......
	19	5.16663	-5.48019E-001	4.40684E-006	3.36600E-004	......
	20	5.42496	-5.47919E-001	4.40684E-006	2.36600E-004	......
	21	5.68329	-5.47219E-001	4.40684E-006	2.36600E-004	......
	22	5.94162	-5.46819E-001	4.40684E-006	3.36600E-004	......
	23	6.19996	-5.46569E-001	4.40684E-006	2.36600E-004	......
	24	6.45829	-5.46569E-001	4.40684E-006	3.66000E-005	......
	25	6.71662	-5.46420E-001	4.40684E-006	3.36600E-004	......
	26	6.97495	-5.43570E-001	4.40684E-006	1.36600E-004	......
	27	7.23328	-5.43469E-001	4.40684E-006	3.36600E-004	......
	28	7.49161	-5.43019E-001	4.40684E-006	2.36600E-004	......
	29	7.74995	-5.42769E-001	4.40684E-006	2.36600E-004	......
	30	8.00828	-5.42470E-001	4.40684E-006	3.36600E-004	......
	31	8.26661	-5.41119E-001	4.40684E-006	2.36600E-004	......
	32	8.52494	-5.38819E-001	4.40684E-006	2.36600E-004	......
	33	8.78327	-5.37669E-001	4.40684E-006	2.36600E-004	......
	34	9.0416	-5.37470E-001	4.40684E-006	3.36600E-004	......
	35	9.29993	-5.38669E-001	4.40684E-006	3.36600E-004	......
	36	9.5583	-5.40420E-001	4.40684E-006	3.66000E-005	......
	37	9.8166	-5.41319E-001	4.40684E-006	2.36600E-004	......
	38	10.0749	-5.41770E-001	4.40684E-006	1.36600E-004	......
EOC	QUANT	-0.54177	Open Circuit (V)
PSTATMODEL	IQUANT	32	Pstat Model
PSTATSECTION	LABEL	PStat0	Pstat Section
CTRLMODE	IQUANT	1	Control Mode
IESTAB	IQUANT	0	I/E Stability
CASPEED	IQUANT	1	Control Amp Speed
CONVENTION	IQUANT	1	Current Convention
ICHRANGE	IQUANT	2	Ich Range
ICHRANGEMODE	TOGGLE	F	Ich Auto Range
ICHOFFSETENABLE	TOGGLE	T	Ich Offset Enable
ICHOFFSET	QUANT	0	Ich Offset (V)
ICHFILTER	IQUANT	3	Ich Filter
VCHRANGE	IQUANT	2	Vch Range
VCHRANGEMODE	TOGGLE	F	Vch Auto Range
VCHOFFSETENABLE	TOGGLE	T	Vch Offset Enable
VCHOFFSET	QUANT	0	Vch Offset (V)
VCHFILTER	IQUANT	3	Vch Filter
ACHRANGE	IQUANT	0	Ach Range
IERANGELOWERLIMIT	IQUANT	3	I/E Range Lower Limit
IERANGEMODE	TOGGLE	F	I/E AutoRange
IERANGE	IQUANT	11	I/E Range
POSFEEDENABLE	TOGGLE	F	Positive Feedback IR Comp
POSFEEDRESISTANCE	QUANT	0	Positive Feedback Resistance (ohm)
FC350IDIVISOR	IQUANT	0	FC350 I Divisor
FC350VRANGE	IQUANT	0	FC350 V Range
FRAMEWORKVERSION	QUANT	4.35	Framework Version
ZCURVE	TABLE
	Pt	Time	Freq	Zreal	Zimag	Zsig	Zmod	Zphz	Idc	Vdc	IERange
	#	s	Hz	ohm	ohm	V	ohm	°	A	V	#
	0	4	100007	171.944	-0.360975	1	171.944	-0.120285	2.18393E-006	-0.441663	9
	1	6	89134.1	171.276	-0.597312	1	171.278	-0.199813	2.34952E-006	-0.441685	9
	2	8	79433.6	170.773	-0.849754	1	170.775	-0.285097	2.39312E-006	-0.441668	9
	3	10	70800.8	170.445	-1.18295	1	170.449	-0.397649	2.26478E-006	-0.441666	9
	4	12	63105.5	170.179	-1.29112	1	170.184	-0.434687	2.40488E-006	-0.441652	9
	5	14	56243.5	169.941	-1.54708	1	169.948	-0.521585	2.37406E-006	-0.441667	9
	6	16	50123.7	169.687	-2.16876	1	169.701	-0.732253	2.20767E-006	-0.441657	9
	7	18	44681	169.735	-2.40104	1	169.752	-0.810442	2.32332E-006	-0.44168	9
	8	20	39811.2	169.619	-2.75919	1	169.641	-0.931949	2.42498E-006	-0.441663	9
	9	22	35488.3	169.627	-3.17865	1	169.657	-1.07354	2.44142E-006	-0.441672	9
	10	24	31634.1	169.338	-3.51768	1	169.375	-1.19004	2.28167E-006	-0.441661	9
	11	26	28173.1	169.765	-4.25548	1	169.818	-1.43593	2.23143E-006	-0.441654	9
	12	28	25123.7	169.592	-4.5522	1	169.654	-1.53757	1.97263E-006	-0.441649	9
	13	30	22389.3	169.866	-5.10777	1	169.943	-1.72234	1.98059E-006	-0.441642	9
	14	32	19954.4	170.026	-5.69053	1	170.121	-1.9169	1.91838E-006	-0.441657	9
	15	34	17778.2	170.216	-6.40674	1	170.337	-2.15553	2.08504E-006	-0.441648	9
	16	36	15852.9	169.876	-6.85778	1	170.014	-2.31174	2.05465E-006	-0.441653	9
	17	37	14122.3	170.362	-7.51751	1	170.528	-2.52663	2.17845E-006	-0.441667	9
	18	39	12587.2	170.301	-8.7267	1	170.525	-2.93343	2.23009E-006	-0.44165	9
	19	41	11221.1	170.402	-9.20564	1	170.651	-3.09229	2.27778E-006	-0.441664	9
	20	43	9998.2	170.844	-10.3134	1	171.155	-3.4546	2.46046E-006	-0.441653	9
	21	45	8912.76	170.985	-11.4252	1	171.366	-3.8228	2.43706E-006	-0.441659	9
	22	47	7942.6	171.299	-12.8661	1	171.782	-4.29536	2.49832E-006	-0.441648	9
	23	49	7078.05	171.383	-13.9118	1	171.947	-4.64075	2.60473E-006	-0.441646	9
	24	51	6311.1	171.745	-15.5862	1	172.451	-5.1855	2.8851E-006	-0.44166	9
	25	53	5622.14	172.252	-17.2873	1	173.117	-5.73103	3.21231E-006	-0.441654	9
	26	55	5011.18	172.213	-18.8601	1	173.243	-6.24988	3.34745E-006	-0.441647	9
	27	57	4465.21	172.777	-20.8661	1	174.033	-6.88618	3.7199E-006	-0.441645	9
	28	59	3980.93	172.859	-23.1826	1	174.406	-7.63854	3.79715E-006	-0.441643	9
	29	61	3548.18	173.513	-25.9877	1	175.449	-8.51806	3.62646E-006	-0.441628	9
	30	63	3162.67	173.957	-28.7416	1	176.315	-9.3818	4.10013E-006	-0.441653	9
	31	65	2819.01	174.457	-31.5347	1	177.284	-10.2461	3.9986E-006	-0.441652	9
	32	67	2511.16	174.911	-35.2155	1	178.421	-11.3834	3.8601E-006	-0.441653	9
	33	69	2238.63	175.602	-39.4244	1	179.973	-12.6536	3.76624E-006	-0.441659	9
	34	71	1995.37	176.217	-43.2205	1	181.44	-13.7808	4.19251E-006	-0.441646	9
	35	73	1778.51	176.963	-47.8449	1	183.317	-15.1292	3.81587E-006	-0.441646	9
	36	75	1584.49	177.721	-53.3753	1	185.563	-16.7167	3.45579E-006	-0.441653	9
	37	77	1412.76	178.588	-59.1562	1	188.13	-18.3272	3.82187E-006	-0.441665	9
	38	79	1259.04	179.647	-65.4933	1	191.213	-20.0302	3.57187E-006	-0.441651	9
	39	81	1121.63	180.501	-72.5927	1	194.552	-21.9086	3.77001E-006	-0.441656	9
	40	83	999.95	181.807	-80.3861	1	198.786	-23.8526	3.74223E-006	-0.441649	9
	41	85	891.184	183.334	-89.0459	1	203.815	-25.906	3.63671E-006	-0.44166	9
	42	87	794.163	184.374	-99.166	1	209.351	-28.2737	3.62007E-006	-0.441657	9
	43	89	707.867	186.254	-109.738	1	216.178	-30.5058	3.91615E-006	-0.441679	9
	44	91	630.984	187.877	-121.819	1	223.915	-32.9593	3.6079E-006	-0.441663	9
	45	93	562.189	189.827	-135.206	1	233.056	-35.4607	3.48115E-006	-0.441637	9
	46	95	501.303	191.767	-150.093	1	243.52	-38.0497	3.62418E-006	-0.441652	9
	47	97	446.614	193.985	-166.68	1	255.759	-40.6704	3.3644E-006	-0.441654	9
	48	99	398.209	196.468	-185.024	1	269.877	-43.2818	3.40301E-006	-0.441653	9
	49	101	354.821	199.231	-205.481	1	286.209	-45.8848	3.45013E-006	-0.441657	9
	50	103	316.113	202.291	-228.275	1	305.011	-48.4535	3.60881E-006	-0.441657	9
	51	105	281.926	205.677	-253.419	1	326.38	-50.9368	3.63454E-006	-0.44166	9
	52	107	251.185	209.419	-281.548	1	350.892	-53.3577	3.50963E-006	-0.441661	9
	53	109	223.946	213.617	-312.713	1	378.71	-55.6626	3.54577E-006	-0.441657	9
	54	111	199.495	218.332	-347.631	1	410.507	-57.8688	3.69132E-006	-0.441658	9
	55	113	177.836	223.554	-386.15	1	446.193	-59.9322	3.78804E-006	-0.441657	9
	56	115	158.533	229.356	-429.01	1	486.471	-61.8703	3.66476E-006	-0.441658	9
	57	117	141.263	235.994	-476.948	1	532.14	-63.6738	3.7364E-006	-0.441655	9
	58	119	125.911	243.082	-530.076	1	583.155	-65.3647	3.60169E-006	-0.441656	9
	59	121	112.198	251.419	-589.348	1	640.736	-66.8966	3.48049E-006	-0.441663	9
	60	123	100.009	260.252	-654.94	1	704.753	-68.3287	3.49405E-006	-0.441657	9
	61	125	89.1164	270.673	-727.931	1	776.625	-69.6029	3.5561E-006	-0.44166	9
	62	128	79.4083	282.926	-809.315	1	857.343	-70.731	3.78053E-006	-0.441655	9
	63	130	70.788	295.137	-899.611	1	946.787	-71.8368	3.55643E-006	-0.441652	9
	64	132	63.0971	310.615	-999.8	1	1046.94	-72.7412	3.73124E-006	-0.44166	9
	65	134	54.5476	332.655	-1142.57	1	1190.01	-73.7673	3.05032E-006	-0.441663	8
	66	136	50.0083	346.98	-1237.87	1	1285.58	-74.3416	2.81804E-006	-0.441668	8
	67	138	46.1675	360.845	-1332.18	1	1380.19	-74.8441	2.81517E-006	-0.441671	8
	68	140	40.0059	391.625	-1519.84	1	1569.49	-75.5506	2.8793E-006	-0.441672	8
	69	142	35.3046	420.883	-1704.89	1	1756.07	-76.1328	2.67122E-006	-0.441672	8
	70	144	31.5793	447.268	-1892.76	1	1944.89	-76.7047	2.31308E-006	-0.441664	8
	71	146	28.5748	482.249	-2074.03	1	2129.36	-76.9103	2.528E-006	-0.441666	8
	72	149	24.9911	534.772	-2348.91	1	2409.01	-77.1742	2.54287E-006	-0.441667	8
	73	151	22.2195	578.615	-2619.32	1	2682.47	-77.5433	2.40977E-006	-0.441665	8
	74	153	20.0011	640.819	-2882.72	1	2953.09	-77.4671	2.58476E-006	-0.441665	8
	75	156	17.6486	711.784	-3240.63	1	3317.88	-77.612	2.66198E-006	-0.441658	8
	76	158	15.7934	798.984	-3581.6	1	3669.64	-77.4244	2.72717E-006	-0.44166	8
	77	160	14.2828	892.525	-3934.76	1	4034.72	-77.2198	2.79766E-006	-0.441655	8
	78	162	12.5002	1042.33	-4425.83	1	4546.92	-76.7477	2.77602E-006	-0.441652	8
	79	165	11.323	1158.3	-4857.28	1	4993.48	-76.5874	2.74039E-006	-0.441659	8
	80	167	9.9987	1362.1	-5405.35	1	5574.32	-75.8564	2.77026E-006	-0.441659	8
