EXPLAIN
TAG	EISPOT
TITLE	LABEL	Tomato_open	Test &Identifier
DATE	LABEL	5/12/2006	Date
TIME	LABEL	11:09:27	Time
NOTES	NOTES	1	&Notes...
	
PSTAT	PSTAT	300	Potentiostat
VDC	POTEN	1.00000E-001	T	DC &Voltage (V)
FREQINIT	QUANT	1.00000E+005	Initial Fre&q. (Hz)
FREQFINAL	QUANT	1.00000E+001	Final Fre&q. (Hz)
PTSPERDEC	QUANT	2.00000E+001	Points/&decade
VAC	QUANT	1.00000E+001	AC &Voltage (mV rms)
AREA	QUANT	1.00000E+000	&Area (cm²)
DENSITY	QUANT	7.87000E+000	&Density (gm/cm³)
EQUIV	QUANT	7.00000E+000	Equiv. &Wt
CONDIT	TWOPARAM	F	1.50000E+001	0.00000E+000	Conditionin&g	Time(s)	E(V)
DELAY	TWOPARAM	F	6.00000E+002	0.00000E+000	Init. De&lay	Time(s)	Stab.(mV/s)
SPEED	SELECTOR	1	&Optimize for:
ZGUESS	QUANT	1.00000E+002	E&stimated Z (ohms)
OCVCURVE	TABLE	39
	Pt	T	Vf	Vm	Ach	Over
	#	s	V vs. Ref.	V	V	bits
	0	0.258332	-5.52219E-001	3.95944E-006	3.66000E-005	......
	1	0.516663	-5.52669E-001	3.95944E-006	2.36600E-004	......
	2	0.774994	-5.53670E-001	3.95944E-006	-6.34000E-005	......
	3	1.03333	-5.54019E-001	3.95944E-006	2.36600E-004	......
	4	1.29166	-5.54469E-001	3.95944E-006	-6.34000E-005	......
	5	1.54999	-5.54619E-001	3.95944E-006	2.36600E-004	......
	6	1.80832	-5.53419E-001	3.95944E-006	3.66000E-005	......
	7	2.06665	-5.53970E-001	3.95944E-006	3.66000E-005	......
	8	2.32498	-5.55070E-001	3.95944E-006	-6.34000E-005	......
	9	2.58332	-5.55820E-001	3.95944E-006	3.66000E-005	......
	10	2.84165	-5.57270E-001	3.95944E-006	3.66000E-005	......
	11	3.09998	-5.57869E-001	3.95944E-006	1.36600E-004	......
	12	3.35831	-5.58619E-001	3.95944E-006	-6.34000E-005	......
	13	3.61664	-5.58819E-001	3.95944E-006	3.36600E-004	......
	14	3.87497	-5.58969E-001	3.95944E-006	3.66000E-005	......
	15	4.1333	-5.59120E-001	3.95944E-006	1.36600E-004	......
	16	4.39164	-5.59419E-001	3.95944E-006	-6.34000E-005	......
	17	4.64997	-5.59519E-001	3.95944E-006	2.36600E-004	......
	18	4.9083	-5.59569E-001	3.95944E-006	-6.34000E-005	......
	19	5.16663	-5.59420E-001	3.95944E-006	2.36600E-004	......
	20	5.42496	-5.59469E-001	3.95944E-006	-6.34000E-005	......
	21	5.68329	-5.59319E-001	3.95944E-006	3.36600E-004	......
	22	5.94162	-5.59419E-001	3.95944E-006	-6.34000E-005	......
	23	6.19996	-5.59219E-001	3.95944E-006	2.36600E-004	......
	24	6.45829	-5.59269E-001	3.95944E-006	-6.34000E-005	......
	25	6.71662	-5.59420E-001	3.95944E-006	2.36600E-004	......
	26	6.97495	-5.59569E-001	3.95944E-006	-6.34000E-005	......
	27	7.23328	-5.59469E-001	3.95944E-006	1.36600E-004	......
	28	7.49161	-5.59569E-001	3.95944E-006	-6.34000E-005	......
	29	7.74995	-5.57869E-001	3.95944E-006	2.36600E-004	......
	30	8.00828	-5.53069E-001	3.95944E-006	-6.34000E-005	......
	31	8.26661	-5.53620E-001	3.95944E-006	3.36600E-004	......
	32	8.52494	-5.53819E-001	3.95944E-006	3.66000E-005	......
	33	8.78327	-5.54269E-001	3.95944E-006	2.36600E-004	......
	34	9.0416	-5.53670E-001	3.95944E-006	3.66000E-005	......
	35	9.29993	-5.53670E-001	3.95944E-006	2.36600E-004	......
	36	9.5583	-5.54569E-001	3.95944E-006	3.66000E-005	......
	37	9.8166	-5.54419E-001	3.95944E-006	2.36600E-004	......
	38	10.0749	-5.53869E-001	3.95944E-006	-6.34000E-005	......
EOC	QUANT	-0.553869	Open Circuit (V)
PSTATMODEL	IQUANT	32	Pstat Model
PSTATSECTION	LABEL	PStat0	Pstat Section
CTRLMODE	IQUANT	1	Control Mode
IESTAB	IQUANT	0	I/E Stability
CASPEED	IQUANT	1	Control Amp Speed
CONVENTION	IQUANT	1	Current Convention
ICHRANGE	IQUANT	2	Ich Range
ICHRANGEMODE	TOGGLE	F	Ich Auto Range
ICHOFFSETENABLE	TOGGLE	T	Ich Offset Enable
ICHOFFSET	QUANT	0	Ich Offset (V)
ICHFILTER	IQUANT	3	Ich Filter
VCHRANGE	IQUANT	2	Vch Range
VCHRANGEMODE	TOGGLE	F	Vch Auto Range
VCHOFFSETENABLE	TOGGLE	T	Vch Offset Enable
VCHOFFSET	QUANT	0	Vch Offset (V)
VCHFILTER	IQUANT	3	Vch Filter
ACHRANGE	IQUANT	0	Ach Range
IERANGELOWERLIMIT	IQUANT	3	I/E Range Lower Limit
IERANGEMODE	TOGGLE	F	I/E AutoRange
IERANGE	IQUANT	11	I/E Range
POSFEEDENABLE	TOGGLE	F	Positive Feedback IR Comp
POSFEEDRESISTANCE	QUANT	0	Positive Feedback Resistance (ohm)
FC350IDIVISOR	IQUANT	0	FC350 I Divisor
FC350VRANGE	IQUANT	0	FC350 V Range
FRAMEWORKVERSION	QUANT	4.35	Framework Version
ZCURVE	TABLE
	Pt	Time	Freq	Zreal	Zimag	Zsig	Zmod	Zphz	Idc	Vdc	IERange
	#	s	Hz	ohm	ohm	V	ohm	°	A	V	#
	0	4	100007	172.046	-0.418858	1	172.046	-0.139491	2.09817E-006	-0.453735	9
	1	6	89134.1	171.372	-0.607204	1	171.373	-0.203009	1.87813E-006	-0.453743	9
	2	8	79433.6	170.957	-0.83416	1	170.959	-0.279564	2.11909E-006	-0.453763	9
	3	10	70800.8	170.421	-0.95141	1	170.424	-0.31986	2.12931E-006	-0.453742	9
	4	12	63105.5	170.322	-1.63962	1	170.33	-0.551547	2.06474E-006	-0.453736	9
	5	14	56243.5	170.332	-1.56285	1	170.339	-0.52569	2.08732E-006	-0.453761	9
	6	16	50123.7	169.944	-2.13388	1	169.957	-0.719389	1.95051E-006	-0.453756	9
	7	18	44681	170.009	-2.43112	1	170.026	-0.819273	2.20904E-006	-0.453764	9
	8	20	39811.2	169.71	-2.60297	1	169.73	-0.878721	2.2082E-006	-0.453763	9
	9	22	35488.3	169.783	-3.23862	1	169.814	-1.09279	1.99321E-006	-0.453745	9
	10	24	31634.1	169.717	-3.70204	1	169.757	-1.2496	2.13731E-006	-0.453739	9
	11	26	28173.1	169.89	-4.04256	1	169.938	-1.36311	2.1922E-006	-0.453758	9
	12	28	25123.7	169.861	-4.45628	1	169.92	-1.5028	2.29229E-006	-0.453769	9
	13	30	22389.3	170.013	-5.25918	1	170.094	-1.77183	2.44817E-006	-0.453759	9
	14	32	19954.4	170.045	-5.61874	1	170.138	-1.89251	2.59404E-006	-0.453767	9
	15	34	17778.2	170.13	-6.3581	1	170.249	-2.14026	2.22806E-006	-0.453751	9
	16	36	15852.9	170.461	-7.03502	1	170.606	-2.36329	2.25315E-006	-0.45375	9
	17	38	14122.3	170.617	-7.68895	1	170.79	-2.58032	2.56409E-006	-0.453748	9
	18	40	12587.2	170.661	-8.57256	1	170.876	-2.87564	2.58523E-006	-0.453742	9
	19	42	11221.1	170.885	-9.5101	1	171.149	-3.18534	2.65403E-006	-0.453747	9
	20	44	9998.2	170.838	-10.2393	1	171.144	-3.42995	2.81917E-006	-0.453746	9
	21	45	8912.76	171.357	-11.4892	1	171.742	-3.83584	2.57074E-006	-0.453755	9
	22	47	7942.6	171.59	-12.8276	1	172.069	-4.27533	2.64749E-006	-0.453749	9
	23	49	7078.05	171.832	-13.7925	1	172.385	-4.58914	2.80185E-006	-0.453756	9
	24	51	6311.1	171.936	-15.6051	1	172.643	-5.18601	2.80388E-006	-0.453739	9
	25	53	5622.14	172.268	-17.471	1	173.151	-5.79102	2.78763E-006	-0.453747	9
	26	55	5011.18	172.56	-19.022	1	173.605	-6.29055	2.88353E-006	-0.453741	9
	27	57	4465.21	172.677	-21.0291	1	173.953	-6.94343	2.79196E-006	-0.453753	9
	28	59	3980.93	173.093	-23.2312	1	174.645	-7.6441	2.89456E-006	-0.453768	9
	29	61	3548.18	173.556	-25.9693	1	175.488	-8.51007	2.96257E-006	-0.453755	9
	30	63	3162.67	174.141	-28.5643	1	176.468	-9.31526	3.06376E-006	-0.453747	9
	31	65	2819.01	174.422	-31.6328	1	177.268	-10.2793	2.75942E-006	-0.453725	9
	32	67	2511.16	174.834	-35.0895	1	178.321	-11.3486	2.85076E-006	-0.453751	9
	33	69	2238.63	175.552	-38.7412	1	179.775	-12.4447	2.97878E-006	-0.453748	9
	34	71	1995.37	176.301	-43.3038	1	181.541	-13.8	2.96937E-006	-0.453759	9
	35	73	1778.51	177.107	-48.041	1	183.507	-15.1765	3.24256E-006	-0.453764	9
	36	75	1584.49	177.829	-53.3028	1	185.645	-16.6857	3.20821E-006	-0.453755	9
	37	77	1412.76	178.928	-58.9081	1	188.376	-18.223	3.32182E-006	-0.453772	9
	38	79	1259.04	179.828	-65.3241	1	191.325	-19.964	3.2586E-006	-0.453754	9
	39	81	1121.63	180.454	-72.6689	1	194.536	-21.9347	3.3311E-006	-0.45374	9
	40	83	999.95	181.757	-80.3535	1	198.727	-23.8499	3.57629E-006	-0.453753	9
	41	85	891.184	183.437	-89.0805	1	203.923	-25.9021	3.59406E-006	-0.453756	9
	42	87	794.163	184.544	-99.241	1	209.536	-28.2698	3.47828E-006	-0.453754	9
	43	89	707.867	186.184	-109.59	1	216.043	-30.4816	3.27303E-006	-0.453755	9
	44	91	630.984	188.327	-121.586	1	224.166	-32.8467	3.45501E-006	-0.45376	9
	45	93	562.189	189.933	-135.103	1	233.082	-35.4251	3.33634E-006	-0.453774	9
	46	95	501.303	192.07	-149.886	1	243.633	-37.9675	3.35851E-006	-0.453761	9
	47	97	446.614	194.319	-166.451	1	255.863	-40.5828	3.40401E-006	-0.45376	9
	48	99	398.209	196.773	-184.739	1	269.904	-43.1934	3.28217E-006	-0.453758	9
	49	101	354.821	199.548	-205.161	1	286.2	-45.7947	3.19463E-006	-0.453758	9
	50	103	316.113	202.573	-227.879	1	304.901	-48.3646	3.05668E-006	-0.45376	9
	51	105	281.926	205.931	-252.913	1	326.148	-50.8463	2.8737E-006	-0.453762	9
	52	107	251.185	209.712	-281.016	1	350.641	-53.2674	2.98077E-006	-0.453763	9
	53	109	223.946	213.889	-312.095	1	378.354	-55.5759	3.04943E-006	-0.453765	9
	54	111	199.495	218.604	-346.874	1	410.012	-57.7804	3.22945E-006	-0.453764	9
	55	113	177.836	223.708	-385.306	1	445.54	-59.8607	2.99445E-006	-0.453765	9
	56	115	158.533	229.455	-428.056	1	485.676	-61.8069	2.89479E-006	-0.453761	9
	57	117	141.263	235.71	-475.817	1	531	-63.6471	2.76908E-006	-0.453762	9
	58	119	125.911	243.056	-528.807	1	581.99	-65.315	2.93236E-006	-0.453762	9
	59	121	112.198	250.996	-587.725	1	639.078	-66.8745	3.00878E-006	-0.453762	9
	60	123	100.009	259.67	-653.263	1	702.98	-68.3223	2.78726E-006	-0.453762	9
	61	125	89.1164	269.606	-726.228	1	774.658	-69.633	2.8098E-006	-0.45376	9
	62	127	79.4083	281.009	-807.505	1	855.004	-70.8123	2.89347E-006	-0.45376	9
	63	129	70.788	293.766	-897.513	1	944.367	-71.8761	2.94054E-006	-0.453761	9
	64	131	63.0971	307.244	-997.05	1	1043.32	-72.8732	2.64983E-006	-0.453768	9
	65	133	54.5476	326.514	-1139.6	1	1185.46	-74.0122	1.79361E-006	-0.453763	8
	66	135	50.0083	340.484	-1234.5	1	1280.6	-74.5808	1.75392E-006	-0.453766	8
	67	137	46.1675	355.342	-1328.77	1	1375.46	-75.0282	1.90428E-006	-0.453764	8
	68	140	40.0059	383.075	-1516.13	1	1563.77	-75.82	1.9182E-006	-0.453768	8
	69	142	35.3046	409.56	-1701.23	1	1749.84	-76.464	1.64801E-006	-0.453765	8
	70	144	31.5793	439.631	-1885.94	1	1936.51	-76.8782	1.83546E-006	-0.453767	8
	71	146	28.5748	467.459	-2069.29	1	2121.43	-77.2704	1.79916E-006	-0.45377	8
	72	148	24.9911	516.129	-2341.15	1	2397.37	-77.5675	1.75104E-006	-0.453766	8
	73	150	22.2195	560.087	-2608.53	1	2667.98	-77.8818	1.72131E-006	-0.453765	8
	74	153	20.0011	610.411	-2877.46	1	2941.49	-78.0231	1.82456E-006	-0.453767	8
	75	155	17.6486	677.921	-3228.88	1	3299.28	-78.1427	1.92541E-006	-0.453765	8
	76	157	15.7934	751.637	-3578.4	1	3656.49	-78.1376	1.99331E-006	-0.453766	8
	77	159	14.2828	834.853	-3917.11	1	4005.09	-77.9686	1.86686E-006	-0.453766	8
	78	162	12.5002	968.33	-4421.27	1	4526.06	-77.6464	2.01029E-006	-0.453778	8
	79	164	11.323	1056.27	-4827.3	1	4941.51	-77.6575	2.02537E-006	-0.453767	8
	80	167	9.9987	1205.36	-5418.17	1	5550.63	-77.4579	1.91738E-006	-0.453769	8
