EXPLAIN
TAG	EISPOT
TITLE	LABEL	Tomato_open	Test &Identifier
DATE	LABEL	5/12/2006	Date
TIME	LABEL	10:59:25	Time
NOTES	NOTES	1	&Notes...
	
PSTAT	PSTAT	300	Potentiostat
VDC	POTEN	1.00000E-001	T	DC &Voltage (V)
FREQINIT	QUANT	1.00000E+005	Initial Fre&q. (Hz)
FREQFINAL	QUANT	1.00000E+001	Final Fre&q. (Hz)
PTSPERDEC	QUANT	2.00000E+001	Points/&decade
VAC	QUANT	1.00000E+001	AC &Voltage (mV rms)
AREA	QUANT	1.00000E+000	&Area (cm²)
DENSITY	QUANT	7.87000E+000	&Density (gm/cm³)
EQUIV	QUANT	7.00000E+000	Equiv. &Wt
CONDIT	TWOPARAM	F	1.50000E+001	0.00000E+000	Conditionin&g	Time(s)	E(V)
DELAY	TWOPARAM	F	6.00000E+002	0.00000E+000	Init. De&lay	Time(s)	Stab.(mV/s)
SPEED	SELECTOR	1	&Optimize for:
ZGUESS	QUANT	1.00000E+002	E&stimated Z (ohms)
OCVCURVE	TABLE	39
	Pt	T	Vf	Vm	Ach	Over
	#	s	V vs. Ref.	V	V	bits
	0	0.258332	-5.36770E-001	5.83077E-006	-6.34000E-005	......
	1	0.516663	-5.30919E-001	5.83077E-006	-1.63400E-004	......
	2	0.774994	-5.28219E-001	5.83077E-006	-1.63400E-004	......
	3	1.03333	-5.22969E-001	5.83077E-006	-1.63400E-004	......
	4	1.29166	-5.23119E-001	5.83077E-006	-1.63400E-004	......
	5	1.54999	-5.21670E-001	5.83077E-006	-2.63400E-004	......
	6	1.80832	-5.20469E-001	5.83077E-006	-6.34000E-005	......
	7	2.06665	-5.21169E-001	5.83077E-006	-1.63400E-004	......
	8	2.32498	-5.21069E-001	5.83077E-006	3.66000E-005	......
	9	2.58332	-5.20019E-001	5.83077E-006	-6.34000E-005	......
	10	2.84165	-5.19719E-001	5.83077E-006	-1.63400E-004	......
	11	3.09998	-5.21519E-001	5.83077E-006	-1.63400E-004	......
	12	3.35831	-5.28019E-001	5.83077E-006	-6.34000E-005	......
	13	3.61664	-5.26670E-001	5.83077E-006	-1.63400E-004	......
	14	3.87497	-5.24819E-001	5.83077E-006	-6.34000E-005	......
	15	4.1333	-5.26269E-001	5.83077E-006	-1.63400E-004	......
	16	4.39164	-5.27070E-001	5.83077E-006	-1.63400E-004	......
	17	4.64997	-5.25169E-001	5.83077E-006	-1.63400E-004	......
	18	4.9083	-5.26019E-001	5.83077E-006	-1.63400E-004	......
	19	5.16663	-5.27070E-001	5.83077E-006	-1.63400E-004	......
	20	5.42496	-5.27319E-001	5.83077E-006	-1.63400E-004	......
	21	5.68329	-5.28369E-001	5.83077E-006	-1.63400E-004	......
	22	5.94162	-5.29269E-001	5.83077E-006	-1.63400E-004	......
	23	6.19996	-5.30019E-001	5.83077E-006	-1.63400E-004	......
	24	6.45829	-5.30869E-001	5.83077E-006	-6.34000E-005	......
	25	6.71662	-5.32520E-001	5.83077E-006	-1.63400E-004	......
	26	6.97495	-5.35119E-001	5.83077E-006	-1.63400E-004	......
	27	7.23328	-5.37419E-001	5.83077E-006	-1.63400E-004	......
	28	7.49161	-5.39069E-001	5.83077E-006	-1.63400E-004	......
	29	7.74995	-5.40370E-001	5.83077E-006	-2.63400E-004	......
	30	8.00828	-5.41919E-001	5.83077E-006	-6.34000E-005	......
	31	8.26661	-5.42470E-001	5.83077E-006	-1.63400E-004	......
	32	8.52494	-5.43169E-001	5.83077E-006	-1.63400E-004	......
	33	8.78327	-5.44119E-001	5.83077E-006	-1.63400E-004	......
	34	9.0416	-5.44569E-001	5.83077E-006	-1.63400E-004	......
	35	9.29993	-5.44969E-001	5.83077E-006	-6.34000E-005	......
	36	9.5583	-5.45720E-001	5.83077E-006	-1.63400E-004	......
	37	9.8166	-5.45720E-001	5.83077E-006	-1.63400E-004	......
	38	10.0749	-5.45469E-001	5.83077E-006	-6.34000E-005	......
EOC	QUANT	-0.545469	Open Circuit (V)
PSTATMODEL	IQUANT	32	Pstat Model
PSTATSECTION	LABEL	PStat0	Pstat Section
CTRLMODE	IQUANT	1	Control Mode
IESTAB	IQUANT	0	I/E Stability
CASPEED	IQUANT	1	Control Amp Speed
CONVENTION	IQUANT	1	Current Convention
ICHRANGE	IQUANT	2	Ich Range
ICHRANGEMODE	TOGGLE	F	Ich Auto Range
ICHOFFSETENABLE	TOGGLE	T	Ich Offset Enable
ICHOFFSET	QUANT	0	Ich Offset (V)
ICHFILTER	IQUANT	3	Ich Filter
VCHRANGE	IQUANT	2	Vch Range
VCHRANGEMODE	TOGGLE	F	Vch Auto Range
VCHOFFSETENABLE	TOGGLE	T	Vch Offset Enable
VCHOFFSET	QUANT	0	Vch Offset (V)
VCHFILTER	IQUANT	3	Vch Filter
ACHRANGE	IQUANT	0	Ach Range
IERANGELOWERLIMIT	IQUANT	3	I/E Range Lower Limit
IERANGEMODE	TOGGLE	F	I/E AutoRange
IERANGE	IQUANT	11	I/E Range
POSFEEDENABLE	TOGGLE	F	Positive Feedback IR Comp
POSFEEDRESISTANCE	QUANT	0	Positive Feedback Resistance (ohm)
FC350IDIVISOR	IQUANT	0	FC350 I Divisor
FC350VRANGE	IQUANT	0	FC350 V Range
FRAMEWORKVERSION	QUANT	4.35	Framework Version
ZCURVE	TABLE
	Pt	Time	Freq	Zreal	Zimag	Zsig	Zmod	Zphz	Idc	Vdc	IERange
	#	s	Hz	ohm	ohm	V	ohm	°	A	V	#
	0	5	100007	172.246	-0.45276	1	172.247	-0.150605	3.19503E-006	-0.445318	9
	1	7	89134.1	171.695	-0.212812	1	171.695	-0.071017	3.59121E-006	-0.445345	9
	2	9	79433.6	171.356	-0.651808	1	171.357	-0.217942	3.47223E-006	-0.445346	9
	3	11	70800.8	170.909	-1.10846	1	170.913	-0.371596	3.34992E-006	-0.445323	9
	4	13	63105.5	170.666	-1.52588	1	170.673	-0.512252	3.27621E-006	-0.445319	9
	5	15	56243.5	170.503	-1.55515	1	170.51	-0.522577	3.26823E-006	-0.445313	9
	6	17	50123.7	170.15	-2.26922	1	170.166	-0.764082	3.1467E-006	-0.445344	9
	7	19	44681	170.222	-2.60533	1	170.242	-0.876871	2.90763E-006	-0.445319	9
	8	21	39811.2	170.129	-2.72132	1	170.151	-0.916401	2.90484E-006	-0.445349	9
	9	23	35488.3	170.123	-3.11304	1	170.152	-1.04832	2.80112E-006	-0.445346	9
	10	25	31634.1	170.034	-3.70699	1	170.075	-1.24893	2.59853E-006	-0.445347	9
	11	27	28173.1	170.196	-4.09543	1	170.245	-1.37844	2.73059E-006	-0.445333	9
	12	29	25123.7	170.173	-4.66344	1	170.237	-1.56975	2.78956E-006	-0.445324	9
	13	31	22389.3	170.275	-5.27807	1	170.356	-1.77545	2.66465E-006	-0.445314	9
	14	32	19954.4	170.494	-5.66471	1	170.588	-1.90297	2.9069E-006	-0.445301	9
	15	34	17778.2	170.484	-6.44609	1	170.606	-2.16535	3.31584E-006	-0.445328	9
	16	36	15852.9	170.948	-7.01402	1	171.092	-2.34953	3.61665E-006	-0.44534	9
	17	38	14122.3	171.023	-7.72814	1	171.197	-2.58731	3.62248E-006	-0.445324	9
	18	40	12587.2	171.173	-8.4947	1	171.384	-2.84105	3.60407E-006	-0.445323	9
	19	42	11221.1	171.569	-9.518	1	171.833	-3.17531	3.55665E-006	-0.445313	9
	20	44	9998.2	171.385	-10.4938	1	171.706	-3.50383	3.4097E-006	-0.445314	9
	21	46	8912.76	171.669	-11.5642	1	172.058	-3.85382	3.02613E-006	-0.445303	9
	22	48	7942.6	171.781	-12.8007	1	172.257	-4.26167	3.11407E-006	-0.445319	9
	23	50	7078.05	172.363	-14.1908	1	172.946	-4.7066	3.08199E-006	-0.44532	9
	24	52	6311.1	172.45	-15.4987	1	173.145	-5.13559	3.26351E-006	-0.445316	9
	25	54	5622.14	172.81	-16.8987	1	173.634	-5.58509	3.2491E-006	-0.44532	9
	26	56	5011.18	173.263	-19.1024	1	174.312	-6.29152	3.09651E-006	-0.44532	9
	27	58	4465.21	173.358	-21.1621	1	174.645	-6.95975	3.24003E-006	-0.445321	9
	28	60	3980.93	173.725	-23.1347	1	175.259	-7.58535	3.11113E-006	-0.445325	9
	29	62	3548.18	174.223	-25.7013	1	176.108	-8.39174	3.13751E-006	-0.445343	9
	30	64	3162.67	174.747	-28.5424	1	177.063	-9.27649	2.91756E-006	-0.445336	9
	31	66	2819.01	175.209	-31.6622	1	178.047	-10.2434	2.81578E-006	-0.445315	9
	32	68	2511.16	175.672	-35.6578	1	179.254	-11.474	2.85146E-006	-0.445331	9
	33	70	2238.63	176.562	-39.0023	1	180.818	-12.4565	2.81945E-006	-0.445333	9
	34	72	1995.37	176.959	-42.9753	1	182.102	-13.6503	2.78501E-006	-0.445324	9
	35	74	1778.51	177.763	-47.5998	1	184.025	-14.9905	2.75824E-006	-0.445329	9
	36	76	1584.49	178.958	-53.4191	1	186.76	-16.6205	2.72707E-006	-0.445325	9
	37	78	1412.76	179.499	-58.8209	1	188.891	-18.1437	2.83542E-006	-0.445341	9
	38	80	1259.04	180.695	-65.2138	1	192.103	-19.8448	2.65029E-006	-0.445325	9
	39	82	1121.63	182.163	-72.3131	1	195.991	-21.6516	2.56201E-006	-0.445324	9
	40	84	999.95	183.078	-80.0845	1	199.827	-23.6262	2.48665E-006	-0.445329	9
	41	86	891.184	184.372	-88.3139	1	204.432	-25.5943	2.51781E-006	-0.445332	9
	42	88	794.163	186.038	-98.191	1	210.361	-27.825	2.43449E-006	-0.445325	9
	43	90	707.867	187.683	-109.151	1	217.114	-30.181	2.65428E-006	-0.445347	9
	44	92	630.984	189.297	-120.634	1	224.469	-32.5083	2.48278E-006	-0.445329	9
	45	94	562.189	191.207	-134.414	1	233.725	-35.1063	2.38924E-006	-0.445328	9
	46	96	501.303	193.426	-148.625	1	243.932	-37.5381	2.52484E-006	-0.445319	9
	47	98	446.614	195.752	-164.955	1	255.987	-40.12	2.33093E-006	-0.44532	9
	48	100	398.209	198.339	-182.969	1	269.844	-42.6917	2.66318E-006	-0.445321	9
	49	102	354.821	201.212	-203.06	1	285.866	-45.2619	2.64221E-006	-0.445323	9
	50	104	316.113	204.388	-225.448	1	304.304	-47.8049	2.81688E-006	-0.445322	9
	51	105	281.926	207.841	-250.085	1	325.178	-50.2707	2.82209E-006	-0.445326	9
	52	108	251.185	211.729	-277.717	1	349.222	-52.6785	2.72538E-006	-0.445326	9
	53	110	223.946	215.981	-308.201	1	376.345	-54.978	2.67235E-006	-0.445319	9
	54	112	199.495	220.778	-342.442	1	407.442	-57.1895	2.68657E-006	-0.445323	9
	55	113	177.836	226.08	-380.183	1	442.325	-59.2617	2.70393E-006	-0.445324	9
	56	116	158.533	231.956	-422.202	1	481.724	-61.2158	2.76473E-006	-0.445327	9
	57	118	141.263	238.527	-469.119	1	526.278	-63.0486	2.7125E-006	-0.445331	9
	58	120	125.911	245.734	-521.163	1	576.191	-64.7556	2.70038E-006	-0.445322	9
	59	122	112.198	253.828	-579.128	1	632.312	-66.3325	2.62305E-006	-0.445317	9
	60	124	100.009	262.692	-643.437	1	694.995	-67.7916	2.63356E-006	-0.445323	9
	61	126	89.1164	272.766	-714.982	1	765.245	-69.1181	2.60578E-006	-0.445325	9
	62	128	79.4083	285.031	-794.404	1	843.991	-70.2621	2.87192E-006	-0.445324	9
	63	130	70.788	297.528	-882.568	1	931.369	-71.3702	2.75642E-006	-0.445321	9
	64	132	63.0971	311.679	-980.62	1	1028.96	-72.3678	2.62533E-006	-0.445327	9
	65	134	54.5476	331.903	-1120.49	1	1168.61	-73.5	1.86073E-006	-0.445323	8
	66	136	50.0083	345.779	-1213.7	1	1261.99	-74.0979	1.85567E-006	-0.445323	8
	67	138	46.1675	360.28	-1306.26	1	1355.03	-74.5806	1.83491E-006	-0.445324	8
	68	140	40.0059	386.806	-1489.46	1	1538.86	-75.4421	1.79594E-006	-0.445321	8
	69	142	35.3046	416.403	-1669.41	1	1720.56	-75.9945	1.74902E-006	-0.445325	8
	70	145	31.5793	443.178	-1849.9	1	1902.25	-76.5277	1.80249E-006	-0.445325	8
	71	147	28.5748	475.042	-2029.31	1	2084.17	-76.8248	1.80404E-006	-0.44533	8
	72	149	24.9911	518.607	-2297.06	1	2354.87	-77.2776	1.6442E-006	-0.445327	8
	73	151	22.2195	563.438	-2556.59	1	2617.94	-77.5714	1.68983E-006	-0.445329	8
	74	153	20.0011	615.578	-2818.58	1	2885.02	-77.68	1.75931E-006	-0.445333	8
	75	156	17.6486	681.017	-3169.06	1	3241.41	-77.8718	1.8149E-006	-0.445332	8
	76	158	15.7934	756.173	-3504.57	1	3585.22	-77.8241	1.64982E-006	-0.445337	8
	77	160	14.2828	822.241	-3842.24	1	3929.23	-77.9209	1.62321E-006	-0.445332	8
	78	162	12.5002	919.797	-4341.7	1	4438.06	-78.0386	1.50588E-006	-0.445331	8
	79	165	11.323	1014.04	-4755.96	1	4862.87	-77.9639	1.46143E-006	-0.44533	8
	80	168	9.9987	1154.95	-5338.26	1	5461.77	-77.792	1.49078E-006	-0.445335	8
