EXPLAIN
TAG	EISPOT
TITLE	LABEL	Tomato_open	Test &Identifier
DATE	LABEL	5/12/2006	Date
TIME	LABEL	10:52:17	Time
NOTES	NOTES	1	&Notes...
	
PSTAT	PSTAT	300	Potentiostat
VDC	POTEN	1.00000E-001	T	DC &Voltage (V)
FREQINIT	QUANT	1.00000E+005	Initial Fre&q. (Hz)
FREQFINAL	QUANT	1.00000E+001	Final Fre&q. (Hz)
PTSPERDEC	QUANT	2.00000E+001	Points/&decade
VAC	QUANT	1.00000E+001	AC &Voltage (mV rms)
AREA	QUANT	1.00000E+000	&Area (cm²)
DENSITY	QUANT	7.87000E+000	&Density (gm/cm³)
EQUIV	QUANT	7.00000E+000	Equiv. &Wt
CONDIT	TWOPARAM	F	1.50000E+001	0.00000E+000	Conditionin&g	Time(s)	E(V)
DELAY	TWOPARAM	F	6.00000E+002	0.00000E+000	Init. De&lay	Time(s)	Stab.(mV/s)
SPEED	SELECTOR	1	&Optimize for:
ZGUESS	QUANT	1.00000E+002	E&stimated Z (ohms)
OCVCURVE	TABLE	39
	Pt	T	Vf	Vm	Ach	Over
	#	s	V vs. Ref.	V	V	bits
	0	0.258332	-5.21169E-001	5.32276E-006	2.36600E-004	......
	1	0.516663	-5.21819E-001	5.32276E-006	-1.63400E-004	......
	2	0.774994	-5.22569E-001	5.32276E-006	3.36600E-004	......
	3	1.03333	-5.23919E-001	5.32276E-006	3.66000E-005	......
	4	1.29166	-5.24719E-001	5.32276E-006	2.36600E-004	......
	5	1.54999	-5.24469E-001	5.32276E-006	3.66000E-005	......
	6	1.80832	-5.24669E-001	5.32276E-006	1.36600E-004	......
	7	2.06665	-5.24570E-001	5.32276E-006	3.66000E-005	......
	8	2.32498	-5.25169E-001	5.32276E-006	1.36600E-004	......
	9	2.58332	-5.26019E-001	5.32276E-006	3.66000E-005	......
	10	2.84165	-5.25620E-001	5.32276E-006	2.36600E-004	......
	11	3.09998	-5.24619E-001	5.32276E-006	3.66000E-005	......
	12	3.35831	-5.23269E-001	5.32276E-006	3.36600E-004	......
	13	3.61664	-5.24619E-001	5.32276E-006	-6.34000E-005	......
	14	3.87497	-5.25469E-001	5.32276E-006	2.36600E-004	......
	15	4.1333	-5.27070E-001	5.32276E-006	-6.34000E-005	......
	16	4.39164	-5.28369E-001	5.32276E-006	2.36600E-004	......
	17	4.64997	-5.27619E-001	5.32276E-006	3.66000E-005	......
	18	4.9083	-5.26670E-001	5.32276E-006	2.36600E-004	......
	19	5.16663	-5.28319E-001	5.32276E-006	-6.34000E-005	......
	20	5.42496	-5.28019E-001	5.32276E-006	2.36600E-004	......
	21	5.68329	-5.28669E-001	5.32276E-006	3.66000E-005	......
	22	5.94162	-5.28870E-001	5.32276E-006	3.66000E-005	......
	23	6.19996	-5.28619E-001	5.32276E-006	3.66000E-005	......
	24	6.45829	-5.28069E-001	5.32276E-006	3.36600E-004	......
	25	6.71662	-5.28669E-001	5.32276E-006	-6.34000E-005	......
	26	6.97495	-5.28470E-001	5.32276E-006	3.66000E-005	......
	27	7.23328	-5.27520E-001	5.32276E-006	3.66000E-005	......
	28	7.49161	-5.27569E-001	5.32276E-006	3.36600E-004	......
	29	7.74995	-5.27169E-001	5.32276E-006	-1.63400E-004	......
	30	8.00828	-5.27819E-001	5.32276E-006	3.66000E-005	......
	31	8.26661	-5.28419E-001	5.32276E-006	3.66000E-005	......
	32	8.52494	-5.27669E-001	5.32276E-006	1.36600E-004	......
	33	8.78327	-5.26919E-001	5.32276E-006	3.66000E-005	......
	34	9.0416	-5.26670E-001	5.32276E-006	1.36600E-004	......
	35	9.29993	-5.26769E-001	5.32276E-006	3.66000E-005	......
	36	9.5583	-5.17720E-001	5.32276E-006	2.36600E-004	......
	37	9.8166	-5.12469E-001	5.32276E-006	3.66000E-005	......
	38	10.0749	-5.10269E-001	5.32276E-006	2.36600E-004	......
EOC	QUANT	-0.510269	Open Circuit (V)
PSTATMODEL	IQUANT	32	Pstat Model
PSTATSECTION	LABEL	PStat0	Pstat Section
CTRLMODE	IQUANT	1	Control Mode
IESTAB	IQUANT	0	I/E Stability
CASPEED	IQUANT	1	Control Amp Speed
CONVENTION	IQUANT	1	Current Convention
ICHRANGE	IQUANT	2	Ich Range
ICHRANGEMODE	TOGGLE	F	Ich Auto Range
ICHOFFSETENABLE	TOGGLE	T	Ich Offset Enable
ICHOFFSET	QUANT	0	Ich Offset (V)
ICHFILTER	IQUANT	3	Ich Filter
VCHRANGE	IQUANT	2	Vch Range
VCHRANGEMODE	TOGGLE	F	Vch Auto Range
VCHOFFSETENABLE	TOGGLE	T	Vch Offset Enable
VCHOFFSET	QUANT	0	Vch Offset (V)
VCHFILTER	IQUANT	3	Vch Filter
ACHRANGE	IQUANT	0	Ach Range
IERANGELOWERLIMIT	IQUANT	3	I/E Range Lower Limit
IERANGEMODE	TOGGLE	F	I/E AutoRange
IERANGE	IQUANT	11	I/E Range
POSFEEDENABLE	TOGGLE	F	Positive Feedback IR Comp
POSFEEDRESISTANCE	QUANT	0	Positive Feedback Resistance (ohm)
FC350IDIVISOR	IQUANT	0	FC350 I Divisor
FC350VRANGE	IQUANT	0	FC350 V Range
FRAMEWORKVERSION	QUANT	4.35	Framework Version
ZCURVE	TABLE
	Pt	Time	Freq	Zreal	Zimag	Zsig	Zmod	Zphz	Idc	Vdc	IERange
	#	s	Hz	ohm	ohm	V	ohm	°	A	V	#
	0	4	100007	172.789	0.057413	1	172.789	0.019038	3.03274E-006	-0.410161	9
	1	6	89134.1	172.052	0.027229	1	172.052	0.009068	3.31928E-006	-0.410169	9
	2	8	79433.6	171.395	-0.509365	1	171.395	-0.170276	3.30545E-006	-0.410205	9
	3	10	70800.8	171.119	-0.845587	1	171.121	-0.283126	3.42871E-006	-0.410202	9
	4	12	63105.5	170.73	-1.17122	1	170.734	-0.393047	2.92299E-006	-0.410188	9
	5	14	56243.5	170.748	-1.34292	1	170.753	-0.450618	3.39638E-006	-0.410171	9
	6	16	50123.7	170.561	-1.75301	1	170.57	-0.588861	3.40435E-006	-0.410183	9
	7	18	44681	170.319	-1.86889	1	170.329	-0.628674	3.73831E-006	-0.410191	9
	8	20	39811.2	170.334	-2.21824	1	170.349	-0.746112	3.72823E-006	-0.410193	9
	9	22	35488.3	170.345	-2.88803	1	170.37	-0.9713	3.87018E-006	-0.410164	9
	10	24	31634.1	170.211	-2.93321	1	170.236	-0.98727	3.8999E-006	-0.410176	9
	11	26	28173.1	170.459	-3.14519	1	170.488	-1.05706	3.78553E-006	-0.410168	9
	12	28	25123.7	170.313	-3.77946	1	170.355	-1.27125	3.80413E-006	-0.410159	9
	13	30	22389.3	170.384	-4.03667	1	170.432	-1.35717	3.67298E-006	-0.410181	9
	14	32	19954.4	170.766	-4.68611	1	170.831	-1.5719	3.52403E-006	-0.410171	9
	15	34	17778.2	170.908	-4.99568	1	170.981	-1.67429	3.59384E-006	-0.410183	9
	16	36	15852.9	170.768	-5.43008	1	170.854	-1.82127	3.78437E-006	-0.410161	9
	17	38	14122.3	170.972	-6.36087	1	171.09	-2.13066	3.64937E-006	-0.410172	9
	18	40	12587.2	170.946	-7.07643	1	171.093	-2.37044	3.34473E-006	-0.410188	9
	19	42	11221.1	171.298	-7.55946	1	171.465	-2.52685	3.51584E-006	-0.410177	9
	20	44	9998.2	171.233	-8.18258	1	171.428	-2.73587	3.71265E-006	-0.410169	9
	21	46	8912.76	171.58	-9.20676	1	171.827	-3.07147	3.67074E-006	-0.410152	9
	22	48	7942.6	171.827	-10.2025	1	172.13	-3.39804	3.73346E-006	-0.410183	9
	23	50	7078.05	171.765	-11.1117	1	172.124	-3.70139	3.72249E-006	-0.410188	9
	24	52	6311.1	172.282	-12.4147	1	172.729	-4.12164	3.56315E-006	-0.410178	9
	25	54	5622.14	172.31	-13.7149	1	172.855	-4.55084	3.54876E-006	-0.410182	9
	26	56	5011.18	172.384	-15.2969	1	173.062	-5.07097	3.39231E-006	-0.410173	9
	27	58	4465.21	172.931	-16.732	1	173.739	-5.52647	3.51017E-006	-0.410191	9
	28	60	3980.93	173.293	-18.5854	1	174.287	-6.12149	3.55328E-006	-0.410189	9
	29	62	3548.18	173.601	-20.4011	1	174.796	-6.70248	3.54018E-006	-0.410196	9
	30	64	3162.67	174.155	-22.5466	1	175.609	-7.37664	2.97701E-006	-0.41019	9
	31	66	2819.01	174.649	-24.8798	1	176.413	-8.10756	2.91271E-006	-0.410179	9
	32	67	2511.16	175.04	-27.7092	1	177.22	-8.99539	3.02054E-006	-0.410198	9
	33	69	2238.63	175.747	-30.6733	1	178.403	-9.9002	2.93088E-006	-0.410184	9
	34	71	1995.37	176.266	-34.0195	1	179.519	-10.9238	2.97932E-006	-0.410186	9
	35	73	1778.51	176.803	-37.5231	1	180.741	-11.9822	3.09037E-006	-0.41018	9
	36	75	1584.49	177.642	-41.4488	1	182.414	-13.1337	3.05949E-006	-0.410185	9
	37	77	1412.76	178.267	-45.961	1	184.097	-14.4572	3.53696E-006	-0.410195	9
	38	79	1259.04	179.225	-50.8221	1	186.291	-15.8316	3.49557E-006	-0.410198	9
	39	81	1121.63	180.353	-56.3631	1	188.955	-17.3549	3.77585E-006	-0.410188	9
	40	83	999.95	181.396	-62.3807	1	191.823	-18.9777	3.8612E-006	-0.410189	9
	41	85	891.184	182.302	-68.8228	1	194.861	-20.6825	3.90418E-006	-0.410192	9
	42	87	794.163	183.931	-76.2861	1	199.123	-22.5265	3.91135E-006	-0.41019	9
	43	89	707.867	184.835	-84.5092	1	203.238	-24.5706	3.58971E-006	-0.410173	9
	44	91	630.984	186.407	-93.4863	1	208.536	-26.6345	3.80613E-006	-0.410195	9
	45	93	562.189	187.955	-103.537	1	214.586	-28.8488	3.82885E-006	-0.410193	9
	46	95	501.303	189.728	-114.445	1	221.572	-31.0986	3.69018E-006	-0.410194	9
	47	97	446.614	191.539	-126.859	1	229.74	-33.5171	3.72682E-006	-0.410195	9
	48	99	398.209	193.507	-140.557	1	239.168	-35.9934	3.51503E-006	-0.410194	9
	49	101	354.821	195.635	-155.807	1	250.098	-38.5346	3.35217E-006	-0.410185	9
	50	103	316.113	197.991	-172.841	1	262.82	-41.1201	3.52015E-006	-0.410187	9
	51	105	281.926	200.517	-191.606	1	277.344	-43.6982	3.43551E-006	-0.410186	9
	52	107	251.185	203.299	-212.644	1	294.19	-46.287	3.59329E-006	-0.410185	9
	53	109	223.946	206.317	-235.945	1	313.427	-48.8327	3.69529E-006	-0.410185	9
	54	111	199.495	209.625	-262.044	1	335.574	-51.3415	3.69498E-006	-0.410182	9
	55	113	177.836	213.183	-290.975	1	360.712	-53.7715	3.45973E-006	-0.410184	9
	56	115	158.533	217.226	-323.214	1	389.428	-56.0957	3.59549E-006	-0.41019	9
	57	117	141.263	221.389	-359.09	1	421.852	-58.3451	3.1104E-006	-0.410191	9
	58	119	125.911	226.351	-399.279	1	458.976	-60.4512	3.4254E-006	-0.410189	9
	59	121	112.198	231.853	-444.015	1	500.905	-62.4276	3.59838E-006	-0.410185	9
	60	123	100.009	237.77	-493.689	1	547.963	-64.2837	3.44081E-006	-0.410187	9
	61	125	89.1164	244.529	-549.288	1	601.258	-66.0026	3.45223E-006	-0.410184	9
	62	127	79.4083	251.921	-611.218	1	661.099	-67.6004	3.40712E-006	-0.410184	9
	63	129	70.788	261.535	-680.029	1	728.587	-68.9635	3.79014E-006	-0.410179	9
	64	131	63.0971	270.495	-756.783	1	803.671	-70.3317	3.49707E-006	-0.410188	9
	65	134	54.5476	285.117	-866.903	1	912.585	-71.7944	3.45381E-006	-0.410185	9
	66	136	50.0083	294.058	-940.415	1	985.32	-72.6361	3.44094E-006	-0.410186	9
	67	138	46.1675	303.77	-1012.01	1	1056.62	-73.2921	3.34878E-006	-0.410183	9
	68	140	40.0059	323.546	-1154.7	1	1199.17	-74.3472	2.3002E-006	-0.410186	8
	69	142	35.3046	342.406	-1297.47	1	1341.89	-75.2165	2.38245E-006	-0.410181	8
	70	144	31.5793	362.575	-1440.4	1	1485.33	-75.8711	2.60067E-006	-0.410179	8
	71	146	28.5748	384.092	-1583.03	1	1628.96	-76.3618	2.57049E-006	-0.410181	8
	72	148	24.9911	419.388	-1791.86	1	1840.29	-76.827	2.46424E-006	-0.410182	8
	73	151	22.2195	454.895	-2004.9	1	2055.85	-77.2165	2.63327E-006	-0.41018	8
	74	153	20.0011	487.578	-2203.76	1	2257.06	-77.5244	2.6275E-006	-0.410183	8
	75	156	17.6486	533.708	-2462.2	1	2519.38	-77.7697	2.46188E-006	-0.410182	8
	76	158	15.7934	580.262	-2745.72	1	2806.37	-78.0671	2.45467E-006	-0.410188	8
	77	160	14.2828	645.966	-3001.34	1	3070.07	-77.8537	2.44641E-006	-0.410184	8
	78	162	12.5002	753.092	-3404.6	1	3486.9	-77.5271	2.49522E-006	-0.41019	8
	79	165	11.323	825.44	-3714.29	1	3804.9	-77.4706	2.69001E-006	-0.410185	8
	80	167	9.9987	966.86	-4207.39	1	4317.05	-77.0581	2.65412E-006	-0.410183	8
