EXPLAIN
TAG	EISPOT
TITLE	LABEL	Tomato_open	Test &Identifier
DATE	LABEL	5/15/2006	Date
TIME	LABEL	12:08:12	Time
NOTES	NOTES	1	&Notes...
	
PSTAT	PSTAT	300	Potentiostat
VDC	POTEN	1.00000E-001	T	DC &Voltage (V)
FREQINIT	QUANT	1.00000E+005	Initial Fre&q. (Hz)
FREQFINAL	QUANT	1.00000E+001	Final Fre&q. (Hz)
PTSPERDEC	QUANT	2.00000E+001	Points/&decade
VAC	QUANT	1.00000E+001	AC &Voltage (mV rms)
AREA	QUANT	1.00000E+000	&Area (cm²)
DENSITY	QUANT	7.87000E+000	&Density (gm/cm³)
EQUIV	QUANT	7.00000E+000	Equiv. &Wt
CONDIT	TWOPARAM	F	1.50000E+001	0.00000E+000	Conditionin&g	Time(s)	E(V)
DELAY	TWOPARAM	F	6.00000E+002	0.00000E+000	Init. De&lay	Time(s)	Stab.(mV/s)
SPEED	SELECTOR	1	&Optimize for:
ZGUESS	QUANT	1.00000E+002	E&stimated Z (ohms)
OCVCURVE	TABLE	39
	Pt	T	Vf	Vm	Ach	Over
	#	s	V vs. Ref.	V	V	bits
	0	0.258332	-4.28219E-001	5.16276E-006	1.36600E-004	......
	1	0.516663	-4.29769E-001	5.16276E-006	-1.63400E-004	......
	2	0.774994	-4.31119E-001	5.16276E-006	3.66000E-005	......
	3	1.03333	-4.31319E-001	5.16276E-006	-1.63400E-004	......
	4	1.29166	-4.31619E-001	5.16276E-006	3.66000E-005	......
	5	1.54999	-4.31619E-001	5.16276E-006	-6.34000E-005	......
	6	1.80832	-4.32319E-001	5.16276E-006	3.66000E-005	......
	7	2.06665	-4.32570E-001	5.16276E-006	-1.63400E-004	......
	8	2.32498	-4.34119E-001	5.16276E-006	3.66000E-005	......
	9	2.58332	-4.36219E-001	5.16276E-006	-6.34000E-005	......
	10	2.84165	-4.35619E-001	5.16276E-006	3.66000E-005	......
	11	3.09998	-4.35219E-001	5.16276E-006	-6.34000E-005	......
	12	3.35831	-4.35019E-001	5.16276E-006	3.66000E-005	......
	13	3.61664	-4.35269E-001	5.16276E-006	-2.63400E-004	......
	14	3.87497	-4.36169E-001	5.16276E-006	2.36600E-004	......
	15	4.1333	-4.37169E-001	5.16276E-006	-6.34000E-005	......
	16	4.39164	-4.38169E-001	5.16276E-006	1.36600E-004	......
	17	4.64997	-4.38569E-001	5.16276E-006	-6.34000E-005	......
	18	4.9083	-4.39769E-001	5.16276E-006	3.66000E-005	......
	19	5.16663	-4.40069E-001	5.16276E-006	-2.63400E-004	......
	20	5.42496	-4.40219E-001	5.16276E-006	3.66000E-005	......
	21	5.68329	-4.40919E-001	5.16276E-006	-1.63400E-004	......
	22	5.94162	-4.41119E-001	5.16276E-006	3.66000E-005	......
	23	6.19996	-4.41019E-001	5.16276E-006	-1.63400E-004	......
	24	6.45829	-4.41269E-001	5.16276E-006	3.66000E-005	......
	25	6.71662	-4.40869E-001	5.16276E-006	-1.63400E-004	......
	26	6.97495	-4.41519E-001	5.16276E-006	3.66000E-005	......
	27	7.23328	-4.43319E-001	5.16276E-006	-1.63400E-004	......
	28	7.49161	-4.43169E-001	5.16276E-006	1.36600E-004	......
	29	7.74995	-4.44019E-001	5.16276E-006	-6.34000E-005	......
	30	8.00828	-4.44019E-001	5.16276E-006	3.66000E-005	......
	31	8.26661	-4.42819E-001	5.16276E-006	-6.34000E-005	......
	32	8.52494	-4.44619E-001	5.16276E-006	2.36600E-004	......
	33	8.78327	-4.45670E-001	5.16276E-006	-6.34000E-005	......
	34	9.0416	-4.45269E-001	5.16276E-006	3.66000E-005	......
	35	9.29993	-4.46020E-001	5.16276E-006	-6.34000E-005	......
	36	9.5583	-4.48469E-001	5.16276E-006	3.66000E-005	......
	37	9.8166	-4.52369E-001	5.16276E-006	-1.63400E-004	......
	38	10.0749	-4.55519E-001	5.16276E-006	3.66000E-005	......
EOC	QUANT	-0.455519	Open Circuit (V)
PSTATMODEL	IQUANT	32	Pstat Model
PSTATSECTION	LABEL	PStat0	Pstat Section
CTRLMODE	IQUANT	1	Control Mode
IESTAB	IQUANT	0	I/E Stability
CASPEED	IQUANT	1	Control Amp Speed
CONVENTION	IQUANT	1	Current Convention
ICHRANGE	IQUANT	2	Ich Range
ICHRANGEMODE	TOGGLE	F	Ich Auto Range
ICHOFFSETENABLE	TOGGLE	T	Ich Offset Enable
ICHOFFSET	QUANT	0	Ich Offset (V)
ICHFILTER	IQUANT	3	Ich Filter
VCHRANGE	IQUANT	2	Vch Range
VCHRANGEMODE	TOGGLE	F	Vch Auto Range
VCHOFFSETENABLE	TOGGLE	T	Vch Offset Enable
VCHOFFSET	QUANT	0	Vch Offset (V)
VCHFILTER	IQUANT	3	Vch Filter
ACHRANGE	IQUANT	0	Ach Range
IERANGELOWERLIMIT	IQUANT	3	I/E Range Lower Limit
IERANGEMODE	TOGGLE	F	I/E AutoRange
IERANGE	IQUANT	11	I/E Range
POSFEEDENABLE	TOGGLE	F	Positive Feedback IR Comp
POSFEEDRESISTANCE	QUANT	0	Positive Feedback Resistance (ohm)
FC350IDIVISOR	IQUANT	0	FC350 I Divisor
FC350VRANGE	IQUANT	0	FC350 V Range
FRAMEWORKVERSION	QUANT	4.35	Framework Version
ZCURVE	TABLE
	Pt	Time	Freq	Zreal	Zimag	Zsig	Zmod	Zphz	Idc	Vdc	IERange
	#	s	Hz	ohm	ohm	V	ohm	°	A	V	#
	0	4	100007	172.233	0.139293	1	172.233	0.046338	2.77802E-006	-0.355409	9
	1	6	89134.1	171.543	-0.322163	1	171.543	-0.107603	3.41567E-006	-0.355446	9
	2	8	79433.6	171.004	-0.739302	1	171.005	-0.247706	3.47098E-006	-0.355419	9
	3	10	70800.8	170.639	-0.836543	1	170.641	-0.280885	4.13843E-006	-0.355415	9
	4	12	63105.5	170.376	-1.08813	1	170.379	-0.365921	4.16168E-006	-0.355435	9
	5	14	56243.5	170.515	-1.35839	1	170.52	-0.456432	4.61178E-006	-0.355426	9
	6	16	50123.7	170.031	-1.85329	1	170.042	-0.624482	4.95406E-006	-0.355462	9
	7	18	44681	169.854	-2.051	1	169.867	-0.691815	4.79842E-006	-0.355424	9
	8	20	39811.2	170.102	-2.44924	1	170.12	-0.824924	5.2524E-006	-0.355466	9
	9	22	35488.3	169.956	-2.80193	1	169.979	-0.944506	5.04296E-006	-0.355457	9
	10	24	31634.1	169.894	-3.1808	1	169.924	-1.07258	5.28013E-006	-0.355417	9
	11	26	28173.1	170.113	-3.66163	1	170.152	-1.23308	5.06588E-006	-0.355428	9
	12	28	25123.7	170.128	-4.04301	1	170.176	-1.36135	5.13095E-006	-0.355419	9
	13	30	22389.3	170.325	-4.35811	1	170.381	-1.46571	4.88137E-006	-0.355426	9
	14	32	19954.4	170.344	-5.07891	1	170.42	-1.7078	5.1326E-006	-0.355443	9
	15	34	17778.2	170.538	-5.43085	1	170.624	-1.82399	4.95721E-006	-0.355425	9
	16	36	15852.9	170.78	-6.3891	1	170.899	-2.14251	4.96707E-006	-0.355417	9
	17	38	14122.3	170.857	-6.95888	1	170.999	-2.33232	4.72798E-006	-0.355426	9
	18	40	12587.2	170.834	-7.39501	1	170.994	-2.47865	4.72013E-006	-0.355419	9
	19	42	11221.1	171.429	-8.27197	1	171.628	-2.76255	4.51792E-006	-0.35542	9
	20	44	9998.2	171.136	-9.28861	1	171.387	-3.10676	4.54532E-006	-0.355419	9
	21	46	8912.76	171.35	-10.1669	1	171.652	-3.39559	4.63995E-006	-0.355402	9
	22	48	7942.6	171.951	-11.3123	1	172.322	-3.76394	4.74417E-006	-0.355423	9
	23	50	7078.05	172.226	-12.601	1	172.687	-4.18461	4.59234E-006	-0.355424	9
	24	52	6311.1	172.353	-13.7053	1	172.897	-4.54653	4.54935E-006	-0.355419	9
	25	54	5622.14	172.648	-15.0026	1	173.299	-4.96635	4.69429E-006	-0.355414	9
	26	56	5011.18	173.031	-16.3295	1	173.8	-5.39123	4.54157E-006	-0.355419	9
	27	58	4465.21	173.278	-18.4432	1	174.257	-6.07552	4.46584E-006	-0.355413	9
	28	60	3980.93	173.97	-20.3003	1	175.151	-6.65564	4.41276E-006	-0.355433	9
	29	62	3548.18	174.108	-22.5778	1	175.566	-7.38871	4.25471E-006	-0.355407	9
	30	63	3162.67	174.402	-25.0132	1	176.186	-8.16186	4.18924E-006	-0.355439	9
	31	65	2819.01	175.126	-27.4919	1	177.271	-8.92168	4.2056E-006	-0.355414	9
	32	67	2511.16	175.61	-30.3604	1	178.215	-9.8087	4.30067E-006	-0.355415	9
	33	69	2238.63	176.495	-33.7738	1	179.697	-10.8331	4.32401E-006	-0.355413	9
	34	71	1995.37	176.958	-37.3401	1	180.854	-11.9153	4.2284E-006	-0.355422	9
	35	73	1778.51	177.551	-41.3152	1	182.295	-13.0993	4.06542E-006	-0.355417	9
	36	75	1584.49	178.499	-45.7681	1	184.273	-14.3811	4.32493E-006	-0.355428	9
	37	77	1412.76	179.596	-50.5154	1	186.565	-15.7098	4.03137E-006	-0.355425	9
	38	79	1259.04	180.445	-56.06	1	188.952	-17.2588	4.42576E-006	-0.35541	9
	39	81	1121.63	181.569	-61.7461	1	191.781	-18.7816	4.24863E-006	-0.355411	9
	40	83	999.95	182.818	-68.0303	1	195.065	-20.4113	4.33015E-006	-0.355413	9
	41	85	891.184	184.073	-75.8356	1	199.082	-22.391	4.2504E-006	-0.355425	9
	42	87	794.163	185.584	-83.7788	1	203.618	-24.296	4.35021E-006	-0.355435	9
	43	89	707.867	187.062	-92.5916	1	208.724	-26.3344	4.20156E-006	-0.355439	9
	44	91	630.984	188.413	-102.444	1	214.463	-28.5339	4.32407E-006	-0.355414	9
	45	93	562.189	190.203	-113.557	1	221.523	-30.8385	4.30301E-006	-0.355401	9
	46	95	501.303	192.139	-125.75	1	229.631	-33.2036	4.50663E-006	-0.355432	9
	47	97	446.614	194.158	-139.44	1	239.042	-35.6851	4.56582E-006	-0.355428	9
	48	99	398.209	196.36	-154.559	1	249.892	-38.2069	4.77342E-006	-0.355431	9
	49	101	354.821	198.756	-171.446	1	262.484	-40.7808	4.61068E-006	-0.355428	9
	50	103	316.113	201.417	-190.296	1	277.095	-43.3737	4.65645E-006	-0.355424	9
	51	105	281.926	204.311	-211.033	1	293.731	-45.9272	4.57687E-006	-0.35542	9
	52	107	251.185	207.539	-234.378	1	313.058	-48.4754	4.39707E-006	-0.355427	9
	53	109	223.946	211.07	-260.2	1	335.044	-50.9516	4.47095E-006	-0.355429	9
	54	111	199.495	215.052	-289.158	1	360.361	-53.3612	4.52831E-006	-0.35542	9
	55	113	177.836	219.48	-321.144	1	388.979	-55.6501	4.63734E-006	-0.355425	9
	56	115	158.533	224.38	-356.881	1	421.557	-57.8413	4.63982E-006	-0.355423	9
	57	117	141.263	230.034	-396.762	1	458.624	-59.8958	4.75112E-006	-0.355429	9
	58	119	125.911	236.079	-441.016	1	500.228	-61.8395	4.51929E-006	-0.355431	9
	59	121	112.198	243.487	-490.67	1	547.762	-63.6079	4.70006E-006	-0.355427	9
	60	123	100.009	251.32	-545.511	1	600.62	-65.2643	4.78066E-006	-0.355424	9
	61	125	89.1164	260.484	-606.824	1	660.369	-66.7682	4.81425E-006	-0.355422	9
	62	128	79.4083	270.99	-675.027	1	727.391	-68.127	4.81515E-006	-0.355424	9
	63	130	70.788	283.084	-750.588	1	802.196	-69.3361	4.82718E-006	-0.35542	9
	64	132	63.0971	297.008	-834.662	1	885.931	-70.4123	4.88391E-006	-0.355428	9
	65	134	54.5476	316.949	-954.88	1	1006.11	-71.6376	4.74118E-006	-0.355423	9
	66	136	50.0083	329.279	-1033.95	1	1085.12	-72.3351	3.94222E-006	-0.355433	8
	67	138	46.1675	344.208	-1113.44	1	1165.43	-72.8215	4.04125E-006	-0.355432	8
	68	140	40.0059	375.524	-1270.72	1	1325.05	-73.5366	4.24885E-006	-0.355426	8
	69	142	35.3046	407.739	-1425.24	1	1482.42	-74.035	4.29344E-006	-0.355434	8
	70	144	31.5793	440.365	-1579.2	1	1639.45	-74.4187	4.35864E-006	-0.355428	8
	71	146	28.5748	476.919	-1730.34	1	1794.86	-74.5906	4.51091E-006	-0.355425	8
	72	148	24.9911	529.78	-1955.26	1	2025.76	-74.8396	4.37015E-006	-0.355432	8
	73	151	22.2195	583.731	-2177.39	1	2254.27	-74.9926	4.26003E-006	-0.355431	8
	74	153	20.0011	637.793	-2395.54	1	2478.99	-75.0913	4.10599E-006	-0.355431	8
	75	156	17.6486	707.847	-2686.44	1	2778.13	-75.2387	3.96964E-006	-0.355415	8
	76	158	15.7934	788.939	-2971.84	1	3074.77	-75.1325	3.90666E-006	-0.355425	8
	77	160	14.2828	868.161	-3254.54	1	3368.35	-75.0639	3.85897E-006	-0.355419	8
	78	162	12.5002	1005.28	-3662.37	1	3797.84	-74.6509	3.84565E-006	-0.355413	8
	79	165	11.323	1107.07	-4000.54	1	4150.9	-74.5317	3.7014E-006	-0.355413	8
	80	167	9.9987	1281.53	-4470.55	1	4650.61	-74.0045	3.66144E-006	-0.35541	8
