EXPLAIN
TAG	EISPOT
TITLE	LABEL	Tomato_open	Test &Identifier
DATE	LABEL	5/15/2006	Date
TIME	LABEL	12:28:14	Time
NOTES	NOTES	1	&Notes...
	
PSTAT	PSTAT	300	Potentiostat
VDC	POTEN	1.00000E-001	T	DC &Voltage (V)
FREQINIT	QUANT	1.00000E+005	Initial Fre&q. (Hz)
FREQFINAL	QUANT	1.00000E+001	Final Fre&q. (Hz)
PTSPERDEC	QUANT	2.00000E+001	Points/&decade
VAC	QUANT	1.00000E+001	AC &Voltage (mV rms)
AREA	QUANT	1.00000E+000	&Area (cm²)
DENSITY	QUANT	7.87000E+000	&Density (gm/cm³)
EQUIV	QUANT	7.00000E+000	Equiv. &Wt
CONDIT	TWOPARAM	F	1.50000E+001	0.00000E+000	Conditionin&g	Time(s)	E(V)
DELAY	TWOPARAM	F	6.00000E+002	0.00000E+000	Init. De&lay	Time(s)	Stab.(mV/s)
SPEED	SELECTOR	1	&Optimize for:
ZGUESS	QUANT	1.00000E+002	E&stimated Z (ohms)
OCVCURVE	TABLE	39
	Pt	T	Vf	Vm	Ach	Over
	#	s	V vs. Ref.	V	V	bits
	0	0.258332	-5.14170E-001	5.40876E-006	3.66000E-005	......
	1	0.516663	-5.13969E-001	5.40876E-006	3.66000E-005	......
	2	0.774994	-5.12670E-001	5.40876E-006	1.36600E-004	......
	3	1.03333	-5.11270E-001	5.40876E-006	3.66000E-005	......
	4	1.29166	-5.10819E-001	5.40876E-006	3.66000E-005	......
	5	1.54999	-5.10319E-001	5.40876E-006	-6.34000E-005	......
	6	1.80832	-5.10620E-001	5.40876E-006	-6.34000E-005	......
	7	2.06665	-5.10969E-001	5.40876E-006	-6.34000E-005	......
	8	2.32498	-5.10870E-001	5.40876E-006	3.66000E-005	......
	9	2.58332	-5.11169E-001	5.40876E-006	-1.63400E-004	......
	10	2.84165	-5.11169E-001	5.40876E-006	3.66000E-005	......
	11	3.09998	-5.08869E-001	5.40876E-006	-6.34000E-005	......
	12	3.35831	-5.06169E-001	5.40876E-006	3.66000E-005	......
	13	3.61664	-5.05719E-001	5.40876E-006	-1.63400E-004	......
	14	3.87497	-5.07969E-001	5.40876E-006	1.36600E-004	......
	15	4.1333	-5.10419E-001	5.40876E-006	-1.63400E-004	......
	16	4.39164	-5.11069E-001	5.40876E-006	3.66000E-005	......
	17	4.64997	-5.09470E-001	5.40876E-006	-1.63400E-004	......
	18	4.9083	-5.10570E-001	5.40876E-006	3.66000E-005	......
	19	5.16663	-5.11019E-001	5.40876E-006	-1.63400E-004	......
	20	5.42496	-5.09869E-001	5.40876E-006	-6.34000E-005	......
	21	5.68329	-5.09619E-001	5.40876E-006	-1.63400E-004	......
	22	5.94162	-5.08969E-001	5.40876E-006	3.66000E-005	......
	23	6.19996	-5.09470E-001	5.40876E-006	-1.63400E-004	......
	24	6.45829	-5.08020E-001	5.40876E-006	3.66000E-005	......
	25	6.71662	-5.08219E-001	5.40876E-006	-1.63400E-004	......
	26	6.97495	-5.08869E-001	5.40876E-006	3.66000E-005	......
	27	7.23328	-5.10019E-001	5.40876E-006	-6.34000E-005	......
	28	7.49161	-5.11119E-001	5.40876E-006	-6.34000E-005	......
	29	7.74995	-5.12069E-001	5.40876E-006	-6.34000E-005	......
	30	8.00828	-5.13069E-001	5.40876E-006	3.66000E-005	......
	31	8.26661	-5.12469E-001	5.40876E-006	-1.63400E-004	......
	32	8.52494	-5.11869E-001	5.40876E-006	3.66000E-005	......
	33	8.78327	-5.11869E-001	5.40876E-006	3.66000E-005	......
	34	9.0416	-5.11919E-001	5.40876E-006	3.66000E-005	......
	35	9.29993	-5.12219E-001	5.40876E-006	-1.63400E-004	......
	36	9.5583	-5.11270E-001	5.40876E-006	3.66000E-005	......
	37	9.8166	-5.11819E-001	5.40876E-006	-1.63400E-004	......
	38	10.0749	-5.11919E-001	5.40876E-006	3.66000E-005	......
EOC	QUANT	-0.511919	Open Circuit (V)
PSTATMODEL	IQUANT	32	Pstat Model
PSTATSECTION	LABEL	PStat0	Pstat Section
CTRLMODE	IQUANT	1	Control Mode
IESTAB	IQUANT	0	I/E Stability
CASPEED	IQUANT	1	Control Amp Speed
CONVENTION	IQUANT	1	Current Convention
ICHRANGE	IQUANT	2	Ich Range
ICHRANGEMODE	TOGGLE	F	Ich Auto Range
ICHOFFSETENABLE	TOGGLE	T	Ich Offset Enable
ICHOFFSET	QUANT	0	Ich Offset (V)
ICHFILTER	IQUANT	3	Ich Filter
VCHRANGE	IQUANT	2	Vch Range
VCHRANGEMODE	TOGGLE	F	Vch Auto Range
VCHOFFSETENABLE	TOGGLE	T	Vch Offset Enable
VCHOFFSET	QUANT	0	Vch Offset (V)
VCHFILTER	IQUANT	3	Vch Filter
ACHRANGE	IQUANT	0	Ach Range
IERANGELOWERLIMIT	IQUANT	3	I/E Range Lower Limit
IERANGEMODE	TOGGLE	F	I/E AutoRange
IERANGE	IQUANT	11	I/E Range
POSFEEDENABLE	TOGGLE	F	Positive Feedback IR Comp
POSFEEDRESISTANCE	QUANT	0	Positive Feedback Resistance (ohm)
FC350IDIVISOR	IQUANT	0	FC350 I Divisor
FC350VRANGE	IQUANT	0	FC350 V Range
FRAMEWORKVERSION	QUANT	4.35	Framework Version
ZCURVE	TABLE
	Pt	Time	Freq	Zreal	Zimag	Zsig	Zmod	Zphz	Idc	Vdc	IERange
	#	s	Hz	ohm	ohm	V	ohm	°	A	V	#
	0	4	100007	172.178	0.077444	1	172.178	0.025771	3.89962E-006	-0.411881	9
	1	6	89134.1	171.379	-0.285466	1	171.379	-0.095438	4.01899E-006	-0.411911	9
	2	8	79433.6	171.084	-0.39315	1	171.084	-0.131665	4.26692E-006	-0.411937	9
	3	10	70800.8	170.468	-0.785577	1	170.47	-0.264038	4.24012E-006	-0.411894	9
	4	12	63105.5	170.368	-1.28129	1	170.373	-0.430896	4.28693E-006	-0.41193	9
	5	14	56243.5	170.254	-1.36676	1	170.26	-0.459946	4.02893E-006	-0.411896	9
	6	16	50123.7	169.993	-1.87117	1	170.003	-0.630648	4.30946E-006	-0.411918	9
	7	18	44681	169.887	-2.38688	1	169.903	-0.804944	4.29432E-006	-0.411926	9
	8	20	39811.2	169.993	-2.40939	1	170.01	-0.812023	4.07501E-006	-0.411885	9
	9	22	35488.3	169.654	-2.8378	1	169.678	-0.95829	3.98892E-006	-0.411895	9
	10	24	31634.1	169.659	-3.32751	1	169.692	-1.12359	4.00993E-006	-0.411884	9
	11	26	28173.1	169.925	-3.67531	1	169.965	-1.23906	3.93656E-006	-0.411888	9
	12	28	25123.7	169.801	-4.28379	1	169.855	-1.44517	4.14117E-006	-0.411879	9
	13	30	22389.3	169.916	-4.54383	1	169.977	-1.53181	3.82451E-006	-0.411881	9
	14	32	19954.4	170.058	-5.1435	1	170.135	-1.73242	4.15729E-006	-0.411881	9
	15	34	17778.2	170.05	-5.73801	1	170.147	-1.93261	3.94493E-006	-0.411889	9
	16	36	15852.9	170.259	-6.239	1	170.374	-2.09861	3.72859E-006	-0.41188	9
	17	38	14122.3	170.28	-6.77505	1	170.415	-2.27846	3.79232E-006	-0.411886	9
	18	40	12587.2	170.653	-7.66383	1	170.825	-2.57136	3.76151E-006	-0.41189	9
	19	42	11221.1	170.752	-8.2551	1	170.952	-2.76784	3.66281E-006	-0.411887	9
	20	44	9998.2	170.853	-9.19778	1	171.101	-3.08151	3.82681E-006	-0.411886	9
	21	46	8912.76	171.38	-10.2855	1	171.688	-3.43455	3.52218E-006	-0.411883	9
	22	48	7942.6	171.582	-11.2878	1	171.953	-3.76387	3.6921E-006	-0.411887	9
	23	50	7078.05	171.571	-12.6302	1	172.035	-4.21022	3.74235E-006	-0.411889	9
	24	52	6311.1	171.887	-13.7651	1	172.438	-4.5786	3.69057E-006	-0.411893	9
	25	54	5622.14	172.296	-15.488	1	172.99	-5.13664	3.68354E-006	-0.411883	9
	26	56	5011.18	172.512	-17.088	1	173.356	-5.65693	3.60396E-006	-0.411886	9
	27	58	4465.21	172.76	-18.9567	1	173.797	-6.26195	3.62621E-006	-0.411889	9
	28	60	3980.93	173.033	-20.801	1	174.278	-6.85487	3.74973E-006	-0.411896	9
	29	62	3548.18	173.506	-23.0906	1	175.035	-7.58055	3.66268E-006	-0.41186	9
	30	64	3162.67	173.934	-25.337	1	175.769	-8.28802	3.71696E-006	-0.411899	9
	31	66	2819.01	174.527	-28.0757	1	176.771	-9.13872	3.61293E-006	-0.411914	9
	32	68	2511.16	175.005	-31.4093	1	177.801	-10.1749	3.48728E-006	-0.411884	9
	33	69	2238.63	175.428	-34.6215	1	178.812	-11.1641	3.53674E-006	-0.411879	9
	34	71	1995.37	176.298	-38.6876	1	180.493	-12.3771	3.59263E-006	-0.411878	9
	35	73	1778.51	176.886	-42.0801	1	181.822	-13.3816	3.52215E-006	-0.411877	9
	36	75	1584.49	177.615	-46.9785	1	183.723	-14.8153	3.61518E-006	-0.411873	9
	37	77	1412.76	178.421	-51.884	1	185.812	-16.2142	3.72768E-006	-0.411894	9
	38	79	1259.04	179.542	-57.4818	1	188.519	-17.7529	3.57895E-006	-0.411863	9
	39	81	1121.63	180.471	-63.8025	1	191.417	-19.4702	3.57359E-006	-0.411861	9
	40	83	999.95	181.462	-70.3979	1	194.639	-21.2037	3.55545E-006	-0.411868	9
	41	85	891.184	182.663	-78.0756	1	198.65	-23.1433	3.64449E-006	-0.411878	9
	42	87	794.163	184.109	-86.8949	1	203.585	-25.2661	3.63343E-006	-0.411862	9
	43	89	707.867	185.193	-95.436	1	208.337	-27.2636	3.45427E-006	-0.411855	9
	44	91	630.984	187.211	-106.006	1	215.14	-29.5204	3.68087E-006	-0.411864	9
	45	93	562.189	188.57	-117.402	1	222.131	-31.906	3.6649E-006	-0.411864	9
	46	95	501.303	190.378	-130.41	1	230.761	-34.4113	3.56584E-006	-0.411877	9
	47	97	446.614	192.238	-144.734	1	240.631	-36.9757	3.62785E-006	-0.411874	9
	48	99	398.209	194.248	-160.559	1	252.014	-39.5761	3.67031E-006	-0.411877	9
	49	101	354.821	196.465	-178.226	1	265.26	-42.2133	3.45657E-006	-0.411877	9
	50	103	316.113	198.91	-197.976	1	280.641	-44.8652	3.63635E-006	-0.411878	9
	51	105	281.926	201.536	-219.733	1	298.16	-47.4733	3.63398E-006	-0.411876	9
	52	107	251.185	204.471	-244.185	1	318.488	-50.0586	3.36338E-006	-0.411882	9
	53	109	223.946	207.628	-271.296	1	341.63	-52.5725	3.47717E-006	-0.411876	9
	54	111	199.495	211.193	-301.727	1	368.295	-55.01	3.44623E-006	-0.411888	9
	55	113	177.836	215.108	-335.396	1	398.45	-57.3257	3.36242E-006	-0.411884	9
	56	115	158.533	219.453	-372.992	1	432.761	-59.5292	3.38251E-006	-0.411885	9
	57	117	141.263	224.34	-414.963	1	471.723	-61.6032	3.38751E-006	-0.41189	9
	58	119	125.911	229.759	-461.707	1	515.715	-63.5438	3.37077E-006	-0.411891	9
	59	121	112.198	235.97	-514.038	1	565.612	-65.3424	3.35196E-006	-0.411886	9
	60	123	100.009	242.779	-572.205	1	621.579	-67.0092	3.27647E-006	-0.41189	9
	61	125	89.1164	250.36	-636.908	1	684.348	-68.5409	3.23306E-006	-0.411884	9
	62	128	79.4083	259.152	-709.241	1	755.105	-69.928	3.19584E-006	-0.411889	9
	63	130	70.788	268.875	-789.465	1	833.995	-71.1923	3.19714E-006	-0.411883	9
	64	132	63.0971	280.476	-879.315	1	922.963	-72.3088	3.15706E-006	-0.411892	9
	65	134	54.5476	297.639	-1007.88	1	1050.91	-73.5475	3.28691E-006	-0.411884	9
	66	136	50.0083	308.943	-1092.17	1	1135.02	-74.2053	2.56744E-006	-0.411892	8
	67	138	46.1675	320.066	-1176.74	1	1219.49	-74.784	2.56054E-006	-0.411896	8
	68	140	40.0059	343.47	-1345.14	1	1388.3	-75.6761	2.53837E-006	-0.411893	8
	69	142	35.3046	369.392	-1512.31	1	1556.77	-76.2739	2.47559E-006	-0.411893	8
	70	144	31.5793	396.645	-1678.43	1	1724.66	-76.7039	2.48816E-006	-0.411892	8
	71	146	28.5748	424.28	-1842.55	1	1890.77	-77.0327	2.48984E-006	-0.411897	8
	72	149	24.9911	468.021	-2087.62	1	2139.44	-77.3638	2.59449E-006	-0.411895	8
	73	151	22.2195	515.968	-2329.12	1	2385.59	-77.5091	2.65087E-006	-0.411901	8
	74	153	20.0011	559.947	-2567.33	1	2627.69	-77.6962	2.63251E-006	-0.411897	8
	75	156	17.6486	633.15	-2882.26	1	2950.98	-77.6106	2.77323E-006	-0.411898	8
	76	158	15.7934	696.859	-3197.39	1	3272.45	-77.7049	2.47701E-006	-0.4119	8
	77	160	14.2828	768.356	-3499.89	1	3583.24	-77.6179	2.56573E-006	-0.411892	8
	78	162	12.5002	891.438	-3961.58	1	4060.63	-77.3185	2.61303E-006	-0.411894	8
	79	165	11.323	994.52	-4336.73	1	4449.3	-77.084	2.61609E-006	-0.411897	8
	80	167	9.9987	1120.45	-4855.34	1	4982.94	-77.0055	2.55549E-006	-0.411884	8
