EXPLAIN
TAG	EISPOT
TITLE	LABEL	Tomato_open	Test &Identifier
DATE	LABEL	5/12/2006	Date
TIME	LABEL	10:47:22	Time
NOTES	NOTES	1	&Notes...
	
PSTAT	PSTAT	300	Potentiostat
VDC	POTEN	1.00000E-001	T	DC &Voltage (V)
FREQINIT	QUANT	1.00000E+005	Initial Fre&q. (Hz)
FREQFINAL	QUANT	1.00000E+001	Final Fre&q. (Hz)
PTSPERDEC	QUANT	2.00000E+001	Points/&decade
VAC	QUANT	1.00000E+001	AC &Voltage (mV rms)
AREA	QUANT	1.00000E+000	&Area (cm²)
DENSITY	QUANT	7.87000E+000	&Density (gm/cm³)
EQUIV	QUANT	7.00000E+000	Equiv. &Wt
CONDIT	TWOPARAM	F	1.50000E+001	0.00000E+000	Conditionin&g	Time(s)	E(V)
DELAY	TWOPARAM	F	6.00000E+002	0.00000E+000	Init. De&lay	Time(s)	Stab.(mV/s)
SPEED	SELECTOR	1	&Optimize for:
ZGUESS	QUANT	1.00000E+002	E&stimated Z (ohms)
OCVCURVE	TABLE	39
	Pt	T	Vf	Vm	Ach	Over
	#	s	V vs. Ref.	V	V	bits
	0	0.258332	-5.35019E-001	5.86176E-006	3.66000E-005	......
	1	0.516663	-5.34270E-001	5.86176E-006	3.36600E-004	......
	2	0.774994	-5.35269E-001	5.86176E-006	-6.34000E-005	......
	3	1.03333	-5.36569E-001	5.86176E-006	1.36600E-004	......
	4	1.29166	-5.36720E-001	5.86176E-006	-6.34000E-005	......
	5	1.54999	-5.36819E-001	5.86176E-006	2.36600E-004	......
	6	1.80832	-5.38419E-001	5.86176E-006	3.66000E-005	......
	7	2.06665	-5.37870E-001	5.86176E-006	2.36600E-004	......
	8	2.32498	-5.37719E-001	5.86176E-006	-6.34000E-005	......
	9	2.58332	-5.37369E-001	5.86176E-006	3.36600E-004	......
	10	2.84165	-5.37219E-001	5.86176E-006	3.66000E-005	......
	11	3.09998	-5.37170E-001	5.86176E-006	3.36600E-004	......
	12	3.35831	-5.37269E-001	5.86176E-006	-6.34000E-005	......
	13	3.61664	-5.38069E-001	5.86176E-006	3.66000E-005	......
	14	3.87497	-5.37069E-001	5.86176E-006	3.66000E-005	......
	15	4.1333	-5.36119E-001	5.86176E-006	2.36600E-004	......
	16	4.39164	-5.35269E-001	5.86176E-006	-6.34000E-005	......
	17	4.64997	-5.34069E-001	5.86176E-006	1.36600E-004	......
	18	4.9083	-5.32919E-001	5.86176E-006	-6.34000E-005	......
	19	5.16663	-5.30519E-001	5.86176E-006	2.36600E-004	......
	20	5.42496	-5.29669E-001	5.86176E-006	-6.34000E-005	......
	21	5.68329	-5.31219E-001	5.86176E-006	2.36600E-004	......
	22	5.94162	-5.27969E-001	5.86176E-006	3.66000E-005	......
	23	6.19996	-5.29419E-001	5.86176E-006	3.66000E-005	......
	24	6.45829	-5.33269E-001	5.86176E-006	-6.34000E-005	......
	25	6.71662	-5.35370E-001	5.86176E-006	3.36600E-004	......
	26	6.97495	-5.35869E-001	5.86176E-006	-6.34000E-005	......
	27	7.23328	-5.32869E-001	5.86176E-006	2.36600E-004	......
	28	7.49161	-5.31619E-001	5.86176E-006	-6.34000E-005	......
	29	7.74995	-5.32319E-001	5.86176E-006	2.36600E-004	......
	30	8.00828	-5.31919E-001	5.86176E-006	-1.63400E-004	......
	31	8.26661	-5.33269E-001	5.86176E-006	2.36600E-004	......
	32	8.52494	-5.33469E-001	5.86176E-006	3.66000E-005	......
	33	8.78327	-5.34069E-001	5.86176E-006	2.36600E-004	......
	34	9.0416	-5.33919E-001	5.86176E-006	-6.34000E-005	......
	35	9.29993	-5.35020E-001	5.86176E-006	2.36600E-004	......
	36	9.5583	-5.35019E-001	5.86176E-006	-6.34000E-005	......
	37	9.8166	-5.35269E-001	5.86176E-006	3.66000E-005	......
	38	10.0749	-5.35320E-001	5.86176E-006	-6.34000E-005	......
EOC	QUANT	-0.53532	Open Circuit (V)
PSTATMODEL	IQUANT	32	Pstat Model
PSTATSECTION	LABEL	PStat0	Pstat Section
CTRLMODE	IQUANT	1	Control Mode
IESTAB	IQUANT	0	I/E Stability
CASPEED	IQUANT	1	Control Amp Speed
CONVENTION	IQUANT	1	Current Convention
ICHRANGE	IQUANT	2	Ich Range
ICHRANGEMODE	TOGGLE	F	Ich Auto Range
ICHOFFSETENABLE	TOGGLE	T	Ich Offset Enable
ICHOFFSET	QUANT	0	Ich Offset (V)
ICHFILTER	IQUANT	3	Ich Filter
VCHRANGE	IQUANT	2	Vch Range
VCHRANGEMODE	TOGGLE	F	Vch Auto Range
VCHOFFSETENABLE	TOGGLE	T	Vch Offset Enable
VCHOFFSET	QUANT	0	Vch Offset (V)
VCHFILTER	IQUANT	3	Vch Filter
ACHRANGE	IQUANT	0	Ach Range
IERANGELOWERLIMIT	IQUANT	3	I/E Range Lower Limit
IERANGEMODE	TOGGLE	F	I/E AutoRange
IERANGE	IQUANT	11	I/E Range
POSFEEDENABLE	TOGGLE	F	Positive Feedback IR Comp
POSFEEDRESISTANCE	QUANT	0	Positive Feedback Resistance (ohm)
FC350IDIVISOR	IQUANT	0	FC350 I Divisor
FC350VRANGE	IQUANT	0	FC350 V Range
FRAMEWORKVERSION	QUANT	4.35	Framework Version
ZCURVE	TABLE
	Pt	Time	Freq	Zreal	Zimag	Zsig	Zmod	Zphz	Idc	Vdc	IERange
	#	s	Hz	ohm	ohm	V	ohm	°	A	V	#
	0	4	100007	172.697	0.208896	1	172.697	0.069306	2.89396E-006	-0.435149	9
	1	6	89134.1	171.706	-0.224497	1	171.706	-0.074911	3.23029E-006	-0.435187	9
	2	8	79433.6	171.353	-0.209269	1	171.353	-0.069974	3.03301E-006	-0.435185	9
	3	10	70800.8	171.049	-0.936957	1	171.051	-0.313847	3.14938E-006	-0.435193	9
	4	12	63105.5	170.899	-1.35546	1	170.904	-0.454425	2.99223E-006	-0.435177	9
	5	14	56243.5	170.567	-1.27608	1	170.572	-0.428646	3.06904E-006	-0.435166	9
	6	16	50123.7	170.532	-1.78112	1	170.541	-0.598406	3.01382E-006	-0.435162	9
	7	18	44681	170.413	-1.93363	1	170.424	-0.650093	3.00071E-006	-0.435157	9
	8	20	39811.2	170.28	-2.42353	1	170.297	-0.815416	2.83806E-006	-0.435191	9
	9	22	35488.3	170.21	-2.46351	1	170.227	-0.829206	2.99937E-006	-0.435178	9
	10	24	31634.1	170.401	-2.87706	1	170.425	-0.96729	3.1194E-006	-0.435173	9
	11	26	28173.1	170.349	-3.36824	1	170.382	-1.13274	3.21515E-006	-0.43517	9
	12	28	25123.7	170.298	-3.71973	1	170.339	-1.25128	3.07332E-006	-0.435168	9
	13	29	22389.3	170.212	-4.18483	1	170.263	-1.40839	3.02348E-006	-0.435172	9
	14	31	19954.4	170.529	-4.54299	1	170.59	-1.52603	3.08332E-006	-0.435181	9
	15	33	17778.2	170.617	-5.17435	1	170.696	-1.73709	2.97393E-006	-0.435173	9
	16	35	15852.9	170.588	-5.73244	1	170.684	-1.92465	2.52659E-006	-0.435158	9
	17	37	14122.3	171.113	-6.27969	1	171.228	-2.10176	2.98931E-006	-0.435181	9
	18	39	12587.2	171.137	-6.94862	1	171.278	-2.32508	2.94996E-006	-0.435178	9
	19	41	11221.1	171.179	-7.57614	1	171.347	-2.53417	2.81929E-006	-0.435174	9
	20	43	9998.2	171.392	-8.53546	1	171.604	-2.85102	2.55217E-006	-0.43518	9
	21	45	8912.76	171.498	-9.34245	1	171.752	-3.11814	2.43557E-006	-0.435193	9
	22	47	7942.6	171.874	-10.1617	1	172.174	-3.38357	2.60148E-006	-0.435183	9
	23	49	7078.05	171.947	-11.2572	1	172.315	-3.74574	2.61673E-006	-0.435186	9
	24	51	6311.1	172.225	-12.4037	1	172.671	-4.11936	2.34201E-006	-0.435183	9
	25	53	5622.14	172.504	-13.7064	1	173.048	-4.54292	2.77928E-006	-0.435177	9
	26	55	5011.18	172.738	-15.3356	1	173.417	-5.07341	2.99185E-006	-0.435185	9
	27	57	4465.21	172.932	-16.8143	1	173.747	-5.55348	2.53446E-006	-0.435176	9
	28	59	3980.93	173.503	-18.6151	1	174.499	-6.12381	3.15957E-006	-0.435194	9
	29	61	3548.18	173.647	-20.267	1	174.826	-6.6571	2.80304E-006	-0.435166	9
	30	63	3162.67	174.316	-22.7527	1	175.794	-7.43655	2.94049E-006	-0.435169	9
	31	65	2819.01	174.32	-25.0307	1	176.108	-8.17128	3.03788E-006	-0.435184	9
	32	67	2511.16	175.018	-27.3272	1	177.138	-8.8745	2.35196E-006	-0.435186	9
	33	69	2238.63	175.763	-30.7782	1	178.437	-9.9325	2.54637E-006	-0.435183	9
	34	71	1995.37	176.272	-33.6944	1	179.464	-10.8215	2.59693E-006	-0.435179	9
	35	73	1778.51	176.952	-37.5297	1	180.888	-11.9744	2.83917E-006	-0.435184	9
	36	75	1584.49	177.483	-41.4894	1	182.268	-13.1575	3.04428E-006	-0.435182	9
	37	77	1412.76	178.24	-45.8272	1	184.037	-14.419	3.34248E-006	-0.435196	9
	38	79	1259.04	179.154	-50.7293	1	186.197	-15.8101	3.16554E-006	-0.435182	9
	39	81	1121.63	180.103	-56.4302	1	188.737	-17.3969	3.28704E-006	-0.435186	9
	40	83	999.95	180.938	-62.2536	1	191.348	-18.9863	3.24753E-006	-0.435189	9
	41	85	891.184	182.371	-68.9047	1	194.954	-20.6979	3.29449E-006	-0.435181	9
	42	87	794.163	183.941	-76.2704	1	199.126	-22.5212	2.99003E-006	-0.435184	9
	43	89	707.867	185.288	-84.3059	1	203.566	-24.4655	2.99321E-006	-0.435175	9
	44	91	630.984	186.411	-93.7266	1	208.647	-26.6931	3.00023E-006	-0.435171	9
	45	93	562.189	188.164	-103.316	1	214.662	-28.77	3.14896E-006	-0.4352	9
	46	95	501.303	189.813	-114.361	1	221.603	-31.0687	3.02909E-006	-0.435187	9
	47	97	446.614	191.621	-126.765	1	229.757	-33.4863	3.04888E-006	-0.435184	9
	48	99	398.209	193.589	-140.455	1	239.174	-35.9622	3.12926E-006	-0.435183	9
	49	101	354.821	195.776	-155.713	1	250.15	-38.4974	3.22634E-006	-0.43518	9
	50	102	316.113	198.111	-172.708	1	262.823	-41.0812	3.13454E-006	-0.435188	9
	51	104	281.926	200.622	-191.419	1	277.291	-43.6552	3.17935E-006	-0.435183	9
	52	107	251.185	203.375	-212.466	1	294.114	-46.2523	3.08488E-006	-0.435182	9
	53	108	223.946	206.387	-235.705	1	313.294	-48.7941	2.90815E-006	-0.435182	9
	54	110	199.495	209.681	-261.755	1	335.383	-51.3033	2.72371E-006	-0.43518	9
	55	112	177.836	213.327	-290.68	1	360.56	-53.7254	2.90809E-006	-0.435181	9
	56	115	158.533	217.338	-322.781	1	389.131	-56.0464	3.02534E-006	-0.435186	9
	57	117	141.263	221.697	-358.754	1	421.727	-58.2855	3.08181E-006	-0.435187	9
	58	119	125.911	226.382	-398.748	1	458.529	-60.415	2.87793E-006	-0.435187	9
	59	121	112.198	231.515	-443.329	1	500.14	-62.4256	2.17121E-006	-0.435187	9
	60	123	100.009	237.664	-492.876	1	547.185	-64.2567	2.44917E-006	-0.435187	9
	61	125	89.1164	244.281	-548.37	1	600.319	-65.9886	2.5016E-006	-0.435186	9
	62	127	79.4083	251.55	-610.41	1	660.21	-67.6034	2.49288E-006	-0.435181	9
	63	129	70.788	259.847	-679.489	1	727.479	-69.0724	2.72757E-006	-0.435179	9
	64	131	63.0971	269.235	-755.684	1	802.214	-70.39	2.38092E-006	-0.435187	9
	65	133	54.5476	282.269	-864.544	1	909.457	-71.9184	2.32186E-006	-0.435183	9
	66	135	50.0083	292.759	-938.236	1	982.85	-72.6704	2.60713E-006	-0.435187	9
	67	137	46.1675	304.282	-1011.1	1	1055.9	-73.2513	2.85529E-006	-0.435185	9
	68	139	40.0059	321.513	-1155.77	1	1199.66	-74.4545	1.98757E-006	-0.43518	8
	69	141	35.3046	343.96	-1296.05	1	1340.91	-75.1368	2.07483E-006	-0.435183	8
	70	144	31.5793	356.715	-1435.64	1	1479.29	-76.0462	1.46575E-006	-0.435179	8
	71	146	28.5748	371.099	-1577.94	1	1620.99	-76.7657	1.00119E-006	-0.435187	8
	72	148	24.9911	418.607	-1790.84	1	1839.11	-76.8434	2.08823E-006	-0.435186	8
	73	150	22.2195	445.402	-2002.31	1	2051.25	-77.4591	2.16119E-006	-0.435188	8
	74	152	20.0011	492.957	-2204.79	1	2259.23	-77.3968	2.29539E-006	-0.435185	8
	75	155	17.6486	543.056	-2479.81	1	2538.58	-77.6477	2.2659E-006	-0.435184	8
	76	157	15.7934	585.661	-2745.75	1	2807.52	-77.9594	2.16961E-006	-0.435184	8
	77	159	14.2828	646.066	-3011.06	1	3079.59	-77.89	2.06206E-006	-0.435192	8
	78	162	12.5002	739.443	-3333.62	1	3414.64	-77.4935	2.0031E-006	-0.435184	8
	79	164	11.323	754.014	-3743.64	1	3818.82	-78.6123	1.2323E-006	-0.435187	8
	80	167	9.9987	885.571	-4180.76	1	4273.52	-78.0404	2.09239E-006	-0.435184	8
