EXPLAIN
TAG	EISPOT
TITLE	LABEL	Tomato_open	Test &Identifier
DATE	LABEL	5/15/2006	Date
TIME	LABEL	12:23:18	Time
NOTES	NOTES	1	&Notes...
	
PSTAT	PSTAT	300	Potentiostat
VDC	POTEN	1.00000E-001	T	DC &Voltage (V)
FREQINIT	QUANT	1.00000E+005	Initial Fre&q. (Hz)
FREQFINAL	QUANT	1.00000E+001	Final Fre&q. (Hz)
PTSPERDEC	QUANT	2.00000E+001	Points/&decade
VAC	QUANT	1.00000E+001	AC &Voltage (mV rms)
AREA	QUANT	1.00000E+000	&Area (cm²)
DENSITY	QUANT	7.87000E+000	&Density (gm/cm³)
EQUIV	QUANT	7.00000E+000	Equiv. &Wt
CONDIT	TWOPARAM	F	1.50000E+001	0.00000E+000	Conditionin&g	Time(s)	E(V)
DELAY	TWOPARAM	F	6.00000E+002	0.00000E+000	Init. De&lay	Time(s)	Stab.(mV/s)
SPEED	SELECTOR	1	&Optimize for:
ZGUESS	QUANT	1.00000E+002	E&stimated Z (ohms)
OCVCURVE	TABLE	39
	Pt	T	Vf	Vm	Ach	Over
	#	s	V vs. Ref.	V	V	bits
	0	0.258332	-5.06220E-001	5.68576E-006	3.66000E-005	......
	1	0.516663	-5.02569E-001	5.68576E-006	1.36600E-004	......
	2	0.774994	-5.01469E-001	5.68576E-006	-1.63400E-004	......
	3	1.03333	-5.00419E-001	5.68576E-006	3.66000E-005	......
	4	1.29166	-5.00969E-001	5.68576E-006	-6.34000E-005	......
	5	1.54999	-5.02919E-001	5.68576E-006	3.66000E-005	......
	6	1.80832	-5.00669E-001	5.68576E-006	-1.63400E-004	......
	7	2.06665	-4.98119E-001	5.68576E-006	3.66000E-005	......
	8	2.32498	-4.98019E-001	5.68576E-006	-1.63400E-004	......
	9	2.58332	-4.97719E-001	5.68576E-006	3.66000E-005	......
	10	2.84165	-4.97919E-001	5.68576E-006	-1.63400E-004	......
	11	3.09998	-4.97169E-001	5.68576E-006	3.66000E-005	......
	12	3.35831	-4.97419E-001	5.68576E-006	-1.63400E-004	......
	13	3.61664	-4.96369E-001	5.68576E-006	1.36600E-004	......
	14	3.87497	-4.92269E-001	5.68576E-006	-6.34000E-005	......
	15	4.1333	-4.90069E-001	5.68576E-006	3.66000E-005	......
	16	4.39164	-4.90169E-001	5.68576E-006	-1.63400E-004	......
	17	4.64997	-4.92769E-001	5.68576E-006	3.66000E-005	......
	18	4.9083	-4.94169E-001	5.68576E-006	-6.34000E-005	......
	19	5.16663	-4.94819E-001	5.68576E-006	3.66000E-005	......
	20	5.42496	-4.96419E-001	5.68576E-006	3.66000E-005	......
	21	5.68329	-4.97919E-001	5.68576E-006	3.66000E-005	......
	22	5.94162	-5.00319E-001	5.68576E-006	-6.34000E-005	......
	23	6.19996	-5.01069E-001	5.68576E-006	1.36600E-004	......
	24	6.45829	-5.03419E-001	5.68576E-006	-6.34000E-005	......
	25	6.71662	-5.04770E-001	5.68576E-006	1.36600E-004	......
	26	6.97495	-5.05819E-001	5.68576E-006	-1.63400E-004	......
	27	7.23328	-5.05369E-001	5.68576E-006	2.36600E-004	......
	28	7.49161	-5.06220E-001	5.68576E-006	-1.63400E-004	......
	29	7.74995	-5.06869E-001	5.68576E-006	-6.34000E-005	......
	30	8.00828	-5.06369E-001	5.68576E-006	-1.63400E-004	......
	31	8.26661	-5.05519E-001	5.68576E-006	3.66000E-005	......
	32	8.52494	-5.05319E-001	5.68576E-006	-1.63400E-004	......
	33	8.78327	-5.06270E-001	5.68576E-006	1.36600E-004	......
	34	9.0416	-5.06570E-001	5.68576E-006	-6.34000E-005	......
	35	9.29993	-5.06369E-001	5.68576E-006	3.66000E-005	......
	36	9.5583	-5.02069E-001	5.68576E-006	-1.63400E-004	......
	37	9.8166	-4.99669E-001	5.68576E-006	2.36600E-004	......
	38	10.0749	-4.99919E-001	5.68576E-006	-1.63400E-004	......
EOC	QUANT	-0.499919	Open Circuit (V)
PSTATMODEL	IQUANT	32	Pstat Model
PSTATSECTION	LABEL	PStat0	Pstat Section
CTRLMODE	IQUANT	1	Control Mode
IESTAB	IQUANT	0	I/E Stability
CASPEED	IQUANT	1	Control Amp Speed
CONVENTION	IQUANT	1	Current Convention
ICHRANGE	IQUANT	2	Ich Range
ICHRANGEMODE	TOGGLE	F	Ich Auto Range
ICHOFFSETENABLE	TOGGLE	T	Ich Offset Enable
ICHOFFSET	QUANT	0	Ich Offset (V)
ICHFILTER	IQUANT	3	Ich Filter
VCHRANGE	IQUANT	2	Vch Range
VCHRANGEMODE	TOGGLE	F	Vch Auto Range
VCHOFFSETENABLE	TOGGLE	T	Vch Offset Enable
VCHOFFSET	QUANT	0	Vch Offset (V)
VCHFILTER	IQUANT	3	Vch Filter
ACHRANGE	IQUANT	0	Ach Range
IERANGELOWERLIMIT	IQUANT	3	I/E Range Lower Limit
IERANGEMODE	TOGGLE	F	I/E AutoRange
IERANGE	IQUANT	11	I/E Range
POSFEEDENABLE	TOGGLE	F	Positive Feedback IR Comp
POSFEEDRESISTANCE	QUANT	0	Positive Feedback Resistance (ohm)
FC350IDIVISOR	IQUANT	0	FC350 I Divisor
FC350VRANGE	IQUANT	0	FC350 V Range
FRAMEWORKVERSION	QUANT	4.35	Framework Version
ZCURVE	TABLE
	Pt	Time	Freq	Zreal	Zimag	Zsig	Zmod	Zphz	Idc	Vdc	IERange
	#	s	Hz	ohm	ohm	V	ohm	°	A	V	#
	0	4	100007	172.643	-0.12664	1	172.643	-0.042028	3.97417E-006	-0.399856	9
	1	6	89134.1	171.393	-0.346377	1	171.393	-0.115792	4.47618E-006	-0.399864	9
	2	8	79433.6	171.108	-0.825107	1	171.11	-0.276285	4.74565E-006	-0.3999	9
	3	10	70800.8	170.689	-0.98365	1	170.692	-0.330181	4.79145E-006	-0.399866	9
	4	12	63105.5	170.623	-1.1364	1	170.627	-0.381602	4.7919E-006	-0.399867	9
	5	14	56243.5	170.593	-1.29755	1	170.598	-0.435788	4.79398E-006	-0.399871	9
	6	16	50123.7	170.156	-1.7799	1	170.165	-0.599316	4.86528E-006	-0.399902	9
	7	18	44681	170.025	-2.01073	1	170.037	-0.677555	4.79629E-006	-0.399872	9
	8	20	39811.2	169.855	-2.58634	1	169.874	-0.872362	4.8014E-006	-0.399873	9
	9	22	35488.3	169.891	-2.73295	1	169.913	-0.921613	4.82384E-006	-0.399889	9
	10	24	31634.1	169.924	-3.24694	1	169.955	-1.09469	4.48003E-006	-0.399869	9
	11	26	28173.1	169.979	-3.71321	1	170.02	-1.25144	4.53518E-006	-0.399859	9
	12	28	25123.7	169.904	-3.90017	1	169.948	-1.315	4.54179E-006	-0.399857	9
	13	30	22389.3	170.108	-4.35643	1	170.164	-1.46701	4.2312E-006	-0.399847	9
	14	32	19954.4	170.154	-4.91557	1	170.225	-1.65475	4.34077E-006	-0.399883	9
	15	34	17778.2	170.374	-5.85936	1	170.475	-1.96969	4.14895E-006	-0.399861	9
	16	35	15852.9	170.626	-6.17467	1	170.738	-2.07253	3.98701E-006	-0.399846	9
	17	37	14122.3	170.843	-6.78363	1	170.977	-2.27384	4.32529E-006	-0.39988	9
	18	39	12587.2	170.993	-7.68135	1	171.165	-2.57212	4.39053E-006	-0.399873	9
	19	41	11221.1	171.025	-8.35128	1	171.229	-2.79557	4.35423E-006	-0.399868	9
	20	43	9998.2	171.03	-9.49581	1	171.293	-3.17787	4.39977E-006	-0.399871	9
	21	45	8912.76	171.151	-10.0958	1	171.448	-3.37584	4.44477E-006	-0.399858	9
	22	47	7942.6	171.754	-11.3542	1	172.128	-3.78218	4.22653E-006	-0.399875	9
	23	49	7078.05	171.881	-12.3769	1	172.326	-4.11868	4.27017E-006	-0.399874	9
	24	51	6311.1	172.067	-13.7237	1	172.614	-4.56013	4.04742E-006	-0.399864	9
	25	53	5622.14	172.089	-15.5413	1	172.789	-5.16036	4.1017E-006	-0.399877	9
	26	55	5011.18	172.392	-17.0135	1	173.229	-5.63633	3.9961E-006	-0.39987	9
	27	57	4465.21	173.002	-18.8335	1	174.024	-6.21295	4.09487E-006	-0.399873	9
	28	59	3980.93	173.069	-20.7807	1	174.312	-6.84684	4.20331E-006	-0.399902	9
	29	61	3548.18	173.827	-22.9008	1	175.329	-7.5052	3.64093E-006	-0.399877	9
	30	63	3162.67	174.018	-25.4227	1	175.865	-8.3117	3.69932E-006	-0.399861	9
	31	65	2819.01	174.654	-28.0144	1	176.886	-9.1126	3.90082E-006	-0.399896	9
	32	67	2511.16	175.093	-31.2398	1	177.858	-10.1162	3.74698E-006	-0.39988	9
	33	69	2238.63	175.827	-34.6213	1	179.203	-11.1394	3.72332E-006	-0.39988	9
	34	71	1995.37	176.449	-38.2885	1	180.555	-12.2431	3.64203E-006	-0.399882	9
	35	73	1778.51	177.005	-42.1847	1	181.962	-13.4049	3.52026E-006	-0.39988	9
	36	75	1584.49	177.849	-47.0354	1	183.964	-14.8137	3.8424E-006	-0.399882	9
	37	77	1412.76	178.79	-51.9863	1	186.195	-16.2127	3.70102E-006	-0.399859	9
	38	79	1259.04	179.575	-57.22	1	188.471	-17.674	3.88309E-006	-0.399872	9
	39	81	1121.63	180.598	-63.5397	1	191.449	-19.3834	3.80623E-006	-0.399878	9
	40	83	999.95	181.97	-70.3187	1	195.084	-21.1281	3.73488E-006	-0.399875	9
	41	85	891.184	182.884	-78.069	1	198.85	-23.1165	3.90865E-006	-0.399878	9
	42	87	794.163	184.211	-86.0788	1	203.33	-25.0459	3.66729E-006	-0.399881	9
	43	89	707.867	185.763	-95.398	1	208.827	-27.1825	3.9624E-006	-0.399873	9
	44	91	630.984	187.231	-105.812	1	215.061	-29.4726	3.58392E-006	-0.399894	9
	45	93	562.189	189.015	-117.207	1	222.406	-31.8027	3.50778E-006	-0.399864	9
	46	95	501.303	190.627	-130.017	1	230.745	-34.296	3.52829E-006	-0.399884	9
	47	97	446.614	192.495	-144.269	1	240.557	-36.8503	3.61652E-006	-0.399882	9
	48	99	398.209	194.507	-160.018	1	251.871	-39.4435	3.59568E-006	-0.39988	9
	49	101	354.821	196.756	-177.62	1	265.07	-42.0739	3.64684E-006	-0.399879	9
	50	103	316.113	199.19	-197.272	1	280.344	-44.7228	3.67392E-006	-0.399885	9
	51	105	281.926	201.821	-218.947	1	297.774	-47.3308	3.58268E-006	-0.399886	9
	52	107	251.185	204.76	-243.296	1	317.994	-49.9158	3.46151E-006	-0.399882	9
	53	109	223.946	207.994	-270.286	1	341.051	-52.4205	3.56479E-006	-0.399875	9
	54	111	199.495	211.546	-300.565	1	367.548	-54.861	3.41245E-006	-0.399876	9
	55	113	177.836	215.449	-334.151	1	397.586	-57.1875	3.4679E-006	-0.399882	9
	56	115	158.533	219.848	-371.503	1	431.68	-59.3839	3.58032E-006	-0.39988	9
	57	117	141.263	224.719	-413.424	1	470.551	-61.4735	3.49913E-006	-0.399893	9
	58	119	125.911	230.329	-460.019	1	514.46	-63.4031	3.6257E-006	-0.399883	9
	59	121	112.198	236.627	-512.069	1	564.098	-65.1983	3.67648E-006	-0.399883	9
	60	123	100.009	243.626	-569.936	1	619.823	-66.8551	3.63704E-006	-0.399878	9
	61	125	89.1164	251.52	-634.578	1	682.606	-68.3787	3.62257E-006	-0.399878	9
	62	127	79.4083	260.574	-706.53	1	753.05	-69.7556	3.71028E-006	-0.399873	9
	63	129	70.788	270.624	-786.548	1	831.802	-71.0134	3.73023E-006	-0.399874	9
	64	131	63.0971	282.052	-875.64	1	919.945	-72.1458	3.45351E-006	-0.399884	9
	65	133	54.5476	299.435	-1003.26	1	1046.99	-73.3816	3.5314E-006	-0.399872	9
	66	135	50.0083	310.726	-1087.41	1	1130.93	-74.0527	2.75867E-006	-0.399873	8
	67	138	46.1675	322.428	-1171.73	1	1215.29	-74.6146	2.75914E-006	-0.399871	8
	68	140	40.0059	347.218	-1339.43	1	1383.7	-75.4672	2.86142E-006	-0.399872	8
	69	142	35.3046	373.025	-1504.97	1	1550.51	-76.0791	2.82838E-006	-0.399874	8
	70	144	31.5793	399.372	-1670.29	1	1717.37	-76.5529	2.73461E-006	-0.399872	8
	71	146	28.5748	427.887	-1833.23	1	1882.5	-76.862	2.74986E-006	-0.399874	8
	72	148	24.9911	469.782	-2077.42	1	2129.88	-77.2576	2.67842E-006	-0.399886	8
	73	150	22.2195	512.588	-2314.77	1	2370.84	-77.5138	2.60438E-006	-0.399877	8
	74	153	20.0011	566.007	-2555.74	1	2617.66	-77.5125	2.76989E-006	-0.399881	8
	75	155	17.6486	634.077	-2868.38	1	2937.63	-77.5348	2.8184E-006	-0.39988	8
	76	157	15.7934	709.413	-3177.96	1	3256.18	-77.4163	2.79046E-006	-0.399872	8
	77	160	14.2828	783.032	-3488.48	1	3575.28	-77.349	2.8244E-006	-0.399876	8
	78	162	12.5002	912.998	-3940.39	1	4044.78	-76.9546	2.95164E-006	-0.399876	8
	79	164	11.323	1019.24	-4314.97	1	4433.72	-76.7097	2.82352E-006	-0.399864	8
	80	167	9.9987	1163.38	-4831.65	1	4969.74	-76.4618	2.67178E-006	-0.399868	8
