EXPLAIN
TAG	EISPOT
TITLE	LABEL	Tomato_open	Test &Identifier
DATE	LABEL	5/12/2006	Date
TIME	LABEL	10:37:16	Time
NOTES	NOTES	1	&Notes...
	
PSTAT	PSTAT	300	Potentiostat
VDC	POTEN	1.00000E-001	T	DC &Voltage (V)
FREQINIT	QUANT	1.00000E+005	Initial Fre&q. (Hz)
FREQFINAL	QUANT	1.00000E+001	Final Fre&q. (Hz)
PTSPERDEC	QUANT	2.00000E+001	Points/&decade
VAC	QUANT	1.00000E+001	AC &Voltage (mV rms)
AREA	QUANT	1.00000E+000	&Area (cm²)
DENSITY	QUANT	7.87000E+000	&Density (gm/cm³)
EQUIV	QUANT	7.00000E+000	Equiv. &Wt
CONDIT	TWOPARAM	F	1.50000E+001	0.00000E+000	Conditionin&g	Time(s)	E(V)
DELAY	TWOPARAM	F	6.00000E+002	0.00000E+000	Init. De&lay	Time(s)	Stab.(mV/s)
SPEED	SELECTOR	1	&Optimize for:
ZGUESS	QUANT	1.00000E+002	E&stimated Z (ohms)
OCVCURVE	TABLE	39
	Pt	T	Vf	Vm	Ach	Over
	#	s	V vs. Ref.	V	V	bits
	0	0.258332	-4.65919E-001	8.65976E-006	3.36600E-004	......
	1	0.516663	-4.66119E-001	8.65976E-006	4.36600E-004	......
	2	0.774994	-4.65919E-001	8.65976E-006	2.36600E-004	......
	3	1.03333	-4.65869E-001	8.65976E-006	2.36600E-004	......
	4	1.29166	-4.64769E-001	8.65976E-006	2.36600E-004	......
	5	1.54999	-4.60669E-001	8.65976E-006	3.36600E-004	......
	6	1.80832	-4.58719E-001	8.65976E-006	3.66000E-005	......
	7	2.06665	-4.58369E-001	8.65976E-006	3.36600E-004	......
	8	2.32498	-4.58319E-001	8.65976E-006	2.36600E-004	......
	9	2.58332	-4.58119E-001	8.65976E-006	2.36600E-004	......
	10	2.84165	-4.58419E-001	8.65976E-006	2.36600E-004	......
	11	3.09998	-4.58569E-001	8.65976E-006	3.36600E-004	......
	12	3.35831	-4.57769E-001	8.65976E-006	2.36600E-004	......
	13	3.61664	-4.57619E-001	8.65976E-006	3.36600E-004	......
	14	3.87497	-4.57119E-001	8.65976E-006	2.36600E-004	......
	15	4.1333	-4.56069E-001	8.65976E-006	2.36600E-004	......
	16	4.39164	-4.56019E-001	8.65976E-006	2.36600E-004	......
	17	4.64997	-4.56869E-001	8.65976E-006	3.36600E-004	......
	18	4.9083	-4.57569E-001	8.65976E-006	4.36600E-004	......
	19	5.16663	-4.59269E-001	8.65976E-006	3.36600E-004	......
	20	5.42496	-4.60269E-001	8.65976E-006	3.66000E-005	......
	21	5.68329	-4.61719E-001	8.65976E-006	2.36600E-004	......
	22	5.94162	-4.62269E-001	8.65976E-006	1.36600E-004	......
	23	6.19996	-4.62469E-001	8.65976E-006	4.36600E-004	......
	24	6.45829	-4.63669E-001	8.65976E-006	1.36600E-004	......
	25	6.71662	-4.64269E-001	8.65976E-006	4.36600E-004	......
	26	6.97495	-4.65419E-001	8.65976E-006	2.36600E-004	......
	27	7.23328	-4.66019E-001	8.65976E-006	3.36600E-004	......
	28	7.49161	-4.66519E-001	8.65976E-006	2.36600E-004	......
	29	7.74995	-4.67019E-001	8.65976E-006	2.36600E-004	......
	30	8.00828	-4.67869E-001	8.65976E-006	1.36600E-004	......
	31	8.26661	-4.68369E-001	8.65976E-006	2.36600E-004	......
	32	8.52494	-4.68819E-001	8.65976E-006	3.66000E-005	......
	33	8.78327	-4.68869E-001	8.65976E-006	3.36600E-004	......
	34	9.0416	-4.69019E-001	8.65976E-006	2.36600E-004	......
	35	9.29993	-4.69169E-001	8.65976E-006	3.36600E-004	......
	36	9.5583	-4.69719E-001	8.65976E-006	3.36600E-004	......
	37	9.8166	-4.70169E-001	8.65976E-006	3.36600E-004	......
	38	10.0749	-4.70419E-001	8.65976E-006	1.36600E-004	......
EOC	QUANT	-0.470419	Open Circuit (V)
PSTATMODEL	IQUANT	32	Pstat Model
PSTATSECTION	LABEL	PStat0	Pstat Section
CTRLMODE	IQUANT	1	Control Mode
IESTAB	IQUANT	0	I/E Stability
CASPEED	IQUANT	1	Control Amp Speed
CONVENTION	IQUANT	1	Current Convention
ICHRANGE	IQUANT	2	Ich Range
ICHRANGEMODE	TOGGLE	F	Ich Auto Range
ICHOFFSETENABLE	TOGGLE	T	Ich Offset Enable
ICHOFFSET	QUANT	0	Ich Offset (V)
ICHFILTER	IQUANT	3	Ich Filter
VCHRANGE	IQUANT	2	Vch Range
VCHRANGEMODE	TOGGLE	F	Vch Auto Range
VCHOFFSETENABLE	TOGGLE	T	Vch Offset Enable
VCHOFFSET	QUANT	0	Vch Offset (V)
VCHFILTER	IQUANT	3	Vch Filter
ACHRANGE	IQUANT	0	Ach Range
IERANGELOWERLIMIT	IQUANT	3	I/E Range Lower Limit
IERANGEMODE	TOGGLE	F	I/E AutoRange
IERANGE	IQUANT	11	I/E Range
POSFEEDENABLE	TOGGLE	F	Positive Feedback IR Comp
POSFEEDRESISTANCE	QUANT	0	Positive Feedback Resistance (ohm)
FC350IDIVISOR	IQUANT	0	FC350 I Divisor
FC350VRANGE	IQUANT	0	FC350 V Range
FRAMEWORKVERSION	QUANT	4.35	Framework Version
ZCURVE	TABLE
	Pt	Time	Freq	Zreal	Zimag	Zsig	Zmod	Zphz	Idc	Vdc	IERange
	#	s	Hz	ohm	ohm	V	ohm	°	A	V	#
	0	4	100007	172.83	0.023332	1	172.83	0.007735	2.38757E-006	-0.370621	9
	1	6	89134.1	172.258	-0.143217	1	172.258	-0.047636	2.56532E-006	-0.370633	9
	2	8	79433.6	171.736	-0.439101	1	171.737	-0.146495	2.64357E-006	-0.370643	9
	3	10	70800.8	171.496	-0.673412	1	171.497	-0.224982	2.54349E-006	-0.37067	9
	4	12	63105.5	171.305	-1.26355	1	171.31	-0.422608	2.63268E-006	-0.370645	9
	5	14	56243.5	171.086	-1.29538	1	171.091	-0.433809	2.67103E-006	-0.370647	9
	6	16	50123.7	170.784	-1.61415	1	170.792	-0.54151	2.63435E-006	-0.370643	9
	7	18	44681	170.878	-1.68178	1	170.886	-0.563887	2.70295E-006	-0.370674	9
	8	20	39811.2	170.617	-2.33404	1	170.633	-0.783756	2.70863E-006	-0.370655	9
	9	21	35488.3	170.61	-2.63241	1	170.63	-0.883971	2.93599E-006	-0.370681	9
	10	23	31634.1	170.751	-2.82718	1	170.774	-0.94858	2.7726E-006	-0.370641	9
	11	25	28173.1	170.662	-3.44718	1	170.696	-1.15715	2.89209E-006	-0.370656	9
	12	27	25123.7	170.842	-3.88692	1	170.887	-1.30334	3.10398E-006	-0.370676	9
	13	29	22389.3	170.765	-3.9817	1	170.812	-1.33571	2.99498E-006	-0.370661	9
	14	31	19954.4	170.898	-4.63346	1	170.961	-1.55305	3.10693E-006	-0.37066	9
	15	33	17778.2	170.924	-4.9798	1	170.996	-1.66882	3.13056E-006	-0.370646	9
	16	35	15852.9	171.201	-5.61975	1	171.294	-1.88008	3.03935E-006	-0.370661	9
	17	37	14122.3	171.214	-6.28027	1	171.329	-2.10071	3.07698E-006	-0.370652	9
	18	39	12587.2	171.464	-6.84022	1	171.601	-2.28449	3.15543E-006	-0.370657	9
	19	41	11221.1	171.238	-7.71057	1	171.412	-2.57819	3.27857E-006	-0.370643	9
	20	43	9998.2	171.634	-8.32509	1	171.836	-2.77695	3.42393E-006	-0.37065	9
	21	45	8912.76	171.95	-9.31787	1	172.203	-3.10179	3.58323E-006	-0.370667	9
	22	47	7942.6	172.275	-10.0212	1	172.566	-3.32914	3.47367E-006	-0.370654	9
	23	49	7078.05	172.254	-10.9803	1	172.603	-3.64739	3.59946E-006	-0.370654	9
	24	51	6311.1	172.442	-12.1062	1	172.866	-4.01584	3.83473E-006	-0.370646	9
	25	53	5622.14	172.957	-13.5017	1	173.483	-4.46367	3.72524E-006	-0.370645	9
	26	55	5011.18	172.96	-15.2947	1	173.635	-5.05348	3.75596E-006	-0.370649	9
	27	57	4465.21	173.53	-16.8163	1	174.343	-5.53508	4.14312E-006	-0.370642	9
	28	59	3980.93	173.527	-18.1572	1	174.475	-5.97347	4.10145E-006	-0.370618	9
	29	61	3548.18	173.984	-20.1644	1	175.149	-6.61098	4.34178E-006	-0.370632	9
	30	63	3162.67	174.259	-22.392	1	175.692	-7.32228	4.52224E-006	-0.370656	9
	31	65	2819.01	174.964	-24.9582	1	176.735	-8.11836	4.43796E-006	-0.37062	9
	32	67	2511.16	175.345	-27.9142	1	177.553	-9.04536	4.3892E-006	-0.370636	9
	33	69	2238.63	176.253	-30.4038	1	178.856	-9.7873	4.12587E-006	-0.370636	9
	34	71	1995.37	176.671	-33.6597	1	179.849	-10.7868	4.26138E-006	-0.370641	9
	35	73	1778.51	177.11	-37.3397	1	181.003	-11.9052	4.13077E-006	-0.370623	9
	36	75	1584.49	178.124	-41.4553	1	182.884	-13.1014	4.35579E-006	-0.370636	9
	37	77	1412.76	178.873	-45.7503	1	184.631	-14.347	4.48068E-006	-0.370613	9
	38	79	1259.04	179.877	-50.4738	1	186.824	-15.6743	4.52234E-006	-0.370636	9
	39	81	1121.63	180.507	-55.7982	1	188.935	-17.1773	4.39732E-006	-0.370636	9
	40	83	999.95	181.559	-61.8266	1	191.797	-18.8053	4.37385E-006	-0.370638	9
	41	85	891.184	182.977	-68.3984	1	195.343	-20.4961	4.32031E-006	-0.370638	9
	42	87	794.163	184.048	-75.7781	1	199.038	-22.3784	4.21137E-006	-0.370636	9
	43	88	707.867	185.602	-83.6313	1	203.574	-24.256	4.29988E-006	-0.370637	9
	44	90	630.984	187.247	-92.636	1	208.909	-26.3228	4.08749E-006	-0.370633	9
	45	92	562.189	188.4	-102.554	1	214.504	-28.5612	4.23952E-006	-0.370651	9
	46	94	501.303	190.317	-113.776	1	221.734	-30.872	4.00171E-006	-0.370632	9
	47	96	446.614	192.164	-126.092	1	229.84	-33.2716	3.96585E-006	-0.37063	9
	48	98	398.209	194.136	-139.694	1	239.172	-35.7376	3.88556E-006	-0.370633	9
	49	100	354.821	196.323	-154.826	1	250.027	-38.2604	4.01559E-006	-0.370632	9
	50	102	316.113	198.725	-171.714	1	262.636	-40.8296	4.04252E-006	-0.370637	9
	51	104	281.926	201.284	-190.277	1	276.984	-43.3898	3.96079E-006	-0.370635	9
	52	106	251.185	204.072	-211.151	1	293.65	-45.9766	3.72048E-006	-0.370632	9
	53	108	223.946	207.126	-234.223	1	312.669	-48.5132	3.91329E-006	-0.370633	9
	54	110	199.495	210.502	-260.096	1	334.606	-51.0159	3.77154E-006	-0.37063	9
	55	112	177.836	214.178	-288.768	1	359.526	-53.4357	3.94163E-006	-0.370635	9
	56	114	158.533	218.267	-320.669	1	387.904	-55.7584	4.10943E-006	-0.370635	9
	57	116	141.263	222.692	-356.348	1	420.209	-57.9975	3.96035E-006	-0.370636	9
	58	118	125.911	227.58	-395.94	1	456.685	-60.1104	3.90952E-006	-0.370637	9
	59	120	112.198	233.319	-440.269	1	498.272	-62.0789	4.05585E-006	-0.370636	9
	60	123	100.009	239.629	-489.461	1	544.972	-63.9147	4.07951E-006	-0.37064	9
	61	125	89.1164	246.588	-544.547	1	597.776	-65.6375	4.10783E-006	-0.370641	9
	62	127	79.4083	254.95	-605.725	1	657.193	-67.1738	4.45335E-006	-0.370644	9
	63	129	70.788	263.587	-673.689	1	723.419	-68.6316	4.47028E-006	-0.370643	9
	64	131	63.0971	273.789	-749.649	1	798.081	-69.9367	4.56592E-006	-0.370644	9
	65	133	54.5476	290.012	-858.498	1	906.16	-71.3344	4.73487E-006	-0.370644	9
	66	135	50.0083	299.829	-930.212	1	977.34	-72.1346	4.76742E-006	-0.370645	9
	67	137	46.1675	311.775	-1001.44	1	1048.85	-72.7072	4.82357E-006	-0.370644	9
	68	139	40.0059	333.931	-1142.34	1	1190.15	-73.7052	4.16564E-006	-0.370645	8
	69	141	35.3046	353.61	-1284.32	1	1332.11	-74.6063	4.05367E-006	-0.370646	8
	70	143	31.5793	378.492	-1422.49	1	1471.99	-75.1001	4.05601E-006	-0.370645	8
	71	145	28.5748	400.708	-1561.56	1	1612.15	-75.608	3.73951E-006	-0.370643	8
	72	148	24.9911	439.181	-1768.31	1	1822.03	-76.0521	3.47477E-006	-0.370641	8
	73	150	22.2195	471.965	-1976.26	1	2031.84	-76.5684	3.85411E-006	-0.370651	8
	74	152	20.0011	528.737	-2175.29	1	2238.63	-76.3383	4.06326E-006	-0.370639	8
	75	155	17.6486	594.48	-2436.31	1	2507.79	-76.2873	3.96524E-006	-0.37064	8
	76	157	15.7934	663.797	-2697.17	1	2777.65	-76.1738	4.15743E-006	-0.370643	8
	77	159	14.2828	722.855	-2956.9	1	3043.97	-76.2627	4.17143E-006	-0.370642	8
	78	161	12.5002	837.851	-3329.96	1	3433.74	-75.877	4.12895E-006	-0.370634	8
	79	164	11.323	936.648	-3631.51	1	3750.36	-75.5373	4.02548E-006	-0.370636	8
	80	166	9.9987	1066.38	-4095.27	1	4231.83	-75.4047	4.01428E-006	-0.37064	8
