EXPLAIN
TAG	EISPOT
TITLE	LABEL	Tomato_open	Test &Identifier
DATE	LABEL	5/15/2006	Date
TIME	LABEL	12:13:15	Time
NOTES	NOTES	1	&Notes...
	
PSTAT	PSTAT	300	Potentiostat
VDC	POTEN	1.00000E-001	T	DC &Voltage (V)
FREQINIT	QUANT	1.00000E+005	Initial Fre&q. (Hz)
FREQFINAL	QUANT	1.00000E+001	Final Fre&q. (Hz)
PTSPERDEC	QUANT	2.00000E+001	Points/&decade
VAC	QUANT	1.00000E+001	AC &Voltage (mV rms)
AREA	QUANT	1.00000E+000	&Area (cm²)
DENSITY	QUANT	7.87000E+000	&Density (gm/cm³)
EQUIV	QUANT	7.00000E+000	Equiv. &Wt
CONDIT	TWOPARAM	F	1.50000E+001	0.00000E+000	Conditionin&g	Time(s)	E(V)
DELAY	TWOPARAM	F	6.00000E+002	0.00000E+000	Init. De&lay	Time(s)	Stab.(mV/s)
SPEED	SELECTOR	1	&Optimize for:
ZGUESS	QUANT	1.00000E+002	E&stimated Z (ohms)
OCVCURVE	TABLE	39
	Pt	T	Vf	Vm	Ach	Over
	#	s	V vs. Ref.	V	V	bits
	0	0.258332	-4.93519E-001	6.54276E-006	2.36600E-004	......
	1	0.516663	-4.93819E-001	6.54276E-006	-1.63400E-004	......
	2	0.774994	-4.93669E-001	6.54276E-006	1.36600E-004	......
	3	1.03333	-4.93970E-001	6.54276E-006	-6.34000E-005	......
	4	1.29166	-4.94269E-001	6.54276E-006	3.66000E-005	......
	5	1.54999	-4.94319E-001	6.54276E-006	-1.63400E-004	......
	6	1.80832	-4.91470E-001	6.54276E-006	3.66000E-005	......
	7	2.06665	-4.91169E-001	6.54276E-006	-1.63400E-004	......
	8	2.32498	-4.91969E-001	6.54276E-006	-6.34000E-005	......
	9	2.58332	-4.92219E-001	6.54276E-006	-1.63400E-004	......
	10	2.84165	-4.92869E-001	6.54276E-006	3.66000E-005	......
	11	3.09998	-4.93269E-001	6.54276E-006	-6.34000E-005	......
	12	3.35831	-4.93919E-001	6.54276E-006	3.66000E-005	......
	13	3.61664	-4.94619E-001	6.54276E-006	-6.34000E-005	......
	14	3.87497	-4.95319E-001	6.54276E-006	1.36600E-004	......
	15	4.1333	-4.95619E-001	6.54276E-006	-6.34000E-005	......
	16	4.39164	-4.95569E-001	6.54276E-006	3.66000E-005	......
	17	4.64997	-4.95469E-001	6.54276E-006	-6.34000E-005	......
	18	4.9083	-4.95569E-001	6.54276E-006	3.66000E-005	......
	19	5.16663	-4.95319E-001	6.54276E-006	-6.34000E-005	......
	20	5.42496	-4.95069E-001	6.54276E-006	3.66000E-005	......
	21	5.68329	-4.95169E-001	6.54276E-006	-1.63400E-004	......
	22	5.94162	-4.91869E-001	6.54276E-006	1.36600E-004	......
	23	6.19996	-4.89219E-001	6.54276E-006	3.66000E-005	......
	24	6.45829	-4.88469E-001	6.54276E-006	3.66000E-005	......
	25	6.71662	-4.88469E-001	6.54276E-006	3.66000E-005	......
	26	6.97495	-4.89219E-001	6.54276E-006	1.36600E-004	......
	27	7.23328	-4.89969E-001	6.54276E-006	-1.63400E-004	......
	28	7.49161	-4.89169E-001	6.54276E-006	3.66000E-005	......
	29	7.74995	-4.88770E-001	6.54276E-006	-1.63400E-004	......
	30	8.00828	-4.89269E-001	6.54276E-006	3.66000E-005	......
	31	8.26661	-4.89869E-001	6.54276E-006	-1.63400E-004	......
	32	8.52494	-4.90619E-001	6.54276E-006	3.66000E-005	......
	33	8.78327	-4.90319E-001	6.54276E-006	-6.34000E-005	......
	34	9.0416	-4.89619E-001	6.54276E-006	-6.34000E-005	......
	35	9.29993	-4.88819E-001	6.54276E-006	-1.63400E-004	......
	36	9.5583	-4.88869E-001	6.54276E-006	1.36600E-004	......
	37	9.8166	-4.90069E-001	6.54276E-006	-6.34000E-005	......
	38	10.0749	-4.89869E-001	6.54276E-006	-6.34000E-005	......
EOC	QUANT	-0.489869	Open Circuit (V)
PSTATMODEL	IQUANT	32	Pstat Model
PSTATSECTION	LABEL	PStat0	Pstat Section
CTRLMODE	IQUANT	1	Control Mode
IESTAB	IQUANT	0	I/E Stability
CASPEED	IQUANT	1	Control Amp Speed
CONVENTION	IQUANT	1	Current Convention
ICHRANGE	IQUANT	2	Ich Range
ICHRANGEMODE	TOGGLE	F	Ich Auto Range
ICHOFFSETENABLE	TOGGLE	T	Ich Offset Enable
ICHOFFSET	QUANT	0	Ich Offset (V)
ICHFILTER	IQUANT	3	Ich Filter
VCHRANGE	IQUANT	2	Vch Range
VCHRANGEMODE	TOGGLE	F	Vch Auto Range
VCHOFFSETENABLE	TOGGLE	T	Vch Offset Enable
VCHOFFSET	QUANT	0	Vch Offset (V)
VCHFILTER	IQUANT	3	Vch Filter
ACHRANGE	IQUANT	0	Ach Range
IERANGELOWERLIMIT	IQUANT	3	I/E Range Lower Limit
IERANGEMODE	TOGGLE	F	I/E AutoRange
IERANGE	IQUANT	11	I/E Range
POSFEEDENABLE	TOGGLE	F	Positive Feedback IR Comp
POSFEEDRESISTANCE	QUANT	0	Positive Feedback Resistance (ohm)
FC350IDIVISOR	IQUANT	0	FC350 I Divisor
FC350VRANGE	IQUANT	0	FC350 V Range
FRAMEWORKVERSION	QUANT	4.35	Framework Version
ZCURVE	TABLE
	Pt	Time	Freq	Zreal	Zimag	Zsig	Zmod	Zphz	Idc	Vdc	IERange
	#	s	Hz	ohm	ohm	V	ohm	°	A	V	#
	0	4	100007	172.942	-0.324062	1	172.942	-0.107362	4.90126E-006	-0.389633	9
	1	6	89134.1	171.925	-0.149175	1	171.925	-0.049714	5.00812E-006	-0.38964	9
	2	8	79433.6	171.655	-0.664357	1	171.656	-0.221751	5.01054E-006	-0.389652	9
	3	10	70800.8	171.301	-0.98356	1	171.304	-0.328972	5.27493E-006	-0.389641	9
	4	12	63105.5	170.901	-1.21199	1	170.905	-0.40632	5.34839E-006	-0.389652	9
	5	14	56243.5	170.83	-1.59075	1	170.838	-0.533517	5.25298E-006	-0.389639	9
	6	16	50123.7	170.616	-1.86572	1	170.626	-0.626514	5.23528E-006	-0.389627	9
	7	18	44681	170.349	-2.09109	1	170.362	-0.70329	5.20838E-006	-0.389671	9
	8	20	39811.2	170.416	-2.55137	1	170.435	-0.857736	5.27206E-006	-0.389643	9
	9	22	35488.3	170.43	-2.85608	1	170.454	-0.96008	4.94632E-006	-0.389651	9
	10	24	31634.1	170.562	-3.26274	1	170.593	-1.0959	5.15348E-006	-0.389644	9
	11	26	28173.1	170.307	-3.68439	1	170.347	-1.23933	5.23279E-006	-0.389654	9
	12	28	25123.7	170.568	-3.92202	1	170.613	-1.31722	5.04871E-006	-0.389639	9
	13	30	22389.3	170.644	-4.60085	1	170.706	-1.54442	5.0856E-006	-0.389629	9
	14	32	19954.4	170.825	-5.18187	1	170.904	-1.7375	4.98351E-006	-0.389659	9
	15	34	17778.2	170.695	-5.69259	1	170.79	-1.91008	4.9781E-006	-0.389656	9
	16	36	15852.9	170.91	-6.31812	1	171.027	-2.11712	4.98368E-006	-0.389647	9
	17	38	14122.3	171.132	-6.86573	1	171.269	-2.29745	4.87895E-006	-0.389652	9
	18	40	12587.2	171.394	-7.50601	1	171.558	-2.50761	4.87051E-006	-0.389664	9
	19	42	11221.1	171.486	-8.56857	1	171.7	-2.8605	4.81237E-006	-0.389668	9
	20	44	9998.2	171.49	-9.18771	1	171.736	-3.06674	4.93932E-006	-0.389672	9
	21	46	8912.76	171.823	-10.3677	1	172.135	-3.45301	4.98693E-006	-0.389662	9
	22	48	7942.6	171.998	-11.2952	1	172.368	-3.75727	4.83381E-006	-0.389668	9
	23	50	7078.05	171.962	-12.5935	1	172.423	-4.18855	4.78771E-006	-0.389661	9
	24	52	6311.1	172.477	-13.9846	1	173.043	-4.63545	4.8184E-006	-0.389671	9
	25	54	5622.14	172.856	-15.3178	1	173.533	-5.06411	4.71343E-006	-0.389666	9
	26	56	5011.18	173.163	-17.0225	1	173.997	-5.61434	4.65971E-006	-0.389665	9
	27	58	4465.21	173.512	-18.7036	1	174.517	-6.1524	4.60212E-006	-0.389666	9
	28	60	3980.93	173.681	-20.8062	1	174.923	-6.83121	4.64406E-006	-0.389647	9
	29	62	3548.18	174.013	-22.9503	1	175.52	-7.51327	4.53299E-006	-0.389684	9
	30	64	3162.67	174.726	-25.3075	1	176.549	-8.24145	4.33735E-006	-0.389667	9
	31	66	2819.01	175.231	-28.1094	1	177.471	-9.11337	4.44971E-006	-0.389689	9
	32	67	2511.16	175.581	-30.9693	1	178.291	-10.0031	4.5087E-006	-0.389668	9
	33	69	2238.63	176.231	-34.2981	1	179.538	-11.0132	4.21687E-006	-0.389667	9
	34	71	1995.37	176.818	-37.8716	1	180.828	-12.0892	4.15768E-006	-0.389677	9
	35	73	1778.51	177.709	-41.735	1	182.544	-13.2164	4.13593E-006	-0.389669	9
	36	75	1584.49	178.294	-46.4047	1	184.234	-14.5887	4.1027E-006	-0.389655	9
	37	77	1412.76	179.133	-51.3327	1	186.343	-15.9903	4.14754E-006	-0.389657	9
	38	79	1259.04	180.195	-56.8866	1	188.961	-17.5206	4.09637E-006	-0.389676	9
	39	81	1121.63	181.416	-62.9232	1	192.019	-19.1288	3.99652E-006	-0.389669	9
	40	83	999.95	182.242	-69.8873	1	195.183	-20.9811	4.05642E-006	-0.389669	9
	41	85	891.184	183.446	-77.1881	1	199.024	-22.8198	4.1227E-006	-0.389672	9
	42	87	794.163	185.084	-85.1309	1	203.724	-24.7004	4.12329E-006	-0.389663	9
	43	89	707.867	186.416	-94.6426	1	209.065	-26.9167	3.71579E-006	-0.38966	9
	44	91	630.984	187.72	-104.704	1	214.946	-29.1513	3.98396E-006	-0.389665	9
	45	93	562.189	189.472	-116.155	1	222.243	-31.5102	3.93979E-006	-0.389652	9
	46	95	501.303	191.355	-128.647	1	230.579	-33.9127	4.08715E-006	-0.389669	9
	47	97	446.614	193.239	-142.717	1	240.228	-36.4477	3.8999E-006	-0.389665	9
	48	99	398.209	195.298	-158.275	1	251.381	-39.0221	3.8251E-006	-0.389665	9
	49	101	354.821	197.569	-175.646	1	264.358	-41.6384	3.77949E-006	-0.389663	9
	50	103	316.113	200.048	-195.041	1	279.393	-44.2738	3.84565E-006	-0.389668	9
	51	105	281.926	202.763	-216.436	1	296.576	-46.8681	3.91088E-006	-0.389666	9
	52	107	251.185	205.747	-240.456	1	316.466	-49.4479	3.81013E-006	-0.389667	9
	53	109	223.946	209.033	-267.085	1	339.16	-51.9516	4.00315E-006	-0.389661	9
	54	111	199.495	212.699	-296.976	1	365.288	-54.3892	3.89787E-006	-0.389666	9
	55	113	177.836	216.78	-330.101	1	394.918	-56.7068	3.86537E-006	-0.389664	9
	56	115	158.533	221.337	-366.985	1	428.565	-58.9048	3.92321E-006	-0.389668	9
	57	117	141.263	226.345	-408.232	1	466.782	-60.9937	3.86381E-006	-0.389671	9
	58	119	125.911	232.118	-454.141	1	510.022	-62.9278	3.85776E-006	-0.389663	9
	59	121	112.198	238.472	-505.384	1	558.822	-64.7391	3.83744E-006	-0.389666	9
	60	123	100.009	245.72	-562.259	1	613.607	-66.3936	3.84537E-006	-0.389658	9
	61	125	89.1164	253.934	-625.804	1	675.362	-67.914	3.90207E-006	-0.389658	9
	62	127	79.4083	263.508	-696.558	1	744.734	-69.2784	3.94341E-006	-0.38966	9
	63	130	70.788	274.007	-775.263	1	822.26	-70.5347	3.84705E-006	-0.38966	9
	64	132	63.0971	286.113	-862.863	1	909.062	-71.6552	3.92726E-006	-0.389662	9
	65	134	54.5476	304.28	-988.08	1	1033.87	-72.8837	3.94999E-006	-0.38966	9
	66	136	50.0083	315.411	-1070.56	1	1116.05	-73.5838	3.0294E-006	-0.389665	8
	67	138	46.1675	327.857	-1153.17	1	1198.87	-74.129	2.94329E-006	-0.389662	8
	68	140	40.0059	352.858	-1317.72	1	1364.15	-75.0091	2.92109E-006	-0.389658	8
	69	142	35.3046	380.215	-1480.71	1	1528.75	-75.5988	3.0129E-006	-0.389661	8
	70	144	31.5793	407.336	-1641.4	1	1691.19	-76.0628	3.04844E-006	-0.389655	8
	71	146	28.5748	432.573	-1800.82	1	1852.05	-76.493	2.83368E-006	-0.38966	8
	72	149	24.9911	479.029	-2038.51	1	2094.04	-76.776	2.91062E-006	-0.389661	8
	73	151	22.2195	526.545	-2274.45	1	2334.6	-76.9654	2.96637E-006	-0.389661	8
	74	153	20.0011	578.578	-2505.22	1	2571.17	-76.9956	2.92811E-006	-0.389656	8
	75	156	17.6486	655.371	-2810.23	1	2885.64	-76.8727	3.09567E-006	-0.38966	8
	76	158	15.7934	734.322	-3115.22	1	3200.6	-76.7363	3.14366E-006	-0.389666	8
	77	160	14.2828	813.142	-3411.88	1	3507.44	-76.595	3.12162E-006	-0.389665	8
	78	162	12.5002	919.019	-3850.03	1	3958.2	-76.5745	2.91258E-006	-0.389664	8
	79	165	11.323	1014.12	-4227.86	1	4347.79	-76.5115	2.69122E-006	-0.389655	8
	80	167	9.9987	1179.53	-4728.6	1	4873.5	-75.9936	2.86201E-006	-0.389648	8
