EXPLAIN
TAG	EISPOT
TITLE	LABEL	Tomato_open	Test &Identifier
DATE	LABEL	5/12/2006	Date
TIME	LABEL	10:32:15	Time
NOTES	NOTES	1	&Notes...
	
PSTAT	PSTAT	300	Potentiostat
VDC	POTEN	1.00000E-001	T	DC &Voltage (V)
FREQINIT	QUANT	1.00000E+005	Initial Fre&q. (Hz)
FREQFINAL	QUANT	1.00000E+001	Final Fre&q. (Hz)
PTSPERDEC	QUANT	2.00000E+001	Points/&decade
VAC	QUANT	1.00000E+001	AC &Voltage (mV rms)
AREA	QUANT	1.00000E+000	&Area (cm²)
DENSITY	QUANT	7.87000E+000	&Density (gm/cm³)
EQUIV	QUANT	7.00000E+000	Equiv. &Wt
CONDIT	TWOPARAM	F	1.50000E+001	0.00000E+000	Conditionin&g	Time(s)	E(V)
DELAY	TWOPARAM	F	6.00000E+002	0.00000E+000	Init. De&lay	Time(s)	Stab.(mV/s)
SPEED	SELECTOR	1	&Optimize for:
ZGUESS	QUANT	1.00000E+002	E&stimated Z (ohms)
OCVCURVE	TABLE	39
	Pt	T	Vf	Vm	Ach	Over
	#	s	V vs. Ref.	V	V	bits
	0	0.258332	-4.19519E-001	6.21576E-006	2.36600E-004	......
	1	0.516663	-4.18519E-001	6.21576E-006	2.36600E-004	......
	2	0.774994	-4.19270E-001	6.21576E-006	3.36600E-004	......
	3	1.03333	-4.17869E-001	6.21576E-006	3.36600E-004	......
	4	1.29166	-4.17470E-001	6.21576E-006	3.36600E-004	......
	5	1.54999	-4.17069E-001	6.21576E-006	2.36600E-004	......
	6	1.80832	-4.16570E-001	6.21576E-006	3.36600E-004	......
	7	2.06665	-4.17320E-001	6.21576E-006	3.36600E-004	......
	8	2.32498	-4.17369E-001	6.21576E-006	2.36600E-004	......
	9	2.58332	-4.17369E-001	6.21576E-006	2.36600E-004	......
	10	2.84165	-4.17169E-001	6.21576E-006	3.36600E-004	......
	11	3.09998	-4.16869E-001	6.21576E-006	2.36600E-004	......
	12	3.35831	-4.16419E-001	6.21576E-006	3.36600E-004	......
	13	3.61664	-4.18920E-001	6.21576E-006	3.36600E-004	......
	14	3.87497	-4.19219E-001	6.21576E-006	3.36600E-004	......
	15	4.1333	-4.17969E-001	6.21576E-006	2.36600E-004	......
	16	4.39164	-4.17119E-001	6.21576E-006	2.36600E-004	......
	17	4.64997	-4.14319E-001	6.21576E-006	2.36600E-004	......
	18	4.9083	-4.14219E-001	6.21576E-006	2.36600E-004	......
	19	5.16663	-4.12919E-001	6.21576E-006	3.36600E-004	......
	20	5.42496	-4.13469E-001	6.21576E-006	3.36600E-004	......
	21	5.68329	-4.14419E-001	6.21576E-006	3.36600E-004	......
	22	5.94162	-4.14169E-001	6.21576E-006	3.36600E-004	......
	23	6.19996	-4.16369E-001	6.21576E-006	3.36600E-004	......
	24	6.45829	-4.17919E-001	6.21576E-006	3.36600E-004	......
	25	6.71662	-4.19469E-001	6.21576E-006	3.66000E-005	......
	26	6.97495	-4.19969E-001	6.21576E-006	2.36600E-004	......
	27	7.23328	-4.21769E-001	6.21576E-006	2.36600E-004	......
	28	7.49161	-4.22069E-001	6.21576E-006	4.36600E-004	......
	29	7.74995	-4.22169E-001	6.21576E-006	2.36600E-004	......
	30	8.00828	-4.20569E-001	6.21576E-006	2.36600E-004	......
	31	8.26661	-4.20520E-001	6.21576E-006	2.36600E-004	......
	32	8.52494	-4.21070E-001	6.21576E-006	3.36600E-004	......
	33	8.78327	-4.20769E-001	6.21576E-006	3.36600E-004	......
	34	9.0416	-4.20819E-001	6.21576E-006	2.36600E-004	......
	35	9.29993	-4.20869E-001	6.21576E-006	3.36600E-004	......
	36	9.5583	-4.21519E-001	6.21576E-006	4.36600E-004	......
	37	9.8166	-4.21519E-001	6.21576E-006	3.36600E-004	......
	38	10.0749	-4.21970E-001	6.21576E-006	2.36600E-004	......
EOC	QUANT	-0.42197	Open Circuit (V)
PSTATMODEL	IQUANT	32	Pstat Model
PSTATSECTION	LABEL	PStat0	Pstat Section
CTRLMODE	IQUANT	1	Control Mode
IESTAB	IQUANT	0	I/E Stability
CASPEED	IQUANT	1	Control Amp Speed
CONVENTION	IQUANT	1	Current Convention
ICHRANGE	IQUANT	2	Ich Range
ICHRANGEMODE	TOGGLE	F	Ich Auto Range
ICHOFFSETENABLE	TOGGLE	T	Ich Offset Enable
ICHOFFSET	QUANT	0	Ich Offset (V)
ICHFILTER	IQUANT	3	Ich Filter
VCHRANGE	IQUANT	2	Vch Range
VCHRANGEMODE	TOGGLE	F	Vch Auto Range
VCHOFFSETENABLE	TOGGLE	T	Vch Offset Enable
VCHOFFSET	QUANT	0	Vch Offset (V)
VCHFILTER	IQUANT	3	Vch Filter
ACHRANGE	IQUANT	0	Ach Range
IERANGELOWERLIMIT	IQUANT	3	I/E Range Lower Limit
IERANGEMODE	TOGGLE	F	I/E AutoRange
IERANGE	IQUANT	11	I/E Range
POSFEEDENABLE	TOGGLE	F	Positive Feedback IR Comp
POSFEEDRESISTANCE	QUANT	0	Positive Feedback Resistance (ohm)
FC350IDIVISOR	IQUANT	0	FC350 I Divisor
FC350VRANGE	IQUANT	0	FC350 V Range
FRAMEWORKVERSION	QUANT	4.35	Framework Version
ZCURVE	TABLE
	Pt	Time	Freq	Zreal	Zimag	Zsig	Zmod	Zphz	Idc	Vdc	IERange
	#	s	Hz	ohm	ohm	V	ohm	°	A	V	#
	0	4	100007	172.295	-0.063122	1	172.295	-0.020991	2.41643E-006	-0.322033	9
	1	6	89134.1	171.779	-0.454573	1	171.78	-0.151619	2.85273E-006	-0.322026	9
	2	8	79433.6	171.294	-0.440894	1	171.294	-0.147474	3.05779E-006	-0.322028	9
	3	10	70800.8	170.896	-0.594707	1	170.897	-0.199385	3.06446E-006	-0.322023	9
	4	12	63105.5	170.68	-0.91478	1	170.682	-0.307081	2.99904E-006	-0.32203	9
	5	14	56243.5	170.832	-1.4472	1	170.838	-0.485368	3.21299E-006	-0.322033	9
	6	16	50123.7	170.35	-1.53587	1	170.356	-0.516564	3.48954E-006	-0.322028	9
	7	18	44681	170.257	-1.88746	1	170.268	-0.635152	3.34649E-006	-0.321996	9
	8	20	39811.2	170.23	-2.26419	1	170.245	-0.762036	3.58051E-006	-0.322006	9
	9	22	35488.3	170.147	-2.68982	1	170.168	-0.905704	3.89254E-006	-0.322029	9
	10	24	31634.1	170.123	-2.73166	1	170.145	-0.919916	3.89543E-006	-0.322028	9
	11	26	28173.1	170.475	-3.43556	1	170.51	-1.15452	4.09451E-006	-0.322011	9
	12	28	25123.7	170.382	-3.62914	1	170.42	-1.22022	4.43415E-006	-0.322025	9
	13	30	22389.3	170.428	-4.21536	1	170.48	-1.41686	4.26617E-006	-0.322016	9
	14	32	19954.4	170.558	-4.76076	1	170.625	-1.59887	4.42301E-006	-0.322	9
	15	34	17778.2	170.817	-5.0654	1	170.892	-1.69855	4.28237E-006	-0.322009	9
	16	36	15852.9	171.041	-5.71476	1	171.137	-1.91363	4.28982E-006	-0.322022	9
	17	38	14122.3	170.92	-6.42338	1	171.041	-2.15223	4.60151E-006	-0.322023	9
	18	40	12587.2	171.27	-6.57976	1	171.396	-2.20008	4.85846E-006	-0.322027	9
	19	42	11221.1	171.602	-7.52003	1	171.766	-2.50924	5.14949E-006	-0.322027	9
	20	44	9998.2	171.781	-8.14914	1	171.974	-2.71603	5.08765E-006	-0.322029	9
	21	46	8912.76	171.635	-9.21509	1	171.882	-3.07326	5.18821E-006	-0.322019	9
	22	48	7942.6	171.874	-10.1666	1	172.174	-3.38518	5.39781E-006	-0.322027	9
	23	50	7078.05	172.186	-11.0809	1	172.543	-3.68213	5.53104E-006	-0.322017	9
	24	51	6311.1	172.388	-12.4631	1	172.837	-4.13513	5.40042E-006	-0.32202	9
	25	53	5622.14	172.881	-13.2998	1	173.391	-4.39914	5.51521E-006	-0.322015	9
	26	55	5011.18	172.964	-14.9414	1	173.608	-4.9372	5.48248E-006	-0.322016	9
	27	57	4465.21	173.352	-16.748	1	174.159	-5.51837	5.5344E-006	-0.322028	9
	28	59	3980.93	173.51	-18.2678	1	174.469	-6.01018	5.57512E-006	-0.32205	9
	29	61	3548.18	173.954	-20.2782	1	175.132	-6.64907	5.41567E-006	-0.322041	9
	30	63	3162.67	174.387	-22.4827	1	175.83	-7.34627	6.03009E-006	-0.322044	9
	31	65	2819.01	175.064	-24.7952	1	176.811	-8.06147	5.67578E-006	-0.322009	9
	32	67	2511.16	175.433	-27.4917	1	177.574	-8.90626	5.87156E-006	-0.322034	9
	33	69	2238.63	176.214	-30.0291	1	178.754	-9.6711	6.05645E-006	-0.322027	9
	34	71	1995.37	176.571	-33.5383	1	179.728	-10.7548	5.9342E-006	-0.32203	9
	35	73	1778.51	177.071	-37.1921	1	180.934	-11.862	5.92046E-006	-0.322022	9
	36	75	1584.49	178.164	-40.8796	1	182.794	-12.9228	5.27852E-006	-0.322027	9
	37	77	1412.76	178.917	-45.115	1	184.518	-14.1524	6.03321E-006	-0.32204	9
	38	79	1259.04	179.6	-50.0408	1	186.441	-15.5691	6.07631E-006	-0.322028	9
	39	81	1121.63	180.681	-55.5228	1	189.02	-17.082	6.13804E-006	-0.322035	9
	40	83	999.95	182.055	-61.3037	1	192.099	-18.61	6.1196E-006	-0.32204	9
	41	85	891.184	183.203	-67.9815	1	195.409	-20.3585	6.17754E-006	-0.322029	9
	42	87	794.163	184.414	-75.1444	1	199.136	-22.1697	5.80017E-006	-0.322027	9
	43	89	707.867	185.944	-83.1726	1	203.698	-24.099	6.49515E-006	-0.322039	9
	44	91	630.984	187.101	-91.929	1	208.465	-26.1665	6.46121E-006	-0.322031	9
	45	93	562.189	189.055	-101.355	1	214.51	-28.1963	6.60509E-006	-0.322031	9
	46	95	501.303	190.716	-112.599	1	221.474	-30.5576	6.33228E-006	-0.322022	9
	47	97	446.614	192.612	-124.776	1	229.497	-32.9356	6.2597E-006	-0.322029	9
	48	99	398.209	194.665	-138.201	1	238.734	-35.3725	6.13823E-006	-0.322026	9
	49	101	354.821	196.937	-153.149	1	249.477	-37.8705	6.3731E-006	-0.322029	9
	50	103	316.113	199.439	-169.781	1	261.918	-40.4075	6.58801E-006	-0.32203	9
	51	105	281.926	202.103	-188.126	1	276.111	-42.9487	6.54918E-006	-0.322026	9
	52	107	251.185	205.017	-208.696	1	292.55	-45.5095	5.87434E-006	-0.32203	9
	53	109	223.946	208.212	-231.436	1	311.311	-48.0237	6.11573E-006	-0.322027	9
	54	111	199.495	211.77	-256.921	1	332.949	-50.5026	5.94728E-006	-0.322024	9
	55	113	177.836	215.591	-285.237	1	357.547	-52.9168	5.9732E-006	-0.322017	9
	56	115	158.533	220.047	-316.622	1	385.578	-55.2013	6.21918E-006	-0.322016	9
	57	117	141.263	224.783	-351.734	1	417.426	-57.4186	6.22853E-006	-0.322024	9
	58	119	125.911	230.213	-390.762	1	453.534	-59.4961	6.36112E-006	-0.322022	9
	59	121	112.198	235.856	-434.235	1	494.154	-61.4913	6.04554E-006	-0.322022	9
	60	123	100.009	242.544	-482.752	1	540.256	-63.3242	5.83474E-006	-0.322024	9
	61	125	89.1164	250.079	-536.833	1	592.224	-65.0219	5.96921E-006	-0.322021	9
	62	127	79.4083	258.363	-597.05	1	650.554	-66.6003	5.82569E-006	-0.322023	9
	63	129	70.788	267.424	-663.852	1	715.692	-68.0586	5.68328E-006	-0.322023	9
	64	131	63.0971	278.556	-737.806	1	788.639	-69.3161	5.71062E-006	-0.32202	9
	65	133	54.5476	294.501	-844.567	1	894.441	-70.7763	5.64779E-006	-0.32202	9
	66	135	50.0083	304.72	-915.924	1	965.28	-71.5981	5.59867E-006	-0.32202	9
	67	138	46.1675	316.753	-986.57	1	1036.18	-72.2001	5.33287E-006	-0.32202	9
	68	140	40.0059	337.984	-1125.04	1	1174.71	-73.2787	4.76895E-006	-0.322023	8
	69	142	35.3046	362.115	-1263.19	1	1314.07	-74.0041	4.8473E-006	-0.322024	8
	70	144	31.5793	388.062	-1400.39	1	1453.16	-74.5114	5.07635E-006	-0.322024	8
	71	146	28.5748	420.99	-1535.28	1	1591.95	-74.6658	5.21559E-006	-0.322023	8
	72	148	24.9911	454.181	-1738.28	1	1796.63	-75.357	5.16906E-006	-0.322021	8
	73	150	22.2195	494.799	-1942.4	1	2004.43	-75.7087	5.12231E-006	-0.322021	8
	74	153	20.0011	541.524	-2144.08	1	2211.41	-75.8254	4.87843E-006	-0.322031	8
	75	155	17.6486	626.03	-2389.35	1	2470	-75.318	4.9299E-006	-0.322028	8
	76	157	15.7934	681.565	-2645.5	1	2731.88	-75.5529	4.92054E-006	-0.322031	8
	77	160	14.2828	743.508	-2909.48	1	3002.98	-75.6651	4.95491E-006	-0.322026	8
	78	162	12.5002	873.538	-3274.01	1	3388.54	-75.0609	5.16494E-006	-0.322031	8
	79	164	11.323	942.088	-3583.7	1	3705.46	-75.2712	4.94652E-006	-0.322036	8
	80	170	9.9987	1091.85	-4002.66	1	4148.91	-74.742	5.04817E-006	-0.322033	8
