EXPLAIN
TAG	EISPOT
TITLE	LABEL	Tomato_open	Test &Identifier
DATE	LABEL	5/15/2006	Date
TIME	LABEL	12:18:15	Time
NOTES	NOTES	1	&Notes...
	
PSTAT	PSTAT	300	Potentiostat
VDC	POTEN	1.00000E-001	T	DC &Voltage (V)
FREQINIT	QUANT	1.00000E+005	Initial Fre&q. (Hz)
FREQFINAL	QUANT	1.00000E+001	Final Fre&q. (Hz)
PTSPERDEC	QUANT	2.00000E+001	Points/&decade
VAC	QUANT	1.00000E+001	AC &Voltage (mV rms)
AREA	QUANT	1.00000E+000	&Area (cm²)
DENSITY	QUANT	7.87000E+000	&Density (gm/cm³)
EQUIV	QUANT	7.00000E+000	Equiv. &Wt
CONDIT	TWOPARAM	F	1.50000E+001	0.00000E+000	Conditionin&g	Time(s)	E(V)
DELAY	TWOPARAM	F	6.00000E+002	0.00000E+000	Init. De&lay	Time(s)	Stab.(mV/s)
SPEED	SELECTOR	1	&Optimize for:
ZGUESS	QUANT	1.00000E+002	E&stimated Z (ohms)
OCVCURVE	TABLE	39
	Pt	T	Vf	Vm	Ach	Over
	#	s	V vs. Ref.	V	V	bits
	0	0.258332	-5.06469E-001	5.65877E-006	-1.63400E-004	......
	1	0.516663	-5.07219E-001	5.65877E-006	1.36600E-004	......
	2	0.774994	-5.08419E-001	5.65877E-006	-6.34000E-005	......
	3	1.03333	-5.08469E-001	5.65877E-006	2.36600E-004	......
	4	1.29166	-5.07620E-001	5.65877E-006	-1.63400E-004	......
	5	1.54999	-5.07270E-001	5.65877E-006	1.36600E-004	......
	6	1.80832	-5.07919E-001	5.65877E-006	-1.63400E-004	......
	7	2.06665	-5.09319E-001	5.65877E-006	1.36600E-004	......
	8	2.32498	-5.09619E-001	5.65877E-006	-1.63400E-004	......
	9	2.58332	-5.09519E-001	5.65877E-006	3.66000E-005	......
	10	2.84165	-5.08770E-001	5.65877E-006	-2.63400E-004	......
	11	3.09998	-5.09269E-001	5.65877E-006	1.36600E-004	......
	12	3.35831	-5.09719E-001	5.65877E-006	-1.63400E-004	......
	13	3.61664	-5.10319E-001	5.65877E-006	3.66000E-005	......
	14	3.87497	-5.10520E-001	5.65877E-006	-2.63400E-004	......
	15	4.1333	-5.09119E-001	5.65877E-006	3.66000E-005	......
	16	4.39164	-5.08070E-001	5.65877E-006	-1.63400E-004	......
	17	4.64997	-5.06419E-001	5.65877E-006	3.66000E-005	......
	18	4.9083	-5.06619E-001	5.65877E-006	-6.34000E-005	......
	19	5.16663	-5.05769E-001	5.65877E-006	3.66000E-005	......
	20	5.42496	-5.03969E-001	5.65877E-006	-1.63400E-004	......
	21	5.68329	-5.02069E-001	5.65877E-006	2.36600E-004	......
	22	5.94162	-5.01769E-001	5.65877E-006	-1.63400E-004	......
	23	6.19996	-5.01269E-001	5.65877E-006	1.36600E-004	......
	24	6.45829	-5.00519E-001	5.65877E-006	-1.63400E-004	......
	25	6.71662	-5.02670E-001	5.65877E-006	3.66000E-005	......
	26	6.97495	-5.04069E-001	5.65877E-006	-1.63400E-004	......
	27	7.23328	-5.04219E-001	5.65877E-006	3.66000E-005	......
	28	7.49161	-5.03969E-001	5.65877E-006	-1.63400E-004	......
	29	7.74995	-5.05269E-001	5.65877E-006	1.36600E-004	......
	30	8.00828	-5.06570E-001	5.65877E-006	-1.63400E-004	......
	31	8.26661	-5.07670E-001	5.65877E-006	3.66000E-005	......
	32	8.52494	-5.07469E-001	5.65877E-006	-6.34000E-005	......
	33	8.78327	-5.06169E-001	5.65877E-006	1.36600E-004	......
	34	9.0416	-5.06719E-001	5.65877E-006	-1.63400E-004	......
	35	9.29993	-5.06519E-001	5.65877E-006	3.66000E-005	......
	36	9.5583	-5.05719E-001	5.65877E-006	-1.63400E-004	......
	37	9.8166	-5.05019E-001	5.65877E-006	3.66000E-005	......
	38	10.0749	-5.04869E-001	5.65877E-006	-6.34000E-005	......
EOC	QUANT	-0.504869	Open Circuit (V)
PSTATMODEL	IQUANT	32	Pstat Model
PSTATSECTION	LABEL	PStat0	Pstat Section
CTRLMODE	IQUANT	1	Control Mode
IESTAB	IQUANT	0	I/E Stability
CASPEED	IQUANT	1	Control Amp Speed
CONVENTION	IQUANT	1	Current Convention
ICHRANGE	IQUANT	2	Ich Range
ICHRANGEMODE	TOGGLE	F	Ich Auto Range
ICHOFFSETENABLE	TOGGLE	T	Ich Offset Enable
ICHOFFSET	QUANT	0	Ich Offset (V)
ICHFILTER	IQUANT	3	Ich Filter
VCHRANGE	IQUANT	2	Vch Range
VCHRANGEMODE	TOGGLE	F	Vch Auto Range
VCHOFFSETENABLE	TOGGLE	T	Vch Offset Enable
VCHOFFSET	QUANT	0	Vch Offset (V)
VCHFILTER	IQUANT	3	Vch Filter
ACHRANGE	IQUANT	0	Ach Range
IERANGELOWERLIMIT	IQUANT	3	I/E Range Lower Limit
IERANGEMODE	TOGGLE	F	I/E AutoRange
IERANGE	IQUANT	11	I/E Range
POSFEEDENABLE	TOGGLE	F	Positive Feedback IR Comp
POSFEEDRESISTANCE	QUANT	0	Positive Feedback Resistance (ohm)
FC350IDIVISOR	IQUANT	0	FC350 I Divisor
FC350VRANGE	IQUANT	0	FC350 V Range
FRAMEWORKVERSION	QUANT	4.35	Framework Version
ZCURVE	TABLE
	Pt	Time	Freq	Zreal	Zimag	Zsig	Zmod	Zphz	Idc	Vdc	IERange
	#	s	Hz	ohm	ohm	V	ohm	°	A	V	#
	0	4	100007	172.696	0.196205	1	172.697	0.065095	3.39551E-006	-0.404614	9
	1	6	89134.1	171.997	0.104571	1	171.997	0.034835	3.74043E-006	-0.404668	9
	2	8	79433.6	171.097	-0.766773	1	171.099	-0.256769	3.68243E-006	-0.404651	9
	3	10	70800.8	170.791	-1.09087	1	170.795	-0.365952	4.05031E-006	-0.404657	9
	4	12	63105.5	170.8	-1.1328	1	170.804	-0.379998	4.06935E-006	-0.404652	9
	5	14	56243.5	170.745	-1.35384	1	170.75	-0.454291	4.25343E-006	-0.404638	9
	6	16	50123.7	170.54	-1.80577	1	170.549	-0.606655	4.14987E-006	-0.404657	9
	7	18	44681	170.554	-2.0858	1	170.567	-0.700666	4.18332E-006	-0.404633	9
	8	20	39811.2	170.171	-2.52595	1	170.189	-0.850414	4.23918E-006	-0.404672	9
	9	22	35488.3	170.122	-2.79183	1	170.145	-0.940183	4.67373E-006	-0.404672	9
	10	24	31634.1	170.228	-3.17088	1	170.258	-1.06714	4.65746E-006	-0.404662	9
	11	26	28173.1	170.12	-3.63189	1	170.159	-1.22302	4.55346E-006	-0.404646	9
	12	28	25123.7	170.361	-4.3166	1	170.415	-1.45145	4.15517E-006	-0.404633	9
	13	30	22389.3	170.086	-4.49367	1	170.145	-1.5134	3.98576E-006	-0.404643	9
	14	32	19954.4	170.396	-5.05562	1	170.471	-1.69946	4.10409E-006	-0.404645	9
	15	34	17778.2	170.457	-5.47545	1	170.545	-1.83983	4.15592E-006	-0.40465	9
	16	36	15852.9	170.938	-6.18994	1	171.05	-2.07387	3.85326E-006	-0.404635	9
	17	38	14122.3	170.763	-6.8696	1	170.902	-2.30369	3.99867E-006	-0.404653	9
	18	40	12587.2	170.911	-7.85142	1	171.092	-2.63023	3.8432E-006	-0.404652	9
	19	42	11221.1	171.227	-8.39433	1	171.433	-2.80666	3.74753E-006	-0.404652	9
	20	44	9998.2	171.179	-9.13692	1	171.423	-3.05534	3.75173E-006	-0.40465	9
	21	46	8912.76	171.427	-10.2574	1	171.734	-3.42421	3.75096E-006	-0.404664	9
	22	48	7942.6	171.657	-11.4131	1	172.036	-3.80388	3.82638E-006	-0.404659	9
	23	50	7078.05	171.818	-12.4398	1	172.268	-4.14105	3.93515E-006	-0.40467	9
	24	52	6311.1	172.194	-13.7246	1	172.741	-4.55707	4.03782E-006	-0.404665	9
	25	54	5622.14	172.334	-15.3838	1	173.02	-5.10111	4.00178E-006	-0.40465	9
	26	56	5011.18	172.794	-16.8457	1	173.613	-5.56817	3.91285E-006	-0.404655	9
	27	58	4465.21	172.832	-18.7184	1	173.842	-6.18127	3.9451E-006	-0.404661	9
	28	60	3980.93	173.33	-20.5788	1	174.548	-6.77079	3.84385E-006	-0.40464	9
	29	62	3548.18	174.106	-22.9111	1	175.607	-7.49666	3.90013E-006	-0.404662	9
	30	63	3162.67	174.447	-25.5866	1	176.314	-8.34421	3.70053E-006	-0.404651	9
	31	65	2819.01	174.705	-28.3743	1	176.994	-9.22502	3.69756E-006	-0.404653	9
	32	67	2511.16	175.294	-31.0494	1	178.023	-10.0445	3.75709E-006	-0.404657	9
	33	69	2238.63	175.881	-34.4035	1	179.214	-11.0677	3.72895E-006	-0.404645	9
	34	71	1995.37	176.394	-38.1106	1	180.464	-12.1916	3.4871E-006	-0.40465	9
	35	73	1778.51	177.056	-42.1737	1	182.009	-13.3979	3.52573E-006	-0.404647	9
	36	75	1584.49	177.956	-46.7035	1	183.982	-14.7053	3.5669E-006	-0.404647	9
	37	77	1412.76	179.055	-51.684	1	186.365	-16.1007	3.55631E-006	-0.404658	9
	38	79	1259.04	180.043	-57.2242	1	188.918	-17.6321	3.40224E-006	-0.404634	9
	39	81	1121.63	180.907	-63.2572	1	191.648	-19.273	3.61223E-006	-0.404645	9
	40	83	999.95	181.723	-69.6382	1	194.609	-20.9674	3.67287E-006	-0.40466	9
	41	85	891.184	183.402	-77.6409	1	199.159	-22.9447	3.40298E-006	-0.404646	9
	42	87	794.163	184.348	-85.8936	1	203.377	-24.9823	3.43023E-006	-0.40465	9
	43	89	707.867	186.13	-95.424	1	209.165	-27.1432	3.46149E-006	-0.404628	9
	44	91	630.984	187.267	-105.542	1	214.961	-29.4051	3.38432E-006	-0.404655	9
	45	93	562.189	189.037	-116.665	1	222.139	-31.6811	3.23006E-006	-0.404634	9
	46	95	501.303	190.902	-129.515	1	230.69	-34.1545	3.29667E-006	-0.404645	9
	47	97	446.614	192.777	-143.705	1	240.446	-36.7027	3.27706E-006	-0.404656	9
	48	99	398.209	194.79	-159.378	1	251.684	-39.2902	3.44598E-006	-0.404655	9
	49	101	354.821	197.025	-176.916	1	264.798	-41.9218	3.44487E-006	-0.404648	9
	50	103	316.113	199.462	-196.461	1	279.967	-44.5658	3.42634E-006	-0.404655	9
	51	105	281.926	202.111	-218.038	1	297.304	-47.171	3.35279E-006	-0.404651	9
	52	107	251.185	205.041	-242.278	1	317.397	-49.7586	3.40324E-006	-0.404643	9
	53	109	223.946	208.259	-269.146	1	340.31	-52.2682	3.53899E-006	-0.404642	9
	54	111	199.495	211.861	-299.303	1	366.698	-54.7074	3.60862E-006	-0.404651	9
	55	113	177.836	215.8	-332.697	1	396.557	-57.031	3.52756E-006	-0.404654	9
	56	115	158.533	220.177	-369.868	1	430.442	-59.2353	3.52581E-006	-0.404647	9
	57	117	141.263	225.147	-411.498	1	469.065	-61.3152	3.54612E-006	-0.404657	9
	58	119	125.911	230.578	-457.747	1	512.541	-63.2645	3.51051E-006	-0.404656	9
	59	121	112.198	236.792	-509.559	1	561.891	-65.0757	3.40229E-006	-0.404657	9
	60	123	100.009	243.778	-567.004	1	617.188	-66.7352	3.50611E-006	-0.404657	9
	61	125	89.1164	251.789	-631.39	1	679.743	-68.2586	3.58189E-006	-0.404658	9
	62	127	79.4083	261.289	-703.068	1	750.051	-69.6128	3.80617E-006	-0.404654	9
	63	130	70.788	271.34	-782.491	1	828.201	-70.8753	3.58543E-006	-0.404648	9
	64	132	63.0971	282.738	-871.045	1	915.783	-72.0168	3.62561E-006	-0.404649	9
	65	134	54.5476	299.765	-997.66	1	1041.73	-73.2762	3.51938E-006	-0.404652	9
	66	136	50.0083	311.57	-1081.15	1	1125.15	-73.9239	2.83706E-006	-0.404654	8
	67	138	46.1675	323.074	-1164.62	1	1208.6	-74.4956	2.76508E-006	-0.404653	8
	68	140	40.0059	348.433	-1331.27	1	1376.11	-75.333	2.79853E-006	-0.404661	8
	69	142	35.3046	378.551	-1496.61	1	1543.75	-75.8054	3.04429E-006	-0.404661	8
	70	144	31.5793	406.578	-1659.45	1	1708.53	-76.2333	3.22132E-006	-0.404649	8
	71	146	28.5748	436.418	-1820.97	1	1872.54	-76.5226	3.10401E-006	-0.404653	8
	72	148	24.9911	481.21	-2062.84	1	2118.22	-76.8691	3.02292E-006	-0.404656	8
	73	151	22.2195	533.094	-2301.15	1	2362.09	-76.9567	3.06306E-006	-0.404657	8
	74	153	20.0011	581.414	-2535.55	1	2601.35	-77.0851	3.15021E-006	-0.404651	8
	75	156	17.6486	648.919	-2843.12	1	2916.24	-77.1429	3.02701E-006	-0.404644	8
	76	158	15.7934	727.201	-3147.53	1	3230.45	-76.9907	3.01378E-006	-0.404657	8
	77	160	14.2828	803.577	-3454	1	3546.24	-76.903	2.97862E-006	-0.404653	8
	78	162	12.5002	906.116	-3909.16	1	4012.8	-76.9497	2.8656E-006	-0.404647	8
	79	165	11.323	1032.77	-4268.64	1	4391.79	-76.3991	2.88104E-006	-0.404653	8
	80	167	9.9987	1212.26	-4771.55	1	4923.14	-75.745	2.94925E-006	-0.404646	8
