EXPLAIN
TAG	EISPOT
TITLE	LABEL	Tomato_open	Test &Identifier
DATE	LABEL	5/12/2006	Date
TIME	LABEL	10:42:19	Time
NOTES	NOTES	1	&Notes...
	
PSTAT	PSTAT	300	Potentiostat
VDC	POTEN	1.00000E-001	T	DC &Voltage (V)
FREQINIT	QUANT	1.00000E+005	Initial Fre&q. (Hz)
FREQFINAL	QUANT	1.00000E+001	Final Fre&q. (Hz)
PTSPERDEC	QUANT	2.00000E+001	Points/&decade
VAC	QUANT	1.00000E+001	AC &Voltage (mV rms)
AREA	QUANT	1.00000E+000	&Area (cm²)
DENSITY	QUANT	7.87000E+000	&Density (gm/cm³)
EQUIV	QUANT	7.00000E+000	Equiv. &Wt
CONDIT	TWOPARAM	F	1.50000E+001	0.00000E+000	Conditionin&g	Time(s)	E(V)
DELAY	TWOPARAM	F	6.00000E+002	0.00000E+000	Init. De&lay	Time(s)	Stab.(mV/s)
SPEED	SELECTOR	1	&Optimize for:
ZGUESS	QUANT	1.00000E+002	E&stimated Z (ohms)
OCVCURVE	TABLE	39
	Pt	T	Vf	Vm	Ach	Over
	#	s	V vs. Ref.	V	V	bits
	0	0.258332	-4.95619E-001	7.50776E-006	3.36600E-004	......
	1	0.516663	-4.94569E-001	7.50776E-006	2.36600E-004	......
	2	0.774994	-4.94919E-001	7.50776E-006	2.36600E-004	......
	3	1.03333	-4.93869E-001	7.50776E-006	2.36600E-004	......
	4	1.29166	-4.90269E-001	7.50776E-006	3.36600E-004	......
	5	1.54999	-4.89269E-001	7.50776E-006	3.36600E-004	......
	6	1.80832	-4.88369E-001	7.50776E-006	3.36600E-004	......
	7	2.06665	-4.88419E-001	7.50776E-006	2.36600E-004	......
	8	2.32498	-4.86819E-001	7.50776E-006	4.36600E-004	......
	9	2.58332	-4.86119E-001	7.50776E-006	2.36600E-004	......
	10	2.84165	-4.87369E-001	7.50776E-006	2.36600E-004	......
	11	3.09998	-4.87369E-001	7.50776E-006	3.36600E-004	......
	12	3.35831	-4.87569E-001	7.50776E-006	3.36600E-004	......
	13	3.61664	-4.87069E-001	7.50776E-006	2.36600E-004	......
	14	3.87497	-4.87769E-001	7.50776E-006	3.36600E-004	......
	15	4.1333	-4.88069E-001	7.50776E-006	2.36600E-004	......
	16	4.39164	-4.86970E-001	7.50776E-006	3.36600E-004	......
	17	4.64997	-4.86669E-001	7.50776E-006	1.36600E-004	......
	18	4.9083	-4.87669E-001	7.50776E-006	3.36600E-004	......
	19	5.16663	-4.87069E-001	7.50776E-006	2.36600E-004	......
	20	5.42496	-4.88969E-001	7.50776E-006	2.36600E-004	......
	21	5.68329	-4.87919E-001	7.50776E-006	2.36600E-004	......
	22	5.94162	-4.88319E-001	7.50776E-006	2.36600E-004	......
	23	6.19996	-4.88669E-001	7.50776E-006	1.36600E-004	......
	24	6.45829	-4.91019E-001	7.50776E-006	3.36600E-004	......
	25	6.71662	-4.92319E-001	7.50776E-006	2.36600E-004	......
	26	6.97495	-4.94469E-001	7.50776E-006	2.36600E-004	......
	27	7.23328	-5.01369E-001	7.50776E-006	3.36600E-004	......
	28	7.49161	-5.02569E-001	7.50776E-006	3.36600E-004	......
	29	7.74995	-5.03869E-001	7.50776E-006	2.36600E-004	......
	30	8.00828	-5.03969E-001	7.50776E-006	2.36600E-004	......
	31	8.26661	-5.05520E-001	7.50776E-006	3.36600E-004	......
	32	8.52494	-5.06369E-001	7.50776E-006	2.36600E-004	......
	33	8.78327	-5.07069E-001	7.50776E-006	2.36600E-004	......
	34	9.0416	-5.07469E-001	7.50776E-006	2.36600E-004	......
	35	9.29993	-5.07119E-001	7.50776E-006	3.36600E-004	......
	36	9.5583	-5.07869E-001	7.50776E-006	4.36600E-004	......
	37	9.8166	-5.08269E-001	7.50776E-006	2.36600E-004	......
	38	10.0749	-5.09619E-001	7.50776E-006	3.36600E-004	......
EOC	QUANT	-0.509619	Open Circuit (V)
PSTATMODEL	IQUANT	32	Pstat Model
PSTATSECTION	LABEL	PStat0	Pstat Section
CTRLMODE	IQUANT	1	Control Mode
IESTAB	IQUANT	0	I/E Stability
CASPEED	IQUANT	1	Control Amp Speed
CONVENTION	IQUANT	1	Current Convention
ICHRANGE	IQUANT	2	Ich Range
ICHRANGEMODE	TOGGLE	F	Ich Auto Range
ICHOFFSETENABLE	TOGGLE	T	Ich Offset Enable
ICHOFFSET	QUANT	0	Ich Offset (V)
ICHFILTER	IQUANT	3	Ich Filter
VCHRANGE	IQUANT	2	Vch Range
VCHRANGEMODE	TOGGLE	F	Vch Auto Range
VCHOFFSETENABLE	TOGGLE	T	Vch Offset Enable
VCHOFFSET	QUANT	0	Vch Offset (V)
VCHFILTER	IQUANT	3	Vch Filter
ACHRANGE	IQUANT	0	Ach Range
IERANGELOWERLIMIT	IQUANT	3	I/E Range Lower Limit
IERANGEMODE	TOGGLE	F	I/E AutoRange
IERANGE	IQUANT	11	I/E Range
POSFEEDENABLE	TOGGLE	F	Positive Feedback IR Comp
POSFEEDRESISTANCE	QUANT	0	Positive Feedback Resistance (ohm)
FC350IDIVISOR	IQUANT	0	FC350 I Divisor
FC350VRANGE	IQUANT	0	FC350 V Range
FRAMEWORKVERSION	QUANT	4.35	Framework Version
ZCURVE	TABLE
	Pt	Time	Freq	Zreal	Zimag	Zsig	Zmod	Zphz	Idc	Vdc	IERange
	#	s	Hz	ohm	ohm	V	ohm	°	A	V	#
	0	4	100007	173.158	0.215897	1	173.158	0.071438	2.38199E-006	-0.40946	9
	1	6	89134.1	172.167	-0.15513	1	172.167	-0.051626	2.50454E-006	-0.409448	9
	2	8	79433.6	171.788	-0.490686	1	171.789	-0.163656	2.82513E-006	-0.409447	9
	3	10	70800.8	171.078	-0.496354	1	171.078	-0.166234	3.08124E-006	-0.409479	9
	4	12	63105.5	170.973	-1.02017	1	170.976	-0.341873	3.1204E-006	-0.409444	9
	5	14	56243.5	170.887	-1.1066	1	170.89	-0.371022	3.24231E-006	-0.409471	9
	6	16	50123.7	170.861	-1.70235	1	170.87	-0.570838	3.03712E-006	-0.409483	9
	7	18	44681	170.444	-1.99191	1	170.456	-0.669561	3.36904E-006	-0.409464	9
	8	20	39811.2	170.324	-2.39826	1	170.34	-0.806707	3.21135E-006	-0.409474	9
	9	22	35488.3	170.394	-2.66673	1	170.415	-0.896629	2.89915E-006	-0.40946	9
	10	24	31634.1	170.456	-2.9643	1	170.482	-0.9963	2.88188E-006	-0.409458	9
	11	26	28173.1	170.402	-3.30243	1	170.434	-1.11027	2.95698E-006	-0.409472	9
	12	28	25123.7	170.467	-3.75956	1	170.509	-1.26342	3.22223E-006	-0.409446	9
	13	30	22389.3	170.524	-4.23223	1	170.576	-1.42173	3.46576E-006	-0.409468	9
	14	32	19954.4	170.665	-4.52385	1	170.725	-1.51839	3.43296E-006	-0.409481	9
	15	34	17778.2	170.845	-5.13049	1	170.922	-1.72008	3.19553E-006	-0.40946	9
	16	36	15852.9	170.975	-5.61325	1	171.067	-1.88039	3.76474E-006	-0.409467	9
	17	37	14122.3	170.913	-6.28265	1	171.028	-2.10521	3.76213E-006	-0.409459	9
	18	39	12587.2	171.193	-6.65676	1	171.323	-2.2268	3.95854E-006	-0.40946	9
	19	41	11221.1	171.485	-7.61607	1	171.654	-2.54298	3.91095E-006	-0.409461	9
	20	43	9998.2	171.664	-8.26234	1	171.863	-2.75557	4.24777E-006	-0.409458	9
	21	45	8912.76	171.698	-9.1586	1	171.942	-3.05333	3.9019E-006	-0.409443	9
	22	47	7942.6	171.769	-10.1324	1	172.068	-3.37587	4.00599E-006	-0.409449	9
	23	49	7078.05	171.964	-11.1687	1	172.326	-3.71603	3.88026E-006	-0.40946	9
	24	51	6311.1	172.427	-12.1991	1	172.858	-4.04689	3.99304E-006	-0.409463	9
	25	53	5622.14	172.692	-13.8016	1	173.242	-4.56939	3.54024E-006	-0.40946	9
	26	55	5011.18	172.84	-15.3008	1	173.516	-5.05895	4.04363E-006	-0.409468	9
	27	57	4465.21	173.228	-16.5997	1	174.022	-5.4737	3.81981E-006	-0.409465	9
	28	59	3980.93	173.334	-18.428	1	174.311	-6.06859	3.94081E-006	-0.409494	9
	29	61	3548.18	173.898	-20.4357	1	175.095	-6.7024	3.96742E-006	-0.409476	9
	30	63	3162.67	174.092	-22.584	1	175.55	-7.39141	3.76659E-006	-0.409471	9
	31	65	2819.01	174.881	-25.0533	1	176.666	-8.15268	3.72967E-006	-0.409447	9
	32	67	2511.16	175.104	-27.5141	1	177.252	-8.92988	3.73735E-006	-0.409475	9
	33	69	2238.63	175.598	-30.6107	1	178.246	-9.8886	3.96257E-006	-0.409464	9
	34	71	1995.37	176.385	-33.6198	1	179.56	-10.7914	3.97835E-006	-0.409467	9
	35	73	1778.51	177.185	-37.3984	1	181.089	-11.9185	3.97165E-006	-0.409473	9
	36	75	1584.49	177.79	-41.4707	1	182.563	-13.1298	4.08998E-006	-0.409461	9
	37	77	1412.76	178.551	-45.9205	1	184.362	-14.423	4.07067E-006	-0.409467	9
	38	79	1259.04	179.463	-50.4303	1	186.414	-15.6957	3.9857E-006	-0.409471	9
	39	81	1121.63	180.597	-56.0657	1	189.099	-17.2468	3.91137E-006	-0.40946	9
	40	83	999.95	181.448	-62.0166	1	191.754	-18.8697	3.83799E-006	-0.40946	9
	41	85	891.184	182.446	-68.6254	1	194.925	-20.6133	3.90499E-006	-0.409459	9
	42	87	794.163	183.909	-76.0426	1	199.01	-22.464	3.77737E-006	-0.409471	9
	43	89	707.867	185.454	-84.062	1	203.617	-24.3837	3.85909E-006	-0.409466	9
	44	91	630.984	186.498	-92.8235	1	208.321	-26.4604	3.91596E-006	-0.409469	9
	45	93	562.189	187.706	-103.172	1	214.192	-28.7951	3.84826E-006	-0.409484	9
	46	95	501.303	190.025	-114.145	1	221.672	-30.9925	3.81423E-006	-0.409464	9
	47	97	446.614	191.859	-126.52	1	229.82	-33.4026	3.96454E-006	-0.409467	9
	48	99	398.209	193.842	-140.18	1	239.218	-35.8733	3.7656E-006	-0.409471	9
	49	101	354.821	196.011	-155.389	1	250.132	-38.4059	3.99007E-006	-0.409463	9
	50	103	316.113	198.387	-172.36	1	262.803	-40.9843	3.69793E-006	-0.409463	9
	51	105	281.926	200.921	-190.983	1	277.207	-43.5474	3.65399E-006	-0.409461	9
	52	107	251.185	203.721	-211.946	1	293.978	-46.1336	3.5791E-006	-0.409464	9
	53	109	223.946	206.756	-235.162	1	313.128	-48.6778	3.7029E-006	-0.409464	9
	54	111	199.495	210.072	-261.09	1	335.109	-51.1799	3.34445E-006	-0.409467	9
	55	113	177.836	213.66	-289.883	1	360.115	-53.6077	3.30113E-006	-0.409464	9
	56	115	158.533	217.806	-322.019	1	388.762	-55.9266	3.62693E-006	-0.409459	9
	57	117	141.263	222.159	-357.826	1	421.182	-58.1656	3.56846E-006	-0.409458	9
	58	119	125.911	227.031	-397.708	1	457.947	-60.2802	3.40052E-006	-0.409462	9
	59	121	112.198	232.074	-442.172	1	499.374	-62.3072	2.59448E-006	-0.409466	9
	60	123	100.009	238.103	-491.619	1	546.244	-64.158	2.67745E-006	-0.409467	9
	61	125	89.1164	245.455	-546.878	1	599.437	-65.828	3.31594E-006	-0.40947	9
	62	127	79.4083	253.527	-608.781	1	659.462	-67.3907	3.68808E-006	-0.40947	9
	63	129	70.788	262.936	-677.394	1	726.635	-68.7859	3.69657E-006	-0.409471	9
	64	131	63.0971	272.246	-753.698	1	801.36	-70.1396	3.62196E-006	-0.409471	9
	65	133	54.5476	286.979	-862.902	1	909.371	-71.6042	3.597E-006	-0.409472	9
	66	135	50.0083	296.89	-935.042	1	981.04	-72.3846	3.56294E-006	-0.409474	9
	67	138	46.1675	305.689	-1007.45	1	1052.81	-73.1208	3.33649E-006	-0.409476	9
	68	140	40.0059	326.114	-1151.29	1	1196.58	-74.1847	2.71028E-006	-0.409471	8
	69	142	35.3046	347.292	-1292.29	1	1338.14	-74.9576	2.64474E-006	-0.40947	8
	70	144	31.5793	368.542	-1432.73	1	1479.38	-75.5745	2.65318E-006	-0.409472	8
	71	146	28.5748	390.182	-1573.25	1	1620.91	-76.0711	2.64549E-006	-0.409475	8
	72	148	24.9911	426.073	-1786.13	1	1836.25	-76.5831	2.55127E-006	-0.409477	8
	73	150	22.2195	458.268	-1988.35	1	2040.48	-77.0213	2.43246E-006	-0.40947	8
	74	153	20.0011	498.615	-2193.33	1	2249.29	-77.1925	2.45354E-006	-0.409471	8
	75	155	17.6486	555.885	-2462.24	1	2524.21	-77.278	2.76E-006	-0.409473	8
	76	158	15.7934	621.044	-2733.72	1	2803.38	-77.2009	2.75957E-006	-0.409475	8
	77	160	14.2828	671.807	-2992.55	1	3067.03	-77.3473	2.79814E-006	-0.40947	8
	78	162	12.5002	779.109	-3380.57	1	3469.19	-77.0218	2.62227E-006	-0.409477	8
	79	164	11.323	872.03	-3705.78	1	3807	-76.7583	2.71119E-006	-0.409484	8
	80	167	9.9987	982.82	-4142.21	1	4257.21	-76.6523	2.85345E-006	-0.40948	8
