EXPLAIN
TAG	EISPOT
TITLE	LABEL	Tomato_open	Test &Identifier
DATE	LABEL	5/14/2006	Date
TIME	LABEL	14:22:18	Time
NOTES	NOTES	1	&Notes...
	
PSTAT	PSTAT	300	Potentiostat
VDC	POTEN	1.00000E-001	T	DC &Voltage (V)
FREQINIT	QUANT	1.00000E+005	Initial Fre&q. (Hz)
FREQFINAL	QUANT	1.00000E+001	Final Fre&q. (Hz)
PTSPERDEC	QUANT	2.00000E+001	Points/&decade
VAC	QUANT	1.00000E+001	AC &Voltage (mV rms)
AREA	QUANT	1.00000E+000	&Area (cm²)
DENSITY	QUANT	7.87000E+000	&Density (gm/cm³)
EQUIV	QUANT	7.00000E+000	Equiv. &Wt
CONDIT	TWOPARAM	F	1.50000E+001	0.00000E+000	Conditionin&g	Time(s)	E(V)
DELAY	TWOPARAM	F	6.00000E+002	0.00000E+000	Init. De&lay	Time(s)	Stab.(mV/s)
SPEED	SELECTOR	1	&Optimize for:
ZGUESS	QUANT	1.00000E+002	E&stimated Z (ohms)
OCVCURVE	TABLE	39
	Pt	T	Vf	Vm	Ach	Over
	#	s	V vs. Ref.	V	V	bits
	0	0.258332	-4.19619E-001	4.44076E-006	-6.34000E-005	......
	1	0.516663	-4.19669E-001	4.44076E-006	2.36600E-004	......
	2	0.774994	-4.19869E-001	4.44076E-006	3.66000E-005	......
	3	1.03333	-4.20469E-001	4.44076E-006	3.66000E-005	......
	4	1.29166	-4.23269E-001	4.44076E-006	-1.63400E-004	......
	5	1.54999	-4.22369E-001	4.44076E-006	2.36600E-004	......
	6	1.80832	-4.22619E-001	4.44076E-006	-1.63400E-004	......
	7	2.06665	-4.21970E-001	4.44076E-006	3.66000E-005	......
	8	2.32498	-4.21620E-001	4.44076E-006	-6.34000E-005	......
	9	2.58332	-4.20969E-001	4.44076E-006	3.66000E-005	......
	10	2.84165	-4.20669E-001	4.44076E-006	-1.63400E-004	......
	11	3.09998	-4.20369E-001	4.44076E-006	3.66000E-005	......
	12	3.35831	-4.21319E-001	4.44076E-006	-1.63400E-004	......
	13	3.61664	-4.22319E-001	4.44076E-006	3.66000E-005	......
	14	3.87497	-4.23570E-001	4.44076E-006	-1.63400E-004	......
	15	4.1333	-4.25370E-001	4.44076E-006	3.66000E-005	......
	16	4.39164	-4.25819E-001	4.44076E-006	-1.63400E-004	......
	17	4.64997	-4.22670E-001	4.44076E-006	3.66000E-005	......
	18	4.9083	-4.22320E-001	4.44076E-006	-1.63400E-004	......
	19	5.16663	-4.22169E-001	4.44076E-006	-6.34000E-005	......
	20	5.42496	-4.22870E-001	4.44076E-006	-1.63400E-004	......
	21	5.68329	-4.24369E-001	4.44076E-006	1.36600E-004	......
	22	5.94162	-4.25619E-001	4.44076E-006	-1.63400E-004	......
	23	6.19996	-4.26519E-001	4.44076E-006	3.66000E-005	......
	24	6.45829	-4.29969E-001	4.44076E-006	-1.63400E-004	......
	25	6.71662	-4.32469E-001	4.44076E-006	3.66000E-005	......
	26	6.97495	-4.34869E-001	4.44076E-006	-6.34000E-005	......
	27	7.23328	-4.35819E-001	4.44076E-006	3.66000E-005	......
	28	7.49161	-4.36269E-001	4.44076E-006	-6.34000E-005	......
	29	7.74995	-4.36769E-001	4.44076E-006	3.66000E-005	......
	30	8.00828	-4.31269E-001	4.44076E-006	-1.63400E-004	......
	31	8.26661	-4.29119E-001	4.44076E-006	3.66000E-005	......
	32	8.52494	-4.27869E-001	4.44076E-006	3.66000E-005	......
	33	8.78327	-4.28269E-001	4.44076E-006	-6.34000E-005	......
	34	9.0416	-4.28769E-001	4.44076E-006	-1.63400E-004	......
	35	9.29993	-4.28669E-001	4.44076E-006	3.66000E-005	......
	36	9.5583	-4.29069E-001	4.44076E-006	-1.63400E-004	......
	37	9.8166	-4.32319E-001	4.44076E-006	3.66000E-005	......
	38	10.0749	-4.34019E-001	4.44076E-006	-1.63400E-004	......
EOC	QUANT	-0.434019	Open Circuit (V)
PSTATMODEL	IQUANT	32	Pstat Model
PSTATSECTION	LABEL	PStat0	Pstat Section
CTRLMODE	IQUANT	1	Control Mode
IESTAB	IQUANT	0	I/E Stability
CASPEED	IQUANT	1	Control Amp Speed
CONVENTION	IQUANT	1	Current Convention
ICHRANGE	IQUANT	2	Ich Range
ICHRANGEMODE	TOGGLE	F	Ich Auto Range
ICHOFFSETENABLE	TOGGLE	T	Ich Offset Enable
ICHOFFSET	QUANT	0	Ich Offset (V)
ICHFILTER	IQUANT	3	Ich Filter
VCHRANGE	IQUANT	2	Vch Range
VCHRANGEMODE	TOGGLE	F	Vch Auto Range
VCHOFFSETENABLE	TOGGLE	T	Vch Offset Enable
VCHOFFSET	QUANT	0	Vch Offset (V)
VCHFILTER	IQUANT	3	Vch Filter
ACHRANGE	IQUANT	0	Ach Range
IERANGELOWERLIMIT	IQUANT	3	I/E Range Lower Limit
IERANGEMODE	TOGGLE	F	I/E AutoRange
IERANGE	IQUANT	11	I/E Range
POSFEEDENABLE	TOGGLE	F	Positive Feedback IR Comp
POSFEEDRESISTANCE	QUANT	0	Positive Feedback Resistance (ohm)
FC350IDIVISOR	IQUANT	0	FC350 I Divisor
FC350VRANGE	IQUANT	0	FC350 V Range
FRAMEWORKVERSION	QUANT	4.35	Framework Version
ZCURVE	TABLE
	Pt	Time	Freq	Zreal	Zimag	Zsig	Zmod	Zphz	Idc	Vdc	IERange
	#	s	Hz	ohm	ohm	V	ohm	°	A	V	#
	0	4	100007	141.276	-0.338014	1	141.276	-0.137084	2.80293E-006	-0.334045	9
	1	6	89134.1	140.669	-0.793022	1	140.671	-0.323001	3.53867E-006	-0.334039	9
	2	8	79433.6	140.212	-1.15989	1	140.217	-0.473963	3.96929E-006	-0.334056	9
	3	10	70800.8	139.976	-1.54845	1	139.985	-0.633791	3.62224E-006	-0.334035	9
	4	12	63105.5	139.802	-1.61039	1	139.811	-0.659966	3.63842E-006	-0.334051	9
	5	14	56243.5	139.688	-1.8402	1	139.701	-0.75475	3.57373E-006	-0.334047	9
	6	16	50123.7	139.452	-2.29561	1	139.471	-0.943096	3.55181E-006	-0.33404	9
	7	18	44681	139.39	-2.65385	1	139.415	-1.09073	3.69646E-006	-0.334039	9
	8	20	39811.2	139.185	-2.92396	1	139.216	-1.20348	3.54795E-006	-0.334032	9
	9	22	35488.3	139.362	-3.36972	1	139.403	-1.38512	3.32095E-006	-0.334036	9
	10	24	31634.1	139.286	-3.67934	1	139.334	-1.51316	3.78379E-006	-0.334069	9
	11	26	28173.1	139.449	-4.0353	1	139.507	-1.65754	3.39177E-006	-0.334044	9
	12	28	25123.7	139.559	-4.60865	1	139.635	-1.89139	3.90921E-006	-0.334073	9
	13	30	22389.3	139.547	-5.1456	1	139.642	-2.11174	3.74099E-006	-0.33404	9
	14	32	19954.4	139.58	-5.64266	1	139.694	-2.31498	3.6134E-006	-0.334037	9
	15	34	17778.2	140.104	-6.00761	1	140.233	-2.45532	3.31723E-006	-0.334037	9
	16	36	15852.9	139.655	-6.64328	1	139.813	-2.72346	3.4089E-006	-0.334064	9
	17	38	14122.3	140.2	-7.51597	1	140.401	-3.06863	3.33918E-006	-0.334044	9
	18	40	12587.2	140.333	-8.01101	1	140.562	-3.26722	3.29265E-006	-0.334032	9
	19	42	11221.1	140.634	-8.97406	1	140.92	-3.65118	3.20498E-006	-0.33404	9
	20	44	9998.2	140.886	-9.8778	1	141.232	-4.01056	3.03517E-006	-0.334035	9
	21	46	8912.76	141.042	-10.6458	1	141.444	-4.31647	3.07601E-006	-0.334027	9
	22	48	7942.6	141.36	-11.6558	1	141.84	-4.71362	2.78853E-006	-0.33404	9
	23	50	7078.05	142.034	-13.0737	1	142.634	-5.25904	2.87642E-006	-0.334035	9
	24	52	6311.1	142.095	-14.1276	1	142.795	-5.67792	3.49092E-006	-0.334046	9
	25	54	5622.14	142.242	-15.4021	1	143.073	-6.17995	2.9036E-006	-0.334057	9
	26	56	5011.18	142.711	-17.1432	1	143.737	-6.84985	3.04084E-006	-0.33404	9
	27	58	4465.21	142.941	-18.8704	1	144.181	-7.52041	2.29903E-006	-0.334038	9
	28	60	3980.93	143.52	-20.3932	1	144.962	-8.08719	2.54704E-006	-0.334066	9
	29	62	3548.18	144.008	-22.4791	1	145.752	-8.87209	2.8606E-006	-0.33404	9
	30	64	3162.67	144.436	-24.679	1	146.529	-9.6962	3.25656E-006	-0.33403	9
	31	66	2819.01	144.992	-27.3014	1	147.54	-10.6637	2.97453E-006	-0.334068	9
	32	68	2511.16	145.608	-30.0049	1	148.668	-11.6437	3.03973E-006	-0.334037	9
	33	70	2238.63	146.058	-33.2584	1	149.797	-12.8279	3.54693E-006	-0.33405	9
	34	72	1995.37	146.797	-36.3663	1	151.235	-13.9139	3.92598E-006	-0.334045	9
	35	74	1778.51	147.509	-40.1034	1	152.863	-15.2094	3.31867E-006	-0.33405	9
	36	76	1584.49	148.634	-44.4454	1	155.137	-16.648	2.53831E-006	-0.334034	9
	37	78	1412.76	149.364	-48.9956	1	157.195	-18.1609	2.51732E-006	-0.334059	9
	38	80	1259.04	150.373	-53.9896	1	159.771	-19.7501	2.03642E-006	-0.334039	9
	39	82	1121.63	151.11	-59.5421	1	162.418	-21.506	2.04934E-006	-0.334039	9
	40	84	999.95	152.574	-65.8068	1	166.161	-23.3311	2.08582E-006	-0.334037	9
	41	86	891.184	153.508	-72.7484	1	169.874	-25.3565	1.91467E-006	-0.334042	9
	42	88	794.163	154.799	-80.44	1	174.452	-27.4582	2.74935E-006	-0.334036	9
	43	90	707.867	156.215	-88.9447	1	179.762	-29.656	3.07109E-006	-0.33406	9
	44	92	630.984	158.177	-98.836	1	186.517	-31.9988	2.87392E-006	-0.334048	9
	45	94	562.189	159.545	-108.98	1	193.213	-34.3355	2.64196E-006	-0.334023	9
	46	96	501.303	161.316	-120.576	1	201.399	-36.7763	2.51765E-006	-0.334039	9
	47	98	446.614	163.235	-133.602	1	210.938	-39.2992	2.67217E-006	-0.334039	9
	48	100	398.209	165.314	-148	1	221.884	-41.837	2.63806E-006	-0.334029	9
	49	102	354.821	167.575	-164.054	1	234.511	-44.3917	2.04409E-006	-0.334032	9
	50	104	316.113	170.107	-181.948	1	249.081	-46.9264	1.89595E-006	-0.334034	9
	51	106	281.926	172.837	-201.677	1	265.605	-49.4034	1.75015E-006	-0.334035	9
	52	108	251.185	175.834	-223.789	1	284.604	-51.8428	1.63981E-006	-0.334033	9
	53	110	223.946	179.089	-248.265	1	306.118	-54.1948	1.29756E-006	-0.334023	9
	54	112	199.495	182.821	-275.742	1	330.843	-56.4551	1.51371E-006	-0.334025	9
	55	114	177.836	186.932	-306.139	1	358.699	-58.5913	1.67535E-006	-0.334022	9
	56	116	158.533	191.375	-339.836	1	390.016	-60.6145	1.74568E-006	-0.334023	9
	57	118	141.263	196.352	-377.59	1	425.592	-62.525	1.51063E-006	-0.334023	9
	58	120	125.911	201.947	-419.444	1	465.527	-64.2909	1.80653E-006	-0.334029	9
	59	122	112.198	208.412	-466.282	1	510.739	-65.917	1.83099E-006	-0.334028	9
	60	124	100.009	215.95	-518.167	1	561.366	-67.3757	2.17425E-006	-0.33404	9
	61	127	89.1164	224.193	-576.196	1	618.275	-68.7394	2.38809E-006	-0.334037	9
	62	129	79.4083	233.505	-640.387	1	681.631	-69.9666	2.8563E-006	-0.334042	9
	63	131	70.788	245.004	-711.73	1	752.719	-71.0046	3.21241E-006	-0.334041	9
	64	133	63.0971	256.186	-791.018	1	831.469	-72.0545	2.68505E-006	-0.334038	9
	65	135	54.5476	273.754	-904.28	1	944.808	-73.1573	2.97891E-006	-0.334042	9
	66	137	50.0083	286.071	-979.77	1	1020.68	-73.7234	2.54752E-006	-0.334041	9
	67	139	46.1675	295.824	-1053.71	1	1094.45	-74.3181	1.71498E-006	-0.334039	8
	68	141	40.0059	318.395	-1202.67	1	1244.1	-75.1716	1.88027E-006	-0.334031	8
	69	143	35.3046	347.73	-1348.05	1	1392.17	-75.5358	2.30301E-006	-0.334042	8
	70	146	31.5793	373.727	-1492.79	1	1538.86	-75.9447	2.07347E-006	-0.334041	8
	71	148	28.5748	400.742	-1633.85	1	1682.28	-76.2189	2.26603E-006	-0.334037	8
	72	150	24.9911	439.277	-1846.89	1	1898.41	-76.6209	1.88134E-006	-0.334049	8
	73	152	22.2195	470.344	-2063.53	1	2116.45	-77.1598	1.39196E-006	-0.33404	8
	74	155	20.0011	520.593	-2268.64	1	2327.61	-77.0759	1.757E-006	-0.334039	8
	75	157	17.6486	576.557	-2553.31	1	2617.6	-77.2756	1.7921E-006	-0.334038	8
	76	159	15.7934	657.979	-2812.23	1	2888.18	-76.8314	1.96129E-006	-0.334044	8
	77	162	14.2828	688.241	-3081.68	1	3157.6	-77.4105	1.8601E-006	-0.334034	8
	78	164	12.5002	816.165	-3492.06	1	3586.17	-76.845	2.04891E-006	-0.334041	8
	79	167	11.323	923.381	-3790.02	1	3900.88	-76.3075	1.98685E-006	-0.334051	8
	80	170	9.9987	1052.76	-4215.33	1	4344.8	-75.9775	1.76467E-006	-0.334044	8
