EXPLAIN
TAG	EISPOT
TITLE	LABEL	Tomato_open	Test &Identifier
DATE	LABEL	5/14/2006	Date
TIME	LABEL	14:18:10	Time
NOTES	NOTES	1	&Notes...
	
PSTAT	PSTAT	300	Potentiostat
VDC	POTEN	1.00000E-001	T	DC &Voltage (V)
FREQINIT	QUANT	1.00000E+005	Initial Fre&q. (Hz)
FREQFINAL	QUANT	1.00000E+001	Final Fre&q. (Hz)
PTSPERDEC	QUANT	2.00000E+001	Points/&decade
VAC	QUANT	1.00000E+001	AC &Voltage (mV rms)
AREA	QUANT	1.00000E+000	&Area (cm²)
DENSITY	QUANT	7.87000E+000	&Density (gm/cm³)
EQUIV	QUANT	7.00000E+000	Equiv. &Wt
CONDIT	TWOPARAM	F	1.50000E+001	0.00000E+000	Conditionin&g	Time(s)	E(V)
DELAY	TWOPARAM	F	6.00000E+002	0.00000E+000	Init. De&lay	Time(s)	Stab.(mV/s)
SPEED	SELECTOR	1	&Optimize for:
ZGUESS	QUANT	1.00000E+002	E&stimated Z (ohms)
OCVCURVE	TABLE	39
	Pt	T	Vf	Vm	Ach	Over
	#	s	V vs. Ref.	V	V	bits
	0	0.258332	-4.46969E-001	4.32577E-006	-6.34000E-005	......
	1	0.516663	-4.47019E-001	4.32577E-006	3.66000E-005	......
	2	0.774994	-4.47569E-001	4.32577E-006	-1.63400E-004	......
	3	1.03333	-4.48569E-001	4.32577E-006	3.66000E-005	......
	4	1.29166	-4.49369E-001	4.32577E-006	-1.63400E-004	......
	5	1.54999	-4.46319E-001	4.32577E-006	-6.34000E-005	......
	6	1.80832	-4.40969E-001	4.32577E-006	-1.63400E-004	......
	7	2.06665	-4.38919E-001	4.32577E-006	3.66000E-005	......
	8	2.32498	-4.40270E-001	4.32577E-006	-1.63400E-004	......
	9	2.58332	-4.39969E-001	4.32577E-006	2.36600E-004	......
	10	2.84165	-4.41170E-001	4.32577E-006	-1.63400E-004	......
	11	3.09998	-4.42119E-001	4.32577E-006	3.66000E-005	......
	12	3.35831	-4.43269E-001	4.32577E-006	-6.34000E-005	......
	13	3.61664	-4.44669E-001	4.32577E-006	3.66000E-005	......
	14	3.87497	-4.45619E-001	4.32577E-006	-6.34000E-005	......
	15	4.1333	-4.45869E-001	4.32577E-006	3.66000E-005	......
	16	4.39164	-4.46819E-001	4.32577E-006	-1.63400E-004	......
	17	4.64997	-4.47169E-001	4.32577E-006	3.66000E-005	......
	18	4.9083	-4.47120E-001	4.32577E-006	-1.63400E-004	......
	19	5.16663	-4.46519E-001	4.32577E-006	3.66000E-005	......
	20	5.42496	-4.46369E-001	4.32577E-006	-6.34000E-005	......
	21	5.68329	-4.46669E-001	4.32577E-006	3.66000E-005	......
	22	5.94162	-4.46769E-001	4.32577E-006	-6.34000E-005	......
	23	6.19996	-4.47169E-001	4.32577E-006	3.66000E-005	......
	24	6.45829	-4.47470E-001	4.32577E-006	-6.34000E-005	......
	25	6.71662	-4.48169E-001	4.32577E-006	1.36600E-004	......
	26	6.97495	-4.48069E-001	4.32577E-006	-1.63400E-004	......
	27	7.23328	-4.47269E-001	4.32577E-006	3.66000E-005	......
	28	7.49161	-4.48269E-001	4.32577E-006	-1.63400E-004	......
	29	7.74995	-4.48069E-001	4.32577E-006	3.66000E-005	......
	30	8.00828	-4.49419E-001	4.32577E-006	-2.63400E-004	......
	31	8.26661	-4.50069E-001	4.32577E-006	3.66000E-005	......
	32	8.52494	-4.48319E-001	4.32577E-006	-6.34000E-005	......
	33	8.78327	-4.46619E-001	4.32577E-006	3.66000E-005	......
	34	9.0416	-4.46819E-001	4.32577E-006	-2.63400E-004	......
	35	9.29993	-4.47470E-001	4.32577E-006	3.66000E-005	......
	36	9.5583	-4.47169E-001	4.32577E-006	-6.34000E-005	......
	37	9.8166	-4.47219E-001	4.32577E-006	-6.34000E-005	......
	38	10.0749	-4.47669E-001	4.32577E-006	-6.34000E-005	......
EOC	QUANT	-0.447669	Open Circuit (V)
PSTATMODEL	IQUANT	32	Pstat Model
PSTATSECTION	LABEL	PStat0	Pstat Section
CTRLMODE	IQUANT	1	Control Mode
IESTAB	IQUANT	0	I/E Stability
CASPEED	IQUANT	1	Control Amp Speed
CONVENTION	IQUANT	1	Current Convention
ICHRANGE	IQUANT	2	Ich Range
ICHRANGEMODE	TOGGLE	F	Ich Auto Range
ICHOFFSETENABLE	TOGGLE	T	Ich Offset Enable
ICHOFFSET	QUANT	0	Ich Offset (V)
ICHFILTER	IQUANT	3	Ich Filter
VCHRANGE	IQUANT	2	Vch Range
VCHRANGEMODE	TOGGLE	F	Vch Auto Range
VCHOFFSETENABLE	TOGGLE	T	Vch Offset Enable
VCHOFFSET	QUANT	0	Vch Offset (V)
VCHFILTER	IQUANT	3	Vch Filter
ACHRANGE	IQUANT	0	Ach Range
IERANGELOWERLIMIT	IQUANT	3	I/E Range Lower Limit
IERANGEMODE	TOGGLE	F	I/E AutoRange
IERANGE	IQUANT	11	I/E Range
POSFEEDENABLE	TOGGLE	F	Positive Feedback IR Comp
POSFEEDRESISTANCE	QUANT	0	Positive Feedback Resistance (ohm)
FC350IDIVISOR	IQUANT	0	FC350 I Divisor
FC350VRANGE	IQUANT	0	FC350 V Range
FRAMEWORKVERSION	QUANT	4.35	Framework Version
ZCURVE	TABLE
	Pt	Time	Freq	Zreal	Zimag	Zsig	Zmod	Zphz	Idc	Vdc	IERange
	#	s	Hz	ohm	ohm	V	ohm	°	A	V	#
	0	4	100007	147.943	-0.472851	1	147.944	-0.183126	3.94734E-006	-0.347625	9
	1	6	89134.1	147.08	-0.616731	1	147.081	-0.24025	3.81488E-006	-0.347665	9
	2	8	79433.6	146.382	-0.781079	1	146.384	-0.305722	4.07692E-006	-0.347673	9
	3	10	70800.8	146.078	-1.14092	1	146.082	-0.447493	3.83176E-006	-0.34765	9
	4	12	63105.5	145.934	-1.52976	1	145.942	-0.600583	4.52195E-006	-0.347641	9
	5	14	56243.5	145.893	-1.9771	1	145.907	-0.776406	4.08646E-006	-0.347631	9
	6	16	50123.7	145.527	-2.3758	1	145.546	-0.935299	4.91521E-006	-0.347669	9
	7	18	44681	145.331	-2.58756	1	145.354	-1.02002	4.24698E-006	-0.347651	9
	8	20	39811.2	145.429	-2.93559	1	145.459	-1.1564	4.52928E-006	-0.347671	9
	9	22	35488.3	145.444	-3.31059	1	145.482	-1.30394	4.26188E-006	-0.347678	9
	10	24	31634.1	145.475	-3.57563	1	145.519	-1.40799	3.83506E-006	-0.34765	9
	11	26	28173.1	145.389	-4.13563	1	145.447	-1.62936	4.08288E-006	-0.347655	9
	12	28	25123.7	145.375	-4.65792	1	145.45	-1.83517	4.39603E-006	-0.347676	9
	13	30	22389.3	145.56	-4.95251	1	145.644	-1.94867	4.04054E-006	-0.347642	9
	14	32	19954.4	145.574	-5.74085	1	145.687	-2.25834	3.99921E-006	-0.347685	9
	15	34	17778.2	145.506	-6.47861	1	145.65	-2.54939	3.78899E-006	-0.347672	9
	16	36	15852.9	145.683	-6.8132	1	145.843	-2.67761	3.81307E-006	-0.347679	9
	17	38	14122.3	145.92	-7.56899	1	146.116	-2.96932	3.28392E-006	-0.347653	9
	18	40	12587.2	146.287	-8.08705	1	146.511	-3.1642	3.40515E-006	-0.347658	9
	19	42	11221.1	146.358	-8.82618	1	146.624	-3.45106	3.27495E-006	-0.347656	9
	20	44	9998.2	146.413	-9.9443	1	146.75	-3.88554	3.71696E-006	-0.347652	9
	21	46	8912.76	146.854	-10.6553	1	147.24	-4.14995	3.87764E-006	-0.347638	9
	22	48	7942.6	147.101	-11.7976	1	147.573	-4.58534	3.73254E-006	-0.347648	9
	23	50	7078.05	147.325	-12.8376	1	147.883	-4.98006	4.21579E-006	-0.347658	9
	24	52	6311.1	147.697	-14.1192	1	148.37	-5.46065	3.87185E-006	-0.347655	9
	25	54	5622.14	147.776	-15.4408	1	148.581	-5.96504	3.81909E-006	-0.347657	9
	26	56	5011.18	148.147	-17.1536	1	149.137	-6.60474	3.39396E-006	-0.347658	9
	27	58	4465.21	148.471	-18.6774	1	149.642	-7.17002	3.32717E-006	-0.347664	9
	28	60	3980.93	149.059	-20.6227	1	150.479	-7.87701	3.37529E-006	-0.34765	9
	29	62	3548.18	149.238	-22.446	1	150.917	-8.55341	3.48604E-006	-0.347678	9
	30	64	3162.67	149.993	-24.8978	1	152.046	-9.42474	3.56042E-006	-0.347642	9
	31	66	2819.01	150.296	-27.2027	1	152.738	-10.2591	3.41551E-006	-0.34764	9
	32	68	2511.16	150.983	-30.2135	1	153.977	-11.3161	2.72254E-006	-0.347652	9
	33	70	2238.63	151.537	-32.9644	1	155.081	-12.2725	2.59126E-006	-0.347664	9
	34	72	1995.37	152.245	-36.3948	1	156.535	-13.4445	2.6669E-006	-0.347666	9
	35	74	1778.51	152.899	-40.2741	1	158.114	-14.7567	2.50854E-006	-0.347664	9
	36	76	1584.49	153.671	-44.1981	1	159.901	-16.046	2.44907E-006	-0.347662	9
	37	78	1412.76	154.528	-48.6986	1	162.02	-17.4919	2.54399E-006	-0.347679	9
	38	80	1259.04	155.309	-53.6608	1	164.318	-19.0605	2.50781E-006	-0.347657	9
	39	82	1121.63	156.662	-59.5364	1	167.593	-20.8083	2.29646E-006	-0.347661	9
	40	84	999.95	157.537	-65.6716	1	170.677	-22.6296	2.24443E-006	-0.347671	9
	41	86	891.184	158.708	-72.7178	1	174.574	-24.6166	1.96354E-006	-0.347653	9
	42	88	794.163	160.12	-80.4838	1	179.209	-26.6863	1.7839E-006	-0.347665	9
	43	90	707.867	161.316	-89.0017	1	184.24	-28.8864	1.51515E-006	-0.347644	9
	44	92	630.984	163.125	-98.24	1	190.423	-31.058	1.82267E-006	-0.347656	9
	45	94	562.189	164.554	-108.544	1	197.129	-33.41	1.91251E-006	-0.347665	9
	46	96	501.303	166.407	-120.429	1	205.413	-35.8935	2.02023E-006	-0.347661	9
	47	98	446.614	168.33	-133.427	1	214.797	-38.402	2.1001E-006	-0.347656	9
	48	100	398.209	170.421	-147.788	1	225.576	-40.9317	2.0499E-006	-0.347664	9
	49	102	354.821	172.727	-163.817	1	238.056	-43.4834	1.91165E-006	-0.34766	9
	50	104	316.113	175.254	-181.677	1	252.429	-46.031	1.93434E-006	-0.347658	9
	51	106	281.926	177.989	-201.328	1	268.725	-48.5208	1.47128E-006	-0.34766	9
	52	108	251.185	181.057	-223.428	1	287.579	-50.98	1.60426E-006	-0.347657	9
	53	110	223.946	184.428	-247.855	1	308.943	-53.3472	1.63715E-006	-0.347653	9
	54	112	199.495	188.192	-275.208	1	333.4	-55.635	1.64049E-006	-0.34766	9
	55	114	177.836	192.346	-305.457	1	360.973	-57.8014	1.68007E-006	-0.347656	9
	56	116	158.533	196.909	-339.158	1	392.175	-59.8614	1.57557E-006	-0.347658	9
	57	118	141.263	202.128	-376.737	1	427.535	-61.7854	1.61527E-006	-0.347658	9
	58	120	125.911	207.999	-418.507	1	467.346	-63.5726	1.77601E-006	-0.347662	9
	59	123	112.198	214.544	-465.008	1	512.114	-65.2325	1.93282E-006	-0.347655	9
	60	125	100.009	221.873	-516.783	1	562.399	-66.7644	1.83122E-006	-0.347654	9
	61	127	89.1164	230.046	-574.21	1	618.577	-68.1675	1.82818E-006	-0.347665	9
	62	129	79.4083	239.27	-638.323	1	681.694	-69.4519	1.8604E-006	-0.347669	9
	63	131	70.788	249.434	-709.519	1	752.086	-70.6307	1.70506E-006	-0.347665	9
	64	133	63.0971	261.819	-788.264	1	830.608	-71.6263	1.89464E-006	-0.347672	9
	65	135	54.5476	279.337	-900.916	1	943.228	-72.7735	1.99153E-006	-0.347666	9
	66	137	50.0083	290.812	-975.59	1	1018.01	-73.4013	1.9493E-006	-0.347672	9
	67	139	46.1675	302.221	-1049.22	1	1091.88	-73.9313	1.30328E-006	-0.347676	8
	68	141	40.0059	325.925	-1197.3	1	1240.87	-74.7721	1.31889E-006	-0.347667	8
	69	144	35.3046	351.217	-1341.55	1	1386.76	-75.3293	1.21386E-006	-0.347672	8
	70	146	31.5793	375.35	-1485.95	1	1532.62	-75.8237	1.30356E-006	-0.347667	8
	71	148	28.5748	401.572	-1628.25	1	1677.03	-76.1457	1.29723E-006	-0.34767	8
	72	150	24.9911	444.24	-1841.53	1	1894.36	-76.4375	1.5125E-006	-0.347674	8
	73	152	22.2195	488.763	-2047.59	1	2105.12	-76.5746	1.52994E-006	-0.347659	8
	74	155	20.0011	529.894	-2253.57	1	2315.03	-76.7681	1.41172E-006	-0.347662	8
	75	157	17.6486	594.293	-2522.74	1	2591.8	-76.7443	1.78315E-006	-0.347654	8
	76	159	15.7934	664.725	-2794.26	1	2872.23	-76.6186	1.79539E-006	-0.347663	8
	77	162	14.2828	721.555	-3053.05	1	3137.16	-76.7028	1.57521E-006	-0.347659	8
	78	164	12.5002	801.452	-3452.17	1	3543.98	-76.9298	1.2903E-006	-0.347669	8
	79	166	11.323	886.987	-3773.15	1	3876.01	-76.7712	1.09821E-006	-0.347664	8
	80	169	9.9987	1027.23	-4223.51	1	4346.63	-76.3301	1.38053E-006	-0.347657	8
