EXPLAIN
TAG	EISPOT
TITLE	LABEL	Tomato_open	Test &Identifier
DATE	LABEL	5/14/2006	Date
TIME	LABEL	14:13:11	Time
NOTES	NOTES	1	&Notes...
	
PSTAT	PSTAT	300	Potentiostat
VDC	POTEN	1.00000E-001	T	DC &Voltage (V)
FREQINIT	QUANT	1.00000E+005	Initial Fre&q. (Hz)
FREQFINAL	QUANT	1.00000E+001	Final Fre&q. (Hz)
PTSPERDEC	QUANT	2.00000E+001	Points/&decade
VAC	QUANT	1.00000E+001	AC &Voltage (mV rms)
AREA	QUANT	1.00000E+000	&Area (cm²)
DENSITY	QUANT	7.87000E+000	&Density (gm/cm³)
EQUIV	QUANT	7.00000E+000	Equiv. &Wt
CONDIT	TWOPARAM	F	1.50000E+001	0.00000E+000	Conditionin&g	Time(s)	E(V)
DELAY	TWOPARAM	F	6.00000E+002	0.00000E+000	Init. De&lay	Time(s)	Stab.(mV/s)
SPEED	SELECTOR	1	&Optimize for:
ZGUESS	QUANT	1.00000E+002	E&stimated Z (ohms)
OCVCURVE	TABLE	39
	Pt	T	Vf	Vm	Ach	Over
	#	s	V vs. Ref.	V	V	bits
	0	0.258332	-4.90369E-001	0.00000E+000	2.36600E-004	......
	1	0.516663	-4.89469E-001	0.00000E+000	1.36600E-004	......
	2	0.774994	-4.90469E-001	0.00000E+000	1.36600E-004	......
	3	1.03333	-4.92019E-001	0.00000E+000	3.66000E-005	......
	4	1.29166	-4.95069E-001	0.00000E+000	3.36600E-004	......
	5	1.54999	-4.93120E-001	0.00000E+000	3.36600E-004	......
	6	1.80832	-4.91869E-001	0.00000E+000	2.36600E-004	......
	7	2.06665	-4.93620E-001	0.00000E+000	2.36600E-004	......
	8	2.32498	-4.89419E-001	0.00000E+000	2.36600E-004	......
	9	2.58332	-4.89619E-001	0.00000E+000	3.36600E-004	......
	10	2.84165	-4.90119E-001	0.00000E+000	1.36600E-004	......
	11	3.09998	-4.89619E-001	0.00000E+000	2.36600E-004	......
	12	3.35831	-4.88719E-001	0.00000E+000	2.36600E-004	......
	13	3.61664	-4.88569E-001	0.00000E+000	2.36600E-004	......
	14	3.87497	-4.87619E-001	0.00000E+000	2.36600E-004	......
	15	4.1333	-4.86820E-001	0.00000E+000	2.36600E-004	......
	16	4.39164	-4.86719E-001	0.00000E+000	3.36600E-004	......
	17	4.64997	-4.87219E-001	0.00000E+000	1.36600E-004	......
	18	4.9083	-4.87369E-001	0.00000E+000	1.36600E-004	......
	19	5.16663	-4.88469E-001	0.00000E+000	2.36600E-004	......
	20	5.42496	-4.89769E-001	0.00000E+000	2.36600E-004	......
	21	5.68329	-4.90619E-001	0.00000E+000	3.36600E-004	......
	22	5.94162	-4.90369E-001	0.00000E+000	2.36600E-004	......
	23	6.19996	-4.89519E-001	0.00000E+000	2.36600E-004	......
	24	6.45829	-4.88369E-001	0.00000E+000	3.66000E-005	......
	25	6.71662	-4.85669E-001	0.00000E+000	3.66000E-005	......
	26	6.97495	-4.84619E-001	0.00000E+000	2.36600E-004	......
	27	7.23328	-4.85969E-001	0.00000E+000	2.36600E-004	......
	28	7.49161	-4.86820E-001	0.00000E+000	1.36600E-004	......
	29	7.74995	-4.83569E-001	0.00000E+000	3.36600E-004	......
	30	8.00828	-4.82769E-001	0.00000E+000	2.36600E-004	......
	31	8.26661	-4.83319E-001	0.00000E+000	3.36600E-004	......
	32	8.52494	-4.84869E-001	0.00000E+000	2.36600E-004	......
	33	8.78327	-4.83869E-001	0.00000E+000	2.36600E-004	......
	34	9.0416	-4.84019E-001	0.00000E+000	2.36600E-004	......
	35	9.29993	-4.83169E-001	0.00000E+000	2.36600E-004	......
	36	9.5583	-4.81469E-001	0.00000E+000	3.36600E-004	......
	37	9.8166	-4.80569E-001	0.00000E+000	2.36600E-004	......
	38	10.0749	-4.78919E-001	0.00000E+000	2.36600E-004	......
EOC	QUANT	-0.478919	Open Circuit (V)
PSTATMODEL	IQUANT	32	Pstat Model
PSTATSECTION	LABEL	PStat0	Pstat Section
CTRLMODE	IQUANT	1	Control Mode
IESTAB	IQUANT	0	I/E Stability
CASPEED	IQUANT	1	Control Amp Speed
CONVENTION	IQUANT	1	Current Convention
ICHRANGE	IQUANT	2	Ich Range
ICHRANGEMODE	TOGGLE	F	Ich Auto Range
ICHOFFSETENABLE	TOGGLE	T	Ich Offset Enable
ICHOFFSET	QUANT	0	Ich Offset (V)
ICHFILTER	IQUANT	3	Ich Filter
VCHRANGE	IQUANT	2	Vch Range
VCHRANGEMODE	TOGGLE	F	Vch Auto Range
VCHOFFSETENABLE	TOGGLE	T	Vch Offset Enable
VCHOFFSET	QUANT	0	Vch Offset (V)
VCHFILTER	IQUANT	3	Vch Filter
ACHRANGE	IQUANT	0	Ach Range
IERANGELOWERLIMIT	IQUANT	3	I/E Range Lower Limit
IERANGEMODE	TOGGLE	F	I/E AutoRange
IERANGE	IQUANT	11	I/E Range
POSFEEDENABLE	TOGGLE	F	Positive Feedback IR Comp
POSFEEDRESISTANCE	QUANT	0	Positive Feedback Resistance (ohm)
FC350IDIVISOR	IQUANT	0	FC350 I Divisor
FC350VRANGE	IQUANT	0	FC350 V Range
FRAMEWORKVERSION	QUANT	4.35	Framework Version
ZCURVE	TABLE
	Pt	Time	Freq	Zreal	Zimag	Zsig	Zmod	Zphz	Idc	Vdc	IERange
	#	s	Hz	ohm	ohm	V	ohm	°	A	V	#
	0	4	100007	156.706	-0.14666	1	156.706	-0.053623	6.86324E-006	-0.379234	9
	1	6	89134.1	155.893	-1.0263	1	155.897	-0.377192	7.01418E-006	-0.379232	9
	2	8	79433.6	155.561	-1.06268	1	155.565	-0.391395	7.0262E-006	-0.379213	9
	3	10	70800.8	155.333	-1.31667	1	155.339	-0.485652	7.61973E-006	-0.379203	9
	4	12	63105.5	155.078	-1.76972	1	155.089	-0.653816	7.43184E-006	-0.379197	9
	5	14	56243.5	154.876	-1.93099	1	154.888	-0.714326	7.52835E-006	-0.379252	9
	6	16	50123.7	154.764	-2.29704	1	154.781	-0.850334	6.42974E-006	-0.379203	9
	7	18	44681	154.236	-2.55018	1	154.257	-0.947255	5.94957E-006	-0.379248	9
	8	20	39811.2	154.441	-3.05253	1	154.472	-1.1323	5.50635E-006	-0.379207	9
	9	22	35488.3	154.42	-3.41642	1	154.457	-1.26742	5.10828E-006	-0.379214	9
	10	24	31634.1	154.388	-4.01386	1	154.44	-1.48927	5.00876E-006	-0.379223	9
	11	26	28173.1	154.309	-4.25166	1	154.367	-1.57827	4.95362E-006	-0.379208	9
	12	28	25123.7	154.375	-4.72438	1	154.447	-1.75289	4.39592E-006	-0.379228	9
	13	29	22389.3	154.592	-5.32269	1	154.684	-1.97194	4.23637E-006	-0.379209	9
	14	31	19954.4	154.756	-5.64061	1	154.859	-2.08741	3.60393E-006	-0.379198	9
	15	33	17778.2	154.754	-6.27968	1	154.881	-2.32371	3.52854E-006	-0.379223	9
	16	35	15852.9	154.735	-6.96187	1	154.891	-2.57613	3.37979E-006	-0.379205	9
	17	37	14122.3	155.01	-7.57227	1	155.195	-2.79669	2.94031E-006	-0.379225	9
	18	39	12587.2	155.196	-8.33212	1	155.42	-3.07312	2.67063E-006	-0.379214	9
	19	41	11221.1	155.463	-8.81505	1	155.713	-3.24531	2.35145E-006	-0.379226	9
	20	43	9998.2	155.681	-9.8301	1	155.991	-3.61299	2.40384E-006	-0.379228	9
	21	45	8912.76	155.942	-10.8099	1	156.316	-3.96539	2.27526E-006	-0.379217	9
	22	47	7942.6	156.069	-11.8387	1	156.518	-4.33787	2.20218E-006	-0.379223	9
	23	49	7078.05	156.413	-13.0094	1	156.953	-4.75453	1.86846E-006	-0.379215	9
	24	51	6311.1	156.856	-14.4074	1	157.516	-5.24797	1.80851E-006	-0.379217	9
	25	53	5622.14	156.967	-15.5729	1	157.737	-5.66585	2.59846E-006	-0.379226	9
	26	55	5011.18	157.239	-17.0796	1	158.164	-6.19928	2.58309E-006	-0.379223	9
	27	57	4465.21	157.594	-18.8651	1	158.719	-6.82624	2.2597E-006	-0.379226	9
	28	59	3980.93	158.306	-20.6503	1	159.647	-7.43203	2.1902E-006	-0.379203	9
	29	61	3548.18	158.886	-22.887	1	160.526	-8.19687	1.98673E-006	-0.379207	9
	30	63	3162.67	159.262	-25.13	1	161.233	-8.96676	1.84384E-006	-0.379204	9
	31	65	2819.01	160.034	-27.5011	1	162.38	-9.7508	1.97784E-006	-0.37921	9
	32	67	2511.16	160.513	-30.4224	1	163.371	-10.7321	2.01148E-006	-0.379209	9
	33	69	2238.63	160.973	-33.4662	1	164.415	-11.7445	1.9506E-006	-0.379212	9
	34	71	1995.37	161.901	-36.582	1	165.982	-12.7324	2.05688E-006	-0.379219	9
	35	73	1778.51	162.397	-40.1998	1	167.299	-13.9035	2.13317E-006	-0.379224	9
	36	75	1584.49	163.394	-44.7784	1	169.419	-15.3258	2.15162E-006	-0.379213	9
	37	77	1412.76	164.376	-49.121	1	171.559	-16.6378	2.19321E-006	-0.379205	9
	38	79	1259.04	165.168	-54.3119	1	173.869	-18.2023	2.4734E-006	-0.379215	9
	39	81	1121.63	166.355	-59.9493	1	176.828	-19.8176	2.72293E-006	-0.379218	9
	40	83	999.95	167.606	-65.9123	1	180.1	-21.4676	2.41607E-006	-0.37921	9
	41	85	891.184	168.705	-72.9535	1	183.803	-23.3852	2.5271E-006	-0.379202	9
	42	87	794.163	170.168	-80.7531	1	188.356	-25.3867	2.36887E-006	-0.379209	9
	43	89	707.867	171.504	-89.3202	1	193.37	-27.5107	2.36228E-006	-0.379197	9
	44	91	630.984	173.269	-98.451	1	199.286	-29.605	2.4994E-006	-0.37921	9
	45	93	562.189	174.884	-108.978	1	206.06	-31.9288	2.28831E-006	-0.379233	9
	46	95	501.303	176.675	-120.466	1	213.837	-34.2882	2.15649E-006	-0.379205	9
	47	97	446.614	178.7	-133.429	1	223.018	-36.7476	2.25257E-006	-0.379205	9
	48	99	398.209	180.894	-147.713	1	233.542	-39.2341	2.59007E-006	-0.379207	9
	49	101	354.821	183.36	-163.662	1	245.777	-41.7512	3.00815E-006	-0.3792	9
	50	103	316.113	186.052	-181.382	1	259.836	-44.2719	2.72606E-006	-0.379204	9
	51	105	281.926	188.87	-200.958	1	275.783	-46.776	2.07704E-006	-0.379207	9
	52	107	251.185	192.272	-222.86	1	294.339	-49.2141	2.56848E-006	-0.379211	9
	53	109	223.946	195.958	-247.059	1	315.337	-51.5799	2.93846E-006	-0.379209	9
	54	111	199.495	199.857	-274.192	1	339.299	-53.9119	2.43224E-006	-0.379215	9
	55	113	177.836	204.625	-304.269	1	366.675	-56.0787	3.3386E-006	-0.379216	9
	56	115	158.533	209.261	-337.497	1	397.107	-58.1995	2.24006E-006	-0.379208	9
	57	117	141.263	214.77	-374.791	1	431.966	-60.1855	2.09134E-006	-0.379215	9
	58	119	125.911	221.072	-416.022	1	471.113	-62.0141	2.14424E-006	-0.37921	9
	59	122	112.198	227.864	-462.084	1	515.212	-63.7511	1.91182E-006	-0.379215	9
	60	124	100.009	235.834	-513.208	1	564.801	-65.3198	1.88371E-006	-0.379214	9
	61	126	89.1164	244.278	-570.165	1	620.29	-66.808	1.71831E-006	-0.379213	9
	62	128	79.4083	253.733	-633.169	1	682.117	-68.1623	1.49347E-006	-0.379215	9
	63	130	70.788	264.776	-703.164	1	751.362	-69.3662	1.60547E-006	-0.379207	9
	64	132	63.0971	277.831	-781.004	1	828.949	-70.4177	1.6346E-006	-0.379205	9
	65	134	54.5476	296.204	-891.999	1	939.894	-71.6303	1.53688E-006	-0.379212	9
	66	136	50.0083	307.952	-965.47	1	1013.39	-72.3091	1.41386E-006	-0.37921	9
	67	138	46.1675	322.578	-1038.02	1	1086.99	-72.7367	1.24787E-006	-0.379209	8
	68	140	40.0059	351.839	-1182.37	1	1233.61	-73.4286	1.58089E-006	-0.379211	8
	69	143	35.3046	378.04	-1325.07	1	1377.95	-74.0767	1.39535E-006	-0.379223	8
	70	145	31.5793	404.645	-1464.5	1	1519.37	-74.5544	1.40676E-006	-0.379217	8
	71	147	28.5748	430.047	-1605.68	1	1662.27	-75.0065	1.24043E-006	-0.379216	8
	72	149	24.9911	481.569	-1806.36	1	1869.45	-75.0723	1.27082E-006	-0.37922	8
	73	151	22.2195	510.747	-2020	1	2083.57	-75.8105	9.90121E-007	-0.379216	8
	74	154	20.0011	558.711	-2216.64	1	2285.97	-75.8531	7.61623E-007	-0.37922	8
	75	156	17.6486	603.722	-2475.85	1	2548.4	-76.2962	6.98935E-007	-0.379218	8
	76	158	15.7934	685.387	-2743.49	1	2827.81	-75.9733	8.5366E-007	-0.37922	8
	77	161	14.2828	766.013	-3005.27	1	3101.36	-75.7004	1.16144E-006	-0.379221	8
	78	163	12.5002	857.005	-3333.2	1	3441.61	-75.5809	1.25515E-006	-0.379217	8
	79	165	11.323	939.089	-3689.01	1	3806.66	-75.7179	1.17409E-006	-0.379221	8
	80	168	9.9987	1010.49	-4115.48	1	4237.72	-76.2048	1.09455E-006	-0.379222	8
