EXPLAIN
TAG	EISPOT
TITLE	LABEL	Tomato_open	Test &Identifier
DATE	LABEL	5/14/2006	Date
TIME	LABEL	14:32:23	Time
NOTES	NOTES	1	&Notes...
	
PSTAT	PSTAT	300	Potentiostat
VDC	POTEN	1.00000E-001	T	DC &Voltage (V)
FREQINIT	QUANT	1.00000E+005	Initial Fre&q. (Hz)
FREQFINAL	QUANT	1.00000E+001	Final Fre&q. (Hz)
PTSPERDEC	QUANT	2.00000E+001	Points/&decade
VAC	QUANT	1.00000E+001	AC &Voltage (mV rms)
AREA	QUANT	1.00000E+000	&Area (cm²)
DENSITY	QUANT	7.87000E+000	&Density (gm/cm³)
EQUIV	QUANT	7.00000E+000	Equiv. &Wt
CONDIT	TWOPARAM	F	1.50000E+001	0.00000E+000	Conditionin&g	Time(s)	E(V)
DELAY	TWOPARAM	F	6.00000E+002	0.00000E+000	Init. De&lay	Time(s)	Stab.(mV/s)
SPEED	SELECTOR	1	&Optimize for:
ZGUESS	QUANT	1.00000E+002	E&stimated Z (ohms)
OCVCURVE	TABLE	39
	Pt	T	Vf	Vm	Ach	Over
	#	s	V vs. Ref.	V	V	bits
	0	0.258332	-3.98270E-001	4.99976E-006	-1.63400E-004	......
	1	0.516663	-3.97969E-001	4.99976E-006	3.66000E-005	......
	2	0.774994	-4.00369E-001	4.99976E-006	-1.63400E-004	......
	3	1.03333	-4.01369E-001	4.99976E-006	1.36600E-004	......
	4	1.29166	-4.01619E-001	4.99976E-006	-1.63400E-004	......
	5	1.54999	-4.02519E-001	4.99976E-006	1.36600E-004	......
	6	1.80832	-4.02769E-001	4.99976E-006	-1.63400E-004	......
	7	2.06665	-4.02819E-001	4.99976E-006	3.66000E-005	......
	8	2.32498	-4.03369E-001	4.99976E-006	-6.34000E-005	......
	9	2.58332	-4.04119E-001	4.99976E-006	-6.34000E-005	......
	10	2.84165	-4.04769E-001	4.99976E-006	-1.63400E-004	......
	11	3.09998	-4.05219E-001	4.99976E-006	3.66000E-005	......
	12	3.35831	-4.05619E-001	4.99976E-006	-1.63400E-004	......
	13	3.61664	-4.06369E-001	4.99976E-006	3.66000E-005	......
	14	3.87497	-4.06469E-001	4.99976E-006	-1.63400E-004	......
	15	4.1333	-4.07469E-001	4.99976E-006	-6.34000E-005	......
	16	4.39164	-4.07469E-001	4.99976E-006	-6.34000E-005	......
	17	4.64997	-4.07469E-001	4.99976E-006	2.36600E-004	......
	18	4.9083	-4.07469E-001	4.99976E-006	-1.63400E-004	......
	19	5.16663	-4.07669E-001	4.99976E-006	3.66000E-005	......
	20	5.42496	-4.07669E-001	4.99976E-006	-6.34000E-005	......
	21	5.68329	-4.07719E-001	4.99976E-006	3.66000E-005	......
	22	5.94162	-4.08219E-001	4.99976E-006	-2.63400E-004	......
	23	6.19996	-4.08569E-001	4.99976E-006	3.66000E-005	......
	24	6.45829	-4.08869E-001	4.99976E-006	-6.34000E-005	......
	25	6.71662	-4.09269E-001	4.99976E-006	3.66000E-005	......
	26	6.97495	-4.09319E-001	4.99976E-006	-1.63400E-004	......
	27	7.23328	-4.09619E-001	4.99976E-006	3.66000E-005	......
	28	7.49161	-4.09469E-001	4.99976E-006	-6.34000E-005	......
	29	7.74995	-4.08670E-001	4.99976E-006	3.66000E-005	......
	30	8.00828	-4.06170E-001	4.99976E-006	-1.63400E-004	......
	31	8.26661	-4.04869E-001	4.99976E-006	3.66000E-005	......
	32	8.52494	-4.04269E-001	4.99976E-006	-1.63400E-004	......
	33	8.78327	-4.04069E-001	4.99976E-006	1.36600E-004	......
	34	9.0416	-4.03619E-001	4.99976E-006	-1.63400E-004	......
	35	9.29993	-4.03219E-001	4.99976E-006	3.66000E-005	......
	36	9.5583	-4.02669E-001	4.99976E-006	-1.63400E-004	......
	37	9.8166	-4.02419E-001	4.99976E-006	3.66000E-005	......
	38	10.0749	-4.03019E-001	4.99976E-006	-1.63400E-004	......
EOC	QUANT	-0.403019	Open Circuit (V)
PSTATMODEL	IQUANT	32	Pstat Model
PSTATSECTION	LABEL	PStat0	Pstat Section
CTRLMODE	IQUANT	1	Control Mode
IESTAB	IQUANT	0	I/E Stability
CASPEED	IQUANT	1	Control Amp Speed
CONVENTION	IQUANT	1	Current Convention
ICHRANGE	IQUANT	2	Ich Range
ICHRANGEMODE	TOGGLE	F	Ich Auto Range
ICHOFFSETENABLE	TOGGLE	T	Ich Offset Enable
ICHOFFSET	QUANT	0	Ich Offset (V)
ICHFILTER	IQUANT	3	Ich Filter
VCHRANGE	IQUANT	2	Vch Range
VCHRANGEMODE	TOGGLE	F	Vch Auto Range
VCHOFFSETENABLE	TOGGLE	T	Vch Offset Enable
VCHOFFSET	QUANT	0	Vch Offset (V)
VCHFILTER	IQUANT	3	Vch Filter
ACHRANGE	IQUANT	0	Ach Range
IERANGELOWERLIMIT	IQUANT	3	I/E Range Lower Limit
IERANGEMODE	TOGGLE	F	I/E AutoRange
IERANGE	IQUANT	11	I/E Range
POSFEEDENABLE	TOGGLE	F	Positive Feedback IR Comp
POSFEEDRESISTANCE	QUANT	0	Positive Feedback Resistance (ohm)
FC350IDIVISOR	IQUANT	0	FC350 I Divisor
FC350VRANGE	IQUANT	0	FC350 V Range
FRAMEWORKVERSION	QUANT	4.35	Framework Version
ZCURVE	TABLE
	Pt	Time	Freq	Zreal	Zimag	Zsig	Zmod	Zphz	Idc	Vdc	IERange
	#	s	Hz	ohm	ohm	V	ohm	°	A	V	#
	0	4	100007	135.32	-0.4118	1	135.32	-0.17436	2.01714E-006	-0.302842	9
	1	6	89134.1	134.41	-0.695063	1	134.411	-0.296287	2.10853E-006	-0.302828	9
	2	8	79433.6	134.238	-1.2312	1	134.244	-0.525486	2.34524E-006	-0.302866	9
	3	10	70800.8	133.806	-1.30542	1	133.812	-0.558964	2.37112E-006	-0.302832	9
	4	12	63105.5	133.666	-1.48256	1	133.675	-0.635471	2.87871E-006	-0.302869	9
	5	14	56243.5	133.655	-1.82001	1	133.667	-0.780165	3.07193E-006	-0.302851	9
	6	16	50123.7	133.506	-2.21232	1	133.524	-0.949359	2.69676E-006	-0.302828	9
	7	18	44681	133.555	-2.54231	1	133.579	-1.09053	2.94463E-006	-0.302839	9
	8	20	39811.2	133.31	-2.94107	1	133.343	-1.26385	3.12132E-006	-0.302847	9
	9	22	35488.3	133.487	-3.23991	1	133.526	-1.39038	3.18345E-006	-0.302849	9
	10	24	31634.1	133.454	-3.67377	1	133.505	-1.57686	3.46129E-006	-0.302866	9
	11	26	28173.1	133.607	-3.99239	1	133.667	-1.71157	3.41348E-006	-0.30285	9
	12	28	25123.7	133.791	-4.59349	1	133.87	-1.96638	3.34412E-006	-0.302845	9
	13	30	22389.3	133.838	-5.0845	1	133.934	-2.17562	3.2429E-006	-0.30282	9
	14	32	19954.4	133.852	-5.43986	1	133.962	-2.32727	3.55048E-006	-0.302854	9
	15	34	17778.2	134.085	-6.15768	1	134.227	-2.62938	3.2227E-006	-0.302845	9
	16	36	15852.9	134.257	-6.69518	1	134.424	-2.85488	3.43268E-006	-0.302866	9
	17	38	14122.3	134.393	-7.48569	1	134.601	-3.18808	3.22707E-006	-0.30284	9
	18	40	12587.2	134.698	-8.08725	1	134.941	-3.43589	3.26115E-006	-0.302853	9
	19	42	11221.1	134.886	-8.86248	1	135.177	-3.75913	3.3567E-006	-0.302845	9
	20	44	9998.2	135.054	-9.8201	1	135.411	-4.1588	3.50507E-006	-0.302843	9
	21	46	8912.76	135.378	-10.543	1	135.788	-4.45312	3.40381E-006	-0.30284	9
	22	48	7942.6	135.772	-11.7409	1	136.279	-4.94239	3.40429E-006	-0.302849	9
	23	50	7078.05	136.005	-12.7326	1	136.6	-5.34836	3.13599E-006	-0.302857	9
	24	52	6311.1	136.216	-14.0476	1	136.939	-5.88793	3.60678E-006	-0.302849	9
	25	54	5622.14	136.574	-15.3117	1	137.43	-6.39686	3.20265E-006	-0.302852	9
	26	56	5011.18	137.011	-16.9615	1	138.057	-7.0571	3.17803E-006	-0.30284	9
	27	58	4465.21	137.398	-18.7914	1	138.677	-7.78784	3.15518E-006	-0.302843	9
	28	60	3980.93	138.004	-20.7048	1	139.549	-8.53246	2.70118E-006	-0.30283	9
	29	62	3548.18	138.375	-22.5421	1	140.199	-9.25258	2.86424E-006	-0.302828	9
	30	63	3162.67	138.825	-24.6981	1	141.005	-10.0878	2.77367E-006	-0.30283	9
	31	65	2819.01	139.545	-27.1535	1	142.163	-11.0113	3.02406E-006	-0.30284	9
	32	67	2511.16	140.018	-30.0939	1	143.216	-12.13	3.24612E-006	-0.302844	9
	33	69	2238.63	140.529	-32.917	1	144.333	-13.183	3.35649E-006	-0.302837	9
	34	71	1995.37	141.347	-36.4602	1	145.974	-14.464	3.46518E-006	-0.302828	9
	35	73	1778.51	142.173	-40.3114	1	147.778	-15.83	3.48184E-006	-0.302844	9
	36	75	1584.49	143.058	-44.3935	1	149.788	-17.2401	3.38843E-006	-0.30284	9
	37	77	1412.76	143.798	-49.1177	1	151.955	-18.8588	3.32318E-006	-0.302835	9
	38	79	1259.04	145.055	-53.9922	1	154.778	-20.4162	3.6501E-006	-0.302845	9
	39	81	1121.63	145.988	-59.4587	1	157.632	-22.1604	3.60548E-006	-0.302846	9
	40	83	999.95	146.687	-65.7076	1	160.731	-24.1297	3.73471E-006	-0.302847	9
	41	85	891.184	148.055	-72.4734	1	164.841	-26.082	3.5979E-006	-0.302835	9
	42	87	794.163	149.562	-80.3649	1	169.786	-28.2506	3.60823E-006	-0.302844	9
	43	89	707.867	150.965	-89.1048	1	175.3	-30.5505	3.52637E-006	-0.302834	9
	44	91	630.984	152.307	-98.598	1	181.436	-32.9177	3.43371E-006	-0.30284	9
	45	93	562.189	153.942	-109.193	1	188.736	-35.3484	3.18393E-006	-0.302834	9
	46	95	501.303	155.943	-120.734	1	197.218	-37.7476	3.50431E-006	-0.30284	9
	47	97	446.614	157.848	-133.798	1	206.925	-40.2859	3.52137E-006	-0.302841	9
	48	99	398.209	159.902	-148.195	1	218.015	-42.8239	3.25692E-006	-0.302837	9
	49	101	354.821	162.185	-164.312	1	230.873	-45.3732	3.19302E-006	-0.302841	9
	50	103	316.113	164.702	-182.249	1	245.645	-47.8953	3.29427E-006	-0.302844	9
	51	105	281.926	167.387	-202.01	1	262.348	-50.3546	3.19046E-006	-0.302836	9
	52	107	251.185	170.367	-224.201	1	281.586	-52.7693	3.02018E-006	-0.302838	9
	53	109	223.946	173.723	-248.785	1	303.436	-55.0739	3.33271E-006	-0.302846	9
	54	111	199.495	177.246	-276.285	1	328.252	-57.3185	3.01543E-006	-0.302843	9
	55	113	177.836	181.23	-306.748	1	356.284	-59.4249	2.91152E-006	-0.302848	9
	56	115	158.533	185.484	-340.658	1	387.882	-61.4323	2.73546E-006	-0.302842	9
	57	117	141.263	190.255	-378.634	1	423.746	-63.3215	2.5384E-006	-0.302848	9
	58	119	125.911	195.411	-420.805	1	463.964	-65.0911	2.13327E-006	-0.302843	9
	59	121	112.198	201.266	-467.83	1	509.287	-66.722	2.06862E-006	-0.302838	9
	60	123	100.009	208.34	-520.191	1	560.36	-68.1736	2.34588E-006	-0.302846	9
	61	125	89.1164	215.39	-578.572	1	617.365	-69.5808	2.21286E-006	-0.302845	9
	62	127	79.4083	224.55	-643.467	1	681.522	-70.7626	2.50242E-006	-0.302851	9
	63	130	70.788	234.792	-714.941	1	752.508	-71.8194	2.73075E-006	-0.302847	9
	64	132	63.0971	244.968	-795.944	1	832.788	-72.8932	2.54664E-006	-0.302851	9
	65	134	54.5476	259.065	-910.569	1	946.706	-74.1185	2.35284E-006	-0.302847	9
	66	136	50.0083	272.946	-985.82	1	1022.91	-74.5241	2.88557E-006	-0.302847	9
	67	138	46.1675	281.907	-1061.83	1	1098.61	-75.1314	2.07725E-006	-0.302853	8
	68	140	40.0059	305.544	-1211.85	1	1249.78	-75.8489	2.05435E-006	-0.302855	8
	69	142	35.3046	329.217	-1361.73	1	1400.96	-76.4088	2.27826E-006	-0.302849	8
	70	144	31.5793	355.257	-1506.17	1	1547.5	-76.7283	2.491E-006	-0.302842	8
	71	146	28.5748	384.97	-1650.66	1	1694.96	-76.8721	2.76406E-006	-0.302844	8
	72	148	24.9911	426.782	-1868.38	1	1916.5	-77.133	2.97031E-006	-0.302851	8
	73	151	22.2195	472.048	-2081.04	1	2133.9	-77.2197	3.12385E-006	-0.302836	8
	74	153	20.0011	506.638	-2294.83	1	2350.09	-77.5503	2.90399E-006	-0.302845	8
	75	156	17.6486	550.349	-2562.78	1	2621.2	-77.88	2.61188E-006	-0.302849	8
	76	158	15.7934	609.328	-2846.65	1	2911.13	-77.9181	2.47437E-006	-0.302849	8
	77	160	14.2828	685.887	-3114.19	1	3188.83	-77.5791	2.52792E-006	-0.30284	8
	78	162	12.5002	769.388	-3518.83	1	3601.96	-77.6664	2.47163E-006	-0.302845	8
	79	165	11.323	861.053	-3868.14	1	3962.82	-77.4505	2.48616E-006	-0.302846	8
	80	167	9.9987	994.77	-4306	1	4419.42	-76.9917	2.59449E-006	-0.30285	8
