EXPLAIN
TAG	EISPOT
TITLE	LABEL	Tomato_open	Test &Identifier
DATE	LABEL	5/14/2006	Date
TIME	LABEL	14:27:23	Time
NOTES	NOTES	1	&Notes...
	
PSTAT	PSTAT	300	Potentiostat
VDC	POTEN	1.00000E-001	T	DC &Voltage (V)
FREQINIT	QUANT	1.00000E+005	Initial Fre&q. (Hz)
FREQFINAL	QUANT	1.00000E+001	Final Fre&q. (Hz)
PTSPERDEC	QUANT	2.00000E+001	Points/&decade
VAC	QUANT	1.00000E+001	AC &Voltage (mV rms)
AREA	QUANT	1.00000E+000	&Area (cm²)
DENSITY	QUANT	7.87000E+000	&Density (gm/cm³)
EQUIV	QUANT	7.00000E+000	Equiv. &Wt
CONDIT	TWOPARAM	F	1.50000E+001	0.00000E+000	Conditionin&g	Time(s)	E(V)
DELAY	TWOPARAM	F	6.00000E+002	0.00000E+000	Init. De&lay	Time(s)	Stab.(mV/s)
SPEED	SELECTOR	1	&Optimize for:
ZGUESS	QUANT	1.00000E+002	E&stimated Z (ohms)
OCVCURVE	TABLE	39
	Pt	T	Vf	Vm	Ach	Over
	#	s	V vs. Ref.	V	V	bits
	0	0.258332	-3.92469E-001	4.99876E-006	2.36600E-004	......
	1	0.516663	-3.91569E-001	4.99876E-006	2.36600E-004	......
	2	0.774994	-3.92969E-001	4.99876E-006	2.36600E-004	......
	3	1.03333	-3.93519E-001	4.99876E-006	2.36600E-004	......
	4	1.29166	-3.92870E-001	4.99876E-006	2.36600E-004	......
	5	1.54999	-3.91469E-001	4.99876E-006	4.36600E-004	......
	6	1.80832	-3.90869E-001	4.99876E-006	3.36600E-004	......
	7	2.06665	-3.90869E-001	4.99876E-006	2.36600E-004	......
	8	2.32498	-3.89419E-001	4.99876E-006	3.36600E-004	......
	9	2.58332	-3.90769E-001	4.99876E-006	1.36600E-004	......
	10	2.84165	-3.92019E-001	4.99876E-006	1.36600E-004	......
	11	3.09998	-3.92920E-001	4.99876E-006	2.36600E-004	......
	12	3.35831	-3.92719E-001	4.99876E-006	2.36600E-004	......
	13	3.61664	-3.92369E-001	4.99876E-006	3.36600E-004	......
	14	3.87497	-3.92969E-001	4.99876E-006	2.36600E-004	......
	15	4.1333	-3.96669E-001	4.99876E-006	2.36600E-004	......
	16	4.39164	-3.97569E-001	4.99876E-006	2.36600E-004	......
	17	4.64997	-3.97370E-001	4.99876E-006	1.36600E-004	......
	18	4.9083	-3.97069E-001	4.99876E-006	2.36600E-004	......
	19	5.16663	-3.97619E-001	4.99876E-006	3.66000E-005	......
	20	5.42496	-3.98219E-001	4.99876E-006	2.36600E-004	......
	21	5.68329	-4.00569E-001	4.99876E-006	2.36600E-004	......
	22	5.94162	-4.01519E-001	4.99876E-006	2.36600E-004	......
	23	6.19996	-4.00719E-001	4.99876E-006	3.66000E-005	......
	24	6.45829	-3.99569E-001	4.99876E-006	1.36600E-004	......
	25	6.71662	-3.99170E-001	4.99876E-006	3.66000E-005	......
	26	6.97495	-3.99969E-001	4.99876E-006	2.36600E-004	......
	27	7.23328	-3.97170E-001	4.99876E-006	1.36600E-004	......
	28	7.49161	-3.99619E-001	4.99876E-006	2.36600E-004	......
	29	7.74995	-4.00469E-001	4.99876E-006	2.36600E-004	......
	30	8.00828	-4.00619E-001	4.99876E-006	2.36600E-004	......
	31	8.26661	-4.00569E-001	4.99876E-006	3.36600E-004	......
	32	8.52494	-4.03969E-001	4.99876E-006	2.36600E-004	......
	33	8.78327	-4.06569E-001	4.99876E-006	1.36600E-004	......
	34	9.0416	-4.07070E-001	4.99876E-006	2.36600E-004	......
	35	9.29993	-4.06369E-001	4.99876E-006	2.36600E-004	......
	36	9.5583	-4.04669E-001	4.99876E-006	1.36600E-004	......
	37	9.8166	-4.01019E-001	4.99876E-006	2.36600E-004	......
	38	10.0749	-4.02019E-001	4.99876E-006	2.36600E-004	......
EOC	QUANT	-0.402019	Open Circuit (V)
PSTATMODEL	IQUANT	32	Pstat Model
PSTATSECTION	LABEL	PStat0	Pstat Section
CTRLMODE	IQUANT	1	Control Mode
IESTAB	IQUANT	0	I/E Stability
CASPEED	IQUANT	1	Control Amp Speed
CONVENTION	IQUANT	1	Current Convention
ICHRANGE	IQUANT	2	Ich Range
ICHRANGEMODE	TOGGLE	F	Ich Auto Range
ICHOFFSETENABLE	TOGGLE	T	Ich Offset Enable
ICHOFFSET	QUANT	0	Ich Offset (V)
ICHFILTER	IQUANT	3	Ich Filter
VCHRANGE	IQUANT	2	Vch Range
VCHRANGEMODE	TOGGLE	F	Vch Auto Range
VCHOFFSETENABLE	TOGGLE	T	Vch Offset Enable
VCHOFFSET	QUANT	0	Vch Offset (V)
VCHFILTER	IQUANT	3	Vch Filter
ACHRANGE	IQUANT	0	Ach Range
IERANGELOWERLIMIT	IQUANT	3	I/E Range Lower Limit
IERANGEMODE	TOGGLE	F	I/E AutoRange
IERANGE	IQUANT	11	I/E Range
POSFEEDENABLE	TOGGLE	F	Positive Feedback IR Comp
POSFEEDRESISTANCE	QUANT	0	Positive Feedback Resistance (ohm)
FC350IDIVISOR	IQUANT	0	FC350 I Divisor
FC350VRANGE	IQUANT	0	FC350 V Range
FRAMEWORKVERSION	QUANT	4.35	Framework Version
ZCURVE	TABLE
	Pt	Time	Freq	Zreal	Zimag	Zsig	Zmod	Zphz	Idc	Vdc	IERange
	#	s	Hz	ohm	ohm	V	ohm	°	A	V	#
	0	4	100007	137.413	-0.44078	1	137.413	-0.183787	2.10171E-006	-0.301882	9
	1	6	89134.1	136.639	-0.627588	1	136.64	-0.26316	2.33435E-006	-0.301885	9
	2	8	79433.6	136.181	-1.12682	1	136.186	-0.474079	2.80474E-006	-0.301888	9
	3	10	70800.8	136.067	-1.21889	1	136.072	-0.513246	2.97556E-006	-0.301918	9
	4	12	63105.5	135.834	-1.57898	1	135.843	-0.665997	3.1724E-006	-0.301882	9
	5	14	56243.5	135.683	-1.78009	1	135.695	-0.751647	3.18146E-006	-0.301874	9
	6	16	50123.7	135.641	-2.33915	1	135.662	-0.98797	3.35585E-006	-0.301913	9
	7	18	44681	135.352	-2.45511	1	135.374	-1.03916	4.23229E-006	-0.301896	9
	8	20	39811.2	135.438	-3.01438	1	135.472	-1.27499	4.76785E-006	-0.30191	9
	9	22	35488.3	135.529	-3.28359	1	135.569	-1.38789	4.12421E-006	-0.301886	9
	10	24	31634.1	135.532	-3.76305	1	135.584	-1.59041	4.09831E-006	-0.301889	9
	11	26	28173.1	135.667	-4.09299	1	135.729	-1.72805	4.04804E-006	-0.301895	9
	12	28	25123.7	135.773	-4.58391	1	135.85	-1.93366	3.9896E-006	-0.301874	9
	13	30	22389.3	136.012	-5.04779	1	136.105	-2.12544	3.80752E-006	-0.301882	9
	14	32	19954.4	135.93	-5.59607	1	136.045	-2.35747	3.59512E-006	-0.301881	9
	15	34	17778.2	136.156	-6.12053	1	136.294	-2.57384	3.60142E-006	-0.301898	9
	16	36	15852.9	136.382	-6.66338	1	136.545	-2.79715	3.54729E-006	-0.301911	9
	17	38	14122.3	136.478	-7.55143	1	136.687	-3.16698	3.62245E-006	-0.301895	9
	18	40	12587.2	136.858	-8.18922	1	137.103	-3.42434	3.86289E-006	-0.301892	9
	19	42	11221.1	136.83	-8.86838	1	137.118	-3.70832	3.92404E-006	-0.301905	9
	20	44	9998.2	137.116	-9.9659	1	137.477	-4.1571	3.77045E-006	-0.301903	9
	21	46	8912.76	137.494	-10.6029	1	137.902	-4.40967	3.99107E-006	-0.301909	9
	22	47	7942.6	137.657	-11.5958	1	138.145	-4.81503	4.14851E-006	-0.30191	9
	23	49	7078.05	138.12	-12.9732	1	138.728	-5.36587	4.57812E-006	-0.301902	9
	24	51	6311.1	138.345	-14.0434	1	139.056	-5.79627	4.56554E-006	-0.301908	9
	25	53	5622.14	138.818	-15.3503	1	139.664	-6.31008	3.77832E-006	-0.301895	9
	26	55	5011.18	139.099	-16.9251	1	140.125	-6.93744	3.52627E-006	-0.301896	9
	27	57	4465.21	139.543	-18.5115	1	140.766	-7.55661	3.00362E-006	-0.301906	9
	28	59	3980.93	139.736	-20.3279	1	141.207	-8.27698	2.92731E-006	-0.301887	9
	29	61	3548.18	140.377	-22.714	1	142.203	-9.19121	2.98642E-006	-0.301898	9
	30	63	3162.67	140.926	-25.0108	1	143.128	-10.0638	3.03979E-006	-0.301881	9
	31	65	2819.01	141.468	-27.3665	1	144.091	-10.9484	3.14657E-006	-0.30192	9
	32	68	2511.16	142.067	-30.1275	1	145.226	-11.9731	2.96187E-006	-0.301904	9
	33	70	2238.63	142.627	-33.1303	1	146.424	-13.0771	3.18713E-006	-0.301901	9
	34	72	1995.37	143.409	-36.472	1	147.974	-14.2691	3.27884E-006	-0.301901	9
	35	73	1778.51	144.012	-40.2503	1	149.531	-15.6153	3.29467E-006	-0.301888	9
	36	75	1584.49	144.894	-44.4474	1	151.558	-17.0538	3.27846E-006	-0.301894	9
	37	77	1412.76	145.821	-48.7137	1	153.742	-18.4727	3.01856E-006	-0.301875	9
	38	79	1259.04	146.907	-54.072	1	156.542	-20.2071	3.23468E-006	-0.301906	9
	39	81	1121.63	147.883	-59.5464	1	159.422	-21.9326	2.94862E-006	-0.301899	9
	40	83	999.95	148.934	-65.9105	1	162.867	-23.8717	2.75826E-006	-0.301887	9
	41	85	891.184	150.213	-72.7775	1	166.915	-25.8499	3.05499E-006	-0.301891	9
	42	87	794.163	151.675	-80.4564	1	171.693	-27.9438	3.0182E-006	-0.301889	9
	43	89	707.867	152.92	-88.8724	1	176.869	-30.1638	2.91212E-006	-0.301888	9
	44	91	630.984	154.435	-98.64	1	183.249	-32.5671	2.95623E-006	-0.301905	9
	45	93	562.189	156.197	-109.384	1	190.689	-35.0035	3.00873E-006	-0.301928	9
	46	95	501.303	157.891	-120.648	1	198.71	-37.3842	2.99029E-006	-0.301914	9
	47	97	446.614	159.8	-133.687	1	208.347	-39.9156	2.90267E-006	-0.301901	9
	48	99	398.209	161.865	-148.103	1	219.397	-42.4579	2.82398E-006	-0.301905	9
	49	101	354.821	164.172	-164.172	1	232.175	-45	2.85343E-006	-0.301914	9
	50	103	316.113	166.668	-182.078	1	246.841	-47.53	2.72184E-006	-0.301905	9
	51	105	281.926	169.403	-201.852	1	263.518	-49.9951	2.64981E-006	-0.301904	9
	52	107	251.185	172.413	-223.974	1	282.649	-52.4113	2.66268E-006	-0.3019	9
	53	109	223.946	175.755	-248.538	1	304.403	-54.7337	2.77323E-006	-0.301899	9
	54	111	199.495	179.492	-276.027	1	329.254	-56.9653	2.87838E-006	-0.301896	9
	55	113	177.836	183.463	-306.453	1	357.173	-59.0925	2.77173E-006	-0.301901	9
	56	115	158.533	187.855	-340.29	1	388.699	-61.0994	2.68001E-006	-0.301904	9
	57	117	141.263	192.88	-378.123	1	424.476	-62.974	2.77426E-006	-0.301906	9
	58	119	125.911	198.42	-420.066	1	464.571	-64.7161	2.66665E-006	-0.301905	9
	59	121	112.198	204.413	-466.888	1	509.676	-66.3552	2.28696E-006	-0.301905	9
	60	123	100.009	211.437	-519.1	1	560.509	-67.8382	2.48484E-006	-0.301904	9
	61	125	89.1164	219.232	-577.24	1	617.47	-69.2036	2.56153E-006	-0.301898	9
	62	127	79.4083	227.997	-641.861	1	681.152	-70.4444	2.61861E-006	-0.301904	9
	63	130	70.788	237.728	-713.714	1	752.265	-71.5778	2.54146E-006	-0.301903	9
	64	132	63.0971	248.586	-793.523	1	831.549	-72.6059	2.44636E-006	-0.301907	9
	65	134	54.5476	264.967	-907.614	1	945.501	-73.7255	2.56599E-006	-0.301896	9
	66	136	50.0083	276.325	-983.68	1	1021.75	-74.3094	2.59114E-006	-0.301904	9
	67	138	46.1675	286.983	-1058.11	1	1096.34	-74.8251	1.81092E-006	-0.301913	8
	68	140	40.0059	310.348	-1207.82	1	1247.06	-75.5897	1.97607E-006	-0.301904	8
	69	142	35.3046	332.486	-1354.58	1	1394.79	-76.2092	1.66436E-006	-0.301912	8
	70	144	31.5793	357.041	-1501.69	1	1543.56	-76.6257	1.73072E-006	-0.301898	8
	71	146	28.5748	378.797	-1646.77	1	1689.77	-77.0459	1.66359E-006	-0.301898	8
	72	148	24.9911	421.857	-1862.15	1	1909.34	-77.2355	1.90557E-006	-0.30189	8
	73	151	22.2195	464.353	-2072.93	1	2124.3	-77.3737	2.07242E-006	-0.301895	8
	74	153	20.0011	499.357	-2282.7	1	2336.68	-77.6605	1.73178E-006	-0.301888	8
	75	156	17.6486	554.488	-2564.37	1	2623.63	-77.7989	1.80982E-006	-0.301883	8
	76	158	15.7934	622.381	-2839.37	1	2906.78	-77.6365	1.86141E-006	-0.301891	8
	77	160	14.2828	680.802	-3105	1	3178.76	-77.633	1.92149E-006	-0.301882	8
	78	162	12.5002	776.115	-3500.24	1	3585.25	-77.498	1.87861E-006	-0.301893	8
	79	165	11.323	864.903	-3828.73	1	3925.21	-77.2707	1.78885E-006	-0.301889	8
	80	167	9.9987	965.79	-4303.82	1	4410.86	-77.3522	1.65026E-006	-0.301894	8
