EXPLAIN
TAG	EISPOT
TITLE	LABEL	Tomato_open	Test &Identifier
DATE	LABEL	5/14/2006	Date
TIME	LABEL	12:11:00	Time
NOTES	NOTES	1	&Notes...
	
PSTAT	PSTAT	300	Potentiostat
VDC	POTEN	1.00000E-001	T	DC &Voltage (V)
FREQINIT	QUANT	1.00000E+005	Initial Fre&q. (Hz)
FREQFINAL	QUANT	1.00000E+001	Final Fre&q. (Hz)
PTSPERDEC	QUANT	2.00000E+001	Points/&decade
VAC	QUANT	1.00000E+001	AC &Voltage (mV rms)
AREA	QUANT	1.00000E+000	&Area (cm²)
DENSITY	QUANT	7.87000E+000	&Density (gm/cm³)
EQUIV	QUANT	7.00000E+000	Equiv. &Wt
CONDIT	TWOPARAM	F	1.50000E+001	0.00000E+000	Conditionin&g	Time(s)	E(V)
DELAY	TWOPARAM	F	6.00000E+002	0.00000E+000	Init. De&lay	Time(s)	Stab.(mV/s)
SPEED	SELECTOR	1	&Optimize for:
ZGUESS	QUANT	1.00000E+002	E&stimated Z (ohms)
OCVCURVE	TABLE	39
	Pt	T	Vf	Vm	Ach	Over
	#	s	V vs. Ref.	V	V	bits
	0	0.258332	-6.43820E-001	3.09776E-006	-6.34000E-005	......
	1	0.516663	-6.39419E-001	3.09776E-006	3.36600E-004	......
	2	0.774994	-6.39219E-001	3.09776E-006	-6.34000E-005	......
	3	1.03333	-6.37370E-001	3.09776E-006	3.36600E-004	......
	4	1.29166	-6.35269E-001	3.09776E-006	3.66000E-005	......
	5	1.54999	-6.34769E-001	3.09776E-006	2.36600E-004	......
	6	1.80832	-6.36919E-001	3.09776E-006	3.66000E-005	......
	7	2.06665	-6.39019E-001	3.09776E-006	4.36600E-004	......
	8	2.32498	-6.41369E-001	3.09776E-006	3.66000E-005	......
	9	2.58332	-6.42269E-001	3.09776E-006	3.36600E-004	......
	10	2.84165	-6.42819E-001	3.09776E-006	3.66000E-005	......
	11	3.09998	-6.43420E-001	3.09776E-006	3.36600E-004	......
	12	3.35831	-6.43219E-001	3.09776E-006	3.66000E-005	......
	13	3.61664	-6.44019E-001	3.09776E-006	3.36600E-004	......
	14	3.87497	-6.44669E-001	3.09776E-006	-6.34000E-005	......
	15	4.1333	-6.45869E-001	3.09776E-006	2.36600E-004	......
	16	4.39164	-6.46969E-001	3.09776E-006	3.66000E-005	......
	17	4.64997	-6.47119E-001	3.09776E-006	1.36600E-004	......
	18	4.9083	-6.46819E-001	3.09776E-006	1.36600E-004	......
	19	5.16663	-6.47119E-001	3.09776E-006	2.36600E-004	......
	20	5.42496	-6.47419E-001	3.09776E-006	-6.34000E-005	......
	21	5.68329	-6.46869E-001	3.09776E-006	2.36600E-004	......
	22	5.94162	-6.46219E-001	3.09776E-006	3.66000E-005	......
	23	6.19996	-6.45719E-001	3.09776E-006	3.36600E-004	......
	24	6.45829	-6.47119E-001	3.09776E-006	3.66000E-005	......
	25	6.71662	-6.48669E-001	3.09776E-006	3.36600E-004	......
	26	6.97495	-6.48919E-001	3.09776E-006	-6.34000E-005	......
	27	7.23328	-6.49170E-001	3.09776E-006	2.36600E-004	......
	28	7.49161	-6.48269E-001	3.09776E-006	3.66000E-005	......
	29	7.74995	-6.47619E-001	3.09776E-006	2.36600E-004	......
	30	8.00828	-6.47420E-001	3.09776E-006	-6.34000E-005	......
	31	8.26661	-6.47569E-001	3.09776E-006	3.36600E-004	......
	32	8.52494	-6.47819E-001	3.09776E-006	3.66000E-005	......
	33	8.78327	-6.46969E-001	3.09776E-006	2.36600E-004	......
	34	9.0416	-6.44669E-001	3.09776E-006	3.66000E-005	......
	35	9.29993	-6.43669E-001	3.09776E-006	3.36600E-004	......
	36	9.5583	-6.43269E-001	3.09776E-006	3.66000E-005	......
	37	9.8166	-6.43869E-001	3.09776E-006	1.36600E-004	......
	38	10.0749	-6.44519E-001	3.09776E-006	-6.34000E-005	......
EOC	QUANT	-0.644519	Open Circuit (V)
PSTATMODEL	IQUANT	32	Pstat Model
PSTATSECTION	LABEL	PStat0	Pstat Section
CTRLMODE	IQUANT	1	Control Mode
IESTAB	IQUANT	0	I/E Stability
CASPEED	IQUANT	1	Control Amp Speed
CONVENTION	IQUANT	1	Current Convention
ICHRANGE	IQUANT	2	Ich Range
ICHRANGEMODE	TOGGLE	F	Ich Auto Range
ICHOFFSETENABLE	TOGGLE	T	Ich Offset Enable
ICHOFFSET	QUANT	0	Ich Offset (V)
ICHFILTER	IQUANT	3	Ich Filter
VCHRANGE	IQUANT	2	Vch Range
VCHRANGEMODE	TOGGLE	F	Vch Auto Range
VCHOFFSETENABLE	TOGGLE	T	Vch Offset Enable
VCHOFFSET	QUANT	0	Vch Offset (V)
VCHFILTER	IQUANT	3	Vch Filter
ACHRANGE	IQUANT	0	Ach Range
IERANGELOWERLIMIT	IQUANT	3	I/E Range Lower Limit
IERANGEMODE	TOGGLE	F	I/E AutoRange
IERANGE	IQUANT	11	I/E Range
POSFEEDENABLE	TOGGLE	F	Positive Feedback IR Comp
POSFEEDRESISTANCE	QUANT	0	Positive Feedback Resistance (ohm)
FC350IDIVISOR	IQUANT	0	FC350 I Divisor
FC350VRANGE	IQUANT	0	FC350 V Range
FRAMEWORKVERSION	QUANT	4.35	Framework Version
ZCURVE	TABLE
	Pt	Time	Freq	Zreal	Zimag	Zsig	Zmod	Zphz	Idc	Vdc	IERange
	#	s	Hz	ohm	ohm	V	ohm	°	A	V	#
	0	4	100007	159.032	-0.531267	1	159.033	-0.191404	2.70367E-006	-0.544346	9
	1	6	89134.1	158.188	-0.855184	1	158.19	-0.309745	2.78013E-006	-0.544376	9
	2	8	79433.6	157.83	-1.45436	1	157.836	-0.52795	2.88401E-006	-0.54435	9
	3	10	70800.8	157.336	-1.66022	1	157.345	-0.604567	2.69924E-006	-0.54436	9
	4	12	63105.5	157.21	-2.12791	1	157.225	-0.775475	2.78757E-006	-0.544378	9
	5	14	56243.5	156.868	-2.19226	1	156.883	-0.800668	2.99648E-006	-0.544372	9
	6	16	50123.7	156.701	-3.01451	1	156.73	-1.10208	3.00517E-006	-0.544395	9
	7	18	44681	156.607	-3.27543	1	156.641	-1.19817	2.74998E-006	-0.544373	9
	8	20	39811.2	156.607	-3.88579	1	156.655	-1.42135	2.68293E-006	-0.544389	9
	9	22	35488.3	156.505	-4.09526	1	156.558	-1.49892	2.58437E-006	-0.544361	9
	10	24	31634.1	156.543	-4.70001	1	156.614	-1.71972	2.52767E-006	-0.54439	9
	11	26	28173.1	156.647	-5.33617	1	156.738	-1.95103	2.40942E-006	-0.544363	9
	12	28	25123.7	156.704	-5.93122	1	156.817	-2.16759	2.49546E-006	-0.544355	9
	13	30	22389.3	156.877	-6.66174	1	157.019	-2.43159	2.64137E-006	-0.544386	9
	14	32	19954.4	156.899	-7.21322	1	157.064	-2.63225	2.43353E-006	-0.544387	9
	15	34	17778.2	156.863	-7.84868	1	157.059	-2.86442	1.98442E-006	-0.544386	9
	16	36	15852.9	157.063	-8.59882	1	157.298	-3.13368	1.74188E-006	-0.544362	9
	17	38	14122.3	157.422	-9.6873	1	157.72	-3.5214	1.79068E-006	-0.54437	9
	18	40	12587.2	157.53	-10.5611	1	157.884	-3.83546	1.73585E-006	-0.544367	9
	19	42	11221.1	157.926	-11.6901	1	158.358	-4.23347	1.94938E-006	-0.544376	9
	20	44	9998.2	157.993	-12.8618	1	158.516	-4.65402	1.87382E-006	-0.544369	9
	21	46	8912.76	158.362	-13.8097	1	158.963	-4.98379	1.50198E-006	-0.544358	9
	22	48	7942.6	158.674	-15.0985	1	159.391	-5.43557	2.00435E-006	-0.54437	9
	23	50	7078.05	159.032	-16.7808	1	159.915	-6.02349	1.95754E-006	-0.544367	9
	24	52	6311.1	159.326	-18.4461	1	160.39	-6.60408	2.11196E-006	-0.544361	9
	25	53	5622.14	159.784	-20.2732	1	161.065	-7.231	2.21598E-006	-0.544358	9
	26	55	5011.18	160.221	-22.2074	1	161.753	-7.89121	2.0207E-006	-0.544354	9
	27	57	4465.21	160.529	-24.3627	1	162.367	-8.62967	2.08165E-006	-0.544363	9
	28	59	3980.93	161.27	-27.0017	1	163.515	-9.505	2.03807E-006	-0.544368	9
	29	61	3548.18	161.778	-29.6419	1	164.471	-10.3829	1.78681E-006	-0.544341	9
	30	63	3162.67	162.545	-32.7674	1	165.815	-11.3975	1.8184E-006	-0.54436	9
	31	65	2819.01	163.114	-35.9469	1	167.028	-12.4282	2.13748E-006	-0.544362	9
	32	67	2511.16	164.033	-39.6781	1	168.763	-13.5982	1.89328E-006	-0.544348	9
	33	69	2238.63	165.102	-43.7438	1	170.798	-14.8396	1.91892E-006	-0.544344	9
	34	71	1995.37	166.326	-47.9834	1	173.109	-16.0923	1.9491E-006	-0.544353	9
	35	73	1778.51	167.562	-52.705	1	175.655	-17.4605	1.9471E-006	-0.54436	9
	36	75	1584.49	168.767	-58.0453	1	178.47	-18.98	1.79588E-006	-0.544342	9
	37	77	1412.76	170.069	-63.6462	1	181.588	-20.5178	1.88967E-006	-0.544361	9
	38	79	1259.04	172.122	-70.3375	1	185.939	-22.2273	2.03099E-006	-0.544336	9
	39	81	1121.63	173.201	-77.3217	1	189.676	-24.0574	1.8991E-006	-0.544345	9
	40	83	999.95	175.083	-85.075	1	194.658	-25.9157	1.82954E-006	-0.544336	9
	41	85	891.184	176.614	-93.648	1	199.906	-27.9344	1.66882E-006	-0.544351	9
	42	87	794.163	179.036	-103.184	1	206.642	-29.9562	1.82912E-006	-0.544349	9
	43	89	707.867	181.229	-113.605	1	213.892	-32.082	2.00076E-006	-0.544366	9
	44	91	630.984	184.209	-125.217	1	222.738	-34.2061	1.80834E-006	-0.544351	9
	45	93	562.189	186.592	-138.194	1	232.195	-36.5244	2.02296E-006	-0.544356	9
	46	95	501.303	189.493	-152.426	1	243.19	-38.8129	1.99413E-006	-0.544357	9
	47	97	446.614	192.612	-168.276	1	255.766	-41.1422	1.65107E-006	-0.544356	9
	48	99	398.209	196.031	-185.68	1	270.01	-43.4466	1.72907E-006	-0.544362	9
	49	101	354.821	199.78	-205.052	1	286.284	-45.7461	1.70396E-006	-0.544356	9
	50	103	316.113	203.861	-226.585	1	304.795	-48.0219	1.80163E-006	-0.544355	9
	51	105	281.926	208.284	-250.205	1	325.554	-50.2242	1.71888E-006	-0.544357	9
	52	107	251.185	213.172	-276.619	1	349.228	-52.381	1.7014E-006	-0.544362	9
	53	109	223.946	218.531	-305.707	1	375.783	-54.4414	1.65027E-006	-0.544357	9
	54	111	199.495	224.523	-338.344	1	406.063	-56.432	1.67862E-006	-0.544358	9
	55	113	177.836	231.016	-374.174	1	439.743	-58.3088	1.6386E-006	-0.544362	9
	56	115	158.533	238.175	-414.028	1	477.647	-60.0897	1.66392E-006	-0.544358	9
	57	117	141.263	246.303	-458.417	1	520.396	-61.7513	1.72704E-006	-0.544358	9
	58	119	125.911	255.131	-507.488	1	568.01	-63.3098	1.53418E-006	-0.54436	9
	59	121	112.198	264.693	-561.929	1	621.149	-64.7775	1.30041E-006	-0.544369	9
	60	123	100.009	275.324	-622.416	1	680.591	-66.1379	1.17526E-006	-0.544369	9
	61	125	89.1164	287.612	-689.653	1	747.223	-67.3619	1.29418E-006	-0.544374	9
	62	127	79.4083	301.606	-764.485	1	821.829	-68.4697	1.36886E-006	-0.544374	9
	63	129	70.788	316.717	-846.792	1	904.083	-69.4932	1.44273E-006	-0.544369	9
	64	131	63.0971	334.059	-938.136	1	995.84	-70.3998	1.25449E-006	-0.544368	9
	65	133	54.5476	357.86	-1068.24	1	1126.59	-71.4791	1.36099E-006	-0.544372	9
	66	135	50.0083	374.598	-1153.38	1	1212.69	-72.0071	6.85481E-007	-0.544372	8
	67	137	46.1675	389.712	-1238.93	1	1298.78	-72.5388	4.82876E-007	-0.54437	8
	68	140	40.0059	422.81	-1408.28	1	1470.38	-73.2886	5.14954E-007	-0.544367	8
	69	142	35.3046	456.542	-1574.86	1	1639.7	-73.8334	5.59057E-007	-0.54437	8
	70	144	31.5793	489.771	-1739.53	1	1807.16	-74.2752	5.75862E-007	-0.544366	8
	71	146	28.5748	523.207	-1902.95	1	1973.57	-74.6266	4.35007E-007	-0.544364	8
	72	148	24.9911	578.845	-2145.77	1	2222.47	-74.9032	5.51804E-007	-0.544367	8
	73	150	22.2195	634.075	-2382.4	1	2465.34	-75.0962	6.23773E-007	-0.544363	8
	74	153	20.0011	684.222	-2616.1	1	2704.1	-75.343	4.79684E-007	-0.544373	8
	75	155	17.6486	766.448	-2924.89	1	3023.65	-75.3162	6.65548E-007	-0.544369	8
	76	157	15.7934	847.369	-3224.93	1	3334.4	-75.278	6.51403E-007	-0.544368	8
	77	159	14.2828	918.131	-3529.8	1	3647.25	-75.42	5.03431E-007	-0.544364	8
	78	162	12.5002	1050.54	-3967.39	1	4104.12	-75.1688	6.40656E-007	-0.544366	8
	79	164	11.323	1176.4	-4336.96	1	4493.68	-74.8237	7.01595E-007	-0.544376	8
	80	167	9.9987	1320.16	-4820.7	1	4998.19	-74.6849	7.16507E-007	-0.544375	8
