EXPLAIN
TAG	EISPOT
TITLE	LABEL	Tomato_open	Test &Identifier
DATE	LABEL	5/14/2006	Date
TIME	LABEL	12:16:03	Time
NOTES	NOTES	1	&Notes...
	
PSTAT	PSTAT	300	Potentiostat
VDC	POTEN	1.00000E-001	T	DC &Voltage (V)
FREQINIT	QUANT	1.00000E+005	Initial Fre&q. (Hz)
FREQFINAL	QUANT	1.00000E+001	Final Fre&q. (Hz)
PTSPERDEC	QUANT	2.00000E+001	Points/&decade
VAC	QUANT	1.00000E+001	AC &Voltage (mV rms)
AREA	QUANT	1.00000E+000	&Area (cm²)
DENSITY	QUANT	7.87000E+000	&Density (gm/cm³)
EQUIV	QUANT	7.00000E+000	Equiv. &Wt
CONDIT	TWOPARAM	F	1.50000E+001	0.00000E+000	Conditionin&g	Time(s)	E(V)
DELAY	TWOPARAM	F	6.00000E+002	0.00000E+000	Init. De&lay	Time(s)	Stab.(mV/s)
SPEED	SELECTOR	1	&Optimize for:
ZGUESS	QUANT	1.00000E+002	E&stimated Z (ohms)
OCVCURVE	TABLE	39
	Pt	T	Vf	Vm	Ach	Over
	#	s	V vs. Ref.	V	V	bits
	0	0.258332	-5.95719E-001	3.34277E-006	-1.63400E-004	......
	1	0.516663	-5.92369E-001	3.34277E-006	-1.63400E-004	......
	2	0.774994	-5.91119E-001	3.34277E-006	-1.63400E-004	......
	3	1.03333	-5.92019E-001	3.34277E-006	-1.63400E-004	......
	4	1.29166	-5.92569E-001	3.34277E-006	-6.34000E-005	......
	5	1.54999	-5.92619E-001	3.34277E-006	-1.63400E-004	......
	6	1.80832	-5.93619E-001	3.34277E-006	-6.34000E-005	......
	7	2.06665	-5.93819E-001	3.34277E-006	-1.63400E-004	......
	8	2.32498	-5.94220E-001	3.34277E-006	-2.63400E-004	......
	9	2.58332	-5.95270E-001	3.34277E-006	-6.34000E-005	......
	10	2.84165	-5.96669E-001	3.34277E-006	-1.63400E-004	......
	11	3.09998	-5.97969E-001	3.34277E-006	-1.63400E-004	......
	12	3.35831	-5.98469E-001	3.34277E-006	-2.63400E-004	......
	13	3.61664	-5.98119E-001	3.34277E-006	-6.34000E-005	......
	14	3.87497	-5.98919E-001	3.34277E-006	-6.34000E-005	......
	15	4.1333	-5.98469E-001	3.34277E-006	-6.34000E-005	......
	16	4.39164	-5.97869E-001	3.34277E-006	-1.63400E-004	......
	17	4.64997	-5.97519E-001	3.34277E-006	-6.34000E-005	......
	18	4.9083	-5.98469E-001	3.34277E-006	-6.34000E-005	......
	19	5.16663	-5.99069E-001	3.34277E-006	-1.63400E-004	......
	20	5.42496	-6.00569E-001	3.34277E-006	-1.63400E-004	......
	21	5.68329	-6.01619E-001	3.34277E-006	-1.63400E-004	......
	22	5.94162	-6.00619E-001	3.34277E-006	-6.34000E-005	......
	23	6.19996	-6.00619E-001	3.34277E-006	-1.63400E-004	......
	24	6.45829	-6.00469E-001	3.34277E-006	-6.34000E-005	......
	25	6.71662	-5.99919E-001	3.34277E-006	-6.34000E-005	......
	26	6.97495	-5.99069E-001	3.34277E-006	-1.63400E-004	......
	27	7.23328	-5.97619E-001	3.34277E-006	-6.34000E-005	......
	28	7.49161	-5.97669E-001	3.34277E-006	-6.34000E-005	......
	29	7.74995	-5.97769E-001	3.34277E-006	-6.34000E-005	......
	30	8.00828	-5.97869E-001	3.34277E-006	-1.63400E-004	......
	31	8.26661	-5.97719E-001	3.34277E-006	-1.63400E-004	......
	32	8.52494	-5.96419E-001	3.34277E-006	-1.63400E-004	......
	33	8.78327	-5.95869E-001	3.34277E-006	-6.34000E-005	......
	34	9.0416	-5.94270E-001	3.34277E-006	-1.63400E-004	......
	35	9.29993	-5.94069E-001	3.34277E-006	-1.63400E-004	......
	36	9.5583	-5.93969E-001	3.34277E-006	-1.63400E-004	......
	37	9.8166	-5.95819E-001	3.34277E-006	-1.63400E-004	......
	38	10.0749	-5.94220E-001	3.34277E-006	-1.63400E-004	......
EOC	QUANT	-0.59422	Open Circuit (V)
PSTATMODEL	IQUANT	32	Pstat Model
PSTATSECTION	LABEL	PStat0	Pstat Section
CTRLMODE	IQUANT	1	Control Mode
IESTAB	IQUANT	0	I/E Stability
CASPEED	IQUANT	1	Control Amp Speed
CONVENTION	IQUANT	1	Current Convention
ICHRANGE	IQUANT	2	Ich Range
ICHRANGEMODE	TOGGLE	F	Ich Auto Range
ICHOFFSETENABLE	TOGGLE	T	Ich Offset Enable
ICHOFFSET	QUANT	0	Ich Offset (V)
ICHFILTER	IQUANT	3	Ich Filter
VCHRANGE	IQUANT	2	Vch Range
VCHRANGEMODE	TOGGLE	F	Vch Auto Range
VCHOFFSETENABLE	TOGGLE	T	Vch Offset Enable
VCHOFFSET	QUANT	0	Vch Offset (V)
VCHFILTER	IQUANT	3	Vch Filter
ACHRANGE	IQUANT	0	Ach Range
IERANGELOWERLIMIT	IQUANT	3	I/E Range Lower Limit
IERANGEMODE	TOGGLE	F	I/E AutoRange
IERANGE	IQUANT	11	I/E Range
POSFEEDENABLE	TOGGLE	F	Positive Feedback IR Comp
POSFEEDRESISTANCE	QUANT	0	Positive Feedback Resistance (ohm)
FC350IDIVISOR	IQUANT	0	FC350 I Divisor
FC350VRANGE	IQUANT	0	FC350 V Range
FRAMEWORKVERSION	QUANT	4.35	Framework Version
ZCURVE	TABLE
	Pt	Time	Freq	Zreal	Zimag	Zsig	Zmod	Zphz	Idc	Vdc	IERange
	#	s	Hz	ohm	ohm	V	ohm	°	A	V	#
	0	4	100007	149.882	-0.679773	1	149.883	-0.259858	3.22459E-006	-0.494042	9
	1	6	89134.1	148.942	-0.844403	1	148.944	-0.324826	3.47659E-006	-0.494081	9
	2	8	79433.6	148.822	-1.46367	1	148.829	-0.56349	3.45792E-006	-0.494086	9
	3	10	70800.8	148.183	-1.71451	1	148.193	-0.662893	3.38742E-006	-0.494095	9
	4	12	63105.5	148.219	-2.23496	1	148.236	-0.863884	3.23306E-006	-0.4941	9
	5	14	56243.5	147.92	-2.53379	1	147.942	-0.98135	3.12507E-006	-0.4941	9
	6	16	50123.7	147.924	-2.76218	1	147.95	-1.06976	2.66006E-006	-0.494078	9
	7	17	44681	147.815	-3.29628	1	147.852	-1.27748	3.06465E-006	-0.494094	9
	8	19	39811.2	147.663	-3.57211	1	147.706	-1.38577	2.86999E-006	-0.494062	9
	9	21	35488.3	147.798	-4.15055	1	147.857	-1.60859	3.0471E-006	-0.49408	9
	10	23	31634.1	147.959	-4.72566	1	148.035	-1.82935	3.10226E-006	-0.494084	9
	11	25	28173.1	147.767	-5.31179	1	147.863	-2.05872	2.86737E-006	-0.49408	9
	12	27	25123.7	147.906	-5.86935	1	148.022	-2.27248	2.91912E-006	-0.494085	9
	13	29	22389.3	148.277	-6.33581	1	148.412	-2.44674	2.79929E-006	-0.494077	9
	14	31	19954.4	148.267	-7.00839	1	148.432	-2.70628	2.5164E-006	-0.494062	9
	15	33	17778.2	148.32	-7.94568	1	148.532	-3.06648	2.57729E-006	-0.494073	9
	16	35	15852.9	148.567	-8.52788	1	148.811	-3.28524	2.45868E-006	-0.494055	9
	17	37	14122.3	148.656	-9.36674	1	148.951	-3.60542	2.50726E-006	-0.494074	9
	18	39	12587.2	148.88	-10.3021	1	149.236	-3.95838	2.5376E-006	-0.49407	9
	19	41	11221.1	149.128	-11.4269	1	149.565	-4.38174	2.59696E-006	-0.494073	9
	20	43	9998.2	149.346	-12.612	1	149.877	-4.8271	2.50293E-006	-0.494069	9
	21	45	8912.76	149.802	-13.7039	1	150.427	-5.22689	2.28753E-006	-0.494062	9
	22	47	7942.6	150.197	-15.3431	1	150.978	-5.83271	2.51273E-006	-0.494064	9
	23	49	7078.05	150.447	-16.5694	1	151.356	-6.28491	2.5886E-006	-0.494073	9
	24	51	6311.1	150.942	-18.1585	1	152.03	-6.85979	2.71259E-006	-0.494074	9
	25	53	5622.14	151.338	-20.0532	1	152.661	-7.54806	2.65087E-006	-0.494069	9
	26	55	5011.18	151.921	-22.0605	1	153.514	-8.26219	2.63615E-006	-0.494059	9
	27	57	4465.21	152.429	-24.2238	1	154.342	-9.02983	2.39556E-006	-0.494066	9
	28	59	3980.93	153.041	-26.7152	1	155.355	-9.9019	2.27648E-006	-0.494085	9
	29	61	3548.18	153.489	-29.3014	1	156.261	-10.8079	2.28509E-006	-0.494086	9
	30	63	3162.67	154.518	-32.3387	1	157.866	-11.8207	2.25521E-006	-0.494076	9
	31	65	2819.01	155.162	-35.5614	1	159.185	-12.9086	2.21865E-006	-0.49407	9
	32	67	2511.16	155.907	-39.3844	1	160.804	-14.1772	1.97563E-006	-0.494073	9
	33	69	2238.63	156.859	-43.2176	1	162.704	-15.4038	1.99482E-006	-0.494063	9
	34	71	1995.37	158.027	-47.4652	1	165.001	-16.7182	2.03173E-006	-0.494065	9
	35	73	1778.51	159.452	-52.1885	1	167.775	-18.1232	2.08371E-006	-0.494063	9
	36	75	1584.49	160.475	-57.6065	1	170.501	-19.7469	2.13407E-006	-0.494067	9
	37	77	1412.76	162.124	-63.6152	1	174.158	-21.4244	1.94324E-006	-0.494071	9
	38	79	1259.04	163.685	-69.9223	1	177.994	-23.131	1.85993E-006	-0.494059	9
	39	81	1121.63	165.221	-76.8078	1	182.202	-24.9327	2.1601E-006	-0.494058	9
	40	83	999.95	166.796	-84.716	1	187.077	-26.9261	1.93207E-006	-0.494068	9
	41	85	891.184	168.545	-93.4007	1	192.694	-28.9934	2.08435E-006	-0.494068	9
	42	87	794.163	170.718	-103.104	1	199.437	-31.1295	2.02174E-006	-0.494062	9
	43	89	707.867	173.281	-113.297	1	207.032	-33.1781	2.07168E-006	-0.494062	9
	44	91	630.984	175.896	-124.946	1	215.756	-35.3879	1.90457E-006	-0.494065	9
	45	92	562.189	178.198	-137.274	1	224.941	-37.6087	2.23956E-006	-0.49408	9
	46	94	501.303	181.208	-151.852	1	236.422	-39.9628	2.01753E-006	-0.494068	9
	47	96	446.614	184.27	-167.655	1	249.126	-42.297	1.8701E-006	-0.494069	9
	48	98	398.209	187.611	-185.086	1	263.542	-44.6118	2.03113E-006	-0.494077	9
	49	100	354.821	191.297	-204.447	1	279.988	-46.9032	2.04938E-006	-0.494067	9
	50	102	316.113	195.32	-225.984	1	298.695	-49.1628	2.16176E-006	-0.494064	9
	51	104	281.926	199.643	-249.591	1	319.614	-51.3444	1.65659E-006	-0.494068	9
	52	106	251.185	204.472	-276.104	1	343.573	-53.4778	1.83274E-006	-0.494069	9
	53	108	223.946	209.738	-305.257	1	370.368	-55.5075	1.92006E-006	-0.494066	9
	54	110	199.495	215.604	-337.893	1	400.82	-57.4587	1.97851E-006	-0.494065	9
	55	112	177.836	221.979	-373.843	1	434.779	-59.2992	1.79885E-006	-0.494064	9
	56	114	158.533	228.979	-413.742	1	472.878	-61.0384	1.69968E-006	-0.494069	9
	57	116	141.263	236.809	-458.26	1	515.83	-62.672	1.71338E-006	-0.494069	9
	58	119	125.911	245.39	-507.551	1	563.759	-64.1972	1.65928E-006	-0.494074	9
	59	121	112.198	254.983	-562.312	1	617.423	-65.6078	1.56654E-006	-0.494072	9
	60	123	100.009	265.967	-623.021	1	677.417	-66.8824	1.72075E-006	-0.494079	9
	61	125	89.1164	278.095	-690.564	1	744.456	-68.065	1.78758E-006	-0.49408	9
	62	127	79.4083	291.323	-765.576	1	819.131	-69.1668	1.73317E-006	-0.494081	9
	63	129	70.788	306.166	-848.457	1	902.007	-70.158	1.683E-006	-0.494084	9
	64	131	63.0971	323.355	-940.28	1	994.33	-71.0223	1.6765E-006	-0.494084	9
	65	133	54.5476	347.712	-1071.52	1	1126.52	-72.0215	1.63739E-006	-0.494083	9
	66	135	50.0083	364.213	-1156.89	1	1212.87	-72.5249	1.07608E-006	-0.494077	8
	67	137	46.1675	380.156	-1243.26	1	1300.08	-72.9977	9.8401E-007	-0.494079	8
	68	139	40.0059	413.744	-1413.33	1	1472.64	-73.6829	1.06502E-006	-0.494078	8
	69	141	35.3046	447.635	-1580.6	1	1642.77	-74.1876	9.55162E-007	-0.494074	8
	70	144	31.5793	481.853	-1747.58	1	1812.79	-74.5851	8.36348E-007	-0.494071	8
	71	146	28.5748	515.542	-1911.47	1	1979.78	-74.906	7.67399E-007	-0.494074	8
	72	148	24.9911	567.79	-2155.66	1	2229.18	-75.2437	7.45768E-007	-0.494072	8
	73	150	22.2195	623.448	-2394.66	1	2474.49	-75.407	9.15877E-007	-0.494072	8
	74	152	20.0011	690.994	-2627.26	1	2716.61	-75.2644	1.14978E-006	-0.494078	8
	75	155	17.6486	783.703	-2931.3	1	3034.26	-75.0317	1.24805E-006	-0.494076	8
	76	157	15.7934	855.643	-3239.59	1	3350.68	-75.2049	1.0319E-006	-0.494084	8
	77	159	14.2828	932.599	-3541.48	1	3662.21	-75.2469	9.78165E-007	-0.494079	8
	78	162	12.5002	1054.42	-3992.01	1	4128.92	-75.2042	8.36388E-007	-0.494084	8
	79	164	11.323	1139.75	-4350.64	1	4497.45	-75.32	7.38849E-007	-0.494087	8
	80	167	9.9987	1296.41	-4852.45	1	5022.64	-75.0419	8.11321E-007	-0.49409	8
