EXPLAIN
TAG	EISPOT
TITLE	LABEL	Tomato_open	Test &Identifier
DATE	LABEL	5/14/2006	Date
TIME	LABEL	12:06:27	Time
NOTES	NOTES	1	&Notes...
	
PSTAT	PSTAT	300	Potentiostat
VDC	POTEN	1.00000E-001	T	DC &Voltage (V)
FREQINIT	QUANT	1.00000E+005	Initial Fre&q. (Hz)
FREQFINAL	QUANT	1.00000E+001	Final Fre&q. (Hz)
PTSPERDEC	QUANT	2.00000E+001	Points/&decade
VAC	QUANT	1.00000E+001	AC &Voltage (mV rms)
AREA	QUANT	1.00000E+000	&Area (cm²)
DENSITY	QUANT	7.87000E+000	&Density (gm/cm³)
EQUIV	QUANT	7.00000E+000	Equiv. &Wt
CONDIT	TWOPARAM	F	1.50000E+001	0.00000E+000	Conditionin&g	Time(s)	E(V)
DELAY	TWOPARAM	F	6.00000E+002	0.00000E+000	Init. De&lay	Time(s)	Stab.(mV/s)
SPEED	SELECTOR	1	&Optimize for:
ZGUESS	QUANT	1.00000E+002	E&stimated Z (ohms)
OCVCURVE	TABLE	39
	Pt	T	Vf	Vm	Ach	Over
	#	s	V vs. Ref.	V	V	bits
	0	0.258332	-7.10319E-001	3.57814E-006	-2.63400E-004	......
	1	0.516663	-7.10369E-001	3.57814E-006	-1.63400E-004	......
	2	0.774994	-7.09269E-001	3.57814E-006	-1.63400E-004	......
	3	1.03333	-7.08219E-001	3.57814E-006	-1.63400E-004	......
	4	1.29166	-7.07119E-001	3.57814E-006	-1.63400E-004	......
	5	1.54999	-7.07619E-001	3.57814E-006	-6.34000E-005	......
	6	1.80832	-7.06869E-001	3.57814E-006	-1.63400E-004	......
	7	2.06665	-7.08669E-001	3.57814E-006	-1.63400E-004	......
	8	2.32498	-7.09269E-001	3.57814E-006	-6.34000E-005	......
	9	2.58332	-7.10369E-001	3.57814E-006	-1.63400E-004	......
	10	2.84165	-7.12269E-001	3.57814E-006	-6.34000E-005	......
	11	3.09998	-7.13569E-001	3.57814E-006	-2.63400E-004	......
	12	3.35831	-7.14319E-001	3.57814E-006	-6.34000E-005	......
	13	3.61664	-7.13669E-001	3.57814E-006	-1.63400E-004	......
	14	3.87497	-7.13470E-001	3.57814E-006	-6.34000E-005	......
	15	4.1333	-7.14019E-001	3.57814E-006	-1.63400E-004	......
	16	4.39164	-7.15919E-001	3.57814E-006	-1.63400E-004	......
	17	4.64997	-7.16019E-001	3.57814E-006	-1.63400E-004	......
	18	4.9083	-7.16269E-001	3.57814E-006	-1.63400E-004	......
	19	5.16663	-7.16420E-001	3.57814E-006	-6.34000E-005	......
	20	5.42496	-7.16469E-001	3.57814E-006	-1.63400E-004	......
	21	5.68329	-7.14669E-001	3.57814E-006	-6.34000E-005	......
	22	5.94162	-7.13769E-001	3.57814E-006	-6.34000E-005	......
	23	6.19996	-7.13219E-001	3.57814E-006	-1.63400E-004	......
	24	6.45829	-7.14769E-001	3.57814E-006	-6.34000E-005	......
	25	6.71662	-7.12669E-001	3.57814E-006	-6.34000E-005	......
	26	6.97495	-7.13269E-001	3.57814E-006	-6.34000E-005	......
	27	7.23328	-7.15219E-001	3.57814E-006	-1.63400E-004	......
	28	7.49161	-7.14869E-001	3.57814E-006	-1.63400E-004	......
	29	7.74995	-7.14520E-001	3.57814E-006	-1.63400E-004	......
	30	8.00828	-7.13519E-001	3.57814E-006	-1.63400E-004	......
	31	8.26661	-7.14170E-001	3.57814E-006	-6.34000E-005	......
	32	8.52494	-7.15069E-001	3.57814E-006	-1.63400E-004	......
	33	8.78327	-7.15270E-001	3.57814E-006	-6.34000E-005	......
	34	9.0416	-7.15270E-001	3.57814E-006	-6.34000E-005	......
	35	9.29993	-7.15919E-001	3.57814E-006	3.66000E-005	......
	36	9.5583	-7.13219E-001	3.57814E-006	-1.63400E-004	......
	37	9.8166	-7.09469E-001	3.57814E-006	-6.34000E-005	......
	38	10.0749	-7.09219E-001	3.57814E-006	-1.63400E-004	......
EOC	QUANT	-0.709219	Open Circuit (V)
PSTATMODEL	IQUANT	32	Pstat Model
PSTATSECTION	LABEL	PStat0	Pstat Section
CTRLMODE	IQUANT	1	Control Mode
IESTAB	IQUANT	0	I/E Stability
CASPEED	IQUANT	1	Control Amp Speed
CONVENTION	IQUANT	1	Current Convention
ICHRANGE	IQUANT	2	Ich Range
ICHRANGEMODE	TOGGLE	F	Ich Auto Range
ICHOFFSETENABLE	TOGGLE	T	Ich Offset Enable
ICHOFFSET	QUANT	0	Ich Offset (V)
ICHFILTER	IQUANT	3	Ich Filter
VCHRANGE	IQUANT	2	Vch Range
VCHRANGEMODE	TOGGLE	F	Vch Auto Range
VCHOFFSETENABLE	TOGGLE	T	Vch Offset Enable
VCHOFFSET	QUANT	0	Vch Offset (V)
VCHFILTER	IQUANT	3	Vch Filter
ACHRANGE	IQUANT	0	Ach Range
IERANGELOWERLIMIT	IQUANT	3	I/E Range Lower Limit
IERANGEMODE	TOGGLE	F	I/E AutoRange
IERANGE	IQUANT	11	I/E Range
POSFEEDENABLE	TOGGLE	F	Positive Feedback IR Comp
POSFEEDRESISTANCE	QUANT	0	Positive Feedback Resistance (ohm)
FC350IDIVISOR	IQUANT	0	FC350 I Divisor
FC350VRANGE	IQUANT	0	FC350 V Range
FRAMEWORKVERSION	QUANT	4.35	Framework Version
ZCURVE	TABLE
	Pt	Time	Freq	Zreal	Zimag	Zsig	Zmod	Zphz	Idc	Vdc	IERange
	#	s	Hz	ohm	ohm	V	ohm	°	A	V	#
	0	4	100007	161.494	-0.848968	1	161.496	-0.301199	2.77856E-006	-0.609145	9
	1	6	89134.1	160.958	-1.13005	1	160.962	-0.402255	2.64729E-006	-0.609111	9
	2	8	79433.6	160.692	-1.71059	1	160.701	-0.609901	2.99874E-006	-0.609149	9
	3	10	70800.8	160.447	-2.03699	1	160.46	-0.727371	2.99249E-006	-0.609146	9
	4	12	63105.5	160.34	-2.22343	1	160.355	-0.794472	2.91798E-006	-0.609121	9
	5	14	56243.5	160.528	-2.60113	1	160.549	-0.928318	2.88984E-006	-0.609126	9
	6	16	50123.7	160.326	-3.08491	1	160.356	-1.10232	2.83465E-006	-0.609116	9
	7	18	44681	160.298	-3.58013	1	160.338	-1.27945	2.82474E-006	-0.609139	9
	8	20	39811.2	160.209	-4.00098	1	160.259	-1.43058	2.81115E-006	-0.609119	9
	9	22	35488.3	160.546	-4.47286	1	160.609	-1.59586	3.08024E-006	-0.609155	9
	10	24	31634.1	160.518	-5.18562	1	160.602	-1.85033	2.87245E-006	-0.609136	9
	11	26	28173.1	160.819	-5.56487	1	160.916	-1.98183	2.96101E-006	-0.609132	9
	12	28	25123.7	160.853	-6.09879	1	160.969	-2.17134	2.96942E-006	-0.609155	9
	13	30	22389.3	161.049	-6.69236	1	161.188	-2.37955	2.59313E-006	-0.609137	9
	14	32	19954.4	161.495	-7.49895	1	161.669	-2.65859	2.67129E-006	-0.60912	9
	15	34	17778.2	161.742	-8.12628	1	161.946	-2.87625	2.52974E-006	-0.609131	9
	16	36	15852.9	161.885	-9.00739	1	162.135	-3.18469	2.45685E-006	-0.609148	9
	17	38	14122.3	162.318	-10.0495	1	162.628	-3.54282	2.26923E-006	-0.60912	9
	18	40	12587.2	162.454	-10.8218	1	162.814	-3.81111	2.14871E-006	-0.609122	9
	19	42	11221.1	162.912	-12.0562	1	163.358	-4.23242	1.83978E-006	-0.609119	9
	20	44	9998.2	163.318	-13.1111	1	163.844	-4.58982	1.80276E-006	-0.609125	9
	21	46	8912.76	163.626	-14.4861	1	164.266	-5.05931	1.65746E-006	-0.609102	9
	22	48	7942.6	164.213	-15.972	1	164.988	-5.55534	1.77317E-006	-0.609115	9
	23	50	7078.05	164.798	-17.447	1	165.719	-6.04333	1.83474E-006	-0.609117	9
	24	52	6311.1	164.908	-19.1676	1	166.019	-6.62985	1.71212E-006	-0.609107	9
	25	54	5622.14	165.57	-21.0426	1	166.901	-7.24301	1.60802E-006	-0.609111	9
	26	56	5011.18	166.277	-23.0823	1	167.871	-7.90321	1.68821E-006	-0.609115	9
	27	58	4465.21	166.845	-25.502	1	168.783	-8.6903	1.7579E-006	-0.609104	9
	28	60	3980.93	167.726	-27.9552	1	170.039	-9.46262	1.5417E-006	-0.609088	9
	29	62	3548.18	168.4	-30.8746	1	171.207	-10.3893	1.55731E-006	-0.609116	9
	30	64	3162.67	169.442	-33.8798	1	172.796	-11.3071	1.56806E-006	-0.609105	9
	31	66	2819.01	170.171	-37.0547	1	174.159	-12.2844	1.47842E-006	-0.609096	9
	32	68	2511.16	171.206	-40.6751	1	175.972	-13.3645	1.60531E-006	-0.609104	9
	33	70	2238.63	172.319	-45.12	1	178.129	-14.6729	1.58024E-006	-0.609116	9
	34	71	1995.37	173.803	-49.3582	1	180.675	-15.854	1.50657E-006	-0.609106	9
	35	73	1778.51	175.195	-54.2866	1	183.413	-17.2163	1.50507E-006	-0.609104	9
	36	75	1584.49	176.525	-59.8337	1	186.39	-18.7242	1.59507E-006	-0.609114	9
	37	77	1412.76	178.16	-65.8567	1	189.943	-20.2868	1.45218E-006	-0.609125	9
	38	79	1259.04	179.574	-72.0035	1	193.472	-21.8492	1.3731E-006	-0.609113	9
	39	81	1121.63	181.584	-79.5042	1	198.226	-23.6456	1.53223E-006	-0.609131	9
	40	83	999.95	183.629	-87.286	1	203.318	-25.4236	1.53354E-006	-0.609119	9
	41	85	891.184	186.128	-95.786	1	209.329	-27.2315	1.29988E-006	-0.60911	9
	42	87	794.163	187.617	-105.373	1	215.183	-29.3204	1.31488E-006	-0.609106	9
	43	89	707.867	190.804	-115.863	1	223.228	-31.2676	1.36343E-006	-0.609136	9
	44	91	630.984	193.66	-127.902	1	232.084	-33.4425	1.23328E-006	-0.609126	9
	45	93	562.189	196.047	-140.622	1	241.265	-35.6515	1.17979E-006	-0.609117	9
	46	95	501.303	199.569	-154.772	1	252.551	-37.7947	1.30999E-006	-0.609119	9
	47	97	446.614	202.972	-170.628	1	265.164	-40.052	1.45612E-006	-0.609118	9
	48	99	398.209	206.593	-188.057	1	279.368	-42.3108	1.46196E-006	-0.609118	9
	49	101	354.821	210.605	-207.419	1	295.596	-44.5632	1.60579E-006	-0.609117	9
	50	103	316.113	215.008	-228.938	1	314.072	-46.7972	1.55082E-006	-0.609119	9
	51	105	281.926	219.711	-252.491	1	334.701	-48.9711	1.39995E-006	-0.609119	9
	52	107	251.185	224.893	-278.864	1	358.248	-51.1152	1.39959E-006	-0.60912	9
	53	109	223.946	230.53	-307.93	1	384.662	-53.1798	1.32646E-006	-0.609114	9
	54	111	199.495	236.714	-340.359	1	414.581	-55.182	1.35832E-006	-0.609116	9
	55	113	177.836	243.474	-376.134	1	448.058	-57.0847	1.25876E-006	-0.609117	9
	56	115	158.533	250.879	-415.744	1	485.575	-58.8913	1.11318E-006	-0.609116	9
	57	117	141.263	259.221	-459.934	1	527.954	-60.5942	1.13411E-006	-0.609113	9
	58	119	125.911	268.202	-508.873	1	575.225	-62.2085	1.13618E-006	-0.609115	9
	59	121	112.198	278.343	-563.166	1	628.196	-63.6993	1.19864E-006	-0.609111	9
	60	123	100.009	289.63	-623.357	1	687.357	-65.079	1.2009E-006	-0.609112	9
	61	125	89.1164	302.136	-690.128	1	753.367	-66.3563	1.29017E-006	-0.609116	9
	62	127	79.4083	315.994	-764.202	1	826.956	-67.5351	1.32157E-006	-0.609117	9
	63	129	70.788	331.228	-846.259	1	908.772	-68.6245	1.23507E-006	-0.609114	9
	64	131	63.0971	348.943	-937.325	1	1000.17	-69.5809	1.2723E-006	-0.609106	9
	65	134	54.5476	373.885	-1065.65	1	1129.34	-70.6665	7.1762E-007	-0.60911	8
	66	136	50.0083	390.744	-1151.28	1	1215.78	-71.2528	6.83562E-007	-0.609116	8
	67	138	46.1675	408.532	-1236.3	1	1302.05	-71.7141	7.4399E-007	-0.609117	8
	68	140	40.0059	443.778	-1404.21	1	1472.67	-72.4617	8.31424E-007	-0.609117	8
	69	142	35.3046	478.985	-1569.12	1	1640.6	-73.0248	7.80648E-007	-0.60912	8
	70	144	31.5793	515.958	-1732.5	1	1807.69	-73.4158	8.45326E-007	-0.609118	8
	71	146	28.5748	548.788	-1893.96	1	1971.87	-73.8407	6.56299E-007	-0.60912	8
	72	148	24.9911	603.113	-2134.01	1	2217.59	-74.2187	5.97993E-007	-0.609116	8
	73	151	22.2195	660.605	-2367.05	1	2457.51	-74.4065	7.06409E-007	-0.609114	8
	74	153	20.0011	718.301	-2595.44	1	2693	-74.5303	7.33945E-007	-0.609105	8
	75	156	17.6486	803.062	-2900.44	1	3009.56	-74.5239	7.97242E-007	-0.609104	8
	76	158	15.7934	877.519	-3197.55	1	3315.77	-74.6539	6.55852E-007	-0.609109	8
	77	160	14.2828	959.26	-3497.36	1	3626.53	-74.6621	6.06657E-007	-0.60911	8
	78	162	12.5002	1080.12	-3934.83	1	4080.38	-74.6503	6.16743E-007	-0.609107	8
	79	165	11.323	1191.03	-4285.85	1	4448.27	-74.4695	5.56412E-007	-0.609109	8
	80	167	9.9987	1348.32	-4775.74	1	4962.43	-74.2342	4.86249E-007	-0.609108	8
