EXPLAIN
TAG	EISPOT
TITLE	LABEL	Tomato_open	Test &Identifier
DATE	LABEL	5/14/2006	Date
TIME	LABEL	12:21:04	Time
NOTES	NOTES	1	&Notes...
	
PSTAT	PSTAT	300	Potentiostat
VDC	POTEN	1.00000E-001	T	DC &Voltage (V)
FREQINIT	QUANT	1.00000E+005	Initial Fre&q. (Hz)
FREQFINAL	QUANT	1.00000E+001	Final Fre&q. (Hz)
PTSPERDEC	QUANT	2.00000E+001	Points/&decade
VAC	QUANT	1.00000E+001	AC &Voltage (mV rms)
AREA	QUANT	1.00000E+000	&Area (cm²)
DENSITY	QUANT	7.87000E+000	&Density (gm/cm³)
EQUIV	QUANT	7.00000E+000	Equiv. &Wt
CONDIT	TWOPARAM	F	1.50000E+001	0.00000E+000	Conditionin&g	Time(s)	E(V)
DELAY	TWOPARAM	F	6.00000E+002	0.00000E+000	Init. De&lay	Time(s)	Stab.(mV/s)
SPEED	SELECTOR	1	&Optimize for:
ZGUESS	QUANT	1.00000E+002	E&stimated Z (ohms)
OCVCURVE	TABLE	39
	Pt	T	Vf	Vm	Ach	Over
	#	s	V vs. Ref.	V	V	bits
	0	0.258332	-5.48570E-001	3.51577E-006	1.36600E-004	......
	1	0.516663	-5.47819E-001	3.51577E-006	3.66000E-005	......
	2	0.774994	-5.47469E-001	3.51577E-006	2.36600E-004	......
	3	1.03333	-5.48019E-001	3.51577E-006	3.66000E-005	......
	4	1.29166	-5.48270E-001	3.51577E-006	2.36600E-004	......
	5	1.54999	-5.49869E-001	3.51577E-006	-6.34000E-005	......
	6	1.80832	-5.50869E-001	3.51577E-006	3.36600E-004	......
	7	2.06665	-5.52269E-001	3.51577E-006	-6.34000E-005	......
	8	2.32498	-5.52920E-001	3.51577E-006	3.36600E-004	......
	9	2.58332	-5.53069E-001	3.51577E-006	-6.34000E-005	......
	10	2.84165	-5.51519E-001	3.51577E-006	4.36600E-004	......
	11	3.09998	-5.50319E-001	3.51577E-006	3.66000E-005	......
	12	3.35831	-5.49469E-001	3.51577E-006	3.66000E-005	......
	13	3.61664	-5.49670E-001	3.51577E-006	1.36600E-004	......
	14	3.87497	-5.50119E-001	3.51577E-006	1.36600E-004	......
	15	4.1333	-5.50770E-001	3.51577E-006	3.66000E-005	......
	16	4.39164	-5.51019E-001	3.51577E-006	2.36600E-004	......
	17	4.64997	-5.51269E-001	3.51577E-006	3.66000E-005	......
	18	4.9083	-5.51269E-001	3.51577E-006	2.36600E-004	......
	19	5.16663	-5.51619E-001	3.51577E-006	-6.34000E-005	......
	20	5.42496	-5.52170E-001	3.51577E-006	2.36600E-004	......
	21	5.68329	-5.52819E-001	3.51577E-006	-1.63400E-004	......
	22	5.94162	-5.52719E-001	3.51577E-006	2.36600E-004	......
	23	6.19996	-5.53519E-001	3.51577E-006	3.66000E-005	......
	24	6.45829	-5.54769E-001	3.51577E-006	1.36600E-004	......
	25	6.71662	-5.55269E-001	3.51577E-006	-6.34000E-005	......
	26	6.97495	-5.55770E-001	3.51577E-006	2.36600E-004	......
	27	7.23328	-5.55869E-001	3.51577E-006	-6.34000E-005	......
	28	7.49161	-5.56569E-001	3.51577E-006	2.36600E-004	......
	29	7.74995	-5.56669E-001	3.51577E-006	3.66000E-005	......
	30	8.00828	-5.56870E-001	3.51577E-006	2.36600E-004	......
	31	8.26661	-5.57019E-001	3.51577E-006	3.66000E-005	......
	32	8.52494	-5.55719E-001	3.51577E-006	2.36600E-004	......
	33	8.78327	-5.52819E-001	3.51577E-006	-6.34000E-005	......
	34	9.0416	-5.51120E-001	3.51577E-006	2.36600E-004	......
	35	9.29993	-5.48319E-001	3.51577E-006	3.66000E-005	......
	36	9.5583	-5.44219E-001	3.51577E-006	2.36600E-004	......
	37	9.8166	-5.41819E-001	3.51577E-006	3.66000E-005	......
	38	10.0749	-5.39970E-001	3.51577E-006	2.36600E-004	......
EOC	QUANT	-0.53997	Open Circuit (V)
PSTATMODEL	IQUANT	32	Pstat Model
PSTATSECTION	LABEL	PStat0	Pstat Section
CTRLMODE	IQUANT	1	Control Mode
IESTAB	IQUANT	0	I/E Stability
CASPEED	IQUANT	1	Control Amp Speed
CONVENTION	IQUANT	1	Current Convention
ICHRANGE	IQUANT	2	Ich Range
ICHRANGEMODE	TOGGLE	F	Ich Auto Range
ICHOFFSETENABLE	TOGGLE	T	Ich Offset Enable
ICHOFFSET	QUANT	0	Ich Offset (V)
ICHFILTER	IQUANT	3	Ich Filter
VCHRANGE	IQUANT	2	Vch Range
VCHRANGEMODE	TOGGLE	F	Vch Auto Range
VCHOFFSETENABLE	TOGGLE	T	Vch Offset Enable
VCHOFFSET	QUANT	0	Vch Offset (V)
VCHFILTER	IQUANT	3	Vch Filter
ACHRANGE	IQUANT	0	Ach Range
IERANGELOWERLIMIT	IQUANT	3	I/E Range Lower Limit
IERANGEMODE	TOGGLE	F	I/E AutoRange
IERANGE	IQUANT	11	I/E Range
POSFEEDENABLE	TOGGLE	F	Positive Feedback IR Comp
POSFEEDRESISTANCE	QUANT	0	Positive Feedback Resistance (ohm)
FC350IDIVISOR	IQUANT	0	FC350 I Divisor
FC350VRANGE	IQUANT	0	FC350 V Range
FRAMEWORKVERSION	QUANT	4.35	Framework Version
ZCURVE	TABLE
	Pt	Time	Freq	Zreal	Zimag	Zsig	Zmod	Zphz	Idc	Vdc	IERange
	#	s	Hz	ohm	ohm	V	ohm	°	A	V	#
	0	4	100007	144.746	-0.912338	1	144.749	-0.361132	3.06715E-006	-0.439739	9
	1	6	89134.1	144.171	-0.907552	1	144.174	-0.360669	3.39585E-006	-0.43977	9
	2	8	79433.6	143.581	-1.34856	1	143.587	-0.538124	3.2412E-006	-0.439778	9
	3	10	70800.8	143.446	-1.77471	1	143.457	-0.708828	3.44485E-006	-0.439767	9
	4	12	63105.5	143.336	-2.07391	1	143.351	-0.82895	3.6676E-006	-0.43979	9
	5	14	56243.5	143.211	-2.19569	1	143.228	-0.878379	3.44379E-006	-0.439748	9
	6	16	50123.7	143.053	-2.89608	1	143.082	-1.15978	3.63631E-006	-0.439758	9
	7	18	44681	142.839	-3.23701	1	142.875	-1.29821	3.62362E-006	-0.439798	9
	8	20	39811.2	142.846	-3.68271	1	142.894	-1.47681	3.24423E-006	-0.439779	9
	9	22	35488.3	142.854	-3.99929	1	142.909	-1.60362	3.27238E-006	-0.43975	9
	10	24	31634.1	142.978	-4.58502	1	143.051	-1.83673	3.24031E-006	-0.439785	9
	11	26	28173.1	143.112	-5.14167	1	143.204	-2.05762	3.14035E-006	-0.439777	9
	12	28	25123.7	143.121	-5.56897	1	143.229	-2.22831	3.32804E-006	-0.439777	9
	13	30	22389.3	143.187	-6.23611	1	143.323	-2.49378	3.33893E-006	-0.439767	9
	14	32	19954.4	143.475	-6.94204	1	143.643	-2.7701	3.22743E-006	-0.439778	9
	15	34	17778.2	143.506	-7.65766	1	143.71	-3.05448	3.16949E-006	-0.43977	9
	16	36	15852.9	143.898	-8.34082	1	144.14	-3.31734	3.07748E-006	-0.439782	9
	17	38	14122.3	143.903	-9.29782	1	144.203	-3.69685	2.7329E-006	-0.439777	9
	18	40	12587.2	144.39	-10.2266	1	144.752	-4.05126	2.91504E-006	-0.439767	9
	19	42	11221.1	144.619	-11.2572	1	145.056	-4.45094	2.72984E-006	-0.439781	9
	20	44	9998.2	144.715	-12.4712	1	145.251	-4.92547	2.82874E-006	-0.439782	9
	21	46	8912.76	145.179	-13.5981	1	145.814	-5.35097	2.57473E-006	-0.439779	9
	22	48	7942.6	145.54	-14.8146	1	146.293	-5.81214	2.54793E-006	-0.439779	9
	23	49	7078.05	145.852	-16.4416	1	146.776	-6.4317	2.54482E-006	-0.439772	9
	24	51	6311.1	146.304	-18.2178	1	147.434	-7.09794	2.6597E-006	-0.439772	9
	25	53	5622.14	146.77	-19.8546	1	148.107	-7.70405	2.58674E-006	-0.439775	9
	26	55	5011.18	147.137	-22.0121	1	148.774	-8.50851	2.35289E-006	-0.439773	9
	27	57	4465.21	147.808	-24.3603	1	149.802	-9.35881	2.33404E-006	-0.439781	9
	28	59	3980.93	148.554	-26.5828	1	150.914	-10.1453	2.46978E-006	-0.439778	9
	29	61	3548.18	149.014	-29.2007	1	151.848	-11.0872	2.3207E-006	-0.439764	9
	30	63	3162.67	149.919	-32.182	1	153.334	-12.1155	2.59906E-006	-0.439783	9
	31	65	2819.01	150.562	-35.2152	1	154.625	-13.1644	2.44681E-006	-0.439781	9
	32	67	2511.16	151.48	-38.9349	1	156.404	-14.4147	2.39367E-006	-0.439772	9
	33	69	2238.63	152.586	-43.0854	1	158.552	-15.768	2.35468E-006	-0.439772	9
	34	71	1995.37	153.513	-47.2192	1	160.611	-17.0974	2.21195E-006	-0.439775	9
	35	73	1778.51	155.087	-52.2297	1	163.646	-18.6123	2.07565E-006	-0.439777	9
	36	75	1584.49	156.042	-57.3194	1	166.236	-20.17	1.99684E-006	-0.439769	9
	37	77	1412.76	157.499	-62.9051	1	169.597	-21.7717	1.96629E-006	-0.43976	9
	38	79	1259.04	158.88	-69.2271	1	173.307	-23.5437	2.04287E-006	-0.439779	9
	39	81	1121.63	160.515	-76.7535	1	177.922	-25.5557	2.12028E-006	-0.439784	9
	40	83	999.95	162.185	-84.0604	1	182.675	-27.3976	2.08568E-006	-0.439781	9
	41	85	891.184	164.142	-92.5399	1	188.431	-29.4134	2.10063E-006	-0.439783	9
	42	87	794.163	165.97	-101.996	1	194.806	-31.5726	2.07676E-006	-0.439784	9
	43	89	707.867	168.565	-112.727	1	202.784	-33.7723	1.92979E-006	-0.439768	9
	44	91	630.984	170.987	-124.246	1	211.361	-36.0036	2.09799E-006	-0.439783	9
	45	93	562.189	173.563	-136.71	1	220.938	-38.2265	2.25821E-006	-0.43979	9
	46	95	501.303	176.44	-150.979	1	232.219	-40.5534	2.2512E-006	-0.439783	9
	47	97	446.614	179.456	-166.72	1	244.949	-42.893	2.34506E-006	-0.439786	9
	48	99	398.209	182.749	-184.052	1	259.369	-45.2035	2.31396E-006	-0.439782	9
	49	101	354.821	186.345	-203.336	1	275.808	-47.4968	2.16596E-006	-0.439783	9
	50	103	316.113	190.356	-224.773	1	294.548	-49.7394	2.16717E-006	-0.439786	9
	51	105	281.926	194.605	-248.334	1	315.501	-51.9162	2.17184E-006	-0.439785	9
	52	107	251.185	199.322	-274.727	1	339.417	-54.0381	2.21326E-006	-0.439785	9
	53	109	223.946	204.544	-303.816	1	366.255	-56.0496	2.48885E-006	-0.439783	9
	54	111	199.495	210.239	-336.325	1	396.63	-57.9903	2.58992E-006	-0.439793	9
	55	113	177.836	216.521	-372.189	1	430.588	-59.8113	2.5441E-006	-0.439788	9
	56	115	158.533	223.371	-412.028	1	468.681	-61.5367	2.48949E-006	-0.43979	9
	57	117	141.263	231.117	-456.435	1	511.613	-63.1446	2.35692E-006	-0.439794	9
	58	119	125.911	239.574	-505.585	1	559.474	-64.6458	2.26542E-006	-0.439789	9
	59	121	112.198	248.999	-560.158	1	613.007	-66.0341	2.25553E-006	-0.439792	9
	60	123	100.009	259.293	-620.793	1	672.768	-67.3306	2.15989E-006	-0.43979	9
	61	126	89.1164	271.178	-688.148	1	739.652	-68.4921	2.14771E-006	-0.439789	9
	62	128	79.4083	284.066	-762.907	1	814.076	-69.5773	1.90635E-006	-0.439791	9
	63	130	70.788	298.185	-845.749	1	896.775	-70.5789	1.78816E-006	-0.439794	9
	64	132	63.0971	314.934	-937.664	1	989.14	-71.4343	1.86941E-006	-0.439799	9
	65	134	54.5476	338.715	-1068.82	1	1121.21	-72.4163	1.95981E-006	-0.439796	9
	66	136	50.0083	354.093	-1154.91	1	1207.97	-72.9546	1.38912E-006	-0.439798	8
	67	138	46.1675	371.014	-1240.92	1	1295.2	-73.3543	1.47287E-006	-0.439798	8
	68	140	40.0059	403.797	-1411.62	1	1468.24	-74.0367	1.47685E-006	-0.439795	8
	69	142	35.3046	437.36	-1579.37	1	1638.81	-74.5215	1.44499E-006	-0.439797	8
	70	144	31.5793	471.556	-1746.13	1	1808.68	-74.8873	1.48898E-006	-0.439798	8
	71	146	28.5748	510.14	-1910.34	1	1977.29	-75.0486	1.57157E-006	-0.439802	8
	72	149	24.9911	565.37	-2153.66	1	2226.63	-75.2908	1.6032E-006	-0.439801	8
	73	151	22.2195	619.272	-2394.36	1	2473.15	-75.4989	1.48719E-006	-0.439802	8
	74	153	20.0011	669.827	-2629.64	1	2713.6	-75.7094	1.45781E-006	-0.439803	8
	75	156	17.6486	751.143	-2940.48	1	3034.9	-75.6703	1.43333E-006	-0.4398	8
	76	158	15.7934	818.081	-3248.38	1	3349.81	-75.8644	1.14563E-006	-0.4398	8
	77	160	14.2828	900.66	-3553.39	1	3665.76	-75.7771	1.24419E-006	-0.439801	8
	78	162	12.5002	1025.73	-4000.96	1	4130.35	-75.6207	1.26621E-006	-0.439808	8
	79	165	11.323	1137.53	-4359.54	1	4505.51	-75.376	1.25666E-006	-0.439802	8
	80	167	9.9987	1283.89	-4870.41	1	5036.79	-75.2322	1.21086E-006	-0.439805	8
