EXPLAIN
TAG	EISPOT
TITLE	LABEL	Tomato_open	Test &Identifier
DATE	LABEL	5/14/2006	Date
TIME	LABEL	12:26:04	Time
NOTES	NOTES	1	&Notes...
	
PSTAT	PSTAT	300	Potentiostat
VDC	POTEN	1.00000E-001	T	DC &Voltage (V)
FREQINIT	QUANT	1.00000E+005	Initial Fre&q. (Hz)
FREQFINAL	QUANT	1.00000E+001	Final Fre&q. (Hz)
PTSPERDEC	QUANT	2.00000E+001	Points/&decade
VAC	QUANT	1.00000E+001	AC &Voltage (mV rms)
AREA	QUANT	1.00000E+000	&Area (cm²)
DENSITY	QUANT	7.87000E+000	&Density (gm/cm³)
EQUIV	QUANT	7.00000E+000	Equiv. &Wt
CONDIT	TWOPARAM	F	1.50000E+001	0.00000E+000	Conditionin&g	Time(s)	E(V)
DELAY	TWOPARAM	F	6.00000E+002	0.00000E+000	Init. De&lay	Time(s)	Stab.(mV/s)
SPEED	SELECTOR	1	&Optimize for:
ZGUESS	QUANT	1.00000E+002	E&stimated Z (ohms)
OCVCURVE	TABLE	39
	Pt	T	Vf	Vm	Ach	Over
	#	s	V vs. Ref.	V	V	bits
	0	0.258332	-5.33319E-001	3.83176E-006	1.36600E-004	......
	1	0.516663	-5.33620E-001	3.83176E-006	2.36600E-004	......
	2	0.774994	-5.32719E-001	3.83176E-006	4.36600E-004	......
	3	1.03333	-5.33269E-001	3.83176E-006	2.36600E-004	......
	4	1.29166	-5.33469E-001	3.83176E-006	3.36600E-004	......
	5	1.54999	-5.32470E-001	3.83176E-006	2.36600E-004	......
	6	1.80832	-5.31069E-001	3.83176E-006	4.36600E-004	......
	7	2.06665	-5.32369E-001	3.83176E-006	3.36600E-004	......
	8	2.32498	-5.32919E-001	3.83176E-006	3.36600E-004	......
	9	2.58332	-5.34270E-001	3.83176E-006	3.36600E-004	......
	10	2.84165	-5.35419E-001	3.83176E-006	3.36600E-004	......
	11	3.09998	-5.36720E-001	3.83176E-006	2.36600E-004	......
	12	3.35831	-5.37069E-001	3.83176E-006	3.36600E-004	......
	13	3.61664	-5.37669E-001	3.83176E-006	2.36600E-004	......
	14	3.87497	-5.37369E-001	3.83176E-006	2.36600E-004	......
	15	4.1333	-5.35919E-001	3.83176E-006	2.36600E-004	......
	16	4.39164	-5.34369E-001	3.83176E-006	4.36600E-004	......
	17	4.64997	-5.33669E-001	3.83176E-006	2.36600E-004	......
	18	4.9083	-5.33619E-001	3.83176E-006	1.36600E-004	......
	19	5.16663	-5.35069E-001	3.83176E-006	2.36600E-004	......
	20	5.42496	-5.35469E-001	3.83176E-006	3.36600E-004	......
	21	5.68329	-5.35619E-001	3.83176E-006	3.36600E-004	......
	22	5.94162	-5.35969E-001	3.83176E-006	3.36600E-004	......
	23	6.19996	-5.36469E-001	3.83176E-006	2.36600E-004	......
	24	6.45829	-5.36869E-001	3.83176E-006	3.36600E-004	......
	25	6.71662	-5.37919E-001	3.83176E-006	2.36600E-004	......
	26	6.97495	-5.38219E-001	3.83176E-006	2.36600E-004	......
	27	7.23328	-5.38119E-001	3.83176E-006	2.36600E-004	......
	28	7.49161	-5.38319E-001	3.83176E-006	3.36600E-004	......
	29	7.74995	-5.37019E-001	3.83176E-006	2.36600E-004	......
	30	8.00828	-5.35819E-001	3.83176E-006	3.36600E-004	......
	31	8.26661	-5.36319E-001	3.83176E-006	2.36600E-004	......
	32	8.52494	-5.37269E-001	3.83176E-006	2.36600E-004	......
	33	8.78327	-5.37719E-001	3.83176E-006	3.36600E-004	......
	34	9.0416	-5.38669E-001	3.83176E-006	4.36600E-004	......
	35	9.29993	-5.39620E-001	3.83176E-006	2.36600E-004	......
	36	9.5583	-5.39970E-001	3.83176E-006	3.36600E-004	......
	37	9.8166	-5.40370E-001	3.83176E-006	2.36600E-004	......
	38	10.0749	-5.40869E-001	3.83176E-006	3.36600E-004	......
EOC	QUANT	-0.540869	Open Circuit (V)
PSTATMODEL	IQUANT	32	Pstat Model
PSTATSECTION	LABEL	PStat0	Pstat Section
CTRLMODE	IQUANT	1	Control Mode
IESTAB	IQUANT	0	I/E Stability
CASPEED	IQUANT	1	Control Amp Speed
CONVENTION	IQUANT	1	Current Convention
ICHRANGE	IQUANT	2	Ich Range
ICHRANGEMODE	TOGGLE	F	Ich Auto Range
ICHOFFSETENABLE	TOGGLE	T	Ich Offset Enable
ICHOFFSET	QUANT	0	Ich Offset (V)
ICHFILTER	IQUANT	3	Ich Filter
VCHRANGE	IQUANT	2	Vch Range
VCHRANGEMODE	TOGGLE	F	Vch Auto Range
VCHOFFSETENABLE	TOGGLE	T	Vch Offset Enable
VCHOFFSET	QUANT	0	Vch Offset (V)
VCHFILTER	IQUANT	3	Vch Filter
ACHRANGE	IQUANT	0	Ach Range
IERANGELOWERLIMIT	IQUANT	3	I/E Range Lower Limit
IERANGEMODE	TOGGLE	F	I/E AutoRange
IERANGE	IQUANT	11	I/E Range
POSFEEDENABLE	TOGGLE	F	Positive Feedback IR Comp
POSFEEDRESISTANCE	QUANT	0	Positive Feedback Resistance (ohm)
FC350IDIVISOR	IQUANT	0	FC350 I Divisor
FC350VRANGE	IQUANT	0	FC350 V Range
FRAMEWORKVERSION	QUANT	4.35	Framework Version
ZCURVE	TABLE
	Pt	Time	Freq	Zreal	Zimag	Zsig	Zmod	Zphz	Idc	Vdc	IERange
	#	s	Hz	ohm	ohm	V	ohm	°	A	V	#
	0	4	100007	141.731	-1.15452	1	141.736	-0.466714	2.64273E-006	-0.440569	9
	1	6	89134.1	140.923	-1.10968	1	140.927	-0.451159	2.71207E-006	-0.440569	9
	2	8	79433.6	140.675	-1.23557	1	140.681	-0.503223	2.86568E-006	-0.440564	9
	3	10	70800.8	140.24	-1.60338	1	140.249	-0.655039	3.41865E-006	-0.440582	9
	4	12	63105.5	139.994	-2.19009	1	140.011	-0.896271	3.19013E-006	-0.440564	9
	5	14	56243.5	139.908	-2.27184	1	139.927	-0.93029	2.94717E-006	-0.440558	9
	6	15	50123.7	139.878	-2.77619	1	139.905	-1.13701	2.95517E-006	-0.440569	9
	7	17	44681	139.793	-3.17284	1	139.829	-1.3002	2.81496E-006	-0.440554	9
	8	19	39811.2	139.762	-3.74434	1	139.812	-1.53463	3.31299E-006	-0.440577	9
	9	21	35488.3	139.912	-3.97701	1	139.969	-1.6282	3.14501E-006	-0.440581	9
	10	23	31634.1	139.893	-4.42433	1	139.963	-1.81146	2.94601E-006	-0.440558	9
	11	25	28173.1	139.742	-5.11272	1	139.835	-2.09534	2.69756E-006	-0.440565	9
	12	27	25123.7	140.186	-5.705	1	140.302	-2.33042	3.00627E-006	-0.440574	9
	13	29	22389.3	140.048	-6.22325	1	140.186	-2.54435	2.63635E-006	-0.44056	9
	14	31	19954.4	140.472	-6.97541	1	140.645	-2.84281	2.70043E-006	-0.440567	9
	15	33	17778.2	140.453	-7.60521	1	140.659	-3.09941	2.54174E-006	-0.440546	9
	16	35	15852.9	140.897	-8.43044	1	141.149	-3.42416	2.26977E-006	-0.440561	9
	17	37	14122.3	140.929	-9.21464	1	141.23	-3.74095	2.37802E-006	-0.440542	9
	18	39	12587.2	141.259	-10.2112	1	141.628	-4.13456	2.50965E-006	-0.440558	9
	19	41	11221.1	141.777	-11.1267	1	142.213	-4.48738	2.55935E-006	-0.44056	9
	20	43	9998.2	141.495	-12.3018	1	142.028	-4.96888	2.49906E-006	-0.440559	9
	21	45	8912.76	141.979	-13.5071	1	142.62	-5.43447	2.47945E-006	-0.440558	9
	22	47	7942.6	142.438	-15.0341	1	143.23	-6.02516	2.44923E-006	-0.440546	9
	23	49	7078.05	142.88	-16.3989	1	143.818	-6.5474	2.36668E-006	-0.440547	9
	24	51	6311.1	143.096	-17.968	1	144.22	-7.15693	2.3552E-006	-0.440545	9
	25	53	5622.14	143.539	-19.5226	1	144.86	-7.74521	2.20681E-006	-0.440537	9
	26	55	5011.18	144.077	-21.8906	1	145.731	-8.63926	2.14229E-006	-0.440544	9
	27	57	4465.21	144.685	-24.1778	1	146.691	-9.48686	2.08484E-006	-0.440556	9
	28	59	3980.93	145.612	-26.5469	1	148.012	-10.3322	2.12301E-006	-0.44053	9
	29	61	3548.18	145.872	-29.0776	1	148.742	-11.2734	2.19535E-006	-0.440559	9
	30	63	3162.67	146.59	-32.2441	1	150.095	-12.4053	1.97899E-006	-0.440531	9
	31	65	2819.01	147.468	-35.1071	1	151.59	-13.3909	1.91552E-006	-0.440531	9
	32	67	2511.16	148.438	-38.8655	1	153.442	-14.6724	2.06138E-006	-0.440558	9
	33	69	2238.63	149.596	-42.7169	1	155.576	-15.9366	2.04909E-006	-0.440556	9
	34	71	1995.37	150.396	-47.1471	1	157.613	-17.4055	1.89021E-006	-0.440546	9
	35	73	1778.51	151.598	-51.9822	1	160.263	-18.9265	1.91257E-006	-0.440544	9
	36	75	1584.49	152.98	-57.1663	1	163.312	-20.49	1.93323E-006	-0.440554	9
	37	77	1412.76	154.399	-62.6383	1	166.621	-22.082	1.65495E-006	-0.440557	9
	38	79	1259.04	155.947	-69.0774	1	170.561	-23.8912	1.87598E-006	-0.440548	9
	39	81	1121.63	157.384	-76.1794	1	174.852	-25.8286	2.0141E-006	-0.440551	9
	40	83	999.95	159.306	-83.7617	1	179.985	-27.735	2.05376E-006	-0.440554	9
	41	85	891.184	161.172	-92.8491	1	186.004	-29.9457	2.0917E-006	-0.440557	9
	42	87	794.163	163.101	-101.694	1	192.207	-31.9437	2.05879E-006	-0.440548	9
	43	89	707.867	165.412	-112.574	1	200.085	-34.2379	1.62826E-006	-0.440531	9
	44	91	630.984	167.62	-124.09	1	208.554	-36.5128	1.46929E-006	-0.440557	9
	45	93	562.189	170.249	-136.854	1	218.434	-38.794	1.65221E-006	-0.440564	9
	46	95	501.303	173.198	-150.674	1	229.566	-41.0218	1.67815E-006	-0.440559	9
	47	97	446.614	176.214	-166.411	1	242.372	-43.3612	1.50151E-006	-0.440557	9
	48	99	398.209	179.455	-183.728	1	256.827	-45.6741	1.68629E-006	-0.440553	9
	49	101	354.821	183.052	-203.024	1	273.362	-47.9613	1.68604E-006	-0.440552	9
	50	103	316.113	186.964	-224.469	1	292.133	-50.2085	1.60976E-006	-0.440558	9
	51	104	281.926	191.183	-248.022	1	313.155	-52.3738	1.80429E-006	-0.440557	9
	52	107	251.185	195.839	-274.401	1	337.118	-54.4847	1.72673E-006	-0.440555	9
	53	109	223.946	200.902	-303.443	1	363.922	-56.4925	1.5564E-006	-0.440558	9
	54	110	199.495	206.507	-335.984	1	394.374	-58.4237	1.63846E-006	-0.440562	9
	55	112	177.836	212.726	-371.902	1	428.443	-60.2307	1.74382E-006	-0.440557	9
	56	115	158.533	219.534	-411.764	1	466.632	-61.9355	1.8649E-006	-0.440559	9
	57	117	141.263	227.106	-456.078	1	509.494	-63.5287	1.65785E-006	-0.44057	9
	58	119	125.911	235.561	-505.42	1	557.619	-65.0112	1.90852E-006	-0.440566	9
	59	121	112.198	244.822	-560.189	1	611.35	-66.393	1.87762E-006	-0.440564	9
	60	123	100.009	255.357	-620.681	1	671.157	-67.6371	1.9623E-006	-0.440567	9
	61	125	89.1164	266.631	-688.206	1	738.051	-68.8222	1.6478E-006	-0.440571	9
	62	127	79.4083	278.806	-762.828	1	812.182	-69.9232	1.4529E-006	-0.44057	9
	63	129	70.788	292.873	-845.85	1	895.118	-70.9017	1.46179E-006	-0.440568	9
	64	131	63.0971	308.093	-937.705	1	987.02	-71.8115	1.40506E-006	-0.440577	9
	65	133	54.5476	330.717	-1069.12	1	1119.1	-72.8113	1.20151E-006	-0.440571	9
	66	135	50.0083	345.601	-1155.59	1	1206.16	-73.3497	8.3556E-007	-0.44057	8
	67	137	46.1675	361.112	-1241.51	1	1292.96	-73.7822	9.17784E-007	-0.440574	8
	68	140	40.0059	391.788	-1412.47	1	1465.8	-74.4972	9.23088E-007	-0.440575	8
	69	142	35.3046	424.387	-1581.3	1	1637.25	-74.977	9.74668E-007	-0.440575	8
	70	144	31.5793	455.64	-1747.3	1	1805.73	-75.3845	9.87713E-007	-0.440574	8
	71	146	28.5748	488.977	-1913.57	1	1975.06	-75.6659	1.00289E-006	-0.440575	8
	72	148	24.9911	538.659	-2159.25	1	2225.42	-75.9926	9.66274E-007	-0.440571	8
	73	151	22.2195	589.406	-2399.89	1	2471.21	-76.2014	8.97866E-007	-0.440579	8
	74	153	20.0011	637.968	-2637.31	1	2713.38	-76.4013	8.61599E-007	-0.440585	8
	75	157	17.6486	713.287	-2952.54	1	3037.47	-76.4184	9.96093E-007	-0.440577	8
	76	159	15.7934	788.301	-3261.97	1	3355.87	-76.4141	1.06387E-006	-0.440576	8
	77	161	14.2828	862.301	-3567.48	1	3670.21	-76.4116	1.06193E-006	-0.440578	8
	78	164	12.5002	994.27	-4011.89	1	4133.26	-76.0808	1.18157E-006	-0.440575	8
	79	166	11.323	1091.04	-4388.08	1	4521.68	-76.0373	1.15385E-006	-0.440577	8
	80	171	9.9987	1269.38	-4882.93	1	5045.23	-75.4277	1.34774E-006	-0.440572	8
