EXPLAIN
TAG	EISPOT
TITLE	LABEL	Tomato_open	Test &Identifier
DATE	LABEL	5/12/2006	Date
TIME	LABEL	14:47:57	Time
NOTES	NOTES	1	&Notes...
	
PSTAT	PSTAT	300	Potentiostat
VDC	POTEN	1.00000E-001	T	DC &Voltage (V)
FREQINIT	QUANT	1.00000E+005	Initial Fre&q. (Hz)
FREQFINAL	QUANT	1.00000E+001	Final Fre&q. (Hz)
PTSPERDEC	QUANT	2.00000E+001	Points/&decade
VAC	QUANT	1.00000E+001	AC &Voltage (mV rms)
AREA	QUANT	1.00000E+000	&Area (cm²)
DENSITY	QUANT	7.87000E+000	&Density (gm/cm³)
EQUIV	QUANT	7.00000E+000	Equiv. &Wt
CONDIT	TWOPARAM	F	1.50000E+001	0.00000E+000	Conditionin&g	Time(s)	E(V)
DELAY	TWOPARAM	F	6.00000E+002	0.00000E+000	Init. De&lay	Time(s)	Stab.(mV/s)
SPEED	SELECTOR	1	&Optimize for:
ZGUESS	QUANT	1.00000E+002	E&stimated Z (ohms)
OCVCURVE	TABLE	39
	Pt	T	Vf	Vm	Ach	Over
	#	s	V vs. Ref.	V	V	bits
	0	0.258332	-5.77469E-001	3.14904E-006	1.36600E-004	......
	1	0.516663	-5.77819E-001	3.14904E-006	-6.34000E-005	......
	2	0.774994	-5.77069E-001	3.14904E-006	1.36600E-004	......
	3	1.03333	-5.78019E-001	3.14904E-006	-6.34000E-005	......
	4	1.29166	-5.79820E-001	3.14904E-006	3.36600E-004	......
	5	1.54999	-5.80319E-001	3.14904E-006	-6.34000E-005	......
	6	1.80832	-5.81620E-001	3.14904E-006	3.66000E-005	......
	7	2.06665	-5.81869E-001	3.14904E-006	3.66000E-005	......
	8	2.32498	-5.82469E-001	3.14904E-006	2.36600E-004	......
	9	2.58332	-5.83219E-001	3.14904E-006	-6.34000E-005	......
	10	2.84165	-5.82720E-001	3.14904E-006	1.36600E-004	......
	11	3.09998	-5.83819E-001	3.14904E-006	3.66000E-005	......
	12	3.35831	-5.83619E-001	3.14904E-006	2.36600E-004	......
	13	3.61664	-5.84019E-001	3.14904E-006	3.66000E-005	......
	14	3.87497	-5.84669E-001	3.14904E-006	2.36600E-004	......
	15	4.1333	-5.83869E-001	3.14904E-006	3.66000E-005	......
	16	4.39164	-5.84669E-001	3.14904E-006	3.66000E-005	......
	17	4.64997	-5.84469E-001	3.14904E-006	-6.34000E-005	......
	18	4.9083	-5.84369E-001	3.14904E-006	2.36600E-004	......
	19	5.16663	-5.84669E-001	3.14904E-006	-6.34000E-005	......
	20	5.42496	-5.84369E-001	3.14904E-006	3.36600E-004	......
	21	5.68329	-5.85220E-001	3.14904E-006	-6.34000E-005	......
	22	5.94162	-5.85169E-001	3.14904E-006	2.36600E-004	......
	23	6.19996	-5.85769E-001	3.14904E-006	3.66000E-005	......
	24	6.45829	-5.86069E-001	3.14904E-006	1.36600E-004	......
	25	6.71662	-5.85619E-001	3.14904E-006	-1.63400E-004	......
	26	6.97495	-5.86569E-001	3.14904E-006	2.36600E-004	......
	27	7.23328	-5.86019E-001	3.14904E-006	3.66000E-005	......
	28	7.49161	-5.86320E-001	3.14904E-006	3.36600E-004	......
	29	7.74995	-5.86169E-001	3.14904E-006	3.66000E-005	......
	30	8.00828	-5.85769E-001	3.14904E-006	2.36600E-004	......
	31	8.26661	-5.86769E-001	3.14904E-006	-1.63400E-004	......
	32	8.52494	-5.85570E-001	3.14904E-006	2.36600E-004	......
	33	8.78327	-5.84219E-001	3.14904E-006	-6.34000E-005	......
	34	9.0416	-5.79719E-001	3.14904E-006	2.36600E-004	......
	35	9.29993	-5.75719E-001	3.14904E-006	3.66000E-005	......
	36	9.5583	-5.76919E-001	3.14904E-006	2.36600E-004	......
	37	9.8166	-5.77069E-001	3.14904E-006	3.66000E-005	......
	38	10.0749	-5.77869E-001	3.14904E-006	2.36600E-004	......
EOC	QUANT	-0.577869	Open Circuit (V)
PSTATMODEL	IQUANT	32	Pstat Model
PSTATSECTION	LABEL	PStat0	Pstat Section
CTRLMODE	IQUANT	1	Control Mode
IESTAB	IQUANT	0	I/E Stability
CASPEED	IQUANT	1	Control Amp Speed
CONVENTION	IQUANT	1	Current Convention
ICHRANGE	IQUANT	2	Ich Range
ICHRANGEMODE	TOGGLE	F	Ich Auto Range
ICHOFFSETENABLE	TOGGLE	T	Ich Offset Enable
ICHOFFSET	QUANT	0	Ich Offset (V)
ICHFILTER	IQUANT	3	Ich Filter
VCHRANGE	IQUANT	2	Vch Range
VCHRANGEMODE	TOGGLE	F	Vch Auto Range
VCHOFFSETENABLE	TOGGLE	T	Vch Offset Enable
VCHOFFSET	QUANT	0	Vch Offset (V)
VCHFILTER	IQUANT	3	Vch Filter
ACHRANGE	IQUANT	0	Ach Range
IERANGELOWERLIMIT	IQUANT	3	I/E Range Lower Limit
IERANGEMODE	TOGGLE	F	I/E AutoRange
IERANGE	IQUANT	11	I/E Range
POSFEEDENABLE	TOGGLE	F	Positive Feedback IR Comp
POSFEEDRESISTANCE	QUANT	0	Positive Feedback Resistance (ohm)
FC350IDIVISOR	IQUANT	0	FC350 I Divisor
FC350VRANGE	IQUANT	0	FC350 V Range
FRAMEWORKVERSION	QUANT	4.35	Framework Version
ZCURVE	TABLE
	Pt	Time	Freq	Zreal	Zimag	Zsig	Zmod	Zphz	Idc	Vdc	IERange
	#	s	Hz	ohm	ohm	V	ohm	°	A	V	#
	0	4	100007	114.236	-1.06002	1	114.241	-0.531644	2.6611E-006	-0.477763	9
	1	6	89134.1	113.721	-1.33281	1	113.729	-0.671476	2.71879E-006	-0.477784	9
	2	8	79433.6	113.559	-1.78321	1	113.573	-0.89964	2.64732E-006	-0.477779	9
	3	10	70800.8	113.311	-1.86518	1	113.327	-0.94304	2.30128E-006	-0.477757	9
	4	12	63105.5	113.171	-2.20689	1	113.193	-1.11715	2.55823E-006	-0.477771	9
	5	14	56243.5	113.046	-2.4366	1	113.072	-1.23477	2.45942E-006	-0.47775	9
	6	15	50123.7	112.856	-3.15576	1	112.9	-1.60173	2.7829E-006	-0.477778	9
	7	17	44681	112.919	-3.52008	1	112.974	-1.78554	2.86242E-006	-0.477774	9
	8	19	39811.2	113.078	-3.85506	1	113.144	-1.95257	2.69371E-006	-0.477773	9
	9	21	35488.3	112.925	-4.46634	1	113.014	-2.26494	2.64803E-006	-0.477777	9
	10	23	31634.1	112.97	-4.99284	1	113.08	-2.53062	2.55445E-006	-0.477759	9
	11	25	28173.1	113.072	-5.68548	1	113.215	-2.87853	2.73865E-006	-0.477769	9
	12	27	25123.7	113.401	-6.20983	1	113.571	-3.13438	2.59907E-006	-0.477753	9
	13	29	22389.3	113.457	-6.91911	1	113.668	-3.48981	2.8454E-006	-0.477772	9
	14	31	19954.4	113.554	-7.72909	1	113.817	-3.89386	2.56863E-006	-0.477761	9
	15	33	17778.2	113.836	-8.51005	1	114.154	-4.2753	2.6484E-006	-0.477776	9
	16	35	15852.9	114.08	-9.33214	1	114.461	-4.67658	2.60587E-006	-0.477769	9
	17	37	14122.3	114.362	-10.2246	1	114.818	-5.10898	2.61117E-006	-0.47777	9
	18	39	12587.2	114.483	-11.5425	1	115.063	-5.75727	2.59574E-006	-0.477773	9
	19	41	11221.1	114.883	-12.682	1	115.581	-6.29939	2.62431E-006	-0.477772	9
	20	43	9998.2	115.118	-13.8131	1	115.944	-6.84223	2.66668E-006	-0.477761	9
	21	45	8912.76	115.231	-15.3421	1	116.248	-7.58388	2.60746E-006	-0.477771	9
	22	47	7942.6	115.816	-16.9408	1	117.049	-8.32181	2.48074E-006	-0.477764	9
	23	49	7078.05	116.25	-18.6	1	117.728	-9.09029	2.58149E-006	-0.477766	9
	24	51	6311.1	116.612	-20.3669	1	118.377	-9.907	2.67448E-006	-0.477762	9
	25	53	5622.14	117.113	-22.6855	1	119.29	-10.9628	2.73998E-006	-0.477772	9
	26	55	5011.18	117.732	-25.0717	1	120.372	-12.0219	2.76553E-006	-0.477764	9
	27	57	4465.21	118.255	-27.571	1	121.426	-13.124	2.59123E-006	-0.477764	9
	28	59	3980.93	118.78	-30.3089	1	122.586	-14.3146	2.64968E-006	-0.47778	9
	29	61	3548.18	119.376	-33.6	1	124.015	-15.7199	2.68176E-006	-0.477777	9
	30	63	3162.67	120.288	-37.0268	1	125.858	-17.1093	2.66254E-006	-0.477782	9
	31	65	2819.01	120.842	-40.9805	1	127.602	-18.733	2.31004E-006	-0.477758	9
	32	67	2511.16	121.674	-45.2493	1	129.816	-20.3996	2.53235E-006	-0.477769	9
	33	69	2238.63	122.682	-49.7948	1	132.402	-22.0915	2.47579E-006	-0.477766	9
	34	71	1995.37	123.585	-55.1824	1	135.346	-24.0614	2.57652E-006	-0.477762	9
	35	73	1778.51	124.709	-60.8475	1	138.762	-26.0084	2.46167E-006	-0.477759	9
	36	75	1584.49	125.928	-67.1099	1	142.694	-28.0541	2.32799E-006	-0.47775	9
	37	77	1412.76	127.112	-74.109	1	147.138	-30.2432	2.51373E-006	-0.47777	9
	38	79	1259.04	128.409	-81.8674	1	152.287	-32.5196	2.34017E-006	-0.477759	9
	39	81	1121.63	129.957	-90.5876	1	158.414	-34.8788	2.35032E-006	-0.477762	9
	40	82	999.95	131.14	-100.39	1	165.154	-37.4347	2.46806E-006	-0.47776	9
	41	84	891.184	132.815	-111.26	1	173.259	-39.9531	2.42976E-006	-0.477764	9
	42	86	794.163	134.757	-123.17	1	182.566	-42.4277	2.35584E-006	-0.477764	9
	43	88	707.867	136.369	-136.678	1	193.073	-45.0649	2.74671E-006	-0.477778	9
	44	90	630.984	138.466	-151.457	1	205.212	-47.5658	2.50193E-006	-0.477756	9
	45	92	562.189	140.622	-168.055	1	219.128	-50.0786	2.64981E-006	-0.477765	9
	46	94	501.303	143.152	-186.024	1	234.729	-52.4205	2.55707E-006	-0.477748	9
	47	96	446.614	145.736	-206.551	1	252.789	-54.7943	2.4207E-006	-0.477756	9
	48	98	398.209	148.573	-229.261	1	273.194	-57.0547	2.39312E-006	-0.477763	9
	49	100	354.821	151.722	-254.701	1	296.466	-59.2183	2.56307E-006	-0.477752	9
	50	102	316.113	155.231	-283.043	1	322.816	-61.2581	2.53417E-006	-0.477748	9
	51	104	281.926	159.059	-314.335	1	352.287	-63.1598	2.49654E-006	-0.47775	9
	52	106	251.185	163.366	-349.465	1	385.765	-64.9451	2.4872E-006	-0.477741	9
	53	108	223.946	168.103	-388.36	1	423.181	-66.5944	2.43328E-006	-0.477741	9
	54	110	199.495	173.407	-431.919	1	465.429	-68.1255	2.43746E-006	-0.47774	9
	55	112	177.836	179.447	-480.379	1	512.801	-69.5167	2.41433E-006	-0.477749	9
	56	114	158.533	186.124	-534.242	1	565.735	-70.7923	2.43496E-006	-0.477749	9
	57	116	141.263	193.325	-594.352	1	625.003	-71.9819	2.29901E-006	-0.477748	9
	58	118	125.911	201.824	-661.232	1	691.346	-73.0266	2.3755E-006	-0.477752	9
	59	120	112.198	211.089	-735.632	1	765.319	-73.9892	2.30494E-006	-0.477751	9
	60	122	100.009	221.71	-818.503	1	847.999	-74.8438	2.37837E-006	-0.477756	9
	61	125	89.1164	233.948	-910.846	1	940.41	-75.5951	2.35699E-006	-0.477754	9
	62	127	79.4083	247.419	-1014.04	1	1043.79	-76.2881	2.32752E-006	-0.477753	9
	63	129	70.788	263.207	-1127.76	1	1158.07	-76.863	1.6769E-006	-0.477757	8
	64	131	63.0971	281.947	-1254.75	1	1286.04	-77.3358	1.75259E-006	-0.477759	8
	65	133	54.5476	307.496	-1436.57	1	1469.11	-77.9183	1.72677E-006	-0.477758	8
	66	135	50.0083	325.005	-1557.09	1	1590.65	-78.2102	1.65099E-006	-0.477757	8
	67	137	46.1675	341.806	-1677.9	1	1712.36	-78.4858	1.44466E-006	-0.477759	8
	68	139	40.0059	379.748	-1915.77	1	1953.05	-78.7881	1.50256E-006	-0.477762	8
	69	141	35.3046	418.647	-2151.89	1	2192.24	-78.9907	1.48156E-006	-0.477771	8
	70	144	31.5793	459.698	-2388.12	1	2431.96	-79.1042	1.48297E-006	-0.477765	8
	71	146	28.5748	499.844	-2618.67	1	2665.95	-79.1936	1.46779E-006	-0.477762	8
	72	148	24.9911	565.096	-2962.95	1	3016.36	-79.2022	1.51191E-006	-0.477767	8
	73	150	22.2195	641.531	-3307.32	1	3368.97	-79.0225	1.41011E-006	-0.477762	8
	74	152	20.0011	705.18	-3644.95	1	3712.54	-79.0504	1.48087E-006	-0.477765	8
	75	155	17.6486	807.713	-4087.44	1	4166.48	-78.8219	1.50705E-006	-0.477766	8
	76	157	15.7934	910.871	-4523.34	1	4614.14	-78.6145	1.49872E-006	-0.477769	8
	77	159	14.2828	1018.42	-4958	1	5061.52	-78.3923	1.37326E-006	-0.477768	8
	78	161	12.5002	1175.48	-5598.84	1	5720.91	-78.143	1.33212E-006	-0.477759	8
	79	164	11.323	1337.39	-6144.46	1	6288.32	-77.7207	1.59146E-006	-0.477767	8
	80	167	9.9987	1685.94	-6820.45	1	7025.73	-76.1155	1.79812E-006	-0.47777	8
