EXPLAIN
TAG	EISPOT
TITLE	LABEL	Tomato_open	Test &Identifier
DATE	LABEL	5/12/2006	Date
TIME	LABEL	14:32:55	Time
NOTES	NOTES	1	&Notes...
	
PSTAT	PSTAT	300	Potentiostat
VDC	POTEN	1.00000E-001	T	DC &Voltage (V)
FREQINIT	QUANT	1.00000E+005	Initial Fre&q. (Hz)
FREQFINAL	QUANT	1.00000E+001	Final Fre&q. (Hz)
PTSPERDEC	QUANT	2.00000E+001	Points/&decade
VAC	QUANT	1.00000E+001	AC &Voltage (mV rms)
AREA	QUANT	1.00000E+000	&Area (cm²)
DENSITY	QUANT	7.87000E+000	&Density (gm/cm³)
EQUIV	QUANT	7.00000E+000	Equiv. &Wt
CONDIT	TWOPARAM	F	1.50000E+001	0.00000E+000	Conditionin&g	Time(s)	E(V)
DELAY	TWOPARAM	F	6.00000E+002	0.00000E+000	Init. De&lay	Time(s)	Stab.(mV/s)
SPEED	SELECTOR	1	&Optimize for:
ZGUESS	QUANT	1.00000E+002	E&stimated Z (ohms)
OCVCURVE	TABLE	39
	Pt	T	Vf	Vm	Ach	Over
	#	s	V vs. Ref.	V	V	bits
	0	0.258332	-5.42969E-001	4.98504E-006	3.66000E-005	......
	1	0.516663	-5.42470E-001	4.98504E-006	2.36600E-004	......
	2	0.774994	-5.53019E-001	4.98504E-006	3.66000E-005	......
	3	1.03333	-5.38619E-001	4.98504E-006	3.36600E-004	......
	4	1.29166	-5.36969E-001	4.98504E-006	3.66000E-005	......
	5	1.54999	-5.40320E-001	4.98504E-006	2.36600E-004	......
	6	1.80832	-5.41719E-001	4.98504E-006	3.66000E-005	......
	7	2.06665	-5.40670E-001	4.98504E-006	2.36600E-004	......
	8	2.32498	-5.43769E-001	4.98504E-006	3.66000E-005	......
	9	2.58332	-5.44270E-001	4.98504E-006	1.36600E-004	......
	10	2.84165	-5.46019E-001	4.98504E-006	3.66000E-005	......
	11	3.09998	-5.45720E-001	4.98504E-006	2.36600E-004	......
	12	3.35831	-5.49119E-001	4.98504E-006	-6.34000E-005	......
	13	3.61664	-5.47469E-001	4.98504E-006	2.36600E-004	......
	14	3.87497	-5.46070E-001	4.98504E-006	3.66000E-005	......
	15	4.1333	-5.50269E-001	4.98504E-006	1.36600E-004	......
	16	4.39164	-5.53620E-001	4.98504E-006	3.66000E-005	......
	17	4.64997	-5.53469E-001	4.98504E-006	3.66000E-005	......
	18	4.9083	-5.55519E-001	4.98504E-006	-6.34000E-005	......
	19	5.16663	-5.58919E-001	4.98504E-006	1.36600E-004	......
	20	5.42496	-5.53369E-001	4.98504E-006	-1.63400E-004	......
	21	5.68329	-5.58720E-001	4.98504E-006	2.36600E-004	......
	22	5.94162	-5.53569E-001	4.98504E-006	1.36600E-004	......
	23	6.19996	-5.53670E-001	4.98504E-006	2.36600E-004	......
	24	6.45829	-5.52769E-001	4.98504E-006	-6.34000E-005	......
	25	6.71662	-5.53819E-001	4.98504E-006	3.36600E-004	......
	26	6.97495	-5.60569E-001	4.98504E-006	3.66000E-005	......
	27	7.23328	-5.59269E-001	4.98504E-006	2.36600E-004	......
	28	7.49161	-5.45519E-001	4.98504E-006	-1.63400E-004	......
	29	7.74995	-5.36969E-001	4.98504E-006	2.36600E-004	......
	30	8.00828	-5.36469E-001	4.98504E-006	-6.34000E-005	......
	31	8.26661	-5.29419E-001	4.98504E-006	2.36600E-004	......
	32	8.52494	-5.39670E-001	4.98504E-006	-6.34000E-005	......
	33	8.78327	-5.46869E-001	4.98504E-006	2.36600E-004	......
	34	9.0416	-5.53569E-001	4.98504E-006	-6.34000E-005	......
	35	9.29993	-5.54969E-001	4.98504E-006	2.36600E-004	......
	36	9.5583	-5.43169E-001	4.98504E-006	3.66000E-005	......
	37	9.8166	-5.46919E-001	4.98504E-006	2.36600E-004	......
	38	10.0749	-5.42069E-001	4.98504E-006	-6.34000E-005	......
EOC	QUANT	-0.542069	Open Circuit (V)
PSTATMODEL	IQUANT	32	Pstat Model
PSTATSECTION	LABEL	PStat0	Pstat Section
CTRLMODE	IQUANT	1	Control Mode
IESTAB	IQUANT	0	I/E Stability
CASPEED	IQUANT	1	Control Amp Speed
CONVENTION	IQUANT	1	Current Convention
ICHRANGE	IQUANT	2	Ich Range
ICHRANGEMODE	TOGGLE	F	Ich Auto Range
ICHOFFSETENABLE	TOGGLE	T	Ich Offset Enable
ICHOFFSET	QUANT	0	Ich Offset (V)
ICHFILTER	IQUANT	3	Ich Filter
VCHRANGE	IQUANT	2	Vch Range
VCHRANGEMODE	TOGGLE	F	Vch Auto Range
VCHOFFSETENABLE	TOGGLE	T	Vch Offset Enable
VCHOFFSET	QUANT	0	Vch Offset (V)
VCHFILTER	IQUANT	3	Vch Filter
ACHRANGE	IQUANT	0	Ach Range
IERANGELOWERLIMIT	IQUANT	3	I/E Range Lower Limit
IERANGEMODE	TOGGLE	F	I/E AutoRange
IERANGE	IQUANT	11	I/E Range
POSFEEDENABLE	TOGGLE	F	Positive Feedback IR Comp
POSFEEDRESISTANCE	QUANT	0	Positive Feedback Resistance (ohm)
FC350IDIVISOR	IQUANT	0	FC350 I Divisor
FC350VRANGE	IQUANT	0	FC350 V Range
FRAMEWORKVERSION	QUANT	4.35	Framework Version
ZCURVE	TABLE
	Pt	Time	Freq	Zreal	Zimag	Zsig	Zmod	Zphz	Idc	Vdc	IERange
	#	s	Hz	ohm	ohm	V	ohm	°	A	V	#
	0	4	100007	114.861	-1.30844	1	114.868	-0.652661	3.50946E-006	-0.441878	9
	1	6	89134.1	114.198	-1.237	1	114.205	-0.620608	4.10554E-006	-0.441904	9
	2	8	79433.6	114.034	-1.69307	1	114.046	-0.850611	3.73648E-006	-0.441889	9
	3	10	70800.8	113.852	-1.845	1	113.867	-0.928414	3.94385E-006	-0.441914	9
	4	12	63105.5	113.632	-2.30903	1	113.655	-1.16411	3.72832E-006	-0.441897	9
	5	14	56243.5	113.524	-2.57897	1	113.553	-1.30139	4.3307E-006	-0.4419	9
	6	16	50123.7	113.458	-3.1222	1	113.501	-1.5763	4.17606E-006	-0.441891	9
	7	18	44681	113.447	-3.42859	1	113.498	-1.73107	4.04677E-006	-0.441897	9
	8	20	39811.2	113.549	-3.88647	1	113.616	-1.96031	4.25528E-006	-0.441909	9
	9	22	35488.3	113.598	-4.38333	1	113.683	-2.20973	3.98509E-006	-0.441877	9
	10	24	31634.1	113.451	-4.97506	1	113.56	-2.51092	4.00323E-006	-0.4419	9
	11	26	28173.1	113.635	-5.55355	1	113.771	-2.79792	3.67448E-006	-0.441893	9
	12	28	25123.7	113.737	-6.23329	1	113.907	-3.13693	4.03898E-006	-0.441892	9
	13	30	22389.3	113.854	-6.99414	1	114.068	-3.51532	3.98665E-006	-0.441886	9
	14	32	19954.4	114.137	-7.6959	1	114.396	-3.85745	3.85812E-006	-0.441882	9
	15	34	17778.2	114.326	-8.46739	1	114.639	-4.23579	3.82556E-006	-0.441887	9
	16	36	15852.9	114.536	-9.23143	1	114.908	-4.60798	3.78004E-006	-0.441891	9
	17	38	14122.3	114.622	-10.4196	1	115.095	-5.19411	3.64598E-006	-0.441894	9
	18	40	12587.2	114.965	-11.3005	1	115.519	-5.6139	3.67087E-006	-0.441882	9
	19	42	11221.1	115.292	-12.507	1	115.968	-6.1913	3.55142E-006	-0.441871	9
	20	44	9998.2	115.448	-13.787	1	116.269	-6.81007	3.73409E-006	-0.441875	9
	21	46	8912.76	115.903	-15.0624	1	116.878	-7.40446	3.44056E-006	-0.441862	9
	22	48	7942.6	116.13	-16.7835	1	117.336	-8.22365	3.97421E-006	-0.441876	9
	23	50	7078.05	116.612	-18.5355	1	118.076	-9.0316	3.6821E-006	-0.441885	9
	24	52	6311.1	116.936	-20.4427	1	118.709	-9.9163	3.62345E-006	-0.441878	9
	25	54	5622.14	117.418	-22.5829	1	119.57	-10.8867	3.60092E-006	-0.44188	9
	26	56	5011.18	117.903	-24.7676	1	120.476	-11.8635	3.44159E-006	-0.441876	9
	27	58	4465.21	118.61	-27.2949	1	121.71	-12.9594	3.43423E-006	-0.441874	9
	28	60	3980.93	119.134	-30.189	1	122.899	-14.2197	3.06787E-006	-0.441868	9
	29	62	3548.18	119.818	-33.3022	1	124.36	-15.5327	2.99851E-006	-0.441883	9
	30	64	3162.67	120.536	-36.6687	1	125.99	-16.9205	3.51196E-006	-0.441893	9
	31	66	2819.01	121.398	-40.4955	1	127.975	-18.4474	3.41999E-006	-0.441862	9
	32	68	2511.16	122.246	-44.6746	1	130.153	-20.0748	3.59045E-006	-0.441879	9
	33	70	2238.63	123.05	-49.3626	1	132.582	-21.8587	3.52803E-006	-0.441886	9
	34	72	1995.37	124.067	-54.4197	1	135.478	-23.6837	3.32064E-006	-0.441875	9
	35	73	1778.51	125.357	-60.02	1	138.985	-25.5847	3.58213E-006	-0.441878	9
	36	75	1584.49	126.526	-66.2906	1	142.84	-27.6514	3.59856E-006	-0.441879	9
	37	77	1412.76	127.408	-73.1728	1	146.926	-29.8695	3.55849E-006	-0.441902	9
	38	79	1259.04	128.804	-81.1679	1	152.245	-32.2178	3.16728E-006	-0.441884	9
	39	81	1121.63	130.397	-89.4027	1	158.102	-34.4353	3.27817E-006	-0.44188	9
	40	83	999.95	131.674	-99.165	1	164.838	-36.9837	3.3216E-006	-0.441896	9
	41	85	891.184	133.26	-109.634	1	172.563	-39.4444	3.30565E-006	-0.441891	9
	42	87	794.163	134.862	-121.317	1	181.399	-41.9733	3.26326E-006	-0.44188	9
	43	89	707.867	137.076	-134.759	1	192.224	-44.5117	3.24565E-006	-0.441896	9
	44	91	630.984	138.565	-149.329	1	203.714	-47.1412	3.10874E-006	-0.441895	9
	45	93	562.189	141.458	-165.266	1	217.539	-49.4385	2.93748E-006	-0.441883	9
	46	95	501.303	143.725	-183.562	1	233.135	-51.9398	3.22787E-006	-0.441886	9
	47	97	446.614	146.369	-203.808	1	250.922	-54.3152	3.28913E-006	-0.441886	9
	48	99	398.209	149.268	-226.222	1	271.03	-56.582	3.29857E-006	-0.441888	9
	49	101	354.821	152.57	-251.243	1	293.94	-58.7313	3.45954E-006	-0.441879	9
	50	103	316.113	156.186	-279.199	1	319.916	-60.777	3.46726E-006	-0.441877	9
	51	105	281.926	160.176	-310.001	1	348.937	-62.6749	3.36885E-006	-0.441879	9
	52	107	251.185	164.738	-344.627	1	381.977	-64.4513	3.51851E-006	-0.441882	9
	53	109	223.946	169.635	-382.957	1	418.846	-66.1085	3.36734E-006	-0.441871	9
	54	111	199.495	175.321	-425.888	1	460.562	-67.6251	3.42409E-006	-0.441876	9
	55	113	177.836	181.557	-473.411	1	507.031	-69.0178	3.22663E-006	-0.441874	9
	56	115	158.533	188.731	-526.362	1	559.175	-70.2743	3.35144E-006	-0.441875	9
	57	117	141.263	196.46	-585.467	1	617.55	-71.4502	3.13996E-006	-0.441877	9
	58	119	125.911	205.355	-651.038	1	682.658	-72.4933	3.08745E-006	-0.44188	9
	59	121	112.198	215.566	-724.176	1	755.58	-73.4232	3.18171E-006	-0.441882	9
	60	123	100.009	227.53	-805.511	1	837.029	-74.2268	3.23576E-006	-0.441883	9
	61	125	89.1164	241.633	-896.493	1	928.486	-74.9154	3.47908E-006	-0.441884	9
	62	127	79.4083	257.398	-996.91	1	1029.6	-75.5226	3.58462E-006	-0.441883	9
	63	129	70.788	274.212	-1108.32	1	1141.74	-76.1034	2.64954E-006	-0.441882	8
	64	131	63.0971	294.4	-1232.53	1	1267.2	-76.5662	2.67613E-006	-0.441883	8
	65	134	54.5476	319.914	-1409.13	1	1444.99	-77.209	2.30075E-006	-0.441879	8
	66	136	50.0083	341.385	-1526.65	1	1564.36	-77.3951	2.47779E-006	-0.441877	8
	67	138	46.1675	364.34	-1642.98	1	1682.89	-77.4967	2.48798E-006	-0.441878	8
	68	140	40.0059	403.924	-1878.06	1	1921	-77.862	2.30391E-006	-0.441877	8
	69	142	35.3046	455.254	-2107.25	1	2155.86	-77.809	2.58611E-006	-0.441887	8
	70	144	31.5793	505.726	-2332.29	1	2386.49	-77.7656	2.63896E-006	-0.44188	8
	71	146	28.5748	554.294	-2556.5	1	2615.9	-77.7666	2.45052E-006	-0.441883	8
	72	148	24.9911	620.417	-2896.54	1	2962.24	-77.9104	2.28844E-006	-0.441886	8
	73	151	22.2195	707.946	-3220.51	1	3297.41	-77.6022	2.44353E-006	-0.441878	8
	74	153	20.0011	817.7	-3543.18	1	3636.31	-77.0047	2.6539E-006	-0.441883	8
	75	156	17.6486	940.773	-3962.74	1	4072.88	-76.6449	2.65711E-006	-0.441876	8
	76	158	15.7934	1059.41	-4378.67	1	4505.01	-76.3988	2.40257E-006	-0.441876	8
	77	160	14.2828	1157.93	-4799.89	1	4937.59	-76.437	2.24328E-006	-0.441875	8
	78	162	12.5002	1404.05	-5414.98	1	5594.05	-75.4639	2.40571E-006	-0.441876	8
	79	165	11.323	1586.66	-5905.56	1	6114.99	-74.9614	2.37769E-006	-0.441868	8
	80	167	9.9987	1864.48	-6556.08	1	6816.04	-74.1248	2.36809E-006	-0.44187	8
