EXPLAIN
TAG	EISPOT
TITLE	LABEL	Tomato_open	Test &Identifier
DATE	LABEL	5/12/2006	Date
TIME	LABEL	14:37:57	Time
NOTES	NOTES	1	&Notes...
	
PSTAT	PSTAT	300	Potentiostat
VDC	POTEN	1.00000E-001	T	DC &Voltage (V)
FREQINIT	QUANT	1.00000E+005	Initial Fre&q. (Hz)
FREQFINAL	QUANT	1.00000E+001	Final Fre&q. (Hz)
PTSPERDEC	QUANT	2.00000E+001	Points/&decade
VAC	QUANT	1.00000E+001	AC &Voltage (mV rms)
AREA	QUANT	1.00000E+000	&Area (cm²)
DENSITY	QUANT	7.87000E+000	&Density (gm/cm³)
EQUIV	QUANT	7.00000E+000	Equiv. &Wt
CONDIT	TWOPARAM	F	1.50000E+001	0.00000E+000	Conditionin&g	Time(s)	E(V)
DELAY	TWOPARAM	F	6.00000E+002	0.00000E+000	Init. De&lay	Time(s)	Stab.(mV/s)
SPEED	SELECTOR	1	&Optimize for:
ZGUESS	QUANT	1.00000E+002	E&stimated Z (ohms)
OCVCURVE	TABLE	39
	Pt	T	Vf	Vm	Ach	Over
	#	s	V vs. Ref.	V	V	bits
	0	0.258332	-5.68469E-001	4.28164E-006	-6.34000E-005	......
	1	0.516663	-5.64419E-001	4.28164E-006	3.66000E-005	......
	2	0.774994	-5.62869E-001	4.28164E-006	-1.63400E-004	......
	3	1.03333	-5.63169E-001	4.28164E-006	-1.63400E-004	......
	4	1.29166	-5.62519E-001	4.28164E-006	-1.63400E-004	......
	5	1.54999	-5.60269E-001	4.28164E-006	-6.34000E-005	......
	6	1.80832	-5.59269E-001	4.28164E-006	-1.63400E-004	......
	7	2.06665	-5.61469E-001	4.28164E-006	-1.63400E-004	......
	8	2.32498	-5.61769E-001	4.28164E-006	-1.63400E-004	......
	9	2.58332	-5.60269E-001	4.28164E-006	-1.63400E-004	......
	10	2.84165	-5.60569E-001	4.28164E-006	-1.63400E-004	......
	11	3.09998	-5.62419E-001	4.28164E-006	-1.63400E-004	......
	12	3.35831	-5.62819E-001	4.28164E-006	-1.63400E-004	......
	13	3.61664	-5.62569E-001	4.28164E-006	-2.63400E-004	......
	14	3.87497	-5.63519E-001	4.28164E-006	-1.63400E-004	......
	15	4.1333	-5.59669E-001	4.28164E-006	-1.63400E-004	......
	16	4.39164	-5.57620E-001	4.28164E-006	-6.34000E-005	......
	17	4.64997	-5.56069E-001	4.28164E-006	-6.34000E-005	......
	18	4.9083	-5.57119E-001	4.28164E-006	-6.34000E-005	......
	19	5.16663	-5.58270E-001	4.28164E-006	-6.34000E-005	......
	20	5.42496	-5.58270E-001	4.28164E-006	-1.63400E-004	......
	21	5.68329	-5.56969E-001	4.28164E-006	-1.63400E-004	......
	22	5.94162	-5.56269E-001	4.28164E-006	-1.63400E-004	......
	23	6.19996	-5.56269E-001	4.28164E-006	-1.63400E-004	......
	24	6.45829	-5.56769E-001	4.28164E-006	-1.63400E-004	......
	25	6.71662	-5.58270E-001	4.28164E-006	-1.63400E-004	......
	26	6.97495	-5.58169E-001	4.28164E-006	-1.63400E-004	......
	27	7.23328	-5.57970E-001	4.28164E-006	-1.63400E-004	......
	28	7.49161	-5.58619E-001	4.28164E-006	-1.63400E-004	......
	29	7.74995	-5.59469E-001	4.28164E-006	-6.34000E-005	......
	30	8.00828	-5.58769E-001	4.28164E-006	-6.34000E-005	......
	31	8.26661	-5.57669E-001	4.28164E-006	-1.63400E-004	......
	32	8.52494	-5.56669E-001	4.28164E-006	-1.63400E-004	......
	33	8.78327	-5.56669E-001	4.28164E-006	-1.63400E-004	......
	34	9.0416	-5.57069E-001	4.28164E-006	-1.63400E-004	......
	35	9.29993	-5.58270E-001	4.28164E-006	-1.63400E-004	......
	36	9.5583	-5.58119E-001	4.28164E-006	-3.63400E-004	......
	37	9.8166	-5.56870E-001	4.28164E-006	-1.63400E-004	......
	38	10.0749	-5.52369E-001	4.28164E-006	-6.34000E-005	......
EOC	QUANT	-0.552369	Open Circuit (V)
PSTATMODEL	IQUANT	32	Pstat Model
PSTATSECTION	LABEL	PStat0	Pstat Section
CTRLMODE	IQUANT	1	Control Mode
IESTAB	IQUANT	0	I/E Stability
CASPEED	IQUANT	1	Control Amp Speed
CONVENTION	IQUANT	1	Current Convention
ICHRANGE	IQUANT	2	Ich Range
ICHRANGEMODE	TOGGLE	F	Ich Auto Range
ICHOFFSETENABLE	TOGGLE	T	Ich Offset Enable
ICHOFFSET	QUANT	0	Ich Offset (V)
ICHFILTER	IQUANT	3	Ich Filter
VCHRANGE	IQUANT	2	Vch Range
VCHRANGEMODE	TOGGLE	F	Vch Auto Range
VCHOFFSETENABLE	TOGGLE	T	Vch Offset Enable
VCHOFFSET	QUANT	0	Vch Offset (V)
VCHFILTER	IQUANT	3	Vch Filter
ACHRANGE	IQUANT	0	Ach Range
IERANGELOWERLIMIT	IQUANT	3	I/E Range Lower Limit
IERANGEMODE	TOGGLE	F	I/E AutoRange
IERANGE	IQUANT	11	I/E Range
POSFEEDENABLE	TOGGLE	F	Positive Feedback IR Comp
POSFEEDRESISTANCE	QUANT	0	Positive Feedback Resistance (ohm)
FC350IDIVISOR	IQUANT	0	FC350 I Divisor
FC350VRANGE	IQUANT	0	FC350 V Range
FRAMEWORKVERSION	QUANT	4.35	Framework Version
ZCURVE	TABLE
	Pt	Time	Freq	Zreal	Zimag	Zsig	Zmod	Zphz	Idc	Vdc	IERange
	#	s	Hz	ohm	ohm	V	ohm	°	A	V	#
	0	4	100007	114.5	-1.00707	1	114.504	-0.503925	3.54674E-006	-0.45212	9
	1	6	89134.1	114.059	-1.40419	1	114.067	-0.705338	3.72351E-006	-0.452106	9
	2	8	79433.6	113.641	-1.59825	1	113.652	-0.805754	4.14374E-006	-0.45213	9
	3	10	70800.8	113.347	-1.90885	1	113.363	-0.96481	4.28717E-006	-0.452129	9
	4	12	63105.5	113.128	-2.0906	1	113.148	-1.0587	4.54223E-006	-0.452123	9
	5	14	56243.5	113.347	-2.56721	1	113.376	-1.29748	4.48799E-006	-0.452129	9
	6	16	50123.7	113.086	-2.96871	1	113.125	-1.50377	4.9264E-006	-0.452144	9
	7	18	44681	112.979	-3.468	1	113.033	-1.75819	4.60426E-006	-0.452107	9
	8	20	39811.2	113.236	-3.96727	1	113.305	-2.00656	4.33913E-006	-0.452113	9
	9	22	35488.3	113.192	-4.38524	1	113.276	-2.21863	4.53902E-006	-0.452125	9
	10	24	31634.1	113.317	-5.07039	1	113.431	-2.562	4.51167E-006	-0.452115	9
	11	26	28173.1	113.285	-5.6122	1	113.424	-2.83614	4.49354E-006	-0.452117	9
	12	28	25123.7	113.462	-6.19868	1	113.631	-3.1271	3.94932E-006	-0.452128	9
	13	30	22389.3	113.676	-6.85704	1	113.882	-3.45196	4.24163E-006	-0.452134	9
	14	32	19954.4	113.753	-7.53036	1	114.002	-3.78742	4.24352E-006	-0.45213	9
	15	34	17778.2	113.851	-8.37263	1	114.159	-4.20597	4.22635E-006	-0.452126	9
	16	36	15852.9	114.135	-9.36457	1	114.519	-4.69049	4.07413E-006	-0.452127	9
	17	38	14122.3	114.492	-10.2605	1	114.951	-5.12103	4.02048E-006	-0.452118	9
	18	40	12587.2	114.721	-11.4162	1	115.288	-5.68292	3.65335E-006	-0.452121	9
	19	42	11221.1	114.936	-12.4078	1	115.604	-6.16145	3.58273E-006	-0.452129	9
	20	44	9998.2	115.147	-13.734	1	115.963	-6.80171	3.57774E-006	-0.452127	9
	21	45	8912.76	115.596	-15.2866	1	116.603	-7.53316	3.55659E-006	-0.452111	9
	22	47	7942.6	115.847	-16.7806	1	117.056	-8.24205	3.55601E-006	-0.452113	9
	23	49	7078.05	116.418	-18.4713	1	117.874	-9.01561	3.68699E-006	-0.452114	9
	24	51	6311.1	116.942	-20.4642	1	118.719	-9.9259	3.77563E-006	-0.452116	9
	25	53	5622.14	117.124	-22.5983	1	119.284	-10.9207	3.56138E-006	-0.452103	9
	26	55	5011.18	117.714	-24.87	1	120.313	-11.9297	3.48945E-006	-0.452113	9
	27	57	4465.21	118.259	-27.5105	1	121.417	-13.0957	3.30265E-006	-0.45211	9
	28	59	3980.93	118.863	-30.3137	1	122.668	-14.3072	3.63071E-006	-0.452131	9
	29	61	3548.18	119.437	-33.2692	1	123.984	-15.5651	3.47692E-006	-0.452121	9
	30	63	3162.67	120.188	-36.6969	1	125.665	-16.979	3.14548E-006	-0.452107	9
	31	65	2819.01	120.987	-40.5038	1	127.587	-18.5093	3.25456E-006	-0.452122	9
	32	67	2511.16	121.856	-44.8742	1	129.856	-20.2165	3.03382E-006	-0.452117	9
	33	69	2238.63	122.868	-49.4183	1	132.434	-21.9103	2.98079E-006	-0.452117	9
	34	71	1995.37	124.044	-54.6201	1	135.537	-23.7653	3.12671E-006	-0.452115	9
	35	73	1778.51	124.689	-60.3532	1	138.528	-25.8283	3.17006E-006	-0.452107	9
	36	75	1584.49	125.908	-66.8096	1	142.535	-27.9514	3.14548E-006	-0.452113	9
	37	77	1412.76	127.275	-73.5297	1	146.988	-30.0161	3.45663E-006	-0.452127	9
	38	79	1259.04	128.472	-81.4023	1	152.09	-32.3591	3.34159E-006	-0.452123	9
	39	81	1121.63	129.787	-90.1911	1	158.048	-34.7961	3.37449E-006	-0.452109	9
	40	83	999.95	131.222	-99.424	1	164.634	-37.1504	3.60154E-006	-0.45213	9
	41	85	891.184	133.151	-110.091	1	172.769	-39.5844	3.29081E-006	-0.452118	9
	42	87	794.163	134.389	-122.388	1	181.767	-42.3241	3.41218E-006	-0.452126	9
	43	89	707.867	136.655	-135.317	1	192.316	-44.718	3.22478E-006	-0.452108	9
	44	91	630.984	138.43	-150.104	1	204.192	-47.3168	3.39112E-006	-0.452116	9
	45	93	562.189	141.179	-166.411	1	218.23	-49.6895	3.35915E-006	-0.452126	9
	46	95	501.303	143.312	-184.651	1	233.74	-52.184	2.96723E-006	-0.452112	9
	47	97	446.614	145.907	-205.081	1	251.689	-54.5696	3.13454E-006	-0.452115	9
	48	99	398.209	148.79	-227.651	1	271.962	-56.8317	3.28415E-006	-0.452109	9
	49	101	354.821	152.045	-252.91	1	295.095	-58.9865	3.31428E-006	-0.452112	9
	50	103	316.113	155.582	-281.035	1	321.226	-61.0309	3.13396E-006	-0.452112	9
	51	105	281.926	159.581	-312.108	1	350.539	-62.9194	3.26973E-006	-0.452115	9
	52	107	251.185	164.02	-347.009	1	383.82	-64.7014	3.26026E-006	-0.452116	9
	53	109	223.946	168.959	-385.626	1	421.016	-66.3398	3.15732E-006	-0.452115	9
	54	111	199.495	174.593	-428.995	1	463.163	-67.8546	3.32907E-006	-0.452115	9
	55	113	177.836	180.798	-476.944	1	510.062	-69.2395	3.28921E-006	-0.452119	9
	56	115	158.533	187.827	-530.35	1	562.628	-70.4981	3.19046E-006	-0.452116	9
	57	117	141.263	195.977	-589.973	1	621.671	-71.6246	3.30969E-006	-0.452116	9
	58	119	125.911	205.045	-656.049	1	687.345	-72.6436	3.35464E-006	-0.452116	9
	59	121	112.198	214.99	-729.912	1	760.915	-73.5881	3.39066E-006	-0.45212	9
	60	123	100.009	226.447	-811.964	1	842.95	-74.4169	3.2682E-006	-0.452118	9
	61	125	89.1164	239.413	-903.718	1	934.893	-75.1621	3.31322E-006	-0.452117	9
	62	127	79.4083	252.967	-1005.52	1	1036.85	-75.8786	3.01244E-006	-0.452121	9
	63	129	70.788	270.136	-1117.77	1	1149.95	-76.4137	2.34582E-006	-0.452122	8
	64	131	63.0971	290.674	-1243.3	1	1276.83	-76.8411	2.47702E-006	-0.452123	8
	65	133	54.5476	319.002	-1422.55	1	1457.88	-77.3607	2.29051E-006	-0.452118	8
	66	135	50.0083	340.99	-1544.14	1	1581.34	-77.5473	2.40705E-006	-0.452125	8
	67	138	46.1675	362.062	-1659.67	1	1698.7	-77.6936	2.61767E-006	-0.452129	8
	68	140	40.0059	406.959	-1894.02	1	1937.25	-77.8735	2.69463E-006	-0.452133	8
	69	142	35.3046	451.167	-2128.06	1	2175.36	-78.0301	2.59251E-006	-0.452131	8
	70	144	31.5793	493.551	-2358.67	1	2409.76	-78.1814	2.3918E-006	-0.452126	8
	71	146	28.5748	551.01	-2581.56	1	2639.71	-77.9515	2.37446E-006	-0.452128	8
	72	148	24.9911	627.164	-2920.68	1	2987.26	-77.8808	2.42189E-006	-0.452124	8
	73	150	22.2195	730.028	-3252.67	1	3333.59	-77.3502	2.65077E-006	-0.452128	8
	74	153	20.0011	821.472	-3582.37	1	3675.35	-77.0848	2.69901E-006	-0.452127	8
	75	155	17.6486	954.05	-4005.9	1	4117.94	-76.604	2.73923E-006	-0.452122	8
	76	157	15.7934	1079.45	-4425.28	1	4555.04	-76.2916	2.71115E-006	-0.452128	8
	77	160	14.2828	1184.66	-4843.54	1	4986.31	-76.2561	2.40322E-006	-0.452127	8
	78	162	12.5002	1427.98	-5403.31	1	5588.82	-75.1964	2.30958E-006	-0.452119	8
	79	164	11.323	1572.31	-5988.25	1	6191.23	-75.2881	2.37464E-006	-0.452123	8
	80	167	9.9987	1837.58	-6643.35	1	6892.81	-74.5383	2.3157E-006	-0.452114	8
