EXPLAIN
TAG	EISPOT
TITLE	LABEL	Tomato_open	Test &Identifier
DATE	LABEL	5/12/2006	Date
TIME	LABEL	14:27:56	Time
NOTES	NOTES	1	&Notes...
	
PSTAT	PSTAT	300	Potentiostat
VDC	POTEN	1.00000E-001	T	DC &Voltage (V)
FREQINIT	QUANT	1.00000E+005	Initial Fre&q. (Hz)
FREQFINAL	QUANT	1.00000E+001	Final Fre&q. (Hz)
PTSPERDEC	QUANT	2.00000E+001	Points/&decade
VAC	QUANT	1.00000E+001	AC &Voltage (mV rms)
AREA	QUANT	1.00000E+000	&Area (cm²)
DENSITY	QUANT	7.87000E+000	&Density (gm/cm³)
EQUIV	QUANT	7.00000E+000	Equiv. &Wt
CONDIT	TWOPARAM	F	1.50000E+001	0.00000E+000	Conditionin&g	Time(s)	E(V)
DELAY	TWOPARAM	F	6.00000E+002	0.00000E+000	Init. De&lay	Time(s)	Stab.(mV/s)
SPEED	SELECTOR	1	&Optimize for:
ZGUESS	QUANT	1.00000E+002	E&stimated Z (ohms)
OCVCURVE	TABLE	39
	Pt	T	Vf	Vm	Ach	Over
	#	s	V vs. Ref.	V	V	bits
	0	0.258332	-4.81169E-001	3.15034E-006	-1.63400E-004	......
	1	0.516663	-4.82119E-001	3.15034E-006	-1.63400E-004	......
	2	0.774994	-4.82369E-001	3.15034E-006	-1.63400E-004	......
	3	1.03333	-4.80870E-001	3.15034E-006	-1.63400E-004	......
	4	1.29166	-4.80419E-001	3.15034E-006	-1.63400E-004	......
	5	1.54999	-4.81119E-001	3.15034E-006	-1.63400E-004	......
	6	1.80832	-4.82219E-001	3.15034E-006	-1.63400E-004	......
	7	2.06665	-4.82619E-001	3.15034E-006	-6.34000E-005	......
	8	2.32498	-4.85619E-001	3.15034E-006	-1.63400E-004	......
	9	2.58332	-4.87069E-001	3.15034E-006	-6.34000E-005	......
	10	2.84165	-4.87219E-001	3.15034E-006	-2.63400E-004	......
	11	3.09998	-4.88169E-001	3.15034E-006	-6.34000E-005	......
	12	3.35831	-4.89320E-001	3.15034E-006	-6.34000E-005	......
	13	3.61664	-4.90669E-001	3.15034E-006	-1.63400E-004	......
	14	3.87497	-4.91869E-001	3.15034E-006	-1.63400E-004	......
	15	4.1333	-4.93469E-001	3.15034E-006	-6.34000E-005	......
	16	4.39164	-4.94069E-001	3.15034E-006	-6.34000E-005	......
	17	4.64997	-4.95619E-001	3.15034E-006	-1.63400E-004	......
	18	4.9083	-4.96169E-001	3.15034E-006	-1.63400E-004	......
	19	5.16663	-4.95519E-001	3.15034E-006	-1.63400E-004	......
	20	5.42496	-4.97619E-001	3.15034E-006	-1.63400E-004	......
	21	5.68329	-4.95619E-001	3.15034E-006	-1.63400E-004	......
	22	5.94162	-4.95969E-001	3.15034E-006	-1.63400E-004	......
	23	6.19996	-4.96269E-001	3.15034E-006	-6.34000E-005	......
	24	6.45829	-4.97570E-001	3.15034E-006	-1.63400E-004	......
	25	6.71662	-4.96819E-001	3.15034E-006	-1.63400E-004	......
	26	6.97495	-4.94669E-001	3.15034E-006	-1.63400E-004	......
	27	7.23328	-4.96670E-001	3.15034E-006	-6.34000E-005	......
	28	7.49161	-4.96469E-001	3.15034E-006	-6.34000E-005	......
	29	7.74995	-4.96569E-001	3.15034E-006	-1.63400E-004	......
	30	8.00828	-4.95719E-001	3.15034E-006	-1.63400E-004	......
	31	8.26661	-4.95519E-001	3.15034E-006	-1.63400E-004	......
	32	8.52494	-4.95620E-001	3.15034E-006	-1.63400E-004	......
	33	8.78327	-4.96769E-001	3.15034E-006	-1.63400E-004	......
	34	9.0416	-4.98269E-001	3.15034E-006	-2.63400E-004	......
	35	9.29993	-4.99469E-001	3.15034E-006	-1.63400E-004	......
	36	9.5583	-4.97019E-001	3.15034E-006	-1.63400E-004	......
	37	9.8166	-4.98470E-001	3.15034E-006	-1.63400E-004	......
	38	10.0749	-4.97019E-001	3.15034E-006	-6.34000E-005	......
EOC	QUANT	-0.497019	Open Circuit (V)
PSTATMODEL	IQUANT	32	Pstat Model
PSTATSECTION	LABEL	PStat0	Pstat Section
CTRLMODE	IQUANT	1	Control Mode
IESTAB	IQUANT	0	I/E Stability
CASPEED	IQUANT	1	Control Amp Speed
CONVENTION	IQUANT	1	Current Convention
ICHRANGE	IQUANT	2	Ich Range
ICHRANGEMODE	TOGGLE	F	Ich Auto Range
ICHOFFSETENABLE	TOGGLE	T	Ich Offset Enable
ICHOFFSET	QUANT	0	Ich Offset (V)
ICHFILTER	IQUANT	3	Ich Filter
VCHRANGE	IQUANT	2	Vch Range
VCHRANGEMODE	TOGGLE	F	Vch Auto Range
VCHOFFSETENABLE	TOGGLE	T	Vch Offset Enable
VCHOFFSET	QUANT	0	Vch Offset (V)
VCHFILTER	IQUANT	3	Vch Filter
ACHRANGE	IQUANT	0	Ach Range
IERANGELOWERLIMIT	IQUANT	3	I/E Range Lower Limit
IERANGEMODE	TOGGLE	F	I/E AutoRange
IERANGE	IQUANT	11	I/E Range
POSFEEDENABLE	TOGGLE	F	Positive Feedback IR Comp
POSFEEDRESISTANCE	QUANT	0	Positive Feedback Resistance (ohm)
FC350IDIVISOR	IQUANT	0	FC350 I Divisor
FC350VRANGE	IQUANT	0	FC350 V Range
FRAMEWORKVERSION	QUANT	4.35	Framework Version
ZCURVE	TABLE
	Pt	Time	Freq	Zreal	Zimag	Zsig	Zmod	Zphz	Idc	Vdc	IERange
	#	s	Hz	ohm	ohm	V	ohm	°	A	V	#
	0	4	100007	115.436	-1.12595	1	115.442	-0.55884	5.41656E-006	-0.396908	9
	1	6	89134.1	115.082	-1.19846	1	115.088	-0.596653	7.12723E-006	-0.396924	9
	2	8	79433.6	114.713	-1.56707	1	114.723	-0.78266	7.66679E-006	-0.396914	9
	3	10	70800.8	114.347	-1.87918	1	114.362	-0.941515	9.17284E-006	-0.396912	9
	4	12	63105.5	114.314	-2.21419	1	114.335	-1.10965	7.79034E-006	-0.396924	9
	5	14	56243.5	114.297	-2.66469	1	114.328	-1.33554	6.85295E-006	-0.396892	9
	6	16	50123.7	114.275	-3.00283	1	114.315	-1.50522	6.61892E-006	-0.396921	9
	7	18	44681	114.083	-3.472	1	114.136	-1.7432	6.28571E-006	-0.396919	9
	8	20	39811.2	114.217	-4.03307	1	114.288	-2.02231	5.53585E-006	-0.396901	9
	9	22	35488.3	114.159	-4.47658	1	114.246	-2.24563	4.94201E-006	-0.396918	9
	10	24	31634.1	114.369	-4.87846	1	114.473	-2.44249	4.41563E-006	-0.396913	9
	11	26	28173.1	114.3	-5.47373	1	114.431	-2.74175	4.62543E-006	-0.396908	9
	12	28	25123.7	114.242	-6.22379	1	114.411	-3.11833	4.77702E-006	-0.396903	9
	13	30	22389.3	114.693	-6.75598	1	114.892	-3.37111	5.04026E-006	-0.396913	9
	14	32	19954.4	114.734	-7.55376	1	114.983	-3.76675	4.63763E-006	-0.396914	9
	15	34	17778.2	114.753	-8.33727	1	115.055	-4.15547	4.45574E-006	-0.396902	9
	16	36	15852.9	115.102	-9.20701	1	115.47	-4.57335	4.10032E-006	-0.396902	9
	17	37	14122.3	115.327	-10.0465	1	115.763	-4.97865	3.98463E-006	-0.396905	9
	18	39	12587.2	115.582	-11.1983	1	116.124	-5.53386	4.50696E-006	-0.396912	9
	19	41	11221.1	115.793	-12.3406	1	116.449	-6.08332	4.23907E-006	-0.396911	9
	20	43	9998.2	116.149	-13.6198	1	116.945	-6.68804	4.24507E-006	-0.396916	9
	21	45	8912.76	116.49	-15.0084	1	117.453	-7.34145	3.93398E-006	-0.396927	9
	22	47	7942.6	116.733	-16.5542	1	117.901	-8.07141	4.42343E-006	-0.396915	9
	23	50	7078.05	117.276	-18.2702	1	118.69	-8.85485	4.62437E-006	-0.396895	9
	24	52	6311.1	117.541	-20.2737	1	119.277	-9.7862	4.45815E-006	-0.396908	9
	25	53	5622.14	118.146	-22.2916	1	120.231	-10.6848	4.13915E-006	-0.39691	9
	26	55	5011.18	118.548	-24.4198	1	121.037	-11.6396	4.3209E-006	-0.39691	9
	27	57	4465.21	119.246	-26.9976	1	122.264	-12.7569	4.20401E-006	-0.396899	9
	28	59	3980.93	119.846	-29.8293	1	123.502	-13.9767	4.45988E-006	-0.396917	9
	29	61	3548.18	120.564	-33.0088	1	125.001	-15.3116	4.43909E-006	-0.396902	9
	30	63	3162.67	121.043	-36.3499	1	126.383	-16.7153	4.31551E-006	-0.396897	9
	31	65	2819.01	122.092	-39.8336	1	128.426	-18.0694	4.33804E-006	-0.396884	9
	32	67	2511.16	122.846	-44.0487	1	130.505	-19.7262	4.40895E-006	-0.396906	9
	33	69	2238.63	123.745	-48.9193	1	133.064	-21.5701	4.35685E-006	-0.396905	9
	34	71	1995.37	124.81	-53.8069	1	135.914	-23.3215	4.42715E-006	-0.396903	9
	35	73	1778.51	125.988	-59.4738	1	139.32	-25.27	4.28324E-006	-0.3969	9
	36	75	1584.49	126.952	-65.7484	1	142.968	-27.3796	4.04131E-006	-0.396889	9
	37	77	1412.76	128.27	-72.5122	1	147.347	-29.48	4.06415E-006	-0.396905	9
	38	79	1259.04	129.579	-80.066	1	152.32	-31.7116	3.62823E-006	-0.396895	9
	39	81	1121.63	130.976	-88.3344	1	157.98	-33.9969	3.63596E-006	-0.396889	9
	40	83	999.95	132.69	-98.317	1	165.145	-36.5367	3.41393E-006	-0.396893	9
	41	85	891.184	134.238	-108.303	1	172.48	-38.8965	3.14979E-006	-0.396894	9
	42	87	794.163	135.674	-119.907	1	181.066	-41.4699	3.32365E-006	-0.396898	9
	43	89	707.867	137.723	-132.914	1	191.399	-43.982	3.44728E-006	-0.396905	9
	44	91	630.984	140.052	-147.297	1	203.251	-46.4442	2.96542E-006	-0.396901	9
	45	93	562.189	142.042	-163.844	1	216.843	-49.0769	3.88517E-006	-0.396917	9
	46	95	501.303	144.692	-181.302	1	231.961	-51.4076	3.56243E-006	-0.396905	9
	47	97	446.614	147.465	-201.261	1	249.503	-53.7694	3.97953E-006	-0.396898	9
	48	99	398.209	150.4	-223.321	1	269.244	-56.0409	3.78423E-006	-0.396889	9
	49	101	354.821	153.587	-247.981	1	291.691	-58.228	2.93468E-006	-0.396891	9
	50	103	316.113	157.328	-275.52	1	317.275	-60.2727	3.33778E-006	-0.396897	9
	51	105	281.926	161.454	-305.897	1	345.891	-62.1746	3.46532E-006	-0.396897	9
	52	107	251.185	166.11	-339.98	1	378.39	-63.9604	3.55673E-006	-0.396897	9
	53	109	223.946	171.218	-377.672	1	414.671	-65.6128	3.56534E-006	-0.3969	9
	54	111	199.495	177.089	-419.947	1	455.758	-67.1351	3.79859E-006	-0.396898	9
	55	113	177.836	183.759	-466.713	1	501.585	-68.5089	3.7391E-006	-0.396897	9
	56	115	158.533	191.233	-518.806	1	552.928	-69.766	3.90178E-006	-0.396895	9
	57	117	141.263	199.729	-576.823	1	610.423	-70.9012	3.88404E-006	-0.396895	9
	58	119	125.911	209.158	-641.342	1	674.586	-71.9375	3.91068E-006	-0.396894	9
	59	121	112.198	218.85	-713.26	1	746.08	-72.9424	3.51722E-006	-0.396888	9
	60	123	100.009	230.469	-792.878	1	825.694	-73.7922	3.44348E-006	-0.396885	9
	61	125	89.1164	244.125	-881.516	1	914.695	-74.5206	3.54363E-006	-0.396888	9
	62	127	79.4083	261.023	-980.99	1	1015.12	-75.0999	3.58042E-006	-0.396889	9
	63	129	70.788	281.04	-1089.27	1	1124.94	-75.5327	3.40107E-006	-0.396885	8
	64	131	63.0971	302.232	-1212.33	1	1249.43	-76.0016	3.32084E-006	-0.39689	8
	65	133	54.5476	331.588	-1386.59	1	1425.68	-76.5508	3.00891E-006	-0.396884	8
	66	135	50.0083	353.407	-1501.29	1	1542.32	-76.7536	3.03074E-006	-0.396886	8
	67	137	46.1675	373.885	-1616.71	1	1659.38	-76.9785	2.93096E-006	-0.396888	8
	68	140	40.0059	420.62	-1839.82	1	1887.29	-77.1224	3.08582E-006	-0.396887	8
	69	142	35.3046	469.38	-2066.11	1	2118.76	-77.2008	2.91691E-006	-0.396894	8
	70	144	31.5793	517.266	-2282.08	1	2339.97	-77.2289	2.88444E-006	-0.396884	8
	71	146	28.5748	564.573	-2506	1	2568.81	-77.3039	2.67463E-006	-0.396887	8
	72	148	24.9911	629.285	-2833.65	1	2902.69	-77.4792	2.55632E-006	-0.396889	8
	73	150	22.2195	729.313	-3146.84	1	3230.25	-76.9515	2.80013E-006	-0.3969	8
	74	153	20.0011	829.823	-3469	1	3566.87	-76.547	2.9477E-006	-0.396899	8
	75	155	17.6486	984.06	-3855.46	1	3979.06	-75.6816	3.09649E-006	-0.3969	8
	76	157	15.7934	1079.44	-4293.98	1	4427.58	-75.8891	2.84919E-006	-0.396905	8
	77	159	14.2828	1193.47	-4649.38	1	4800.11	-75.6033	2.86571E-006	-0.396905	8
	78	162	12.5002	1541.91	-5184.62	1	5409.04	-73.4375	3.41E-006	-0.396903	8
	79	166	11.323	1649.34	-5717.09	1	5950.25	-73.9075	3.00291E-006	-0.396911	8
	80	169	9.9987	1993.07	-6354.09	1	6659.34	-72.5851	3.08931E-006	-0.396909	8
