EXPLAIN
TAG	EISPOT
TITLE	LABEL	Tomato_open	Test &Identifier
DATE	LABEL	5/12/2006	Date
TIME	LABEL	14:42:55	Time
NOTES	NOTES	1	&Notes...
	
PSTAT	PSTAT	300	Potentiostat
VDC	POTEN	1.00000E-001	T	DC &Voltage (V)
FREQINIT	QUANT	1.00000E+005	Initial Fre&q. (Hz)
FREQFINAL	QUANT	1.00000E+001	Final Fre&q. (Hz)
PTSPERDEC	QUANT	2.00000E+001	Points/&decade
VAC	QUANT	1.00000E+001	AC &Voltage (mV rms)
AREA	QUANT	1.00000E+000	&Area (cm²)
DENSITY	QUANT	7.87000E+000	&Density (gm/cm³)
EQUIV	QUANT	7.00000E+000	Equiv. &Wt
CONDIT	TWOPARAM	F	1.50000E+001	0.00000E+000	Conditionin&g	Time(s)	E(V)
DELAY	TWOPARAM	F	6.00000E+002	0.00000E+000	Init. De&lay	Time(s)	Stab.(mV/s)
SPEED	SELECTOR	1	&Optimize for:
ZGUESS	QUANT	1.00000E+002	E&stimated Z (ohms)
OCVCURVE	TABLE	39
	Pt	T	Vf	Vm	Ach	Over
	#	s	V vs. Ref.	V	V	bits
	0	0.258332	-5.68469E-001	4.19424E-006	3.36600E-004	......
	1	0.516663	-5.64969E-001	4.19424E-006	-6.34000E-005	......
	2	0.774994	-5.57220E-001	4.19424E-006	3.36600E-004	......
	3	1.03333	-5.64119E-001	4.19424E-006	-6.34000E-005	......
	4	1.29166	-5.71719E-001	4.19424E-006	1.36600E-004	......
	5	1.54999	-5.73269E-001	4.19424E-006	3.66000E-005	......
	6	1.80832	-5.75019E-001	4.19424E-006	3.36600E-004	......
	7	2.06665	-5.76469E-001	4.19424E-006	-6.34000E-005	......
	8	2.32498	-5.76670E-001	4.19424E-006	1.36600E-004	......
	9	2.58332	-5.76919E-001	4.19424E-006	3.66000E-005	......
	10	2.84165	-5.76069E-001	4.19424E-006	1.36600E-004	......
	11	3.09998	-5.77119E-001	4.19424E-006	-6.34000E-005	......
	12	3.35831	-5.77269E-001	4.19424E-006	2.36600E-004	......
	13	3.61664	-5.74419E-001	4.19424E-006	3.66000E-005	......
	14	3.87497	-5.57169E-001	4.19424E-006	2.36600E-004	......
	15	4.1333	-5.50969E-001	4.19424E-006	-6.34000E-005	......
	16	4.39164	-5.61419E-001	4.19424E-006	3.36600E-004	......
	17	4.64997	-5.71220E-001	4.19424E-006	3.66000E-005	......
	18	4.9083	-5.74820E-001	4.19424E-006	2.36600E-004	......
	19	5.16663	-5.79969E-001	4.19424E-006	-6.34000E-005	......
	20	5.42496	-5.78169E-001	4.19424E-006	3.36600E-004	......
	21	5.68329	-5.77169E-001	4.19424E-006	-6.34000E-005	......
	22	5.94162	-5.79919E-001	4.19424E-006	2.36600E-004	......
	23	6.19996	-5.82469E-001	4.19424E-006	-6.34000E-005	......
	24	6.45829	-5.84819E-001	4.19424E-006	2.36600E-004	......
	25	6.71662	-5.84819E-001	4.19424E-006	-6.34000E-005	......
	26	6.97495	-5.86320E-001	4.19424E-006	3.36600E-004	......
	27	7.23328	-5.85069E-001	4.19424E-006	-6.34000E-005	......
	28	7.49161	-5.85769E-001	4.19424E-006	2.36600E-004	......
	29	7.74995	-5.86670E-001	4.19424E-006	-6.34000E-005	......
	30	8.00828	-5.86269E-001	4.19424E-006	3.36600E-004	......
	31	8.26661	-5.86869E-001	4.19424E-006	3.66000E-005	......
	32	8.52494	-5.86370E-001	4.19424E-006	2.36600E-004	......
	33	8.78327	-5.87669E-001	4.19424E-006	3.66000E-005	......
	34	9.0416	-5.88719E-001	4.19424E-006	2.36600E-004	......
	35	9.29993	-5.88069E-001	4.19424E-006	3.66000E-005	......
	36	9.5583	-5.88569E-001	4.19424E-006	3.36600E-004	......
	37	9.8166	-5.87269E-001	4.19424E-006	-6.34000E-005	......
	38	10.0749	-5.86269E-001	4.19424E-006	3.36600E-004	......
EOC	QUANT	-0.586269	Open Circuit (V)
PSTATMODEL	IQUANT	32	Pstat Model
PSTATSECTION	LABEL	PStat0	Pstat Section
CTRLMODE	IQUANT	1	Control Mode
IESTAB	IQUANT	0	I/E Stability
CASPEED	IQUANT	1	Control Amp Speed
CONVENTION	IQUANT	1	Current Convention
ICHRANGE	IQUANT	2	Ich Range
ICHRANGEMODE	TOGGLE	F	Ich Auto Range
ICHOFFSETENABLE	TOGGLE	T	Ich Offset Enable
ICHOFFSET	QUANT	0	Ich Offset (V)
ICHFILTER	IQUANT	3	Ich Filter
VCHRANGE	IQUANT	2	Vch Range
VCHRANGEMODE	TOGGLE	F	Vch Auto Range
VCHOFFSETENABLE	TOGGLE	T	Vch Offset Enable
VCHOFFSET	QUANT	0	Vch Offset (V)
VCHFILTER	IQUANT	3	Vch Filter
ACHRANGE	IQUANT	0	Ach Range
IERANGELOWERLIMIT	IQUANT	3	I/E Range Lower Limit
IERANGEMODE	TOGGLE	F	I/E AutoRange
IERANGE	IQUANT	11	I/E Range
POSFEEDENABLE	TOGGLE	F	Positive Feedback IR Comp
POSFEEDRESISTANCE	QUANT	0	Positive Feedback Resistance (ohm)
FC350IDIVISOR	IQUANT	0	FC350 I Divisor
FC350VRANGE	IQUANT	0	FC350 V Range
FRAMEWORKVERSION	QUANT	4.35	Framework Version
ZCURVE	TABLE
	Pt	Time	Freq	Zreal	Zimag	Zsig	Zmod	Zphz	Idc	Vdc	IERange
	#	s	Hz	ohm	ohm	V	ohm	°	A	V	#
	0	4	100007	114.274	-0.756693	1	114.277	-0.379392	2.22859E-006	-0.486174	9
	1	6	89134.1	113.78	-1.38937	1	113.789	-0.699606	2.72732E-006	-0.486216	9
	2	8	79433.6	113.569	-1.49706	1	113.579	-0.755225	2.87243E-006	-0.486232	9
	3	10	70800.8	113.313	-1.96121	1	113.33	-0.99157	2.88103E-006	-0.486234	9
	4	12	63105.5	113.185	-2.35001	1	113.209	-1.18944	2.75618E-006	-0.4862	9
	5	14	56243.5	113.121	-2.63692	1	113.151	-1.33536	2.97759E-006	-0.486233	9
	6	16	50123.7	113.02	-2.9964	1	113.059	-1.51868	2.57064E-006	-0.486202	9
	7	18	44681	113.02	-3.45447	1	113.073	-1.75071	3.07862E-006	-0.486224	9
	8	20	39811.2	113.066	-4.04673	1	113.139	-2.04978	2.72084E-006	-0.486201	9
	9	22	35488.3	113.022	-4.47957	1	113.11	-2.26971	2.75665E-006	-0.486212	9
	10	24	31634.1	113.064	-5.0168	1	113.175	-2.54063	2.91351E-006	-0.486198	9
	11	26	28173.1	113.267	-5.58859	1	113.405	-2.82467	2.95662E-006	-0.486214	9
	12	28	25123.7	113.376	-6.19905	1	113.546	-3.12963	2.94367E-006	-0.486204	9
	13	30	22389.3	113.5	-6.88188	1	113.709	-3.46977	2.94321E-006	-0.486197	9
	14	32	19954.4	113.556	-7.57122	1	113.808	-3.81449	3.15484E-006	-0.486217	9
	15	34	17778.2	113.696	-8.50631	1	114.013	-4.2787	3.22248E-006	-0.486211	9
	16	36	15852.9	113.923	-9.37019	1	114.308	-4.702	3.31448E-006	-0.486222	9
	17	38	14122.3	114.278	-10.3027	1	114.741	-5.15157	3.03838E-006	-0.486221	9
	18	40	12587.2	114.575	-11.3914	1	115.14	-5.67786	2.97579E-006	-0.486213	9
	19	42	11221.1	114.757	-12.5457	1	115.441	-6.23901	2.88351E-006	-0.486209	9
	20	44	9998.2	115.195	-13.9402	1	116.035	-6.90006	2.9939E-006	-0.486208	9
	21	46	8912.76	115.436	-15.2614	1	116.44	-7.53119	3.21042E-006	-0.486217	9
	22	48	7942.6	115.853	-16.9443	1	117.086	-8.32091	3.14738E-006	-0.486207	9
	23	49	7078.05	116.238	-18.5012	1	117.701	-9.04375	3.00335E-006	-0.48621	9
	24	51	6311.1	116.721	-20.6635	1	118.536	-10.0392	3.03809E-006	-0.486207	9
	25	53	5622.14	117.139	-22.5854	1	119.296	-10.9132	3.02393E-006	-0.486201	9
	26	55	5011.18	117.731	-24.7611	1	120.307	-11.8773	2.98648E-006	-0.486208	9
	27	57	4465.21	118.273	-27.4649	1	121.42	-13.0733	3.00685E-006	-0.486208	9
	28	59	3980.93	118.845	-30.379	1	122.667	-14.3388	3.17657E-006	-0.486213	9
	29	61	3548.18	119.514	-33.4909	1	124.118	-15.6542	2.80934E-006	-0.486212	9
	30	63	3162.67	120.313	-36.9919	1	125.872	-17.0907	2.91682E-006	-0.48622	9
	31	65	2819.01	120.748	-40.7081	1	127.425	-18.6306	3.08079E-006	-0.486224	9
	32	67	2511.16	121.814	-44.8738	1	129.816	-20.2228	2.91123E-006	-0.486211	9
	33	69	2238.63	122.527	-49.5054	1	132.15	-22.0006	2.82162E-006	-0.486212	9
	34	71	1995.37	123.794	-54.8354	1	135.395	-23.8913	2.58423E-006	-0.486208	9
	35	73	1778.51	124.599	-60.3036	1	138.425	-25.8261	2.76598E-006	-0.486208	9
	36	75	1584.49	125.964	-67.0031	1	142.675	-28.0096	2.69268E-006	-0.486212	9
	37	77	1412.76	127.086	-74.0304	1	147.076	-30.2218	2.6722E-006	-0.486207	9
	38	79	1259.04	128.347	-81.6295	1	152.107	-32.4566	2.49177E-006	-0.486203	9
	39	81	1121.63	129.677	-90.6391	1	158.214	-34.952	2.41788E-006	-0.486204	9
	40	83	999.95	131.198	-100.075	1	165.009	-37.3358	2.4656E-006	-0.486208	9
	41	85	891.184	132.815	-110.648	1	172.867	-39.7977	2.48138E-006	-0.486206	9
	42	87	794.163	134.941	-122.454	1	182.22	-42.2227	2.55862E-006	-0.486202	9
	43	89	707.867	136.34	-136.139	1	192.672	-44.9577	2.30309E-006	-0.486217	9
	44	91	630.984	138.516	-150.765	1	204.736	-47.4245	2.36215E-006	-0.48621	9
	45	93	562.189	140.5	-167.255	1	218.436	-49.9685	2.35268E-006	-0.486191	9
	46	95	501.303	143.166	-185.502	1	234.324	-52.34	2.59324E-006	-0.486204	9
	47	97	446.614	145.759	-205.969	1	252.326	-54.714	2.40285E-006	-0.486202	9
	48	99	398.209	148.591	-228.615	1	272.661	-56.9777	2.48282E-006	-0.486204	9
	49	101	354.821	151.793	-253.94	1	295.849	-59.131	2.49756E-006	-0.486199	9
	50	103	316.113	155.327	-282.195	1	322.119	-61.1706	2.50254E-006	-0.486197	9
	51	105	281.926	159.197	-313.4	1	351.515	-63.0709	2.52262E-006	-0.486191	9
	52	107	251.185	163.533	-348.445	1	384.912	-64.8583	2.47567E-006	-0.486197	9
	53	109	223.946	168.293	-387.204	1	422.196	-66.5084	2.38357E-006	-0.486195	9
	54	111	199.495	173.706	-430.724	1	464.432	-68.0363	2.47952E-006	-0.48619	9
	55	113	177.836	179.766	-478.945	1	511.57	-69.427	2.42828E-006	-0.486196	9
	56	115	158.533	186.392	-532.66	1	564.33	-70.7137	2.29484E-006	-0.486203	9
	57	117	141.263	193.92	-592.616	1	623.537	-71.8805	2.45179E-006	-0.486199	9
	58	119	125.911	202.297	-659.116	1	689.462	-72.9377	2.30718E-006	-0.4862	9
	59	121	112.198	211.98	-733.342	1	763.365	-73.8775	2.25204E-006	-0.486201	9
	60	123	100.009	222.932	-815.855	1	845.765	-74.717	2.25403E-006	-0.486198	9
	61	125	89.1164	235.243	-908.436	1	938.401	-75.4819	2.24364E-006	-0.486196	9
	62	127	79.4083	248.774	-1010.89	1	1041.05	-76.1745	1.99995E-006	-0.486196	9
	63	129	70.788	264.534	-1123.59	1	1154.31	-76.7518	1.57149E-006	-0.486193	8
	64	131	63.0971	280.872	-1249.77	1	1280.94	-77.3339	1.32039E-006	-0.486201	8
	65	133	54.5476	307.691	-1430.83	1	1463.54	-77.8638	1.44045E-006	-0.486202	8
	66	135	50.0083	326.203	-1551.69	1	1585.61	-78.1279	1.35351E-006	-0.486206	8
	67	137	46.1675	343.901	-1671.43	1	1706.44	-78.3735	1.40103E-006	-0.486197	8
	68	140	40.0059	382.878	-1908.93	1	1946.95	-78.6586	1.42089E-006	-0.486204	8
	69	142	35.3046	423.071	-2143.44	1	2184.79	-78.8345	1.39275E-006	-0.486203	8
	70	144	31.5793	465.236	-2376.43	1	2421.54	-78.9232	1.38524E-006	-0.486196	8
	71	146	28.5748	503.111	-2607.82	1	2655.9	-79.0804	1.29942E-006	-0.486196	8
	72	148	24.9911	569.79	-2948.2	1	3002.75	-79.0615	1.29543E-006	-0.486202	8
	73	150	22.2195	646.71	-3288.59	1	3351.58	-78.8746	1.32479E-006	-0.486199	8
	74	153	20.0011	720.439	-3627.39	1	3698.24	-78.7666	1.29047E-006	-0.486201	8
	75	155	17.6486	833.234	-4063.93	1	4148.47	-78.4131	1.21955E-006	-0.486198	8
	76	157	15.7934	925.986	-4499.22	1	4593.52	-78.3703	1.32668E-006	-0.486203	8
	77	159	14.2828	1019.7	-4938.65	1	5042.82	-78.3339	1.27261E-006	-0.486196	8
	78	162	12.5002	1205.57	-5577.17	1	5705.98	-77.8025	1.17779E-006	-0.486193	8
	79	164	11.323	1402.52	-6094.55	1	6253.85	-77.0403	1.32159E-006	-0.486207	8
	80	167	9.9987	1631.24	-6796.91	1	6989.92	-76.5044	1.39435E-006	-0.486202	8
