EXPLAIN
TAG	EISPOT
TITLE	LABEL	Tomato_open	Test &Identifier
DATE	LABEL	5/12/2006	Date
TIME	LABEL	14:00:45	Time
NOTES	NOTES	1	&Notes...
	
PSTAT	PSTAT	300	Potentiostat
VDC	POTEN	1.00000E-001	T	DC &Voltage (V)
FREQINIT	QUANT	1.00000E+005	Initial Fre&q. (Hz)
FREQFINAL	QUANT	1.00000E+001	Final Fre&q. (Hz)
PTSPERDEC	QUANT	2.00000E+001	Points/&decade
VAC	QUANT	1.00000E+001	AC &Voltage (mV rms)
AREA	QUANT	1.00000E+000	&Area (cm²)
DENSITY	QUANT	7.87000E+000	&Density (gm/cm³)
EQUIV	QUANT	7.00000E+000	Equiv. &Wt
CONDIT	TWOPARAM	F	1.50000E+001	0.00000E+000	Conditionin&g	Time(s)	E(V)
DELAY	TWOPARAM	F	6.00000E+002	0.00000E+000	Init. De&lay	Time(s)	Stab.(mV/s)
SPEED	SELECTOR	1	&Optimize for:
ZGUESS	QUANT	1.00000E+002	E&stimated Z (ohms)
OCVCURVE	TABLE	39
	Pt	T	Vf	Vm	Ach	Over
	#	s	V vs. Ref.	V	V	bits
	0	0.258332	-5.54069E-001	5.19476E-006	-6.34000E-005	......
	1	0.516663	-5.53119E-001	5.19476E-006	-2.63400E-004	......
	2	0.774994	-5.51669E-001	5.19476E-006	-1.63400E-004	......
	3	1.03333	-5.48970E-001	5.19476E-006	-1.63400E-004	......
	4	1.29166	-5.47119E-001	5.19476E-006	-2.63400E-004	......
	5	1.54999	-5.45169E-001	5.19476E-006	-6.34000E-005	......
	6	1.80832	-5.43469E-001	5.19476E-006	-1.63400E-004	......
	7	2.06665	-5.46120E-001	5.19476E-006	-1.63400E-004	......
	8	2.32498	-5.46269E-001	5.19476E-006	-1.63400E-004	......
	9	2.58332	-5.46269E-001	5.19476E-006	-6.34000E-005	......
	10	2.84165	-5.49219E-001	5.19476E-006	-6.34000E-005	......
	11	3.09998	-5.67169E-001	5.19476E-006	-2.63400E-004	......
	12	3.35831	-5.75520E-001	5.19476E-006	-1.63400E-004	......
	13	3.61664	-5.78719E-001	5.19476E-006	-1.63400E-004	......
	14	3.87497	-5.80069E-001	5.19476E-006	3.66000E-005	......
	15	4.1333	-5.81169E-001	5.19476E-006	-1.63400E-004	......
	16	4.39164	-5.81069E-001	5.19476E-006	-1.63400E-004	......
	17	4.64997	-5.64369E-001	5.19476E-006	-6.34000E-005	......
	18	4.9083	-5.54019E-001	5.19476E-006	-6.34000E-005	......
	19	5.16663	-5.48369E-001	5.19476E-006	-1.63400E-004	......
	20	5.42496	-5.45070E-001	5.19476E-006	-1.63400E-004	......
	21	5.68329	-5.42520E-001	5.19476E-006	-1.63400E-004	......
	22	5.94162	-5.41719E-001	5.19476E-006	-1.63400E-004	......
	23	6.19996	-5.41219E-001	5.19476E-006	-6.34000E-005	......
	24	6.45829	-5.41219E-001	5.19476E-006	-6.34000E-005	......
	25	6.71662	-5.41969E-001	5.19476E-006	-6.34000E-005	......
	26	6.97495	-5.43619E-001	5.19476E-006	-1.63400E-004	......
	27	7.23328	-5.44769E-001	5.19476E-006	-6.34000E-005	......
	28	7.49161	-5.44319E-001	5.19476E-006	-1.63400E-004	......
	29	7.74995	-5.42170E-001	5.19476E-006	-6.34000E-005	......
	30	8.00828	-5.40619E-001	5.19476E-006	-1.63400E-004	......
	31	8.26661	-5.38269E-001	5.19476E-006	-1.63400E-004	......
	32	8.52494	-5.37669E-001	5.19476E-006	-1.63400E-004	......
	33	8.78327	-5.37969E-001	5.19476E-006	-1.63400E-004	......
	34	9.0416	-5.37269E-001	5.19476E-006	-6.34000E-005	......
	35	9.29993	-5.35969E-001	5.19476E-006	-6.34000E-005	......
	36	9.5583	-5.35320E-001	5.19476E-006	-1.63400E-004	......
	37	9.8166	-5.36569E-001	5.19476E-006	-1.63400E-004	......
	38	10.0749	-5.36569E-001	5.19476E-006	-1.63400E-004	......
EOC	QUANT	-0.536569	Open Circuit (V)
PSTATMODEL	IQUANT	32	Pstat Model
PSTATSECTION	LABEL	PStat0	Pstat Section
CTRLMODE	IQUANT	1	Control Mode
IESTAB	IQUANT	0	I/E Stability
CASPEED	IQUANT	1	Control Amp Speed
CONVENTION	IQUANT	1	Current Convention
ICHRANGE	IQUANT	2	Ich Range
ICHRANGEMODE	TOGGLE	F	Ich Auto Range
ICHOFFSETENABLE	TOGGLE	T	Ich Offset Enable
ICHOFFSET	QUANT	0	Ich Offset (V)
ICHFILTER	IQUANT	3	Ich Filter
VCHRANGE	IQUANT	2	Vch Range
VCHRANGEMODE	TOGGLE	F	Vch Auto Range
VCHOFFSETENABLE	TOGGLE	T	Vch Offset Enable
VCHOFFSET	QUANT	0	Vch Offset (V)
VCHFILTER	IQUANT	3	Vch Filter
ACHRANGE	IQUANT	0	Ach Range
IERANGELOWERLIMIT	IQUANT	3	I/E Range Lower Limit
IERANGEMODE	TOGGLE	F	I/E AutoRange
IERANGE	IQUANT	11	I/E Range
POSFEEDENABLE	TOGGLE	F	Positive Feedback IR Comp
POSFEEDRESISTANCE	QUANT	0	Positive Feedback Resistance (ohm)
FC350IDIVISOR	IQUANT	0	FC350 I Divisor
FC350VRANGE	IQUANT	0	FC350 V Range
FRAMEWORKVERSION	QUANT	4.35	Framework Version
ZCURVE	TABLE
	Pt	Time	Freq	Zreal	Zimag	Zsig	Zmod	Zphz	Idc	Vdc	IERange
	#	s	Hz	ohm	ohm	V	ohm	°	A	V	#
	0	4	100007	111.874	-1.36886	1	111.883	-0.70102	2.11828E-006	-0.436385	9
	1	6	89134.1	111.354	-1.19409	1	111.361	-0.614379	3.20832E-006	-0.436384	9
	2	8	79433.6	111.043	-1.56598	1	111.054	-0.807954	4.40876E-006	-0.4364	9
	3	10	70800.8	110.923	-1.90645	1	110.94	-0.98465	4.51307E-006	-0.436394	9
	4	12	63105.5	110.584	-2.40458	1	110.61	-1.24566	4.96832E-006	-0.43638	9
	5	14	56243.5	110.615	-2.6486	1	110.647	-1.37165	4.61995E-006	-0.436403	9
	6	16	50123.7	110.553	-3.15907	1	110.598	-1.63679	4.68852E-006	-0.436379	9
	7	18	44681	110.518	-3.62085	1	110.577	-1.87649	3.89356E-006	-0.436381	9
	8	20	39811.2	110.351	-4.04284	1	110.425	-2.09817	3.7337E-006	-0.436403	9
	9	22	35488.3	110.602	-4.58946	1	110.697	-2.37614	3.41813E-006	-0.436404	9
	10	24	31634.1	110.53	-5.15228	1	110.65	-2.66888	3.1944E-006	-0.436382	9
	11	26	28173.1	110.786	-5.50301	1	110.922	-2.84369	3.09898E-006	-0.436393	9
	12	28	25123.7	110.79	-6.36392	1	110.973	-3.28753	2.85556E-006	-0.436387	9
	13	30	22389.3	110.983	-7.0044	1	111.204	-3.61129	3.39421E-006	-0.436393	9
	14	32	19954.4	110.947	-7.75103	1	111.218	-3.99632	2.9802E-006	-0.436391	9
	15	33	17778.2	111.388	-8.71552	1	111.729	-4.47397	2.79649E-006	-0.436389	9
	16	35	15852.9	111.576	-9.33543	1	111.966	-4.78274	2.51737E-006	-0.436385	9
	17	37	14122.3	111.913	-10.6046	1	112.414	-5.41304	2.72963E-006	-0.436382	9
	18	39	12587.2	112.129	-11.5117	1	112.719	-5.8617	2.5794E-006	-0.436384	9
	19	41	11221.1	112.232	-12.702	1	112.948	-6.45704	2.46551E-006	-0.436383	9
	20	43	9998.2	112.581	-14.0832	1	113.458	-7.13034	2.3132E-006	-0.436386	9
	21	45	8912.76	112.903	-15.3716	1	113.945	-7.75308	1.99742E-006	-0.436373	9
	22	47	7942.6	113.301	-17.0908	1	114.583	-8.57809	1.99109E-006	-0.436379	9
	23	49	7078.05	113.706	-18.9619	1	115.277	-9.46762	1.94257E-006	-0.436377	9
	24	51	6311.1	114.072	-20.689	1	115.933	-10.2799	1.91804E-006	-0.436388	9
	25	53	5622.14	114.647	-22.8866	1	116.909	-11.2894	2.07774E-006	-0.436386	9
	26	55	5011.18	115.161	-25.4574	1	117.941	-12.4653	2.02792E-006	-0.436378	9
	27	57	4465.21	115.914	-27.8896	1	119.222	-13.5286	1.97788E-006	-0.436379	9
	28	59	3980.93	116.521	-30.736	1	120.507	-14.7769	2.08299E-006	-0.4364	9
	29	61	3548.18	117.193	-34.1364	1	122.063	-16.24	2.21388E-006	-0.436387	9
	30	63	3162.67	118.041	-37.549	1	123.87	-17.6459	2.66712E-006	-0.436396	9
	31	65	2819.01	119.016	-41.3717	1	126.002	-19.1682	2.58971E-006	-0.436392	9
	32	67	2511.16	119.98	-45.6365	1	128.366	-20.8253	2.55895E-006	-0.436381	9
	33	69	2238.63	120.961	-50.3951	1	131.039	-22.6178	2.37582E-006	-0.436381	9
	34	71	1995.37	121.854	-55.5327	1	133.912	-24.5002	2.25935E-006	-0.43638	9
	35	73	1778.51	123.003	-61.1826	1	137.38	-26.446	2.35662E-006	-0.436388	9
	36	75	1584.49	124.661	-67.4438	1	141.735	-28.4143	2.35909E-006	-0.436391	9
	37	77	1412.76	125.654	-74.4789	1	146.068	-30.6566	2.62613E-006	-0.436394	9
	38	79	1259.04	127.431	-81.9276	1	151.495	-32.7376	2.78352E-006	-0.436391	9
	39	81	1121.63	129.106	-90.5412	1	157.69	-35.0417	2.53828E-006	-0.43638	9
	40	83	999.95	130.471	-100.274	1	164.552	-37.5441	2.40692E-006	-0.436398	9
	41	85	891.184	132.322	-110.57	1	172.438	-39.8828	2.26499E-006	-0.436388	9
	42	87	794.163	134.763	-122.645	1	182.217	-42.3047	2.14543E-006	-0.436378	9
	43	89	707.867	136.594	-135.442	1	192.36	-44.7572	1.83135E-006	-0.436367	9
	44	91	630.984	138.953	-150.037	1	204.497	-47.1965	2.06518E-006	-0.436392	9
	45	93	562.189	140.986	-166.386	1	218.086	-49.724	1.84895E-006	-0.436378	9
	46	95	501.303	144.18	-183.988	1	233.751	-51.9166	2.04396E-006	-0.436387	9
	47	97	446.614	147.104	-203.971	1	251.483	-54.2008	1.88579E-006	-0.43639	9
	48	99	398.209	150.354	-226.039	1	271.477	-56.3694	1.9659E-006	-0.436398	9
	49	101	354.821	153.954	-250.695	1	294.194	-58.4456	1.9459E-006	-0.43639	9
	50	103	316.113	157.942	-278.158	1	319.871	-60.4115	2.0109E-006	-0.436394	9
	51	105	281.926	162.272	-308.401	1	348.487	-62.2478	2.07106E-006	-0.436393	9
	52	107	251.185	167.185	-342.331	1	380.974	-63.9704	2.06945E-006	-0.436393	9
	53	109	223.946	172.346	-379.843	1	417.114	-65.5948	1.83401E-006	-0.436394	9
	54	111	199.495	178.264	-421.928	1	458.041	-67.096	1.74276E-006	-0.436394	9
	55	113	177.836	184.799	-468.351	1	503.491	-68.4671	1.76137E-006	-0.43639	9
	56	115	158.533	192.087	-520.017	1	554.36	-69.7265	1.66551E-006	-0.436389	9
	57	117	141.263	200.312	-577.692	1	611.435	-70.8763	1.64955E-006	-0.436394	9
	58	119	125.911	209.372	-641.613	1	674.91	-71.9274	1.68997E-006	-0.436392	9
	59	121	112.198	219.532	-712.794	1	745.835	-72.8818	1.70576E-006	-0.436392	9
	60	123	100.009	231.246	-791.493	1	824.582	-73.7135	1.8238E-006	-0.436387	9
	61	125	89.1164	244.017	-879.542	1	912.764	-74.4941	1.91171E-006	-0.436385	9
	62	127	79.4083	258.835	-977.45	1	1011.14	-75.1682	1.94518E-006	-0.436387	9
	63	129	70.788	275.577	-1084.82	1	1119.27	-75.7466	1.55258E-006	-0.43639	8
	64	131	63.0971	292.87	-1204.83	1	1239.92	-76.3376	1.47857E-006	-0.43639	8
	65	133	54.5476	319.98	-1376.64	1	1413.34	-76.9148	1.53686E-006	-0.436396	8
	66	135	50.0083	336.417	-1490.08	1	1527.58	-77.2775	1.36031E-006	-0.436397	8
	67	137	46.1675	351.913	-1606.25	1	1644.35	-77.6423	1.14465E-006	-0.436398	8
	68	140	40.0059	388.078	-1830.94	1	1871.62	-78.033	1.26464E-006	-0.436399	8
	69	142	35.3046	424.692	-2053.42	1	2096.88	-78.3148	1.17334E-006	-0.436401	8
	70	144	31.5793	460.513	-2272.41	1	2318.6	-78.5439	1.25727E-006	-0.436391	8
	71	146	28.5748	498.291	-2492.56	1	2541.88	-78.695	1.14976E-006	-0.436398	8
	72	148	24.9911	548.796	-2817.06	1	2870.02	-78.9762	1.08561E-006	-0.436394	8
	73	150	22.2195	603.429	-3142.24	1	3199.66	-79.1294	1.03679E-006	-0.436398	8
	74	153	20.0011	658.391	-3462.88	1	3524.91	-79.2349	1.08081E-006	-0.436393	8
	75	155	17.6486	743.048	-3877.09	1	3947.65	-79.1508	1.07885E-006	-0.436395	8
	76	157	15.7934	816.966	-4280.16	1	4357.43	-79.1938	8.97463E-007	-0.436394	8
	77	160	14.2828	926.959	-4712.67	1	4802.97	-78.8723	1.08456E-006	-0.436389	8
	78	162	12.5002	1071.99	-5351.35	1	5457.66	-78.6723	1.08111E-006	-0.436389	8
	79	165	11.323	1181.23	-5826.02	1	5944.56	-78.5386	1.06371E-006	-0.43639	8
	80	168	9.9987	1349.93	-6512.79	1	6651.22	-78.2899	1.11107E-006	-0.436389	8
