EXPLAIN
TAG	EISPOT
TITLE	LABEL	Tomato_open	Test &Identifier
DATE	LABEL	5/12/2006	Date
TIME	LABEL	14:05:54	Time
NOTES	NOTES	1	&Notes...
	
PSTAT	PSTAT	300	Potentiostat
VDC	POTEN	1.00000E-001	T	DC &Voltage (V)
FREQINIT	QUANT	1.00000E+005	Initial Fre&q. (Hz)
FREQFINAL	QUANT	1.00000E+001	Final Fre&q. (Hz)
PTSPERDEC	QUANT	2.00000E+001	Points/&decade
VAC	QUANT	1.00000E+001	AC &Voltage (mV rms)
AREA	QUANT	1.00000E+000	&Area (cm²)
DENSITY	QUANT	7.87000E+000	&Density (gm/cm³)
EQUIV	QUANT	7.00000E+000	Equiv. &Wt
CONDIT	TWOPARAM	F	1.50000E+001	0.00000E+000	Conditionin&g	Time(s)	E(V)
DELAY	TWOPARAM	F	6.00000E+002	0.00000E+000	Init. De&lay	Time(s)	Stab.(mV/s)
SPEED	SELECTOR	1	&Optimize for:
ZGUESS	QUANT	1.00000E+002	E&stimated Z (ohms)
OCVCURVE	TABLE	39
	Pt	T	Vf	Vm	Ach	Over
	#	s	V vs. Ref.	V	V	bits
	0	0.258332	-5.10969E-001	3.07824E-006	-1.63400E-004	......
	1	0.516663	-5.09870E-001	3.07824E-006	-1.63400E-004	......
	2	0.774994	-5.09169E-001	3.07824E-006	-1.63400E-004	......
	3	1.03333	-5.09319E-001	3.07824E-006	-1.63400E-004	......
	4	1.29166	-5.09619E-001	3.07824E-006	3.66000E-005	......
	5	1.54999	-5.09070E-001	3.07824E-006	-6.34000E-005	......
	6	1.80832	-5.09619E-001	3.07824E-006	-6.34000E-005	......
	7	2.06665	-5.07270E-001	3.07824E-006	-1.63400E-004	......
	8	2.32498	-5.05769E-001	3.07824E-006	-1.63400E-004	......
	9	2.58332	-5.08919E-001	3.07824E-006	-6.34000E-005	......
	10	2.84165	-5.11869E-001	3.07824E-006	-1.63400E-004	......
	11	3.09998	-5.12269E-001	3.07824E-006	-6.34000E-005	......
	12	3.35831	-5.12619E-001	3.07824E-006	-6.34000E-005	......
	13	3.61664	-5.13219E-001	3.07824E-006	-1.63400E-004	......
	14	3.87497	-5.14220E-001	3.07824E-006	-6.34000E-005	......
	15	4.1333	-5.13269E-001	3.07824E-006	-1.63400E-004	......
	16	4.39164	-5.11519E-001	3.07824E-006	-2.63400E-004	......
	17	4.64997	-5.12269E-001	3.07824E-006	-6.34000E-005	......
	18	4.9083	-5.12069E-001	3.07824E-006	-6.34000E-005	......
	19	5.16663	-5.10870E-001	3.07824E-006	-6.34000E-005	......
	20	5.42496	-5.09070E-001	3.07824E-006	-1.63400E-004	......
	21	5.68329	-5.08770E-001	3.07824E-006	-6.34000E-005	......
	22	5.94162	-5.10620E-001	3.07824E-006	3.66000E-005	......
	23	6.19996	-5.14170E-001	3.07824E-006	-1.63400E-004	......
	24	6.45829	-5.14419E-001	3.07824E-006	-1.63400E-004	......
	25	6.71662	-5.13120E-001	3.07824E-006	-1.63400E-004	......
	26	6.97495	-5.12320E-001	3.07824E-006	-6.34000E-005	......
	27	7.23328	-5.13719E-001	3.07824E-006	-6.34000E-005	......
	28	7.49161	-5.13419E-001	3.07824E-006	-1.63400E-004	......
	29	7.74995	-5.12069E-001	3.07824E-006	-1.63400E-004	......
	30	8.00828	-5.11270E-001	3.07824E-006	-6.34000E-005	......
	31	8.26661	-5.12670E-001	3.07824E-006	-1.63400E-004	......
	32	8.52494	-5.13969E-001	3.07824E-006	-6.34000E-005	......
	33	8.78327	-5.14219E-001	3.07824E-006	-1.63400E-004	......
	34	9.0416	-5.14470E-001	3.07824E-006	-1.63400E-004	......
	35	9.29993	-5.14369E-001	3.07824E-006	-6.34000E-005	......
	36	9.5583	-5.14419E-001	3.07824E-006	-2.63400E-004	......
	37	9.8166	-5.12469E-001	3.07824E-006	-6.34000E-005	......
	38	10.0749	-5.09969E-001	3.07824E-006	-1.63400E-004	......
EOC	QUANT	-0.509969	Open Circuit (V)
PSTATMODEL	IQUANT	32	Pstat Model
PSTATSECTION	LABEL	PStat0	Pstat Section
CTRLMODE	IQUANT	1	Control Mode
IESTAB	IQUANT	0	I/E Stability
CASPEED	IQUANT	1	Control Amp Speed
CONVENTION	IQUANT	1	Current Convention
ICHRANGE	IQUANT	2	Ich Range
ICHRANGEMODE	TOGGLE	F	Ich Auto Range
ICHOFFSETENABLE	TOGGLE	T	Ich Offset Enable
ICHOFFSET	QUANT	0	Ich Offset (V)
ICHFILTER	IQUANT	3	Ich Filter
VCHRANGE	IQUANT	2	Vch Range
VCHRANGEMODE	TOGGLE	F	Vch Auto Range
VCHOFFSETENABLE	TOGGLE	T	Vch Offset Enable
VCHOFFSET	QUANT	0	Vch Offset (V)
VCHFILTER	IQUANT	3	Vch Filter
ACHRANGE	IQUANT	0	Ach Range
IERANGELOWERLIMIT	IQUANT	3	I/E Range Lower Limit
IERANGEMODE	TOGGLE	F	I/E AutoRange
IERANGE	IQUANT	11	I/E Range
POSFEEDENABLE	TOGGLE	F	Positive Feedback IR Comp
POSFEEDRESISTANCE	QUANT	0	Positive Feedback Resistance (ohm)
FC350IDIVISOR	IQUANT	0	FC350 I Divisor
FC350VRANGE	IQUANT	0	FC350 V Range
FRAMEWORKVERSION	QUANT	4.35	Framework Version
ZCURVE	TABLE
	Pt	Time	Freq	Zreal	Zimag	Zsig	Zmod	Zphz	Idc	Vdc	IERange
	#	s	Hz	ohm	ohm	V	ohm	°	A	V	#
	0	4	100007	111.026	-0.96129	1	111.031	-0.496067	1.51103E-006	-0.409952	9
	1	6	89134.1	110.687	-1.20237	1	110.694	-0.622366	1.33445E-006	-0.40996	9
	2	8	79433.6	110.36	-1.6544	1	110.373	-0.858853	1.24032E-006	-0.409964	9
	3	10	70800.8	110.136	-1.98969	1	110.154	-1.03498	1.42609E-006	-0.409954	9
	4	12	63105.5	110.005	-2.37583	1	110.031	-1.23725	1.30179E-006	-0.409938	9
	5	14	56243.5	109.849	-2.38341	1	109.875	-1.24296	1.79113E-006	-0.409968	9
	6	16	50123.7	109.756	-3.09003	1	109.8	-1.61266	1.74364E-006	-0.409955	9
	7	18	44681	109.872	-3.51887	1	109.929	-1.83438	1.82513E-006	-0.409953	9
	8	19	39811.2	109.757	-4.09098	1	109.833	-2.1346	2.05129E-006	-0.409962	9
	9	21	35488.3	109.847	-4.56693	1	109.941	-2.38073	1.9897E-006	-0.409945	9
	10	23	31634.1	109.78	-5.15536	1	109.901	-2.68868	2.06813E-006	-0.409928	9
	11	25	28173.1	109.979	-5.64112	1	110.123	-2.93629	2.69556E-006	-0.409956	9
	12	27	25123.7	110.01	-6.22613	1	110.186	-3.23925	3.00038E-006	-0.409934	9
	13	29	22389.3	110.314	-7.01726	1	110.537	-3.63978	3.39484E-006	-0.409937	9
	14	31	19954.4	110.383	-7.73851	1	110.654	-4.01021	3.74174E-006	-0.409932	9
	15	33	17778.2	110.727	-8.63033	1	111.063	-4.45676	4.18021E-006	-0.409946	9
	16	35	15852.9	110.992	-9.556	1	111.402	-4.92083	4.3406E-006	-0.409969	9
	17	37	14122.3	111.26	-10.3518	1	111.741	-5.31558	4.19365E-006	-0.409953	9
	18	39	12587.2	111.279	-11.5305	1	111.875	-5.91578	3.90884E-006	-0.409955	9
	19	41	11221.1	111.603	-12.6492	1	112.318	-6.46639	3.9391E-006	-0.409955	9
	20	43	9998.2	112.031	-14.059	1	112.91	-7.15273	4.09734E-006	-0.409945	9
	21	45	8912.76	112.114	-15.5071	1	113.182	-7.8749	3.86201E-006	-0.409959	9
	22	47	7942.6	112.471	-17.2479	1	113.785	-8.71864	3.5881E-006	-0.409964	9
	23	49	7078.05	112.95	-18.8585	1	114.513	-9.47886	3.62667E-006	-0.40996	9
	24	51	6311.1	113.352	-20.9095	1	115.265	-10.4515	3.29974E-006	-0.409966	9
	25	53	5622.14	113.996	-23.096	1	116.312	-11.4533	3.33554E-006	-0.409962	9
	26	55	5011.18	114.502	-25.3996	1	117.285	-12.5072	3.29645E-006	-0.409958	9
	27	57	4465.21	115.037	-27.989	1	118.393	-13.6746	3.05079E-006	-0.409954	9
	28	59	3980.93	115.658	-30.8641	1	119.705	-14.9416	2.87796E-006	-0.409971	9
	29	61	3548.18	116.53	-34.2325	1	121.454	-16.3709	2.61323E-006	-0.40995	9
	30	63	3162.67	117.115	-37.6298	1	123.011	-17.8126	2.89321E-006	-0.409954	9
	31	65	2819.01	117.995	-41.5474	1	125.096	-19.3977	2.93343E-006	-0.409947	9
	32	67	2511.16	119.044	-45.7913	1	127.547	-21.0396	2.83949E-006	-0.409965	9
	33	69	2238.63	120.167	-50.5468	1	130.365	-22.8134	2.69862E-006	-0.409953	9
	34	71	1995.37	121.016	-55.861	1	133.287	-24.778	2.69807E-006	-0.409965	9
	35	73	1778.51	122.222	-61.5805	1	136.859	-26.7409	2.59321E-006	-0.409956	9
	36	75	1584.49	123.626	-67.9432	1	141.066	-28.7927	2.61442E-006	-0.409963	9
	37	77	1412.76	125.039	-75.1478	1	145.883	-31.0057	2.59859E-006	-0.409956	9
	38	79	1259.04	126.512	-82.7384	1	151.165	-33.1845	2.64463E-006	-0.409961	9
	39	81	1121.63	128.166	-91.5532	1	157.508	-35.5394	2.54477E-006	-0.409954	9
	40	83	999.95	129.828	-101.41	1	164.74	-37.994	2.61735E-006	-0.40996	9
	41	85	891.184	131.566	-111.699	1	172.587	-40.3311	2.40903E-006	-0.409955	9
	42	87	794.163	133.646	-123.748	1	182.14	-42.7977	2.41101E-006	-0.409964	9
	43	89	707.867	135.494	-136.532	1	192.353	-45.2185	2.38185E-006	-0.409966	9
	44	91	630.984	137.666	-151.106	1	204.414	-47.6647	2.21195E-006	-0.409967	9
	45	92	562.189	140.428	-167.498	1	218.576	-50.0239	1.90299E-006	-0.409942	9
	46	94	501.303	143.089	-185.527	1	234.296	-52.3586	2.17638E-006	-0.409968	9
	47	96	446.614	146.016	-205.712	1	252.266	-54.6325	2.24279E-006	-0.409963	9
	48	98	398.209	149.179	-227.991	1	272.459	-56.8024	2.1786E-006	-0.409965	9
	49	100	354.821	152.707	-252.87	1	295.403	-58.8724	2.16551E-006	-0.409964	9
	50	102	316.113	156.576	-280.667	1	321.387	-60.8441	2.0861E-006	-0.409969	9
	51	104	281.926	160.87	-311.225	1	350.343	-62.6658	2.28729E-006	-0.409965	9
	52	106	251.185	165.669	-345.545	1	383.207	-64.385	2.31746E-006	-0.409962	9
	53	108	223.946	170.981	-383.449	1	419.842	-65.9677	2.45435E-006	-0.409966	9
	54	110	199.495	176.963	-426.054	1	461.343	-67.4443	2.56271E-006	-0.40997	9
	55	112	177.836	183.58	-472.987	1	507.364	-68.7873	2.70745E-006	-0.409971	9
	56	114	158.533	190.952	-525.288	1	558.919	-70.0229	2.6727E-006	-0.40997	9
	57	116	141.263	199.053	-583.752	1	616.756	-71.1712	2.58059E-006	-0.409974	9
	58	118	125.911	208.274	-648.303	1	680.937	-72.1898	2.661E-006	-0.409975	9
	59	120	112.198	218.205	-720.41	1	752.731	-73.149	2.58813E-006	-0.409977	9
	60	123	100.009	229.856	-800.389	1	832.74	-73.977	2.62208E-006	-0.409984	9
	61	125	89.1164	242.511	-889.405	1	921.875	-74.7481	2.6099E-006	-0.409975	9
	62	127	79.4083	257.14	-988.59	1	1021.49	-75.42	2.65462E-006	-0.409982	9
	63	129	70.788	271.981	-1097.65	1	1130.85	-76.0833	1.91878E-006	-0.409982	8
	64	131	63.0971	291.628	-1219.59	1	1253.97	-76.552	2.11105E-006	-0.409981	8
	65	133	54.5476	319.085	-1394.02	1	1430.08	-77.1074	2.16464E-006	-0.409981	8
	66	135	50.0083	337.577	-1510.11	1	1547.38	-77.399	2.11029E-006	-0.409975	8
	67	137	46.1675	357.327	-1624.61	1	1663.44	-77.5955	2.21968E-006	-0.409974	8
	68	139	40.0059	393.792	-1853.99	1	1895.35	-78.0084	2.26885E-006	-0.409968	8
	69	141	35.3046	430.961	-2080.8	1	2124.96	-78.2987	2.02501E-006	-0.409974	8
	70	144	31.5793	467.399	-2307.3	1	2354.17	-78.5483	1.91752E-006	-0.409966	8
	71	146	28.5748	507.739	-2528.6	1	2579.07	-78.6461	1.7698E-006	-0.40997	8
	72	148	24.9911	560.651	-2861.4	1	2915.81	-78.9141	1.53385E-006	-0.409969	8
	73	150	22.2195	639.002	-3184.62	1	3248.1	-78.6541	1.71556E-006	-0.409971	8
	74	152	20.0011	690.254	-3508.69	1	3575.94	-78.8705	1.70617E-006	-0.409967	8
	75	155	17.6486	787.707	-3958.38	1	4035.99	-78.7453	1.77578E-006	-0.409968	8
	76	157	15.7934	904.231	-4390.35	1	4482.5	-78.3622	1.62388E-006	-0.409974	8
	77	159	14.2828	999.23	-4788.91	1	4892.05	-78.2141	1.78486E-006	-0.40997	8
	78	161	12.5002	1141.68	-5398.85	1	5518.25	-78.0597	1.73983E-006	-0.409968	8
	79	164	11.323	1239.25	-5925.06	1	6053.27	-78.1867	1.69101E-006	-0.409972	8
	80	167	9.9987	1487.12	-6569.58	1	6735.8	-77.2452	1.78069E-006	-0.409973	8
