EXPLAIN
TAG	EISPOT
TITLE	LABEL	Tomato_open	Test &Identifier
DATE	LABEL	5/12/2006	Date
TIME	LABEL	14:10:53	Time
NOTES	NOTES	1	&Notes...
	
PSTAT	PSTAT	300	Potentiostat
VDC	POTEN	1.00000E-001	T	DC &Voltage (V)
FREQINIT	QUANT	1.00000E+005	Initial Fre&q. (Hz)
FREQFINAL	QUANT	1.00000E+001	Final Fre&q. (Hz)
PTSPERDEC	QUANT	2.00000E+001	Points/&decade
VAC	QUANT	1.00000E+001	AC &Voltage (mV rms)
AREA	QUANT	1.00000E+000	&Area (cm²)
DENSITY	QUANT	7.87000E+000	&Density (gm/cm³)
EQUIV	QUANT	7.00000E+000	Equiv. &Wt
CONDIT	TWOPARAM	F	1.50000E+001	0.00000E+000	Conditionin&g	Time(s)	E(V)
DELAY	TWOPARAM	F	6.00000E+002	0.00000E+000	Init. De&lay	Time(s)	Stab.(mV/s)
SPEED	SELECTOR	1	&Optimize for:
ZGUESS	QUANT	1.00000E+002	E&stimated Z (ohms)
OCVCURVE	TABLE	39
	Pt	T	Vf	Vm	Ach	Over
	#	s	V vs. Ref.	V	V	bits
	0	0.258332	-5.31869E-001	3.49894E-006	3.66000E-005	......
	1	0.516663	-5.29819E-001	3.49894E-006	2.36600E-004	......
	2	0.774994	-5.31720E-001	3.49894E-006	-1.63400E-004	......
	3	1.03333	-5.32269E-001	3.49894E-006	2.36600E-004	......
	4	1.29166	-5.32669E-001	3.49894E-006	-6.34000E-005	......
	5	1.54999	-5.31669E-001	3.49894E-006	3.36600E-004	......
	6	1.80832	-5.25769E-001	3.49894E-006	3.66000E-005	......
	7	2.06665	-5.27269E-001	3.49894E-006	1.36600E-004	......
	8	2.32498	-5.25069E-001	3.49894E-006	-6.34000E-005	......
	9	2.58332	-5.22820E-001	3.49894E-006	3.66000E-005	......
	10	2.84165	-5.24069E-001	3.49894E-006	3.66000E-005	......
	11	3.09998	-5.26469E-001	3.49894E-006	2.36600E-004	......
	12	3.35831	-5.25069E-001	3.49894E-006	-6.34000E-005	......
	13	3.61664	-5.25620E-001	3.49894E-006	2.36600E-004	......
	14	3.87497	-5.22969E-001	3.49894E-006	-6.34000E-005	......
	15	4.1333	-5.21320E-001	3.49894E-006	2.36600E-004	......
	16	4.39164	-5.23269E-001	3.49894E-006	-6.34000E-005	......
	17	4.64997	-5.17569E-001	3.49894E-006	1.36600E-004	......
	18	4.9083	-5.21619E-001	3.49894E-006	-6.34000E-005	......
	19	5.16663	-5.18470E-001	3.49894E-006	3.36600E-004	......
	20	5.42496	-5.23070E-001	3.49894E-006	-1.63400E-004	......
	21	5.68329	-5.20669E-001	3.49894E-006	3.36600E-004	......
	22	5.94162	-5.24469E-001	3.49894E-006	-6.34000E-005	......
	23	6.19996	-5.15119E-001	3.49894E-006	2.36600E-004	......
	24	6.45829	-5.13669E-001	3.49894E-006	-6.34000E-005	......
	25	6.71662	-5.05619E-001	3.49894E-006	3.36600E-004	......
	26	6.97495	-5.06519E-001	3.49894E-006	3.66000E-005	......
	27	7.23328	-5.09969E-001	3.49894E-006	2.36600E-004	......
	28	7.49161	-5.05069E-001	3.49894E-006	-6.34000E-005	......
	29	7.74995	-5.06069E-001	3.49894E-006	3.36600E-004	......
	30	8.00828	-5.12719E-001	3.49894E-006	-6.34000E-005	......
	31	8.26661	-5.19669E-001	3.49894E-006	3.66000E-005	......
	32	8.52494	-5.10419E-001	3.49894E-006	-6.34000E-005	......
	33	8.78327	-5.13669E-001	3.49894E-006	2.36600E-004	......
	34	9.0416	-5.18770E-001	3.49894E-006	3.66000E-005	......
	35	9.29993	-5.07969E-001	3.49894E-006	2.36600E-004	......
	36	9.5583	-5.20319E-001	3.49894E-006	-6.34000E-005	......
	37	9.8166	-5.26670E-001	3.49894E-006	2.36600E-004	......
	38	10.0749	-5.09470E-001	3.49894E-006	3.66000E-005	......
EOC	QUANT	-0.50947	Open Circuit (V)
PSTATMODEL	IQUANT	32	Pstat Model
PSTATSECTION	LABEL	PStat0	Pstat Section
CTRLMODE	IQUANT	1	Control Mode
IESTAB	IQUANT	0	I/E Stability
CASPEED	IQUANT	1	Control Amp Speed
CONVENTION	IQUANT	1	Current Convention
ICHRANGE	IQUANT	2	Ich Range
ICHRANGEMODE	TOGGLE	F	Ich Auto Range
ICHOFFSETENABLE	TOGGLE	T	Ich Offset Enable
ICHOFFSET	QUANT	0	Ich Offset (V)
ICHFILTER	IQUANT	3	Ich Filter
VCHRANGE	IQUANT	2	Vch Range
VCHRANGEMODE	TOGGLE	F	Vch Auto Range
VCHOFFSETENABLE	TOGGLE	T	Vch Offset Enable
VCHOFFSET	QUANT	0	Vch Offset (V)
VCHFILTER	IQUANT	3	Vch Filter
ACHRANGE	IQUANT	0	Ach Range
IERANGELOWERLIMIT	IQUANT	3	I/E Range Lower Limit
IERANGEMODE	TOGGLE	F	I/E AutoRange
IERANGE	IQUANT	11	I/E Range
POSFEEDENABLE	TOGGLE	F	Positive Feedback IR Comp
POSFEEDRESISTANCE	QUANT	0	Positive Feedback Resistance (ohm)
FC350IDIVISOR	IQUANT	0	FC350 I Divisor
FC350VRANGE	IQUANT	0	FC350 V Range
FRAMEWORKVERSION	QUANT	4.35	Framework Version
ZCURVE	TABLE
	Pt	Time	Freq	Zreal	Zimag	Zsig	Zmod	Zphz	Idc	Vdc	IERange
	#	s	Hz	ohm	ohm	V	ohm	°	A	V	#
	0	4	100007	110.64	-1.05718	1	110.645	-0.547448	2.69876E-006	-0.409488	9
	1	6	89134.1	110.223	-1.23532	1	110.23	-0.642113	2.53548E-006	-0.409468	9
	2	8	79433.6	109.969	-1.68039	1	109.982	-0.875442	2.71327E-006	-0.409471	9
	3	10	70800.8	109.812	-1.92738	1	109.829	-1.00553	3.20568E-006	-0.409493	9
	4	12	63105.5	109.412	-2.38266	1	109.438	-1.24753	3.11242E-006	-0.409475	9
	5	14	56243.5	109.43	-2.5302	1	109.459	-1.32454	3.42945E-006	-0.409486	9
	6	16	50123.7	109.442	-3.16506	1	109.487	-1.65654	3.32727E-006	-0.409465	9
	7	18	44681	109.46	-3.59495	1	109.519	-1.88107	3.33873E-006	-0.409466	9
	8	20	39811.2	109.381	-4.12965	1	109.459	-2.16217	3.3659E-006	-0.409455	9
	9	22	35488.3	109.62	-4.44982	1	109.71	-2.32453	3.53249E-006	-0.40947	9
	10	24	31634.1	109.491	-5.00564	1	109.606	-2.61758	3.67526E-006	-0.409485	9
	11	26	28173.1	109.598	-5.68623	1	109.746	-2.96998	3.33437E-006	-0.409468	9
	12	28	25123.7	109.924	-6.32167	1	110.106	-3.29143	3.55342E-006	-0.409483	9
	13	30	22389.3	109.949	-7.07141	1	110.176	-3.67993	3.30915E-006	-0.409476	9
	14	32	19954.4	110.115	-7.80495	1	110.391	-4.05435	3.16837E-006	-0.409471	9
	15	33	17778.2	110.247	-8.5131	1	110.575	-4.41552	3.16793E-006	-0.409474	9
	16	35	15852.9	110.438	-9.4426	1	110.841	-4.88698	3.01078E-006	-0.40946	9
	17	37	14122.3	110.616	-10.5422	1	111.118	-5.44406	3.05253E-006	-0.409472	9
	18	39	12587.2	110.938	-11.5901	1	111.542	-5.96428	2.99034E-006	-0.409463	9
	19	41	11221.1	111.067	-12.704	1	111.791	-6.5252	2.85031E-006	-0.409472	9
	20	43	9998.2	111.602	-14.1702	1	112.498	-7.23619	2.77573E-006	-0.409471	9
	21	45	8912.76	111.713	-15.6497	1	112.804	-7.97457	2.56617E-006	-0.409464	9
	22	47	7942.6	112.235	-17.3847	1	113.574	-8.80486	2.81937E-006	-0.409465	9
	23	49	7078.05	112.608	-18.9733	1	114.195	-9.564	2.78432E-006	-0.409473	9
	24	51	6311.1	113.051	-21.1707	1	115.016	-10.6068	2.40971E-006	-0.409477	9
	25	53	5622.14	113.581	-23.0737	1	115.901	-11.4832	2.51338E-006	-0.409472	9
	26	55	5011.18	113.919	-25.6381	1	116.768	-12.6834	2.49776E-006	-0.40948	9
	27	57	4465.21	114.668	-28.207	1	118.086	-13.8197	2.34006E-006	-0.409471	9
	28	59	3980.93	115.436	-31.151	1	119.565	-15.1019	2.35729E-006	-0.409473	9
	29	61	3548.18	116.042	-34.2086	1	120.979	-16.4253	2.22126E-006	-0.409481	9
	30	63	3162.67	116.898	-37.7352	1	122.837	-17.8904	2.25406E-006	-0.409491	9
	31	65	2819.01	117.767	-41.6704	1	124.922	-19.4857	2.27918E-006	-0.409489	9
	32	67	2511.16	118.565	-46.1233	1	127.221	-21.2566	2.26209E-006	-0.409482	9
	33	69	2238.63	119.712	-50.8103	1	130.048	-22.9983	2.27645E-006	-0.409495	9
	34	71	1995.37	120.763	-56.0403	1	133.132	-24.8938	2.58968E-006	-0.409493	9
	35	73	1778.51	121.87	-61.7104	1	136.603	-26.8559	2.63454E-006	-0.409493	9
	36	75	1584.49	123.392	-68.15	1	140.961	-28.9121	2.36557E-006	-0.409481	9
	37	77	1412.76	124.689	-75.308	1	145.666	-31.1306	2.55607E-006	-0.409507	9
	38	79	1259.04	125.985	-83.3436	1	151.057	-33.4861	2.43217E-006	-0.409483	9
	39	81	1121.63	127.511	-91.781	1	157.108	-35.7459	2.41128E-006	-0.409492	9
	40	83	999.95	129.312	-101.412	1	164.335	-38.1052	2.33774E-006	-0.40948	9
	41	85	891.184	131.049	-112.271	1	172.565	-40.5871	2.38531E-006	-0.409485	9
	42	87	794.163	133.17	-124.036	1	181.987	-42.9662	2.22145E-006	-0.409485	9
	43	89	707.867	135.026	-137.288	1	192.562	-45.4761	2.0549E-006	-0.40948	9
	44	91	630.984	137.444	-152.648	1	205.408	-48.0002	1.81318E-006	-0.409492	9
	45	93	562.189	139.736	-168.389	1	218.818	-50.3127	1.81263E-006	-0.409482	9
	46	95	501.303	142.631	-186.481	1	234.774	-52.5893	1.75696E-006	-0.409483	9
	47	97	446.614	145.524	-206.796	1	252.867	-54.8657	1.78654E-006	-0.409481	9
	48	99	398.209	148.658	-229.215	1	273.201	-57.0344	1.77234E-006	-0.409481	9
	49	101	354.821	152.185	-254.278	1	296.34	-59.0996	1.83692E-006	-0.409484	9
	50	103	316.113	156.009	-282.239	1	322.486	-61.0681	1.65029E-006	-0.409488	9
	51	105	281.926	160.254	-313.038	1	351.673	-62.8906	1.62598E-006	-0.409489	9
	52	107	251.185	164.965	-347.566	1	384.728	-64.6096	1.81284E-006	-0.409484	9
	53	109	223.946	170.172	-385.78	1	421.645	-66.1972	1.81748E-006	-0.409483	9
	54	111	199.495	175.857	-428.559	1	463.236	-67.6895	1.82021E-006	-0.409485	9
	55	113	177.836	182.211	-475.966	1	509.651	-69.0519	1.79065E-006	-0.409486	9
	56	115	158.533	189.308	-528.62	1	561.495	-70.2967	1.80211E-006	-0.409487	9
	57	117	141.263	197	-587.416	1	619.57	-71.4602	1.5568E-006	-0.409482	9
	58	119	125.911	205.794	-652.72	1	684.393	-72.5006	1.59515E-006	-0.409489	9
	59	121	112.198	214.974	-725.505	1	756.684	-73.4949	1.46527E-006	-0.409491	9
	60	123	100.009	226.344	-805.974	1	837.153	-74.3135	1.7181E-006	-0.409486	9
	61	125	89.1164	238.621	-895.738	1	926.977	-75.0831	1.83393E-006	-0.409487	9
	62	127	79.4083	251.823	-996.08	1	1027.42	-75.8121	1.74658E-006	-0.409488	9
	63	129	70.788	267.007	-1106.11	1	1137.88	-76.4288	1.55399E-006	-0.409485	8
	64	131	63.0971	283.694	-1229.86	1	1262.16	-77.0107	1.42178E-006	-0.409485	8
	65	133	54.5476	306.038	-1406.1	1	1439.02	-77.7211	1.34794E-006	-0.409489	8
	66	135	50.0083	324.661	-1522.62	1	1556.85	-77.9633	1.32227E-006	-0.409486	8
	67	137	46.1675	337.978	-1640.59	1	1675.04	-78.3593	1.16613E-006	-0.409486	8
	68	140	40.0059	372.03	-1871.99	1	1908.6	-78.7598	1.38975E-006	-0.409488	8
	69	142	35.3046	405.722	-2099.61	1	2138.45	-79.0631	1.26751E-006	-0.409486	8
	70	144	31.5793	439.382	-2329.31	1	2370.38	-79.3177	1.26657E-006	-0.409486	8
	71	146	28.5748	469.419	-2550.8	1	2593.64	-79.5727	1.27342E-006	-0.409485	8
	72	148	24.9911	526.894	-2892.64	1	2940.24	-79.6768	1.13689E-006	-0.409483	8
	73	150	22.2195	572.235	-3204.74	1	3255.43	-79.876	1.01608E-006	-0.409477	8
	74	153	20.0011	603.267	-3555.44	1	3606.25	-80.3701	9.88246E-007	-0.409483	8
	75	155	17.6486	711.2	-4002.97	1	4065.66	-79.9255	1.08742E-006	-0.40948	8
	76	157	15.7934	804.904	-4424.2	1	4496.82	-79.6888	1.34824E-006	-0.409479	8
	77	160	14.2828	853.585	-4882.52	1	4956.57	-80.0835	9.85587E-007	-0.409478	8
	78	162	12.5002	1010.71	-5498.61	1	5590.73	-79.5846	1.06935E-006	-0.409484	8
	79	164	11.323	1132.11	-6056.17	1	6161.08	-79.4116	1.24284E-006	-0.409481	8
	80	167	9.9987	1371.64	-6757.66	1	6895.46	-78.5262	1.30218E-006	-0.409482	8
