EXPLAIN
TAG	EISPOT
TITLE	LABEL	Tomato_open	Test &Identifier
DATE	LABEL	5/12/2006	Date
TIME	LABEL	14:15:53	Time
NOTES	NOTES	1	&Notes...
	
PSTAT	PSTAT	300	Potentiostat
VDC	POTEN	1.00000E-001	T	DC &Voltage (V)
FREQINIT	QUANT	1.00000E+005	Initial Fre&q. (Hz)
FREQFINAL	QUANT	1.00000E+001	Final Fre&q. (Hz)
PTSPERDEC	QUANT	2.00000E+001	Points/&decade
VAC	QUANT	1.00000E+001	AC &Voltage (mV rms)
AREA	QUANT	1.00000E+000	&Area (cm²)
DENSITY	QUANT	7.87000E+000	&Density (gm/cm³)
EQUIV	QUANT	7.00000E+000	Equiv. &Wt
CONDIT	TWOPARAM	F	1.50000E+001	0.00000E+000	Conditionin&g	Time(s)	E(V)
DELAY	TWOPARAM	F	6.00000E+002	0.00000E+000	Init. De&lay	Time(s)	Stab.(mV/s)
SPEED	SELECTOR	1	&Optimize for:
ZGUESS	QUANT	1.00000E+002	E&stimated Z (ohms)
OCVCURVE	TABLE	39
	Pt	T	Vf	Vm	Ach	Over
	#	s	V vs. Ref.	V	V	bits
	0	0.258332	-5.35719E-001	3.00674E-006	3.66000E-005	......
	1	0.516663	-5.36319E-001	3.00674E-006	3.36600E-004	......
	2	0.774994	-5.27969E-001	3.00674E-006	-1.63400E-004	......
	3	1.03333	-5.18470E-001	3.00674E-006	2.36600E-004	......
	4	1.29166	-5.12719E-001	3.00674E-006	3.66000E-005	......
	5	1.54999	-5.10319E-001	3.00674E-006	2.36600E-004	......
	6	1.80832	-5.10619E-001	3.00674E-006	3.66000E-005	......
	7	2.06665	-5.11270E-001	3.00674E-006	1.36600E-004	......
	8	2.32498	-5.11819E-001	3.00674E-006	-6.34000E-005	......
	9	2.58332	-5.12670E-001	3.00674E-006	3.36600E-004	......
	10	2.84165	-5.13969E-001	3.00674E-006	-6.34000E-005	......
	11	3.09998	-5.14769E-001	3.00674E-006	2.36600E-004	......
	12	3.35831	-5.16019E-001	3.00674E-006	3.66000E-005	......
	13	3.61664	-5.14820E-001	3.00674E-006	3.36600E-004	......
	14	3.87497	-5.15519E-001	3.00674E-006	3.66000E-005	......
	15	4.1333	-5.13169E-001	3.00674E-006	1.36600E-004	......
	16	4.39164	-5.10469E-001	3.00674E-006	3.66000E-005	......
	17	4.64997	-5.10170E-001	3.00674E-006	3.36600E-004	......
	18	4.9083	-5.10870E-001	3.00674E-006	-1.63400E-004	......
	19	5.16663	-5.11919E-001	3.00674E-006	2.36600E-004	......
	20	5.42496	-5.12969E-001	3.00674E-006	3.66000E-005	......
	21	5.68329	-5.13869E-001	3.00674E-006	2.36600E-004	......
	22	5.94162	-5.14019E-001	3.00674E-006	-6.34000E-005	......
	23	6.19996	-5.18169E-001	3.00674E-006	2.36600E-004	......
	24	6.45829	-5.17370E-001	3.00674E-006	3.66000E-005	......
	25	6.71662	-5.20369E-001	3.00674E-006	2.36600E-004	......
	26	6.97495	-5.20270E-001	3.00674E-006	3.66000E-005	......
	27	7.23328	-5.18269E-001	3.00674E-006	3.36600E-004	......
	28	7.49161	-5.19269E-001	3.00674E-006	-6.34000E-005	......
	29	7.74995	-5.17720E-001	3.00674E-006	2.36600E-004	......
	30	8.00828	-5.13070E-001	3.00674E-006	-6.34000E-005	......
	31	8.26661	-5.10870E-001	3.00674E-006	2.36600E-004	......
	32	8.52494	-5.09470E-001	3.00674E-006	3.66000E-005	......
	33	8.78327	-5.08819E-001	3.00674E-006	2.36600E-004	......
	34	9.0416	-5.08770E-001	3.00674E-006	3.66000E-005	......
	35	9.29993	-5.08769E-001	3.00674E-006	1.36600E-004	......
	36	9.5583	-5.08469E-001	3.00674E-006	3.66000E-005	......
	37	9.8166	-5.08070E-001	3.00674E-006	2.36600E-004	......
	38	10.0749	-5.08020E-001	3.00674E-006	3.66000E-005	......
EOC	QUANT	-0.50802	Open Circuit (V)
PSTATMODEL	IQUANT	32	Pstat Model
PSTATSECTION	LABEL	PStat0	Pstat Section
CTRLMODE	IQUANT	1	Control Mode
IESTAB	IQUANT	0	I/E Stability
CASPEED	IQUANT	1	Control Amp Speed
CONVENTION	IQUANT	1	Current Convention
ICHRANGE	IQUANT	2	Ich Range
ICHRANGEMODE	TOGGLE	F	Ich Auto Range
ICHOFFSETENABLE	TOGGLE	T	Ich Offset Enable
ICHOFFSET	QUANT	0	Ich Offset (V)
ICHFILTER	IQUANT	3	Ich Filter
VCHRANGE	IQUANT	2	Vch Range
VCHRANGEMODE	TOGGLE	F	Vch Auto Range
VCHOFFSETENABLE	TOGGLE	T	Vch Offset Enable
VCHOFFSET	QUANT	0	Vch Offset (V)
VCHFILTER	IQUANT	3	Vch Filter
ACHRANGE	IQUANT	0	Ach Range
IERANGELOWERLIMIT	IQUANT	3	I/E Range Lower Limit
IERANGEMODE	TOGGLE	F	I/E AutoRange
IERANGE	IQUANT	11	I/E Range
POSFEEDENABLE	TOGGLE	F	Positive Feedback IR Comp
POSFEEDRESISTANCE	QUANT	0	Positive Feedback Resistance (ohm)
FC350IDIVISOR	IQUANT	0	FC350 I Divisor
FC350VRANGE	IQUANT	0	FC350 V Range
FRAMEWORKVERSION	QUANT	4.35	Framework Version
ZCURVE	TABLE
	Pt	Time	Freq	Zreal	Zimag	Zsig	Zmod	Zphz	Idc	Vdc	IERange
	#	s	Hz	ohm	ohm	V	ohm	°	A	V	#
	0	5	100007	110.668	-1.02644	1	110.673	-0.5314	2.32798E-006	-0.407999	9
	1	7	89134.1	110.251	-1.17887	1	110.257	-0.612618	2.69112E-006	-0.407999	9
	2	9	79433.6	109.857	-1.68926	1	109.869	-0.880964	2.3387E-006	-0.407995	9
	3	11	70800.8	109.689	-1.9876	1	109.707	-1.0381	2.18892E-006	-0.407985	9
	4	13	63105.5	109.538	-2.29835	1	109.562	-1.20202	2.24929E-006	-0.407992	9
	5	15	56243.5	109.354	-2.6763	1	109.387	-1.40196	2.48143E-006	-0.408005	9
	6	17	50123.7	109.383	-3.13441	1	109.428	-1.64138	2.98946E-006	-0.408011	9
	7	19	44681	109.361	-3.62469	1	109.421	-1.89833	2.97339E-006	-0.407998	9
	8	21	39811.2	109.347	-4.06624	1	109.423	-2.12965	3.0906E-006	-0.407997	9
	9	22	35488.3	109.472	-4.43885	1	109.562	-2.32195	2.94731E-006	-0.407985	9
	10	24	31634.1	109.508	-5.09055	1	109.626	-2.66153	2.84851E-006	-0.408019	9
	11	26	28173.1	109.637	-5.5429	1	109.777	-2.89423	2.9946E-006	-0.40799	9
	12	28	25123.7	109.735	-6.38068	1	109.92	-3.32779	3.01767E-006	-0.408008	9
	13	30	22389.3	109.842	-7.15226	1	110.075	-3.72549	2.76049E-006	-0.407998	9
	14	32	19954.4	110.07	-7.77993	1	110.345	-4.04303	2.76384E-006	-0.407992	9
	15	34	17778.2	110.261	-8.66942	1	110.602	-4.4957	2.73698E-006	-0.40799	9
	16	36	15852.9	110.44	-9.48936	1	110.846	-4.91099	2.62013E-006	-0.407977	9
	17	38	14122.3	110.565	-10.4746	1	111.06	-5.4119	2.49409E-006	-0.407994	9
	18	40	12587.2	110.92	-11.5264	1	111.517	-5.93265	2.21335E-006	-0.407979	9
	19	42	11221.1	111.12	-12.7849	1	111.853	-6.56328	2.31423E-006	-0.407997	9
	20	44	9998.2	111.45	-14.2253	1	112.354	-7.27384	2.73056E-006	-0.407983	9
	21	46	8912.76	111.873	-15.5535	1	112.949	-7.91504	2.53659E-006	-0.407982	9
	22	48	7942.6	112.34	-17.1686	1	113.644	-8.68909	2.4872E-006	-0.407987	9
	23	50	7078.05	112.609	-18.9431	1	114.192	-9.5489	2.64829E-006	-0.407993	9
	24	52	6311.1	112.966	-21.0156	1	114.905	-10.5385	2.90276E-006	-0.407988	9
	25	54	5622.14	113.541	-23.0447	1	115.856	-11.4732	2.71831E-006	-0.407993	9
	26	56	5011.18	113.957	-25.6016	1	116.797	-12.6619	2.69631E-006	-0.407994	9
	27	58	4465.21	114.761	-28.1449	1	118.162	-13.7797	2.70063E-006	-0.407993	9
	28	60	3980.93	115.401	-31.2544	1	119.559	-15.154	3.07234E-006	-0.408	9
	29	62	3548.18	116.095	-34.3437	1	121.068	-16.4795	2.59834E-006	-0.407981	9
	30	64	3162.67	116.633	-37.8915	1	122.634	-17.9978	2.32487E-006	-0.40799	9
	31	66	2819.01	117.747	-41.7907	1	124.943	-19.5407	2.04928E-006	-0.407991	9
	32	68	2511.16	118.475	-46.1698	1	127.153	-21.2909	2.31303E-006	-0.407995	9
	33	70	2238.63	119.667	-50.9694	1	130.069	-23.0705	2.60962E-006	-0.407987	9
	34	72	1995.37	120.729	-56.1542	1	133.15	-24.9443	2.68901E-006	-0.407996	9
	35	74	1778.51	121.829	-61.938	1	136.67	-26.9487	2.66031E-006	-0.40799	9
	36	76	1584.49	123.251	-68.3343	1	140.927	-29.0055	2.74956E-006	-0.407988	9
	37	78	1412.76	124.688	-75.421	1	145.724	-31.1687	2.48192E-006	-0.407991	9
	38	80	1259.04	126.161	-83.5004	1	151.291	-33.4987	2.33188E-006	-0.407985	9
	39	82	1121.63	127.652	-92.2092	1	157.473	-35.8423	2.73053E-006	-0.407993	9
	40	84	999.95	129.318	-101.812	1	164.586	-38.2134	2.63751E-006	-0.408	9
	41	86	891.184	130.932	-112.538	1	172.65	-40.6796	2.61771E-006	-0.407996	9
	42	88	794.163	133.129	-124.629	1	182.361	-43.1114	2.61935E-006	-0.407996	9
	43	90	707.867	135.205	-137.858	1	193.093	-45.5567	2.5627E-006	-0.407997	9
	44	92	630.984	137.157	-152.606	1	205.184	-48.0518	3.05328E-006	-0.408002	9
	45	94	562.189	140.062	-169.197	1	219.647	-50.382	2.23113E-006	-0.407979	9
	46	96	501.303	142.6	-187.155	1	235.291	-52.6948	2.30863E-006	-0.407983	9
	47	98	446.614	145.49	-207.546	1	253.462	-54.9695	2.43135E-006	-0.407982	9
	48	100	398.209	148.613	-230.044	1	273.873	-57.1367	2.50203E-006	-0.407984	9
	49	102	354.821	152.057	-255.203	1	297.069	-59.2124	2.17581E-006	-0.407982	9
	50	104	316.113	156.229	-283.371	1	323.584	-61.1311	3.21187E-006	-0.407976	9
	51	106	281.926	160.374	-314.207	1	352.769	-62.9599	3.08738E-006	-0.407972	9
	52	108	251.185	165.05	-348.873	1	385.946	-64.6815	2.67093E-006	-0.407969	9
	53	110	223.946	170.012	-387.337	1	423.006	-66.3022	2.2032E-006	-0.407969	9
	54	112	199.495	176.129	-430.335	1	464.983	-67.7415	2.61045E-006	-0.407967	9
	55	113	177.836	182.76	-477.859	1	511.616	-69.0704	3.08242E-006	-0.407966	9
	56	116	158.533	189.66	-530.671	1	563.545	-70.3333	2.73699E-006	-0.407968	9
	57	118	141.263	198.005	-589.782	1	622.132	-71.4418	3.08193E-006	-0.407978	9
	58	120	125.911	206.572	-655.213	1	687.006	-72.5012	3.00452E-006	-0.407975	9
	59	122	112.198	217.824	-728.359	1	760.233	-73.3501	3.47716E-006	-0.407976	9
	60	124	100.009	227.33	-809.536	1	840.849	-74.3145	2.84847E-006	-0.407979	9
	61	126	89.1164	239.209	-900.166	1	931.408	-75.1182	2.75154E-006	-0.40798	9
	62	128	79.4083	253.557	-1000.26	1	1031.9	-75.7757	2.97786E-006	-0.407971	9
	63	130	70.788	267.987	-1111.78	1	1143.62	-76.4477	1.91505E-006	-0.407976	8
	64	132	63.0971	284.051	-1233.41	1	1265.69	-77.031	1.77107E-006	-0.407978	8
	65	134	54.5476	307.903	-1412.05	1	1445.23	-77.699	1.64572E-006	-0.407979	8
	66	136	50.0083	326.566	-1530.07	1	1564.53	-77.952	1.9496E-006	-0.407976	8
	67	138	46.1675	343.135	-1645.85	1	1681.24	-78.2234	1.70914E-006	-0.407974	8
	68	140	40.0059	373.956	-1880.09	1	1916.92	-78.7505	1.55039E-006	-0.407979	8
	69	143	35.3046	417.232	-2112.51	1	2153.31	-78.8276	1.72321E-006	-0.407978	8
	70	145	31.5793	449.048	-2342.51	1	2385.16	-79.1483	1.54471E-006	-0.407973	8
	71	147	28.5748	481.885	-2574.48	1	2619.19	-79.3982	1.39452E-006	-0.407978	8
	72	149	24.9911	526.117	-2918.34	1	2965.39	-79.7805	1.38199E-006	-0.407976	8
	73	151	22.2195	596.268	-3234.7	1	3289.19	-79.5556	1.5993E-006	-0.407974	8
	74	154	20.0011	708.19	-3566.27	1	3635.91	-78.7683	2.13156E-006	-0.407975	8
	75	156	17.6486	804.133	-3998.28	1	4078.34	-78.6284	2.49273E-006	-0.407973	8
	76	158	15.7934	963.86	-4419.82	1	4523.69	-77.6977	2.39946E-006	-0.407974	8
	77	160	14.2828	1033.63	-4884.3	1	4992.47	-78.0512	2.37293E-006	-0.40797	8
	78	163	12.5002	1052.51	-5544.27	1	5643.29	-79.2511	1.27145E-006	-0.407965	8
	79	165	11.323	1239.65	-6032.21	1	6158.27	-78.3872	1.64698E-006	-0.407973	8
	80	169	9.9987	1311.65	-6793.56	1	6919.02	-79.0723	1.26485E-006	-0.407971	8
