EXPLAIN
TAG	EISPOT
TITLE	LABEL	Tomato_open	Test &Identifier
DATE	LABEL	5/12/2006	Date
TIME	LABEL	14:20:51	Time
NOTES	NOTES	1	&Notes...
	
PSTAT	PSTAT	300	Potentiostat
VDC	POTEN	1.00000E-001	T	DC &Voltage (V)
FREQINIT	QUANT	1.00000E+005	Initial Fre&q. (Hz)
FREQFINAL	QUANT	1.00000E+001	Final Fre&q. (Hz)
PTSPERDEC	QUANT	2.00000E+001	Points/&decade
VAC	QUANT	1.00000E+001	AC &Voltage (mV rms)
AREA	QUANT	1.00000E+000	&Area (cm²)
DENSITY	QUANT	7.87000E+000	&Density (gm/cm³)
EQUIV	QUANT	7.00000E+000	Equiv. &Wt
CONDIT	TWOPARAM	F	1.50000E+001	0.00000E+000	Conditionin&g	Time(s)	E(V)
DELAY	TWOPARAM	F	6.00000E+002	0.00000E+000	Init. De&lay	Time(s)	Stab.(mV/s)
SPEED	SELECTOR	1	&Optimize for:
ZGUESS	QUANT	1.00000E+002	E&stimated Z (ohms)
OCVCURVE	TABLE	39
	Pt	T	Vf	Vm	Ach	Over
	#	s	V vs. Ref.	V	V	bits
	0	0.258332	-5.42169E-001	3.56954E-006	-6.34000E-005	......
	1	0.516663	-5.44519E-001	3.56954E-006	-1.63400E-004	......
	2	0.774994	-5.46569E-001	3.56954E-006	-2.63400E-004	......
	3	1.03333	-5.30469E-001	3.56954E-006	-6.34000E-005	......
	4	1.29166	-5.33769E-001	3.56954E-006	-6.34000E-005	......
	5	1.54999	-5.37219E-001	3.56954E-006	-1.63400E-004	......
	6	1.80832	-5.15970E-001	3.56954E-006	-1.63400E-004	......
	7	2.06665	-5.17219E-001	3.56954E-006	-1.63400E-004	......
	8	2.32498	-5.29819E-001	3.56954E-006	-2.63400E-004	......
	9	2.58332	-5.36619E-001	3.56954E-006	-1.63400E-004	......
	10	2.84165	-5.39419E-001	3.56954E-006	-1.63400E-004	......
	11	3.09998	-5.43570E-001	3.56954E-006	-6.34000E-005	......
	12	3.35831	-5.46169E-001	3.56954E-006	-1.63400E-004	......
	13	3.61664	-5.45669E-001	3.56954E-006	-6.34000E-005	......
	14	3.87497	-5.45969E-001	3.56954E-006	-6.34000E-005	......
	15	4.1333	-5.44519E-001	3.56954E-006	-1.63400E-004	......
	16	4.39164	-5.47170E-001	3.56954E-006	-1.63400E-004	......
	17	4.64997	-5.48919E-001	3.56954E-006	-1.63400E-004	......
	18	4.9083	-5.49169E-001	3.56954E-006	-1.63400E-004	......
	19	5.16663	-5.48319E-001	3.56954E-006	-1.63400E-004	......
	20	5.42496	-5.47769E-001	3.56954E-006	-2.63400E-004	......
	21	5.68329	-5.48869E-001	3.56954E-006	-1.63400E-004	......
	22	5.94162	-5.48620E-001	3.56954E-006	-2.63400E-004	......
	23	6.19996	-5.46219E-001	3.56954E-006	-6.34000E-005	......
	24	6.45829	-5.44069E-001	3.56954E-006	-1.63400E-004	......
	25	6.71662	-5.47469E-001	3.56954E-006	-6.34000E-005	......
	26	6.97495	-5.48220E-001	3.56954E-006	-2.63400E-004	......
	27	7.23328	-5.48769E-001	3.56954E-006	-1.63400E-004	......
	28	7.49161	-5.48069E-001	3.56954E-006	-1.63400E-004	......
	29	7.74995	-5.46369E-001	3.56954E-006	-6.34000E-005	......
	30	8.00828	-5.48069E-001	3.56954E-006	-2.63400E-004	......
	31	8.26661	-5.48619E-001	3.56954E-006	-6.34000E-005	......
	32	8.52494	-5.47469E-001	3.56954E-006	-6.34000E-005	......
	33	8.78327	-5.45869E-001	3.56954E-006	-1.63400E-004	......
	34	9.0416	-5.46619E-001	3.56954E-006	-1.63400E-004	......
	35	9.29993	-5.48069E-001	3.56954E-006	-1.63400E-004	......
	36	9.5583	-5.47419E-001	3.56954E-006	-1.63400E-004	......
	37	9.8166	-5.45770E-001	3.56954E-006	-1.63400E-004	......
	38	10.0749	-5.44169E-001	3.56954E-006	-1.63400E-004	......
EOC	QUANT	-0.544169	Open Circuit (V)
PSTATMODEL	IQUANT	32	Pstat Model
PSTATSECTION	LABEL	PStat0	Pstat Section
CTRLMODE	IQUANT	1	Control Mode
IESTAB	IQUANT	0	I/E Stability
CASPEED	IQUANT	1	Control Amp Speed
CONVENTION	IQUANT	1	Current Convention
ICHRANGE	IQUANT	2	Ich Range
ICHRANGEMODE	TOGGLE	F	Ich Auto Range
ICHOFFSETENABLE	TOGGLE	T	Ich Offset Enable
ICHOFFSET	QUANT	0	Ich Offset (V)
ICHFILTER	IQUANT	3	Ich Filter
VCHRANGE	IQUANT	2	Vch Range
VCHRANGEMODE	TOGGLE	F	Vch Auto Range
VCHOFFSETENABLE	TOGGLE	T	Vch Offset Enable
VCHOFFSET	QUANT	0	Vch Offset (V)
VCHFILTER	IQUANT	3	Vch Filter
ACHRANGE	IQUANT	0	Ach Range
IERANGELOWERLIMIT	IQUANT	3	I/E Range Lower Limit
IERANGEMODE	TOGGLE	F	I/E AutoRange
IERANGE	IQUANT	11	I/E Range
POSFEEDENABLE	TOGGLE	F	Positive Feedback IR Comp
POSFEEDRESISTANCE	QUANT	0	Positive Feedback Resistance (ohm)
FC350IDIVISOR	IQUANT	0	FC350 I Divisor
FC350VRANGE	IQUANT	0	FC350 V Range
FRAMEWORKVERSION	QUANT	4.35	Framework Version
ZCURVE	TABLE
	Pt	Time	Freq	Zreal	Zimag	Zsig	Zmod	Zphz	Idc	Vdc	IERange
	#	s	Hz	ohm	ohm	V	ohm	°	A	V	#
	0	4	100007	110.871	-1.16046	1	110.877	-0.599681	1.82774E-006	-0.444117	9
	1	6	89134.1	110.187	-1.3065	1	110.195	-0.679329	1.76031E-006	-0.444104	9
	2	8	79433.6	109.938	-1.73358	1	109.951	-0.90341	1.84826E-006	-0.444115	9
	3	10	70800.8	109.634	-2.03963	1	109.653	-1.06581	1.62623E-006	-0.444097	9
	4	12	63105.5	109.544	-2.37132	1	109.569	-1.2401	1.51726E-006	-0.444083	9
	5	14	56243.5	109.586	-2.60453	1	109.616	-1.3615	1.38676E-006	-0.444093	9
	6	16	50123.7	109.364	-3.08675	1	109.408	-1.61671	1.78315E-006	-0.4441	9
	7	18	44681	109.364	-3.50453	1	109.42	-1.83539	1.8719E-006	-0.444103	9
	8	20	39811.2	109.587	-4.00091	1	109.66	-2.09088	1.76718E-006	-0.444111	9
	9	22	35488.3	109.334	-4.60888	1	109.431	-2.41382	1.5904E-006	-0.444084	9
	10	24	31634.1	109.627	-5.08088	1	109.745	-2.65358	1.90223E-006	-0.444111	9
	11	26	28173.1	109.607	-5.63011	1	109.751	-2.94049	2.05453E-006	-0.444107	9
	12	28	25123.7	109.91	-6.23054	1	110.087	-3.24449	1.90604E-006	-0.444089	9
	13	30	22389.3	109.975	-7.10398	1	110.204	-3.69597	2.10471E-006	-0.4441	9
	14	32	19954.4	110.151	-7.90592	1	110.434	-4.10528	2.25982E-006	-0.444114	9
	15	34	17778.2	110.227	-8.62082	1	110.563	-4.472	2.40538E-006	-0.44411	9
	16	36	15852.9	110.5	-9.44022	1	110.903	-4.88302	2.66123E-006	-0.444122	9
	17	38	14122.3	110.712	-10.3772	1	111.197	-5.35479	2.56642E-006	-0.444112	9
	18	39	12587.2	110.906	-11.5822	1	111.509	-5.9619	2.48768E-006	-0.44411	9
	19	41	11221.1	111.248	-12.874	1	111.991	-6.6011	2.46577E-006	-0.444115	9
	20	43	9998.2	111.487	-14.0925	1	112.374	-7.20426	2.44196E-006	-0.444115	9
	21	45	8912.76	111.841	-15.6139	1	112.926	-7.94758	2.43204E-006	-0.444113	9
	22	47	7942.6	112.197	-17.3722	1	113.534	-8.8016	2.31045E-006	-0.444106	9
	23	49	7078.05	112.635	-19.0193	1	114.23	-9.5844	2.37996E-006	-0.444111	9
	24	51	6311.1	112.922	-20.9783	1	114.854	-10.5242	2.50501E-006	-0.44412	9
	25	53	5622.14	113.522	-23.3009	1	115.889	-11.5991	2.35831E-006	-0.444111	9
	26	55	5011.18	114.062	-25.6413	1	116.908	-12.6696	2.2512E-006	-0.444105	9
	27	57	4465.21	114.785	-28.2568	1	118.212	-13.8296	2.20246E-006	-0.444104	9
	28	59	3980.93	115.34	-31.1605	1	119.475	-15.1183	2.13728E-006	-0.444097	9
	29	61	3548.18	116.085	-34.4347	1	121.085	-16.5221	2.00378E-006	-0.444094	9
	30	63	3162.67	116.695	-37.972	1	122.717	-18.0247	2.16912E-006	-0.444115	9
	31	65	2819.01	117.895	-41.9594	1	125.14	-19.5908	1.94726E-006	-0.444083	9
	32	67	2511.16	118.742	-46.42	1	127.493	-21.3522	2.31895E-006	-0.444102	9
	33	69	2238.63	119.87	-51.0484	1	130.287	-23.0675	2.08837E-006	-0.444106	9
	34	71	1995.37	120.881	-56.3056	1	133.351	-24.9758	2.00998E-006	-0.444107	9
	35	73	1778.51	121.946	-61.9755	1	136.791	-26.9406	2.03631E-006	-0.444117	9
	36	75	1584.49	123.245	-68.4146	1	140.961	-29.0351	2.02779E-006	-0.444103	9
	37	77	1412.76	124.741	-75.7425	1	145.935	-31.2661	2.38293E-006	-0.444118	9
	38	79	1259.04	126.155	-83.6151	1	151.349	-33.5362	2.3924E-006	-0.444111	9
	39	81	1121.63	127.712	-92.4824	1	157.681	-35.91	1.79224E-006	-0.444108	9
	40	83	999.95	129.4	-101.968	1	164.747	-38.2383	2.06471E-006	-0.444104	9
	41	85	891.184	131.349	-112.836	1	173.16	-40.6644	2.12495E-006	-0.444094	9
	42	87	794.163	133.213	-125.266	1	182.859	-43.2389	2.10049E-006	-0.444103	9
	43	89	707.867	135.503	-138.129	1	193.495	-45.5498	1.94032E-006	-0.444091	9
	44	91	630.984	137.219	-153.166	1	205.643	-48.1435	2.11556E-006	-0.444107	9
	45	93	562.189	139.838	-169.506	1	219.743	-50.4783	1.77038E-006	-0.444112	9
	46	95	501.303	142.722	-187.795	1	235.874	-52.7657	2.01309E-006	-0.444104	9
	47	97	446.614	145.592	-208.223	1	254.074	-55.0383	1.95573E-006	-0.444102	9
	48	99	398.209	148.722	-230.82	1	274.584	-57.2054	1.88626E-006	-0.444106	9
	49	101	354.821	152.232	-256.072	1	297.905	-59.2689	2.01127E-006	-0.444103	9
	50	103	316.113	156.053	-284.194	1	324.22	-61.2285	1.97776E-006	-0.444104	9
	51	105	281.926	160.222	-315.177	1	353.564	-63.0532	1.76432E-006	-0.444107	9
	52	107	251.185	164.818	-349.978	1	386.846	-64.7824	1.75185E-006	-0.444106	9
	53	109	223.946	169.907	-388.464	1	423.996	-66.3764	1.77582E-006	-0.444109	9
	54	111	199.495	175.701	-431.681	1	466.068	-67.8529	1.9191E-006	-0.444107	9
	55	113	177.836	181.952	-479.432	1	512.798	-69.2174	1.74404E-006	-0.444107	9
	56	115	158.533	188.855	-532.46	1	564.96	-70.4713	1.75894E-006	-0.444105	9
	57	117	141.263	196.507	-591.698	1	623.475	-71.6283	1.70506E-006	-0.444107	9
	58	119	125.911	204.987	-657.618	1	688.826	-72.6871	1.69616E-006	-0.444107	9
	59	121	112.198	214.247	-730.549	1	761.317	-73.6553	1.58179E-006	-0.444113	9
	60	123	100.009	224.595	-811.788	1	842.285	-74.535	1.60336E-006	-0.444111	9
	61	125	89.1164	235.958	-902.8	1	933.126	-75.3527	1.52252E-006	-0.444109	9
	62	127	79.4083	249.027	-1003.7	1	1034.13	-76.0658	1.58714E-006	-0.444103	9
	63	129	70.788	263.63	-1114.95	1	1145.69	-76.6967	1.12698E-006	-0.444111	8
	64	131	63.0971	279.279	-1240.7	1	1271.75	-77.3143	1.01333E-006	-0.444113	8
	65	133	54.5476	303.366	-1417.26	1	1449.37	-77.9181	1.02128E-006	-0.44411	8
	66	135	50.0083	318.979	-1536.48	1	1569.24	-78.2718	1.09628E-006	-0.444108	8
	67	137	46.1675	333.649	-1654.53	1	1687.83	-78.5988	1.18675E-006	-0.444107	8
	68	139	40.0059	369.094	-1888.05	1	1923.79	-78.9388	1.02618E-006	-0.444104	8
	69	142	35.3046	396.326	-2120.35	1	2157.07	-79.4127	1.11246E-006	-0.444099	8
	70	144	31.5793	424.556	-2351.95	1	2389.96	-79.7676	1.16187E-006	-0.4441	8
	71	146	28.5748	468.15	-2583.67	1	2625.74	-79.7297	1.08778E-006	-0.444105	8
	72	148	24.9911	517.418	-2915.22	1	2960.78	-79.9355	1.12904E-006	-0.444111	8
	73	150	22.2195	575.609	-3260.57	1	3310.99	-79.9884	1.14611E-006	-0.444111	8
	74	153	20.0011	622.454	-3588.69	1	3642.27	-80.16	1.22998E-006	-0.444112	8
	75	155	17.6486	686.854	-4038.15	1	4096.14	-80.3469	1.07637E-006	-0.444113	8
	76	157	15.7934	816.363	-4489.05	1	4562.67	-79.693	1.20297E-006	-0.444114	8
	77	159	14.2828	879.904	-4901.68	1	4980.03	-79.8232	1.18498E-006	-0.444115	8
	78	162	12.5002	1018.04	-5566.77	1	5659.09	-79.6364	1.19432E-006	-0.444112	8
	79	164	11.323	1091.03	-6056.41	1	6153.9	-79.788	1.14741E-006	-0.44411	8
	80	167	9.9987	1325.27	-6815.99	1	6943.63	-78.997	1.18302E-006	-0.444103	8
