EXPLAIN
TAG	EISPOT
TITLE	LABEL	Tomato_open	Test &Identifier
DATE	LABEL	5/9/2006	Date
TIME	LABEL	17:42:16	Time
NOTES	NOTES	1	&Notes...
	
PSTAT	PSTAT	300	Potentiostat
VDC	POTEN	1.00000E-001	T	DC &Voltage (V)
FREQINIT	QUANT	1.00000E+005	Initial Fre&q. (Hz)
FREQFINAL	QUANT	1.00000E+001	Final Fre&q. (Hz)
PTSPERDEC	QUANT	2.00000E+001	Points/&decade
VAC	QUANT	1.00000E+001	AC &Voltage (mV rms)
AREA	QUANT	1.00000E+000	&Area (cm²)
DENSITY	QUANT	7.87000E+000	&Density (gm/cm³)
EQUIV	QUANT	7.00000E+000	Equiv. &Wt
CONDIT	TWOPARAM	F	1.50000E+001	0.00000E+000	Conditionin&g	Time(s)	E(V)
DELAY	TWOPARAM	F	6.00000E+002	0.00000E+000	Init. De&lay	Time(s)	Stab.(mV/s)
SPEED	SELECTOR	1	&Optimize for:
ZGUESS	QUANT	1.00000E+002	E&stimated Z (ohms)
OCVCURVE	TABLE	39
	Pt	T	Vf	Vm	Ach	Over
	#	s	V vs. Ref.	V	V	bits
	0	0.258332	-5.00543E-001	5.03308E-006	3.15400E-004	......
	1	0.516663	-5.00893E-001	5.03308E-006	1.54000E-005	......
	2	0.774994	-5.01094E-001	5.03308E-006	3.15400E-004	......
	3	1.03333	-5.01444E-001	5.03308E-006	1.54000E-005	......
	4	1.29166	-5.01043E-001	5.03308E-006	2.15400E-004	......
	5	1.54999	-5.01794E-001	5.03308E-006	1.54000E-005	......
	6	1.80832	-5.02793E-001	5.03308E-006	3.15400E-004	......
	7	2.06665	-5.03193E-001	5.03308E-006	1.54000E-005	......
	8	2.32498	-5.03244E-001	5.03308E-006	3.15400E-004	......
	9	2.58332	-5.03493E-001	5.03308E-006	1.54000E-005	......
	10	2.84165	-5.03244E-001	5.03308E-006	2.15400E-004	......
	11	3.09998	-5.03043E-001	5.03308E-006	1.54000E-005	......
	12	3.35831	-5.04043E-001	5.03308E-006	3.15400E-004	......
	13	3.61664	-5.04794E-001	5.03308E-006	1.15400E-004	......
	14	3.87497	-5.05143E-001	5.03308E-006	2.15400E-004	......
	15	4.1333	-5.05193E-001	5.03308E-006	1.54000E-005	......
	16	4.39164	-5.05394E-001	5.03308E-006	3.15400E-004	......
	17	4.64997	-5.04543E-001	5.03308E-006	1.54000E-005	......
	18	4.9083	-5.01844E-001	5.03308E-006	3.15400E-004	......
	19	5.16663	-5.01894E-001	5.03308E-006	1.54000E-005	......
	20	5.42496	-5.01894E-001	5.03308E-006	3.15400E-004	......
	21	5.68329	-5.02043E-001	5.03308E-006	1.54000E-005	......
	22	5.94162	-5.01794E-001	5.03308E-006	3.15400E-004	......
	23	6.19996	-5.01894E-001	5.03308E-006	1.15400E-004	......
	24	6.45829	-5.01243E-001	5.03308E-006	3.15400E-004	......
	25	6.71662	-5.02093E-001	5.03308E-006	1.54000E-005	......
	26	6.97495	-5.03543E-001	5.03308E-006	3.15400E-004	......
	27	7.23328	-5.03594E-001	5.03308E-006	1.54000E-005	......
	28	7.49161	-5.04043E-001	5.03308E-006	3.15400E-004	......
	29	7.74995	-5.03193E-001	5.03308E-006	1.54000E-005	......
	30	8.00828	-5.03693E-001	5.03308E-006	3.15400E-004	......
	31	8.26661	-5.03443E-001	5.03308E-006	1.54000E-005	......
	32	8.52494	-5.03993E-001	5.03308E-006	2.15400E-004	......
	33	8.78327	-5.03443E-001	5.03308E-006	1.54000E-005	......
	34	9.0416	-5.03843E-001	5.03308E-006	2.15400E-004	......
	35	9.29993	-5.03843E-001	5.03308E-006	1.54000E-005	......
	36	9.5583	-5.04744E-001	5.03308E-006	3.15400E-004	......
	37	9.8166	-5.04793E-001	5.03308E-006	1.54000E-005	......
	38	10.0749	-5.05243E-001	5.03308E-006	3.15400E-004	......
EOC	QUANT	-0.505243	Open Circuit (V)
PSTATMODEL	IQUANT	32	Pstat Model
PSTATSECTION	LABEL	PStat0	Pstat Section
CTRLMODE	IQUANT	1	Control Mode
IESTAB	IQUANT	0	I/E Stability
CASPEED	IQUANT	1	Control Amp Speed
CONVENTION	IQUANT	1	Current Convention
ICHRANGE	IQUANT	2	Ich Range
ICHRANGEMODE	TOGGLE	F	Ich Auto Range
ICHOFFSETENABLE	TOGGLE	T	Ich Offset Enable
ICHOFFSET	QUANT	0	Ich Offset (V)
ICHFILTER	IQUANT	3	Ich Filter
VCHRANGE	IQUANT	2	Vch Range
VCHRANGEMODE	TOGGLE	F	Vch Auto Range
VCHOFFSETENABLE	TOGGLE	T	Vch Offset Enable
VCHOFFSET	QUANT	0	Vch Offset (V)
VCHFILTER	IQUANT	3	Vch Filter
ACHRANGE	IQUANT	0	Ach Range
IERANGELOWERLIMIT	IQUANT	3	I/E Range Lower Limit
IERANGEMODE	TOGGLE	F	I/E AutoRange
IERANGE	IQUANT	11	I/E Range
POSFEEDENABLE	TOGGLE	F	Positive Feedback IR Comp
POSFEEDRESISTANCE	QUANT	0	Positive Feedback Resistance (ohm)
FC350IDIVISOR	IQUANT	0	FC350 I Divisor
FC350VRANGE	IQUANT	0	FC350 V Range
FRAMEWORKVERSION	QUANT	4.35	Framework Version
ZCURVE	TABLE
	Pt	Time	Freq	Zreal	Zimag	Zsig	Zmod	Zphz	Idc	Vdc	IERange
	#	s	Hz	ohm	ohm	V	ohm	°	A	V	#
	0	7	100007	1193.73	-14.5794	1	1193.81	-0.69974	5.02788E-006	-0.405065	9
	1	8	89134.1	1188.8	-9.5622	1	1188.84	-0.460853	5.18406E-006	-0.405083	9
	2	10	79433.6	1184.45	-8.73175	1	1184.48	-0.422377	5.22493E-006	-0.405091	9
	3	12	70800.8	1182.23	-11.5475	1	1182.29	-0.559622	5.19925E-006	-0.405041	9
	4	14	63105.5	1180.57	-8.67598	1	1180.61	-0.421056	5.1636E-006	-0.40504	9
	5	16	56243.5	1179.57	-10.0409	1	1179.62	-0.487709	5.59471E-006	-0.40507	9
	6	18	50123.7	1173.85	-7.91728	1	1173.88	-0.386437	5.61086E-006	-0.405055	9
	7	20	44681	1175.88	-8.6761	1	1175.91	-0.422744	5.54453E-006	-0.405075	9
	8	22	39811.2	1180.47	-8.29824	1	1180.5	-0.402761	5.53005E-006	-0.405038	9
	9	24	35488.3	1174.46	-8.25087	1	1174.49	-0.402509	5.58302E-006	-0.405059	9
	10	26	31634.1	1174.66	-9.5522	1	1174.7	-0.46591	5.27503E-006	-0.405043	9
	11	28	28173.1	1173.18	6.59723	1	1173.2	0.322193	4.32682E-006	-0.40509	8
	12	30	25123.7	1174.18	4.58564	1	1174.19	0.223762	4.62612E-006	-0.405111	8
	13	32	22389.3	1174.45	1.52384	1	1174.46	0.074341	4.55187E-006	-0.40507	8
	14	34	19954.4	1174.49	-0.50665	1	1174.49	-0.024716	4.5574E-006	-0.405055	8
	15	36	17778.2	1174.38	-0.758387	1	1174.38	-0.037	4.23218E-006	-0.405075	8
	16	38	15852.9	1173.88	-2.83268	1	1173.89	-0.13826	4.06129E-006	-0.405073	8
	17	40	14122.3	1176.5	-2.32019	1	1176.51	-0.112993	4.13499E-006	-0.405069	8
	18	42	12587.2	1174.79	-3.98574	1	1174.79	-0.194389	4.19219E-006	-0.405069	8
	19	44	11221.1	1175.58	-7.58742	1	1175.6	-0.369793	4.24534E-006	-0.405073	8
	20	46	9998.2	1177.63	-6.15988	1	1177.65	-0.299696	4.24946E-006	-0.405077	8
	21	48	8912.76	1176.56	-7.90821	1	1176.59	-0.385105	4.31114E-006	-0.405103	8
	22	50	7942.6	1178.92	-10.0204	1	1178.97	-0.486979	4.48981E-006	-0.405073	8
	23	52	7078.05	1177.65	-10.3446	1	1177.7	-0.503275	4.54999E-006	-0.405077	8
	24	54	6311.1	1179.25	-12.3762	1	1179.31	-0.601296	4.49825E-006	-0.405076	8
	25	56	5622.14	1179.27	-11.9376	1	1179.33	-0.579978	4.46619E-006	-0.405074	8
	26	58	5011.18	1180.36	-14.8063	1	1180.45	-0.718672	4.37999E-006	-0.405074	8
	27	60	4465.21	1180.65	-16.6142	1	1180.77	-0.806216	4.29394E-006	-0.405062	8
	28	62	3980.93	1181.86	-18.0952	1	1182	-0.877173	4.32711E-006	-0.40506	8
	29	64	3548.18	1180.05	-19.6359	1	1180.21	-0.95331	4.26645E-006	-0.405082	8
	30	66	3162.67	1182.04	-21.231	1	1182.23	-1.029	4.09804E-006	-0.405099	8
	31	68	2819.01	1180.4	-25.1143	1	1180.67	-1.21884	4.14881E-006	-0.405051	8
	32	69	2511.16	1182.86	-27.5926	1	1183.18	-1.3363	3.96621E-006	-0.405079	8
	33	71	2238.63	1182.36	-29.9888	1	1182.74	-1.45292	3.92312E-006	-0.40507	8
	34	73	1995.37	1183.51	-34.9365	1	1184.03	-1.69085	3.95297E-006	-0.405071	8
	35	75	1778.51	1183.72	-36.4848	1	1184.28	-1.76543	3.98885E-006	-0.405075	8
	36	77	1584.49	1184.51	-41.2805	1	1185.23	-1.99596	3.91393E-006	-0.405071	8
	37	79	1412.76	1186.27	-45.1085	1	1187.13	-2.17764	3.85476E-006	-0.405065	8
	38	81	1259.04	1187.19	-50.7938	1	1188.28	-2.4499	3.84537E-006	-0.405063	8
	39	83	1121.63	1188.62	-57.2791	1	1190	-2.75891	3.88963E-006	-0.405063	8
	40	85	999.95	1189.39	-62.776	1	1191.05	-3.02127	3.97635E-006	-0.405071	8
	41	87	891.184	1191.43	-70.1181	1	1193.49	-3.3681	3.99532E-006	-0.405058	8
	42	89	794.163	1192.87	-76.3206	1	1195.31	-3.66083	3.94748E-006	-0.405072	8
	43	91	707.867	1192.46	-85.1475	1	1195.49	-4.08427	3.84052E-006	-0.40506	8
	44	93	630.984	1195.73	-96.553	1	1199.63	-4.61648	3.90655E-006	-0.405078	8
	45	95	562.189	1196.25	-105.002	1	1200.85	-5.01635	3.959E-006	-0.4051	8
	46	97	501.303	1198.53	-115.222	1	1204.06	-5.49132	3.96202E-006	-0.405084	8
	47	99	446.614	1200.53	-127.879	1	1207.32	-6.08017	3.89266E-006	-0.405083	8
	48	101	398.209	1202.7	-141.755	1	1211.02	-6.72213	3.99512E-006	-0.405077	8
	49	103	354.821	1205.15	-157.014	1	1215.33	-7.42301	3.98031E-006	-0.405079	8
	50	105	316.113	1207.87	-173.98	1	1220.33	-8.19647	3.98579E-006	-0.405082	8
	51	107	281.926	1210.83	-192.677	1	1226.07	-9.04156	3.9734E-006	-0.405089	8
	52	109	251.185	1214.09	-213.483	1	1232.72	-9.9728	3.98463E-006	-0.405082	8
	53	111	223.946	1217.64	-236.456	1	1240.39	-10.9896	3.97659E-006	-0.405089	8
	54	113	199.495	1221.49	-262.243	1	1249.32	-12.117	4.01112E-006	-0.40509	8
	55	115	177.836	1225.69	-290.751	1	1259.7	-13.3448	4.03716E-006	-0.405088	8
	56	117	158.533	1230.34	-322.378	1	1271.88	-14.6827	4.08952E-006	-0.405094	8
	57	119	141.263	1235.49	-357.67	1	1286.22	-16.1455	4.02249E-006	-0.405101	8
	58	121	125.911	1241.07	-396.984	1	1303.02	-17.738	3.95855E-006	-0.405088	8
	59	123	112.198	1247.32	-440.837	1	1322.93	-19.4648	3.87281E-006	-0.405093	8
	60	125	100.009	1254.37	-489.662	1	1346.56	-21.3239	3.95198E-006	-0.405095	8
	61	127	89.1164	1262.08	-543.965	1	1374.31	-23.3164	3.98985E-006	-0.40509	8
	62	129	79.4083	1270.75	-604.703	1	1407.29	-25.4481	3.92338E-006	-0.405092	8
	63	131	70.788	1280.71	-672.267	1	1446.43	-27.6957	3.90347E-006	-0.405081	8
	64	133	63.0971	1292.11	-747.232	1	1492.62	-30.041	3.96595E-006	-0.405087	8
	65	135	54.5476	1309.11	-854.79	1	1563.47	-33.1427	4.05311E-006	-0.405089	8
	66	138	50.0083	1320.15	-926.243	1	1612.67	-35.0543	3.93014E-006	-0.405088	8
	67	140	46.1675	1331.95	-997.7	1	1664.18	-36.8352	3.88441E-006	-0.40509	8
	68	142	40.0059	1356.3	-1139.05	1	1771.15	-40.0243	3.90367E-006	-0.405088	8
	69	144	35.3046	1381.73	-1279.3	1	1883.03	-42.7955	3.90878E-006	-0.405091	8
	70	146	31.5793	1407.52	-1418.63	1	1998.4	-45.2252	3.88834E-006	-0.405087	8
	71	148	28.5748	1434.13	-1556.19	1	2116.24	-47.3374	3.76046E-006	-0.405091	8
	72	150	24.9911	1477.77	-1762.73	1	2300.22	-50.0255	3.76434E-006	-0.40509	8
	73	153	22.2195	1523.52	-1965.34	1	2486.7	-52.2173	3.72532E-006	-0.405088	8
	74	155	20.0011	1570.53	-2165.37	1	2674.95	-54.0468	3.76349E-006	-0.405088	8
	75	158	17.6486	1642.83	-2431.37	1	2934.36	-55.9539	3.74941E-006	-0.405094	8
	76	160	15.7934	1718.44	-2690.59	1	3192.54	-57.4342	3.86315E-006	-0.405088	8
	77	162	14.2828	1797.09	-2952.7	1	3456.59	-58.6743	3.82846E-006	-0.405085	8
	78	164	12.5002	1908.01	-3332.23	1	3839.83	-60.2049	3.68375E-006	-0.405088	8
	79	167	11.323	2034.28	-3638.61	1	4168.67	-60.7912	3.74849E-006	-0.405089	8
	80	169	9.9987	2197.83	-4068.9	1	4624.54	-61.6242	3.78606E-006	-0.405086	8
