EXPLAIN
TAG	EISPOT
TITLE	LABEL	Tomato_open	Test &Identifier
DATE	LABEL	5/9/2006	Date
TIME	LABEL	17:57:18	Time
NOTES	NOTES	1	&Notes...
	
PSTAT	PSTAT	300	Potentiostat
VDC	POTEN	1.00000E-001	T	DC &Voltage (V)
FREQINIT	QUANT	1.00000E+005	Initial Fre&q. (Hz)
FREQFINAL	QUANT	1.00000E+001	Final Fre&q. (Hz)
PTSPERDEC	QUANT	2.00000E+001	Points/&decade
VAC	QUANT	1.00000E+001	AC &Voltage (mV rms)
AREA	QUANT	1.00000E+000	&Area (cm²)
DENSITY	QUANT	7.87000E+000	&Density (gm/cm³)
EQUIV	QUANT	7.00000E+000	Equiv. &Wt
CONDIT	TWOPARAM	F	1.50000E+001	0.00000E+000	Conditionin&g	Time(s)	E(V)
DELAY	TWOPARAM	F	6.00000E+002	0.00000E+000	Init. De&lay	Time(s)	Stab.(mV/s)
SPEED	SELECTOR	1	&Optimize for:
ZGUESS	QUANT	1.00000E+002	E&stimated Z (ohms)
OCVCURVE	TABLE	39
	Pt	T	Vf	Vm	Ach	Over
	#	s	V vs. Ref.	V	V	bits
	0	0.258332	-5.33643E-001	5.40807E-006	-8.46000E-005	......
	1	0.516663	-5.33943E-001	5.40807E-006	-8.46000E-005	......
	2	0.774994	-5.33843E-001	5.40807E-006	-8.46000E-005	......
	3	1.03333	-5.34343E-001	5.40807E-006	-1.84600E-004	......
	4	1.29166	-5.35643E-001	5.40807E-006	-1.84600E-004	......
	5	1.54999	-5.34793E-001	5.40807E-006	-8.46000E-005	......
	6	1.80832	-5.33494E-001	5.40807E-006	-1.84600E-004	......
	7	2.06665	-5.33444E-001	5.40807E-006	1.54000E-005	......
	8	2.32498	-5.34243E-001	5.40807E-006	-1.84600E-004	......
	9	2.58332	-5.34443E-001	5.40807E-006	-1.84600E-004	......
	10	2.84165	-5.35643E-001	5.40807E-006	-8.46000E-005	......
	11	3.09998	-5.35593E-001	5.40807E-006	1.54000E-005	......
	12	3.35831	-5.34144E-001	5.40807E-006	-1.84600E-004	......
	13	3.61664	-5.33793E-001	5.40807E-006	-8.46000E-005	......
	14	3.87497	-5.33843E-001	5.40807E-006	1.54000E-005	......
	15	4.1333	-5.34293E-001	5.40807E-006	-8.46000E-005	......
	16	4.39164	-5.33444E-001	5.40807E-006	-8.46000E-005	......
	17	4.64997	-5.32043E-001	5.40807E-006	-8.46000E-005	......
	18	4.9083	-5.27644E-001	5.40807E-006	-8.46000E-005	......
	19	5.16663	-5.24393E-001	5.40807E-006	-8.46000E-005	......
	20	5.42496	-5.24343E-001	5.40807E-006	-1.84600E-004	......
	21	5.68329	-5.25093E-001	5.40807E-006	-8.46000E-005	......
	22	5.94162	-5.26644E-001	5.40807E-006	-8.46000E-005	......
	23	6.19996	-5.27843E-001	5.40807E-006	-1.84600E-004	......
	24	6.45829	-5.29144E-001	5.40807E-006	-8.46000E-005	......
	25	6.71662	-5.30843E-001	5.40807E-006	-8.46000E-005	......
	26	6.97495	-5.31193E-001	5.40807E-006	-8.46000E-005	......
	27	7.23328	-5.31393E-001	5.40807E-006	-1.84600E-004	......
	28	7.49161	-5.31644E-001	5.40807E-006	-1.84600E-004	......
	29	7.74995	-5.29993E-001	5.40807E-006	-8.46000E-005	......
	30	8.00828	-5.29693E-001	5.40807E-006	-8.46000E-005	......
	31	8.26661	-5.29543E-001	5.40807E-006	-1.84600E-004	......
	32	8.52494	-5.29543E-001	5.40807E-006	-8.46000E-005	......
	33	8.78327	-5.29243E-001	5.40807E-006	-8.46000E-005	......
	34	9.0416	-5.29193E-001	5.40807E-006	-8.46000E-005	......
	35	9.29993	-5.29193E-001	5.40807E-006	-8.46000E-005	......
	36	9.5583	-5.30593E-001	5.40807E-006	-8.46000E-005	......
	37	9.8166	-5.29794E-001	5.40807E-006	-8.46000E-005	......
	38	10.0749	-5.30093E-001	5.40807E-006	-1.84600E-004	......
EOC	QUANT	-0.530093	Open Circuit (V)
PSTATMODEL	IQUANT	32	Pstat Model
PSTATSECTION	LABEL	PStat0	Pstat Section
CTRLMODE	IQUANT	1	Control Mode
IESTAB	IQUANT	0	I/E Stability
CASPEED	IQUANT	1	Control Amp Speed
CONVENTION	IQUANT	1	Current Convention
ICHRANGE	IQUANT	2	Ich Range
ICHRANGEMODE	TOGGLE	F	Ich Auto Range
ICHOFFSETENABLE	TOGGLE	T	Ich Offset Enable
ICHOFFSET	QUANT	0	Ich Offset (V)
ICHFILTER	IQUANT	3	Ich Filter
VCHRANGE	IQUANT	2	Vch Range
VCHRANGEMODE	TOGGLE	F	Vch Auto Range
VCHOFFSETENABLE	TOGGLE	T	Vch Offset Enable
VCHOFFSET	QUANT	0	Vch Offset (V)
VCHFILTER	IQUANT	3	Vch Filter
ACHRANGE	IQUANT	0	Ach Range
IERANGELOWERLIMIT	IQUANT	3	I/E Range Lower Limit
IERANGEMODE	TOGGLE	F	I/E AutoRange
IERANGE	IQUANT	11	I/E Range
POSFEEDENABLE	TOGGLE	F	Positive Feedback IR Comp
POSFEEDRESISTANCE	QUANT	0	Positive Feedback Resistance (ohm)
FC350IDIVISOR	IQUANT	0	FC350 I Divisor
FC350VRANGE	IQUANT	0	FC350 V Range
FRAMEWORKVERSION	QUANT	4.35	Framework Version
ZCURVE	TABLE
	Pt	Time	Freq	Zreal	Zimag	Zsig	Zmod	Zphz	Idc	Vdc	IERange
	#	s	Hz	ohm	ohm	V	ohm	°	A	V	#
	0	7	100007	1181.82	-12.8127	1	1181.89	-0.621145	2.93672E-006	-0.429849	9
	1	8	89134.1	1174.23	-11.3769	1	1174.29	-0.555111	2.90797E-006	-0.429855	9
	2	10	79433.6	1174.11	-10.3983	1	1174.15	-0.507419	3.15286E-006	-0.429853	9
	3	12	70800.8	1168.94	-8.45887	1	1168.97	-0.414606	3.05089E-006	-0.429855	9
	4	14	63105.5	1173.03	-10.4853	1	1173.08	-0.512134	3.31412E-006	-0.429862	9
	5	16	56243.5	1169.26	-9.17051	1	1169.3	-0.44936	3.37083E-006	-0.429886	9
	6	18	50123.7	1169.43	-7.48927	1	1169.46	-0.366928	3.42536E-006	-0.429865	9
	7	20	44681	1166.72	-8.75393	1	1166.76	-0.429882	3.23815E-006	-0.429847	9
	8	22	39811.2	1174.03	-7.60769	1	1174.06	-0.37127	3.27753E-006	-0.429846	9
	9	24	35488.3	1165.32	-9.35975	1	1165.36	-0.460185	3.32637E-006	-0.429846	9
	10	26	31634.1	1165.3	-9.7168	1	1165.34	-0.477746	3.33871E-006	-0.429848	9
	11	28	28173.1	1164.79	6.37453	1	1164.81	0.313558	2.36815E-006	-0.42988	8
	12	30	25123.7	1164.42	3.66147	1	1164.43	0.180163	2.41245E-006	-0.429861	8
	13	32	22389.3	1164.21	2.52475	1	1164.21	0.124253	2.48129E-006	-0.429879	8
	14	34	19954.4	1166.07	0.250334	1	1166.07	0.0123	2.48529E-006	-0.429865	8
	15	36	17778.2	1166.57	-0.22785	1	1166.57	-0.011191	2.55424E-006	-0.429871	8
	16	38	15852.9	1166.91	-2.79164	1	1166.92	-0.13707	2.55062E-006	-0.429863	8
	17	40	14122.3	1167.16	-4.2619	1	1167.17	-0.209215	2.5096E-006	-0.42987	8
	18	42	12587.2	1166.76	-5.89258	1	1166.77	-0.289364	2.60527E-006	-0.42988	8
	19	44	11221.1	1167.21	-6.39309	1	1167.23	-0.313819	2.58833E-006	-0.429874	8
	20	46	9998.2	1168.8	-7.25061	1	1168.82	-0.355429	2.70581E-006	-0.429876	8
	21	48	8912.76	1167.91	-7.97028	1	1167.94	-0.391002	2.76209E-006	-0.429839	8
	22	50	7942.6	1168.85	-8.92384	1	1168.88	-0.437429	2.67695E-006	-0.42988	8
	23	52	7078.05	1169.08	-10.353	1	1169.13	-0.507376	2.81362E-006	-0.429876	8
	24	54	6311.1	1170.9	-11.58	1	1170.96	-0.566627	2.8217E-006	-0.429879	8
	25	56	5622.14	1170.63	-12.3849	1	1170.69	-0.60615	2.82889E-006	-0.429879	8
	26	58	5011.18	1167.94	-15.6915	1	1168.05	-0.769734	2.87992E-006	-0.429889	8
	27	60	4465.21	1170.42	-16.213	1	1170.53	-0.79363	2.9674E-006	-0.429876	8
	28	62	3980.93	1171.33	-18.9572	1	1171.48	-0.927219	2.89658E-006	-0.429904	8
	29	64	3548.18	1171.2	-21.2207	1	1171.39	-1.03801	2.8467E-006	-0.429864	8
	30	66	3162.67	1171.23	-23.4949	1	1171.46	-1.1492	2.86142E-006	-0.429902	8
	31	68	2819.01	1171.32	-26.003	1	1171.61	-1.27174	2.98559E-006	-0.429875	8
	32	70	2511.16	1172.19	-27.0217	1	1172.5	-1.32057	2.9873E-006	-0.429885	8
	33	72	2238.63	1173.68	-30.6592	1	1174.08	-1.49636	3.0063E-006	-0.429875	8
	34	73	1995.37	1173.44	-35.2351	1	1173.96	-1.71992	2.97099E-006	-0.429879	8
	35	75	1778.51	1174.74	-37.6876	1	1175.35	-1.83751	2.9819E-006	-0.429883	8
	36	77	1584.49	1175.97	-41.3261	1	1176.69	-2.01268	2.95971E-006	-0.429891	8
	37	79	1412.76	1175.89	-46.9117	1	1176.83	-2.28458	2.77229E-006	-0.429901	8
	38	81	1259.04	1177.76	-51.7133	1	1178.9	-2.51414	2.92764E-006	-0.429881	8
	39	83	1121.63	1177.26	-57.2071	1	1178.65	-2.78201	2.81749E-006	-0.429871	8
	40	85	999.95	1181.14	-64.5663	1	1182.9	-3.12893	3.00878E-006	-0.429875	8
	41	87	891.184	1181.95	-70.2386	1	1184.04	-3.40086	2.72641E-006	-0.429866	8
	42	89	794.163	1182.57	-79.8964	1	1185.27	-3.86512	2.79328E-006	-0.42986	8
	43	91	707.867	1182.66	-89.9341	1	1186.07	-4.34863	2.93928E-006	-0.429864	8
	44	93	630.984	1185.32	-96.013	1	1189.2	-4.63095	2.93979E-006	-0.429882	8
	45	95	562.189	1185.23	-106.278	1	1189.99	-5.12393	2.81028E-006	-0.42989	8
	46	97	501.303	1189.26	-117.412	1	1195.04	-5.63835	2.82744E-006	-0.429892	8
	47	99	446.614	1191.3	-130.31	1	1198.4	-6.24249	2.82515E-006	-0.429891	8
	48	101	398.209	1193.49	-144.352	1	1202.19	-6.89637	2.90839E-006	-0.429892	8
	49	103	354.821	1195.99	-159.988	1	1206.65	-7.61922	2.91051E-006	-0.429892	8
	50	105	316.113	1198.76	-177.182	1	1211.78	-8.40769	2.9067E-006	-0.429885	8
	51	107	281.926	1201.61	-196.211	1	1217.52	-9.27401	2.83719E-006	-0.429885	8
	52	109	251.185	1204.83	-217.312	1	1224.27	-10.2243	2.7717E-006	-0.429881	8
	53	111	223.946	1208.23	-240.652	1	1231.96	-11.2646	2.63866E-006	-0.429882	8
	54	113	199.495	1212.02	-266.9	1	1241.05	-12.419	2.62903E-006	-0.429884	8
	55	115	177.836	1216.08	-295.913	1	1251.57	-13.6762	2.61922E-006	-0.429882	8
	56	117	158.533	1220.46	-328.048	1	1263.78	-15.045	2.65024E-006	-0.429878	8
	57	119	141.263	1225.29	-363.956	1	1278.2	-16.5433	2.63635E-006	-0.429879	8
	58	121	125.911	1230.5	-403.938	1	1295.1	-18.1735	2.61532E-006	-0.429875	8
	59	123	112.198	1236.22	-448.436	1	1315.04	-19.9381	2.63596E-006	-0.429881	8
	60	125	100.009	1242.4	-498.019	1	1338.5	-21.8435	2.44858E-006	-0.429891	8
	61	127	89.1164	1249.51	-553.543	1	1366.63	-23.8937	2.5112E-006	-0.429888	8
	62	129	79.4083	1257.33	-615.225	1	1399.78	-26.073	2.69065E-006	-0.42989	8
	63	132	70.788	1266.08	-683.753	1	1438.91	-28.3716	2.75177E-006	-0.429885	8
	64	134	63.0971	1275.78	-760.326	1	1485.16	-30.7937	2.74379E-006	-0.429896	8
	65	136	54.5476	1289.93	-869.853	1	1555.82	-33.9934	2.8191E-006	-0.429891	8
	66	138	50.0083	1299.87	-942.699	1	1605.72	-35.9506	2.90567E-006	-0.429892	8
	67	140	46.1675	1309.19	-1015.31	1	1656.76	-37.7945	2.81414E-006	-0.429895	8
	68	142	40.0059	1329.13	-1160.46	1	1764.45	-41.1242	2.83376E-006	-0.429887	8
	69	144	35.3046	1349.76	-1302.99	1	1876.07	-43.9898	2.88129E-006	-0.429889	8
	70	146	31.5793	1371.71	-1445.95	1	1993.08	-46.5093	3.09102E-006	-0.4299	8
	71	148	28.5748	1394.17	-1586.51	1	2112.04	-48.6922	2.98554E-006	-0.429899	8
	72	151	24.9911	1426.55	-1799.59	1	2296.43	-51.5958	2.88763E-006	-0.429899	8
	73	153	22.2195	1463.25	-2008.15	1	2484.71	-53.9208	3.02024E-006	-0.429902	8
	74	155	20.0011	1503.83	-2213.9	1	2676.35	-55.8129	3.02835E-006	-0.429904	8
	75	158	17.6486	1551.93	-2486.98	1	2931.47	-58.035	2.80757E-006	-0.429894	8
	76	160	15.7934	1597.71	-2761.25	1	3190.17	-59.9456	2.68336E-006	-0.429897	8
	77	162	14.2828	1648.58	-3031.7	1	3450.95	-61.4635	2.57583E-006	-0.429906	8
	78	164	12.5002	1737.73	-3432.97	1	3847.72	-63.152	2.64306E-006	-0.429894	8
	79	167	11.323	1818.59	-3749.32	1	4167.09	-64.1245	2.7407E-006	-0.429889	8
	80	169	9.9987	1943.25	-4213.71	1	4640.21	-65.2421	2.76924E-006	-0.429891	8
