EXPLAIN
TAG	EISPOT
TITLE	LABEL	Tomato_open	Test &Identifier
DATE	LABEL	5/9/2006	Date
TIME	LABEL	18:02:20	Time
NOTES	NOTES	1	&Notes...
	
PSTAT	PSTAT	300	Potentiostat
VDC	POTEN	1.00000E-001	T	DC &Voltage (V)
FREQINIT	QUANT	1.00000E+005	Initial Fre&q. (Hz)
FREQFINAL	QUANT	1.00000E+001	Final Fre&q. (Hz)
PTSPERDEC	QUANT	2.00000E+001	Points/&decade
VAC	QUANT	1.00000E+001	AC &Voltage (mV rms)
AREA	QUANT	1.00000E+000	&Area (cm²)
DENSITY	QUANT	7.87000E+000	&Density (gm/cm³)
EQUIV	QUANT	7.00000E+000	Equiv. &Wt
CONDIT	TWOPARAM	F	1.50000E+001	0.00000E+000	Conditionin&g	Time(s)	E(V)
DELAY	TWOPARAM	F	6.00000E+002	0.00000E+000	Init. De&lay	Time(s)	Stab.(mV/s)
SPEED	SELECTOR	1	&Optimize for:
ZGUESS	QUANT	1.00000E+002	E&stimated Z (ohms)
OCVCURVE	TABLE	39
	Pt	T	Vf	Vm	Ach	Over
	#	s	V vs. Ref.	V	V	bits
	0	0.258332	-5.37843E-001	5.43907E-006	-1.84600E-004	......
	1	0.516663	-5.35093E-001	5.43907E-006	-1.84600E-004	......
	2	0.774994	-5.32643E-001	5.43907E-006	-8.46000E-005	......
	3	1.03333	-5.31093E-001	5.43907E-006	-1.84600E-004	......
	4	1.29166	-5.30393E-001	5.43907E-006	-1.84600E-004	......
	5	1.54999	-5.30493E-001	5.43907E-006	1.54000E-005	......
	6	1.80832	-5.30843E-001	5.43907E-006	-1.84600E-004	......
	7	2.06665	-5.33643E-001	5.43907E-006	-8.46000E-005	......
	8	2.32498	-5.31893E-001	5.43907E-006	-1.84600E-004	......
	9	2.58332	-5.32043E-001	5.43907E-006	-1.84600E-004	......
	10	2.84165	-5.29343E-001	5.43907E-006	-8.46000E-005	......
	11	3.09998	-5.28843E-001	5.43907E-006	-8.46000E-005	......
	12	3.35831	-5.32143E-001	5.43907E-006	-8.46000E-005	......
	13	3.61664	-5.30093E-001	5.43907E-006	-2.84600E-004	......
	14	3.87497	-5.25243E-001	5.43907E-006	-1.84600E-004	......
	15	4.1333	-5.25943E-001	5.43907E-006	1.54000E-005	......
	16	4.39164	-5.27543E-001	5.43907E-006	-8.46000E-005	......
	17	4.64997	-5.30343E-001	5.43907E-006	-8.46000E-005	......
	18	4.9083	-5.29693E-001	5.43907E-006	-8.46000E-005	......
	19	5.16663	-5.29593E-001	5.43907E-006	-1.84600E-004	......
	20	5.42496	-5.30593E-001	5.43907E-006	-1.84600E-004	......
	21	5.68329	-5.32143E-001	5.43907E-006	1.54000E-005	......
	22	5.94162	-5.34343E-001	5.43907E-006	-1.84600E-004	......
	23	6.19996	-5.32143E-001	5.43907E-006	-1.84600E-004	......
	24	6.45829	-5.31193E-001	5.43907E-006	-1.84600E-004	......
	25	6.71662	-5.30594E-001	5.43907E-006	1.54000E-005	......
	26	6.97495	-5.31443E-001	5.43907E-006	-1.84600E-004	......
	27	7.23328	-5.32344E-001	5.43907E-006	-1.84600E-004	......
	28	7.49161	-5.32943E-001	5.43907E-006	-1.84600E-004	......
	29	7.74995	-5.34993E-001	5.43907E-006	-8.46000E-005	......
	30	8.00828	-5.34494E-001	5.43907E-006	-1.84600E-004	......
	31	8.26661	-5.34093E-001	5.43907E-006	-8.46000E-005	......
	32	8.52494	-5.34943E-001	5.43907E-006	-8.46000E-005	......
	33	8.78327	-5.35793E-001	5.43907E-006	-8.46000E-005	......
	34	9.0416	-5.36294E-001	5.43907E-006	-8.46000E-005	......
	35	9.29993	-5.36093E-001	5.43907E-006	-1.84600E-004	......
	36	9.5583	-5.36143E-001	5.43907E-006	-1.84600E-004	......
	37	9.8166	-5.36644E-001	5.43907E-006	-1.84600E-004	......
	38	10.0749	-5.36644E-001	5.43907E-006	-8.46000E-005	......
EOC	QUANT	-0.536644	Open Circuit (V)
PSTATMODEL	IQUANT	32	Pstat Model
PSTATSECTION	LABEL	PStat0	Pstat Section
CTRLMODE	IQUANT	1	Control Mode
IESTAB	IQUANT	0	I/E Stability
CASPEED	IQUANT	1	Control Amp Speed
CONVENTION	IQUANT	1	Current Convention
ICHRANGE	IQUANT	2	Ich Range
ICHRANGEMODE	TOGGLE	F	Ich Auto Range
ICHOFFSETENABLE	TOGGLE	T	Ich Offset Enable
ICHOFFSET	QUANT	0	Ich Offset (V)
ICHFILTER	IQUANT	3	Ich Filter
VCHRANGE	IQUANT	2	Vch Range
VCHRANGEMODE	TOGGLE	F	Vch Auto Range
VCHOFFSETENABLE	TOGGLE	T	Vch Offset Enable
VCHOFFSET	QUANT	0	Vch Offset (V)
VCHFILTER	IQUANT	3	Vch Filter
ACHRANGE	IQUANT	0	Ach Range
IERANGELOWERLIMIT	IQUANT	3	I/E Range Lower Limit
IERANGEMODE	TOGGLE	F	I/E AutoRange
IERANGE	IQUANT	11	I/E Range
POSFEEDENABLE	TOGGLE	F	Positive Feedback IR Comp
POSFEEDRESISTANCE	QUANT	0	Positive Feedback Resistance (ohm)
FC350IDIVISOR	IQUANT	0	FC350 I Divisor
FC350VRANGE	IQUANT	0	FC350 V Range
FRAMEWORKVERSION	QUANT	4.35	Framework Version
ZCURVE	TABLE
	Pt	Time	Freq	Zreal	Zimag	Zsig	Zmod	Zphz	Idc	Vdc	IERange
	#	s	Hz	ohm	ohm	V	ohm	°	A	V	#
	0	6	100007	1180.4	-12.6726	1	1180.47	-0.615095	2.61946E-006	-0.43654	9
	1	8	89134.1	1175.73	-8.18768	1	1175.76	-0.398996	3.0068E-006	-0.436593	9
	2	10	79433.6	1174.2	-11.2537	1	1174.25	-0.549115	2.88701E-006	-0.436544	9
	3	12	70800.8	1170.26	-10.086	1	1170.31	-0.493794	3.32133E-006	-0.436568	9
	4	14	63105.5	1169.89	-8.35948	1	1169.92	-0.4094	3.20853E-006	-0.436542	9
	5	16	56243.5	1168.86	-8.47734	1	1168.89	-0.415538	3.13079E-006	-0.436542	9
	6	18	50123.7	1168.09	-10.3915	1	1168.13	-0.5097	3.24021E-006	-0.436585	9
	7	20	44681	1165.73	-7.44714	1	1165.76	-0.366022	3.47471E-006	-0.436598	9
	8	22	39811.2	1169.62	-15.7121	1	1169.73	-0.769635	3.37E-006	-0.436542	9
	9	24	35488.3	1165.58	-9.553	1	1165.62	-0.469581	3.47585E-006	-0.436549	9
	10	26	31634.1	1167.23	-8.72745	1	1167.26	-0.428396	3.42991E-006	-0.436554	9
	11	28	28173.1	1164.83	6.49242	1	1164.84	0.319348	2.51442E-006	-0.43657	8
	12	30	25123.7	1166.07	6.19977	1	1166.09	0.304627	2.56182E-006	-0.436612	8
	13	32	22389.3	1166.53	1.82848	1	1166.53	0.089808	2.66224E-006	-0.436582	8
	14	34	19954.4	1165.99	1.96087	1	1165.99	0.096356	2.54829E-006	-0.436581	8
	15	36	17778.2	1166.7	-0.391798	1	1166.7	-0.019241	2.63202E-006	-0.436573	8
	16	38	15852.9	1166.48	-2.73174	1	1166.48	-0.134179	2.75672E-006	-0.436594	8
	17	40	14122.3	1166.21	-3.28793	1	1166.22	-0.161535	2.97396E-006	-0.436562	8
	18	42	12587.2	1168.29	-3.81666	1	1168.29	-0.187178	2.97444E-006	-0.436569	8
	19	44	11221.1	1167.69	-5.07296	1	1167.7	-0.248917	3.00053E-006	-0.436565	8
	20	46	9998.2	1168.01	-6.43035	1	1168.02	-0.315433	2.94752E-006	-0.436562	8
	21	48	8912.76	1170.11	-8.5947	1	1170.15	-0.42084	2.8367E-006	-0.436592	8
	22	50	7942.6	1169.69	-10.3403	1	1169.73	-0.506495	2.84865E-006	-0.436573	8
	23	52	7078.05	1168.98	-9.7644	1	1169.03	-0.478573	2.81122E-006	-0.43656	8
	24	54	6311.1	1169.93	-11.0327	1	1169.98	-0.5403	2.85207E-006	-0.43656	8
	25	56	5622.14	1171.2	-14.3863	1	1171.29	-0.703752	2.80382E-006	-0.436549	8
	26	58	5011.18	1170.58	-14.6432	1	1170.67	-0.716699	2.83304E-006	-0.436561	8
	27	59	4465.21	1171.27	-17.2696	1	1171.4	-0.844729	2.67747E-006	-0.436561	8
	28	61	3980.93	1172.67	-17.7912	1	1172.81	-0.869197	2.57729E-006	-0.436533	8
	29	63	3548.18	1172.58	-21.3039	1	1172.77	-1.04086	2.55257E-006	-0.436531	8
	30	65	3162.67	1172	-22.0655	1	1172.21	-1.07859	2.45742E-006	-0.436554	8
	31	67	2819.01	1173.31	-25.0791	1	1173.58	-1.22449	2.57692E-006	-0.436571	8
	32	69	2511.16	1174.82	-27.4896	1	1175.14	-1.34042	2.45345E-006	-0.436567	8
	33	71	2238.63	1174.82	-30.0853	1	1175.2	-1.46694	2.42836E-006	-0.436572	8
	34	73	1995.37	1174.81	-34.579	1	1175.32	-1.68593	2.43069E-006	-0.436567	8
	35	75	1778.51	1175.67	-38.0291	1	1176.28	-1.85269	2.47097E-006	-0.436567	8
	36	77	1584.49	1177.29	-43.2261	1	1178.08	-2.10276	2.49447E-006	-0.436578	8
	37	79	1412.76	1176.77	-49.0518	1	1177.8	-2.3869	2.47395E-006	-0.436544	8
	38	81	1259.04	1179.04	-51.2622	1	1180.15	-2.48954	2.52757E-006	-0.436578	8
	39	83	1121.63	1179.98	-56.6626	1	1181.34	-2.74923	2.54628E-006	-0.436583	8
	40	85	999.95	1181.09	-63.9992	1	1182.82	-3.10163	2.44413E-006	-0.43658	8
	41	87	891.184	1183.32	-71.2715	1	1185.47	-3.44676	2.43537E-006	-0.436574	8
	42	89	794.163	1184.26	-77.5904	1	1186.8	-3.74854	2.49867E-006	-0.436572	8
	43	91	707.867	1183.77	-85.409	1	1186.85	-4.12674	2.59517E-006	-0.436546	8
	44	93	630.984	1186.61	-95.385	1	1190.43	-4.59582	2.60567E-006	-0.436567	8
	45	95	562.189	1187.7	-107.52	1	1192.56	-5.17276	2.64948E-006	-0.436594	8
	46	97	501.303	1190.19	-117.739	1	1195.99	-5.64962	2.79025E-006	-0.436571	8
	47	99	446.614	1192.14	-130.632	1	1199.28	-6.25337	2.77378E-006	-0.436574	8
	48	101	398.209	1194.45	-144.765	1	1203.19	-6.91045	2.63479E-006	-0.43658	8
	49	103	354.821	1196.92	-160.326	1	1207.61	-7.62933	2.63788E-006	-0.436569	8
	50	105	316.113	1199.64	-177.644	1	1212.72	-8.42319	2.68522E-006	-0.43657	8
	51	107	281.926	1202.56	-196.604	1	1218.53	-9.28501	2.66452E-006	-0.436568	8
	52	109	251.185	1205.77	-217.901	1	1225.3	-10.2436	2.63497E-006	-0.436571	8
	53	111	223.946	1209.24	-241.33	1	1233.08	-11.2864	2.61273E-006	-0.436574	8
	54	113	199.495	1213.01	-267.519	1	1242.16	-12.437	2.50871E-006	-0.436569	8
	55	115	177.836	1217.04	-296.559	1	1252.65	-13.6946	2.40355E-006	-0.436573	8
	56	117	158.533	1221.45	-328.803	1	1264.93	-15.0663	2.48327E-006	-0.436566	8
	57	119	141.263	1226.39	-364.937	1	1279.54	-16.5714	2.53513E-006	-0.436575	8
	58	121	125.911	1231.5	-404.796	1	1296.33	-18.1957	2.58376E-006	-0.436567	8
	59	123	112.198	1237.31	-449.571	1	1316.45	-19.9684	2.40967E-006	-0.436568	8
	60	125	100.009	1243.72	-499.195	1	1340.17	-21.8691	2.43662E-006	-0.436563	8
	61	127	89.1164	1250.59	-554.509	1	1368.02	-23.9123	2.47774E-006	-0.436567	8
	62	129	79.4083	1258.44	-616.544	1	1401.35	-26.1015	2.51624E-006	-0.436564	8
	63	131	70.788	1267.15	-685.561	1	1440.72	-28.4145	2.59054E-006	-0.436568	8
	64	133	63.0971	1276.9	-761.942	1	1486.95	-30.825	2.60862E-006	-0.436578	8
	65	135	54.5476	1290.28	-871.78	1	1557.18	-34.0451	2.42745E-006	-0.436566	8
	66	137	50.0083	1300.41	-944.69	1	1607.33	-35.9967	2.6454E-006	-0.436575	8
	67	140	46.1675	1309.59	-1017.4	1	1658.35	-37.8431	2.56879E-006	-0.436574	8
	68	142	40.0059	1329.17	-1162.65	1	1765.92	-41.1767	2.64595E-006	-0.436578	8
	69	144	35.3046	1348.55	-1305.58	1	1877	-44.0723	2.61984E-006	-0.436576	8
	70	146	31.5793	1370.87	-1448.88	1	1994.63	-46.5846	2.58465E-006	-0.436575	8
	71	148	28.5748	1391.58	-1590.06	1	2113	-48.8083	2.62835E-006	-0.436577	8
	72	150	24.9911	1425.17	-1802.93	1	2298.19	-51.6745	2.57296E-006	-0.436576	8
	73	152	22.2195	1454.18	-2013.28	1	2483.53	-54.1597	2.56059E-006	-0.436586	8
	74	155	20.0011	1494.02	-2218.6	1	2674.75	-56.0434	2.6173E-006	-0.436586	8
	75	157	17.6486	1540.12	-2493.06	1	2930.42	-58.2938	2.54641E-006	-0.436572	8
	76	159	15.7934	1602.89	-2764	1	3195.14	-59.8898	2.75032E-006	-0.436576	8
	77	162	14.2828	1650.42	-3040.72	1	3459.75	-61.5081	2.61659E-006	-0.43658	8
	78	164	12.5002	1738.85	-3437.15	1	3851.96	-63.1653	2.56343E-006	-0.43658	8
	79	166	11.323	1813.68	-3760.29	1	4174.83	-64.2509	2.54411E-006	-0.436568	8
	80	169	9.9987	1927.56	-4215.91	1	4635.66	-65.4296	2.49402E-006	-0.436573	8
