EXPLAIN
TAG	EISPOT
TITLE	LABEL	Tomato_open	Test &Identifier
DATE	LABEL	5/9/2006	Date
TIME	LABEL	17:47:20	Time
NOTES	NOTES	1	&Notes...
	
PSTAT	PSTAT	300	Potentiostat
VDC	POTEN	1.00000E-001	T	DC &Voltage (V)
FREQINIT	QUANT	1.00000E+005	Initial Fre&q. (Hz)
FREQFINAL	QUANT	1.00000E+001	Final Fre&q. (Hz)
PTSPERDEC	QUANT	2.00000E+001	Points/&decade
VAC	QUANT	1.00000E+001	AC &Voltage (mV rms)
AREA	QUANT	1.00000E+000	&Area (cm²)
DENSITY	QUANT	7.87000E+000	&Density (gm/cm³)
EQUIV	QUANT	7.00000E+000	Equiv. &Wt
CONDIT	TWOPARAM	F	1.50000E+001	0.00000E+000	Conditionin&g	Time(s)	E(V)
DELAY	TWOPARAM	F	6.00000E+002	0.00000E+000	Init. De&lay	Time(s)	Stab.(mV/s)
SPEED	SELECTOR	1	&Optimize for:
ZGUESS	QUANT	1.00000E+002	E&stimated Z (ohms)
OCVCURVE	TABLE	39
	Pt	T	Vf	Vm	Ach	Over
	#	s	V vs. Ref.	V	V	bits
	0	0.258332	-5.19893E-001	6.28407E-006	-1.84600E-004	......
	1	0.516663	-5.18344E-001	6.28407E-006	-8.46000E-005	......
	2	0.774994	-5.17393E-001	6.28407E-006	-8.46000E-005	......
	3	1.03333	-5.18093E-001	6.28407E-006	-8.46000E-005	......
	4	1.29166	-5.17793E-001	6.28407E-006	-8.46000E-005	......
	5	1.54999	-5.17944E-001	6.28407E-006	-8.46000E-005	......
	6	1.80832	-5.18543E-001	6.28407E-006	-2.84600E-004	......
	7	2.06665	-5.18643E-001	6.28407E-006	-8.46000E-005	......
	8	2.32498	-5.17994E-001	6.28407E-006	-8.46000E-005	......
	9	2.58332	-5.18393E-001	6.28407E-006	-1.84600E-004	......
	10	2.84165	-5.18443E-001	6.28407E-006	-1.84600E-004	......
	11	3.09998	-5.18893E-001	6.28407E-006	-8.46000E-005	......
	12	3.35831	-5.18593E-001	6.28407E-006	-1.84600E-004	......
	13	3.61664	-5.19193E-001	6.28407E-006	-1.84600E-004	......
	14	3.87497	-5.18643E-001	6.28407E-006	-8.46000E-005	......
	15	4.1333	-5.18493E-001	6.28407E-006	-8.46000E-005	......
	16	4.39164	-5.18694E-001	6.28407E-006	-8.46000E-005	......
	17	4.64997	-5.19394E-001	6.28407E-006	-8.46000E-005	......
	18	4.9083	-5.19943E-001	6.28407E-006	-1.84600E-004	......
	19	5.16663	-5.19744E-001	6.28407E-006	-8.46000E-005	......
	20	5.42496	-5.19643E-001	6.28407E-006	-1.84600E-004	......
	21	5.68329	-5.20043E-001	6.28407E-006	-8.46000E-005	......
	22	5.94162	-5.20293E-001	6.28407E-006	-1.84600E-004	......
	23	6.19996	-5.20643E-001	6.28407E-006	1.54000E-005	......
	24	6.45829	-5.21194E-001	6.28407E-006	-8.46000E-005	......
	25	6.71662	-5.21293E-001	6.28407E-006	-1.84600E-004	......
	26	6.97495	-5.21544E-001	6.28407E-006	-1.84600E-004	......
	27	7.23328	-5.21944E-001	6.28407E-006	-1.84600E-004	......
	28	7.49161	-5.21793E-001	6.28407E-006	-1.84600E-004	......
	29	7.74995	-5.22093E-001	6.28407E-006	-1.84600E-004	......
	30	8.00828	-5.21493E-001	6.28407E-006	-1.84600E-004	......
	31	8.26661	-5.22193E-001	6.28407E-006	-1.84600E-004	......
	32	8.52494	-5.21643E-001	6.28407E-006	1.54000E-005	......
	33	8.78327	-5.21393E-001	6.28407E-006	-1.84600E-004	......
	34	9.0416	-5.20943E-001	6.28407E-006	-8.46000E-005	......
	35	9.29993	-5.20793E-001	6.28407E-006	1.54000E-005	......
	36	9.5583	-5.21343E-001	6.28407E-006	-1.84600E-004	......
	37	9.8166	-5.21043E-001	6.28407E-006	-8.46000E-005	......
	38	10.0749	-5.20343E-001	6.28407E-006	-8.46000E-005	......
EOC	QUANT	-0.520343	Open Circuit (V)
PSTATMODEL	IQUANT	32	Pstat Model
PSTATSECTION	LABEL	PStat0	Pstat Section
CTRLMODE	IQUANT	1	Control Mode
IESTAB	IQUANT	0	I/E Stability
CASPEED	IQUANT	1	Control Amp Speed
CONVENTION	IQUANT	1	Current Convention
ICHRANGE	IQUANT	2	Ich Range
ICHRANGEMODE	TOGGLE	F	Ich Auto Range
ICHOFFSETENABLE	TOGGLE	T	Ich Offset Enable
ICHOFFSET	QUANT	0	Ich Offset (V)
ICHFILTER	IQUANT	3	Ich Filter
VCHRANGE	IQUANT	2	Vch Range
VCHRANGEMODE	TOGGLE	F	Vch Auto Range
VCHOFFSETENABLE	TOGGLE	T	Vch Offset Enable
VCHOFFSET	QUANT	0	Vch Offset (V)
VCHFILTER	IQUANT	3	Vch Filter
ACHRANGE	IQUANT	0	Ach Range
IERANGELOWERLIMIT	IQUANT	3	I/E Range Lower Limit
IERANGEMODE	TOGGLE	F	I/E AutoRange
IERANGE	IQUANT	11	I/E Range
POSFEEDENABLE	TOGGLE	F	Positive Feedback IR Comp
POSFEEDRESISTANCE	QUANT	0	Positive Feedback Resistance (ohm)
FC350IDIVISOR	IQUANT	0	FC350 I Divisor
FC350VRANGE	IQUANT	0	FC350 V Range
FRAMEWORKVERSION	QUANT	4.35	Framework Version
ZCURVE	TABLE
	Pt	Time	Freq	Zreal	Zimag	Zsig	Zmod	Zphz	Idc	Vdc	IERange
	#	s	Hz	ohm	ohm	V	ohm	°	A	V	#
	0	6	100007	1188.53	-12.9585	1	1188.6	-0.62467	3.49269E-006	-0.420022	9
	1	8	89134.1	1183.93	-10.7267	1	1183.98	-0.519098	3.48875E-006	-0.420029	9
	2	10	79433.6	1180.51	-11.2658	1	1180.56	-0.546766	3.45384E-006	-0.420072	9
	3	12	70800.8	1179.39	-11.6725	1	1179.45	-0.567043	3.6123E-006	-0.420082	9
	4	14	63105.5	1175.76	-10.7867	1	1175.81	-0.525626	3.65615E-006	-0.420044	9
	5	16	56243.5	1175.82	-9.9164	1	1175.86	-0.483197	3.59349E-006	-0.420084	9
	6	18	50123.7	1174.93	-8.46521	1	1174.96	-0.4128	3.89609E-006	-0.420058	9
	7	20	44681	1173.65	-8.68382	1	1173.69	-0.423922	4.0701E-006	-0.42004	9
	8	22	39811.2	1168.68	-2.05332	1	1168.68	-0.100667	4.10773E-006	-0.420095	9
	9	24	35488.3	1172	-10.0601	1	1172.05	-0.491797	4.29066E-006	-0.420094	9
	10	26	31634.1	1172.17	-8.87411	1	1172.2	-0.433761	4.30115E-006	-0.420077	9
	11	28	28173.1	1171.49	6.16953	1	1171.5	0.30174	3.24659E-006	-0.420074	8
	12	30	25123.7	1173.34	4.37874	1	1173.35	0.213819	3.17845E-006	-0.420033	8
	13	32	22389.3	1172.77	1.71628	1	1172.77	0.083849	3.07103E-006	-0.420056	8
	14	34	19954.4	1172.37	3.3091	1	1172.37	0.161721	2.98102E-006	-0.420042	8
	15	36	17778.2	1174.82	-1.06672	1	1174.82	-0.052024	2.97052E-006	-0.420067	8
	16	38	15852.9	1174.04	-0.55858	1	1174.04	-0.02726	3.02802E-006	-0.420078	8
	17	40	14122.3	1174.61	-2.97604	1	1174.61	-0.145167	3.02991E-006	-0.420069	8
	18	42	12587.2	1174.36	-4.46037	1	1174.36	-0.217617	2.94203E-006	-0.420072	8
	19	44	11221.1	1176.36	-5.22456	1	1176.37	-0.254465	3.05322E-006	-0.420065	8
	20	46	9998.2	1177.32	-7.38321	1	1177.34	-0.35931	3.04007E-006	-0.420065	8
	21	48	8912.76	1175.49	-7.50407	1	1175.52	-0.365757	3.05506E-006	-0.420097	8
	22	50	7942.6	1174.95	-10.5648	1	1175	-0.515173	3.14709E-006	-0.420062	8
	23	52	7078.05	1176.24	-10.2453	1	1176.29	-0.499045	3.02452E-006	-0.420065	8
	24	54	6311.1	1178.94	-12.002	1	1179	-0.583272	2.97788E-006	-0.420062	8
	25	56	5622.14	1177.92	-14.1495	1	1178	-0.688221	2.92869E-006	-0.420056	8
	26	58	5011.18	1177.66	-13.5602	1	1177.74	-0.659706	2.93982E-006	-0.420068	8
	27	60	4465.21	1177.48	-14.9831	1	1177.58	-0.729033	2.86623E-006	-0.420064	8
	28	62	3980.93	1179.48	-16.3843	1	1179.6	-0.795852	2.86344E-006	-0.420047	8
	29	64	3548.18	1177.57	-20.5711	1	1177.75	-1.0008	2.93283E-006	-0.420083	8
	30	66	3162.67	1179.84	-22.4881	1	1180.06	-1.09194	2.99046E-006	-0.420062	8
	31	68	2819.01	1178.67	-25.335	1	1178.94	-1.23136	2.93068E-006	-0.420045	8
	32	69	2511.16	1179.62	-27.2449	1	1179.94	-1.32309	2.91078E-006	-0.42007	8
	33	71	2238.63	1180.88	-30.3785	1	1181.27	-1.47363	3.02522E-006	-0.420072	8
	34	73	1995.37	1180.62	-35.1111	1	1181.14	-1.70345	3.10418E-006	-0.420072	8
	35	75	1778.51	1183.78	-38.0278	1	1184.39	-1.83994	3.11332E-006	-0.420075	8
	36	77	1584.49	1182.48	-43.1146	1	1183.26	-2.08815	3.16907E-006	-0.420065	8
	37	79	1412.76	1182.94	-46.6857	1	1183.86	-2.26005	3.27594E-006	-0.420058	8
	38	81	1259.04	1183.86	-52.1378	1	1185.01	-2.5217	3.22373E-006	-0.420071	8
	39	83	1121.63	1185.89	-59.2327	1	1187.37	-2.85943	3.21161E-006	-0.42007	8
	40	85	999.95	1186.07	-63.6037	1	1187.77	-3.06958	3.12867E-006	-0.420075	8
	41	87	891.184	1187.95	-70.6238	1	1190.05	-3.40223	3.15721E-006	-0.420063	8
	42	89	794.163	1189.57	-76.8299	1	1192.05	-3.69538	3.22797E-006	-0.420075	8
	43	91	707.867	1191.27	-83.5496	1	1194.2	-4.01186	3.22891E-006	-0.420032	8
	44	93	630.984	1191.78	-94.7408	1	1195.54	-4.5452	3.12826E-006	-0.420066	8
	45	95	562.189	1195.98	-105.796	1	1200.65	-5.05519	2.98397E-006	-0.420089	8
	46	97	501.303	1196.09	-116.599	1	1201.76	-5.56778	3.04612E-006	-0.420085	8
	47	99	446.614	1198.05	-129.354	1	1205.02	-6.16238	3.00231E-006	-0.420085	8
	48	101	398.209	1200.24	-143.311	1	1208.76	-6.80901	3.03754E-006	-0.420083	8
	49	103	354.821	1202.67	-158.778	1	1213.11	-7.52073	3.11545E-006	-0.42009	8
	50	105	316.113	1205.38	-175.953	1	1218.15	-8.30496	2.9942E-006	-0.420092	8
	51	107	281.926	1208.26	-194.734	1	1223.85	-9.15554	3.05403E-006	-0.420086	8
	52	109	251.185	1211.42	-215.765	1	1230.49	-10.099	3.06024E-006	-0.420089	8
	53	111	223.946	1214.87	-239.05	1	1238.16	-11.1319	3.04766E-006	-0.42008	8
	54	113	199.495	1218.64	-264.996	1	1247.12	-12.2681	3.04492E-006	-0.420082	8
	55	115	177.836	1222.66	-293.863	1	1257.48	-13.5145	3.0983E-006	-0.420086	8
	56	117	158.533	1227.05	-325.756	1	1269.55	-14.8679	3.13921E-006	-0.420079	8
	57	119	141.263	1231.93	-361.535	1	1283.88	-16.3554	3.24566E-006	-0.420079	8
	58	121	125.911	1237.28	-401.168	1	1300.69	-17.9645	3.28448E-006	-0.420078	8
	59	123	112.198	1243.08	-445.441	1	1320.48	-19.7144	3.31465E-006	-0.420082	8
	60	125	100.009	1249.65	-494.661	1	1343.99	-21.5956	3.31212E-006	-0.42008	8
	61	127	89.1164	1256.87	-549.734	1	1371.83	-23.6238	3.33179E-006	-0.420088	8
	62	130	79.4083	1264.76	-610.875	1	1404.56	-25.7803	3.31992E-006	-0.420081	8
	63	132	70.788	1273.86	-679.015	1	1443.53	-28.0594	3.3236E-006	-0.420078	8
	64	134	63.0971	1284.09	-755.156	1	1489.68	-30.4593	3.39372E-006	-0.420079	8
	65	136	54.5476	1299.03	-863.918	1	1560.07	-33.6259	3.38765E-006	-0.420075	8
	66	138	50.0083	1309.33	-936.483	1	1609.77	-35.5738	3.44732E-006	-0.42008	8
	67	140	46.1675	1319.35	-1008.24	1	1660.49	-37.3867	3.44582E-006	-0.420081	8
	68	142	40.0059	1340.69	-1151.7	1	1767.44	-40.6639	3.46498E-006	-0.420074	8
	69	144	35.3046	1362.31	-1293.85	1	1878.81	-43.5234	3.4063E-006	-0.420073	8
	70	146	31.5793	1383.91	-1435.46	1	1993.93	-46.0475	3.26562E-006	-0.420074	8
	71	148	28.5748	1406.92	-1574.74	1	2111.69	-48.2215	3.23404E-006	-0.420073	8
	72	151	24.9911	1441.83	-1784.71	1	2294.36	-51.0661	3.16511E-006	-0.420077	8
	73	153	22.2195	1479.13	-1991.54	1	2480.74	-53.3985	3.11853E-006	-0.420068	8
	74	155	20.0011	1519.13	-2195.77	1	2670.05	-55.3228	3.19006E-006	-0.420078	8
	75	158	17.6486	1574.4	-2466.09	1	2925.81	-57.445	3.11346E-006	-0.420076	8
	76	160	15.7934	1633.59	-2736.94	1	3187.39	-59.1685	3.0854E-006	-0.420071	8
	77	162	14.2828	1695.71	-3002.24	1	3448.03	-60.5417	3.14755E-006	-0.420071	8
	78	164	12.5002	1792.17	-3392.26	1	3836.57	-62.152	3.18379E-006	-0.420077	8
	79	167	11.323	1888.15	-3724.68	1	4175.92	-63.1183	3.1577E-006	-0.420065	8
	80	169	9.9987	2023.99	-4160.62	1	4626.8	-64.0588	3.17942E-006	-0.420071	8
