EXPLAIN
TAG	EISPOT
TITLE	LABEL	Tomato_open	Test &Identifier
DATE	LABEL	5/9/2006	Date
TIME	LABEL	17:52:17	Time
NOTES	NOTES	1	&Notes...
	
PSTAT	PSTAT	300	Potentiostat
VDC	POTEN	1.00000E-001	T	DC &Voltage (V)
FREQINIT	QUANT	1.00000E+005	Initial Fre&q. (Hz)
FREQFINAL	QUANT	1.00000E+001	Final Fre&q. (Hz)
PTSPERDEC	QUANT	2.00000E+001	Points/&decade
VAC	QUANT	1.00000E+001	AC &Voltage (mV rms)
AREA	QUANT	1.00000E+000	&Area (cm²)
DENSITY	QUANT	7.87000E+000	&Density (gm/cm³)
EQUIV	QUANT	7.00000E+000	Equiv. &Wt
CONDIT	TWOPARAM	F	1.50000E+001	0.00000E+000	Conditionin&g	Time(s)	E(V)
DELAY	TWOPARAM	F	6.00000E+002	0.00000E+000	Init. De&lay	Time(s)	Stab.(mV/s)
SPEED	SELECTOR	1	&Optimize for:
ZGUESS	QUANT	1.00000E+002	E&stimated Z (ohms)
OCVCURVE	TABLE	39
	Pt	T	Vf	Vm	Ach	Over
	#	s	V vs. Ref.	V	V	bits
	0	0.258332	-5.34643E-001	6.11507E-006	3.15400E-004	......
	1	0.516663	-5.35293E-001	6.11507E-006	2.15400E-004	......
	2	0.774994	-5.36043E-001	6.11507E-006	2.15400E-004	......
	3	1.03333	-5.36143E-001	6.11507E-006	2.15400E-004	......
	4	1.29166	-5.37443E-001	6.11507E-006	3.15400E-004	......
	5	1.54999	-5.37143E-001	6.11507E-006	3.15400E-004	......
	6	1.80832	-5.35443E-001	6.11507E-006	3.15400E-004	......
	7	2.06665	-5.32344E-001	6.11507E-006	2.15400E-004	......
	8	2.32498	-5.29293E-001	6.11507E-006	2.15400E-004	......
	9	2.58332	-5.29643E-001	6.11507E-006	3.15400E-004	......
	10	2.84165	-5.30693E-001	6.11507E-006	3.15400E-004	......
	11	3.09998	-5.31743E-001	6.11507E-006	2.15400E-004	......
	12	3.35831	-5.32543E-001	6.11507E-006	3.15400E-004	......
	13	3.61664	-5.32843E-001	6.11507E-006	2.15400E-004	......
	14	3.87497	-5.33444E-001	6.11507E-006	3.15400E-004	......
	15	4.1333	-5.33643E-001	6.11507E-006	2.15400E-004	......
	16	4.39164	-5.32344E-001	6.11507E-006	3.15400E-004	......
	17	4.64997	-5.31793E-001	6.11507E-006	2.15400E-004	......
	18	4.9083	-5.31843E-001	6.11507E-006	3.15400E-004	......
	19	5.16663	-5.31893E-001	6.11507E-006	2.15400E-004	......
	20	5.42496	-5.32543E-001	6.11507E-006	2.15400E-004	......
	21	5.68329	-5.33943E-001	6.11507E-006	2.15400E-004	......
	22	5.94162	-5.33693E-001	6.11507E-006	3.15400E-004	......
	23	6.19996	-5.33243E-001	6.11507E-006	3.15400E-004	......
	24	6.45829	-5.32043E-001	6.11507E-006	4.15400E-004	......
	25	6.71662	-5.31793E-001	6.11507E-006	3.15400E-004	......
	26	6.97495	-5.32393E-001	6.11507E-006	2.15400E-004	......
	27	7.23328	-5.33394E-001	6.11507E-006	3.15400E-004	......
	28	7.49161	-5.33643E-001	6.11507E-006	3.15400E-004	......
	29	7.74995	-5.33943E-001	6.11507E-006	2.15400E-004	......
	30	8.00828	-5.34544E-001	6.11507E-006	2.15400E-004	......
	31	8.26661	-5.34894E-001	6.11507E-006	4.15400E-004	......
	32	8.52494	-5.34393E-001	6.11507E-006	2.15400E-004	......
	33	8.78327	-5.34043E-001	6.11507E-006	1.54000E-005	......
	34	9.0416	-5.33394E-001	6.11507E-006	2.15400E-004	......
	35	9.29993	-5.33143E-001	6.11507E-006	3.15400E-004	......
	36	9.5583	-5.33193E-001	6.11507E-006	2.15400E-004	......
	37	9.8166	-5.33543E-001	6.11507E-006	3.15400E-004	......
	38	10.0749	-5.34243E-001	6.11507E-006	3.15400E-004	......
EOC	QUANT	-0.534243	Open Circuit (V)
PSTATMODEL	IQUANT	32	Pstat Model
PSTATSECTION	LABEL	PStat0	Pstat Section
CTRLMODE	IQUANT	1	Control Mode
IESTAB	IQUANT	0	I/E Stability
CASPEED	IQUANT	1	Control Amp Speed
CONVENTION	IQUANT	1	Current Convention
ICHRANGE	IQUANT	2	Ich Range
ICHRANGEMODE	TOGGLE	F	Ich Auto Range
ICHOFFSETENABLE	TOGGLE	T	Ich Offset Enable
ICHOFFSET	QUANT	0	Ich Offset (V)
ICHFILTER	IQUANT	3	Ich Filter
VCHRANGE	IQUANT	2	Vch Range
VCHRANGEMODE	TOGGLE	F	Vch Auto Range
VCHOFFSETENABLE	TOGGLE	T	Vch Offset Enable
VCHOFFSET	QUANT	0	Vch Offset (V)
VCHFILTER	IQUANT	3	Vch Filter
ACHRANGE	IQUANT	0	Ach Range
IERANGELOWERLIMIT	IQUANT	3	I/E Range Lower Limit
IERANGEMODE	TOGGLE	F	I/E AutoRange
IERANGE	IQUANT	11	I/E Range
POSFEEDENABLE	TOGGLE	F	Positive Feedback IR Comp
POSFEEDRESISTANCE	QUANT	0	Positive Feedback Resistance (ohm)
FC350IDIVISOR	IQUANT	0	FC350 I Divisor
FC350VRANGE	IQUANT	0	FC350 V Range
FRAMEWORKVERSION	QUANT	4.35	Framework Version
ZCURVE	TABLE
	Pt	Time	Freq	Zreal	Zimag	Zsig	Zmod	Zphz	Idc	Vdc	IERange
	#	s	Hz	ohm	ohm	V	ohm	°	A	V	#
	0	6	100007	1183.99	-10.2464	1	1184.03	-0.495832	2.97404E-006	-0.434088	9
	1	8	89134.1	1181.32	-11.1737	1	1181.37	-0.541927	3.19384E-006	-0.434101	9
	2	10	79433.6	1178.17	-12.0217	1	1178.23	-0.584611	3.21495E-006	-0.434106	9
	3	12	70800.8	1176.39	-8.15419	1	1176.42	-0.39714	3.26834E-006	-0.434095	9
	4	14	63105.5	1174.66	-7.68958	1	1174.68	-0.375066	3.13382E-006	-0.434092	9
	5	16	56243.5	1172.61	-7.15895	1	1172.63	-0.349794	3.06721E-006	-0.434059	9
	6	18	50123.7	1172.72	-9.22806	1	1172.76	-0.450846	3.3911E-006	-0.434044	9
	7	20	44681	1171.79	-11.1368	1	1171.84	-0.544528	3.33343E-006	-0.43406	9
	8	22	39811.2	1174.88	-0.939836	1	1174.88	-0.045833	3.53759E-006	-0.434101	9
	9	24	35488.3	1171.28	-9.6261	1	1171.32	-0.470872	3.49009E-006	-0.434092	9
	10	26	31634.1	1170.46	-9.5565	1	1170.5	-0.467795	3.57484E-006	-0.434049	9
	11	28	28173.1	1169.18	6.55182	1	1169.2	0.321069	2.73685E-006	-0.434065	8
	12	30	25123.7	1168.95	5.01771	1	1168.96	0.24594	2.72492E-006	-0.434068	8
	13	32	22389.3	1170.15	2.20243	1	1170.15	0.107841	2.61982E-006	-0.434044	8
	14	34	19954.4	1170.7	1.57476	1	1170.7	0.077071	2.70515E-006	-0.434094	8
	15	36	17778.2	1170.02	-1.28473	1	1170.02	-0.062913	2.8501E-006	-0.434076	8
	16	38	15852.9	1172.4	-0.914917	1	1172.4	-0.044712	2.9204E-006	-0.434066	8
	17	39	14122.3	1171.34	-3.52134	1	1171.35	-0.172244	2.96555E-006	-0.43407	8
	18	41	12587.2	1172.76	-3.62642	1	1172.77	-0.17717	2.92777E-006	-0.434079	8
	19	43	11221.1	1172.9	-6.38532	1	1172.91	-0.311919	3.04658E-006	-0.434071	8
	20	45	9998.2	1172.56	-7.54806	1	1172.58	-0.368823	3.04496E-006	-0.434081	8
	21	47	8912.76	1172.86	-9.00039	1	1172.9	-0.439671	3.10963E-006	-0.434056	8
	22	49	7942.6	1172.7	-8.83257	1	1172.74	-0.431533	2.98062E-006	-0.434073	8
	23	51	7078.05	1173.45	-7.92829	1	1173.47	-0.387109	3.04044E-006	-0.434079	8
	24	53	6311.1	1174.58	-11.6686	1	1174.64	-0.569175	2.9768E-006	-0.434079	8
	25	55	5622.14	1174.39	-13.5305	1	1174.47	-0.660095	3.03905E-006	-0.434083	8
	26	57	5011.18	1176.59	-15.9072	1	1176.69	-0.774582	3.15815E-006	-0.434077	8
	27	59	4465.21	1175.97	-17.5584	1	1176.1	-0.855419	2.97968E-006	-0.434082	8
	28	61	3980.93	1176.18	-17.9206	1	1176.32	-0.872905	3.07779E-006	-0.434048	8
	29	63	3548.18	1174.9	-20.6543	1	1175.08	-1.00714	2.98398E-006	-0.434075	8
	30	65	3162.67	1176.45	-21.958	1	1176.66	-1.06928	3.02728E-006	-0.434072	8
	31	67	2819.01	1177.36	-25.8531	1	1177.64	-1.25793	3.05611E-006	-0.434104	8
	32	69	2511.16	1178.41	-27.7074	1	1178.74	-1.34692	2.92912E-006	-0.434084	8
	33	71	2238.63	1176.73	-30.631	1	1177.13	-1.4911	3.08092E-006	-0.434076	8
	34	73	1995.37	1178.45	-33.8835	1	1178.94	-1.64694	3.04178E-006	-0.434064	8
	35	75	1778.51	1178.62	-37.6929	1	1179.23	-1.83172	2.99616E-006	-0.434081	8
	36	77	1584.49	1179.01	-42.5238	1	1179.77	-2.06562	3.08914E-006	-0.43408	8
	37	79	1412.76	1179.08	-47.3911	1	1180.04	-2.30166	3.05702E-006	-0.43406	8
	38	81	1259.04	1181.73	-51.8377	1	1182.86	-2.51173	3.06815E-006	-0.434079	8
	39	83	1121.63	1181.52	-57.1587	1	1182.9	-2.76966	3.02691E-006	-0.434067	8
	40	85	999.95	1183.69	-63.8645	1	1185.41	-3.08834	3.02237E-006	-0.434068	8
	41	87	891.184	1184.77	-70.3327	1	1186.86	-3.39731	2.89918E-006	-0.43407	8
	42	89	794.163	1187.31	-79.753	1	1189.98	-3.84286	2.95089E-006	-0.434065	8
	43	91	707.867	1189.28	-87.5471	1	1192.5	-4.21015	3.10367E-006	-0.434101	8
	44	93	630.984	1188.53	-96.309	1	1192.42	-4.63267	2.99899E-006	-0.43406	8
	45	95	562.189	1192.67	-106.993	1	1197.46	-5.12619	2.99099E-006	-0.434056	8
	46	97	501.303	1193.26	-117.091	1	1198.99	-5.60432	2.98692E-006	-0.434079	8
	47	99	446.614	1195.26	-129.94	1	1202.31	-6.20438	2.9627E-006	-0.434076	8
	48	101	398.209	1197.46	-143.919	1	1206.07	-6.85333	2.98206E-006	-0.434079	8
	49	103	354.821	1199.86	-159.513	1	1210.41	-7.57267	2.96888E-006	-0.434075	8
	50	105	316.113	1202.53	-176.694	1	1215.45	-8.35892	3.01575E-006	-0.434078	8
	51	107	281.926	1205.46	-195.615	1	1221.23	-9.21724	2.96534E-006	-0.43408	8
	52	109	251.185	1208.63	-216.703	1	1227.91	-10.1649	2.78788E-006	-0.434077	8
	53	111	223.946	1212.04	-240.113	1	1235.6	-11.2056	2.8616E-006	-0.434077	8
	54	113	199.495	1215.8	-266.22	1	1244.61	-12.351	2.8979E-006	-0.434076	8
	55	115	177.836	1219.82	-295.066	1	1255	-13.5983	2.87462E-006	-0.434079	8
	56	117	158.533	1224.21	-327.154	1	1267.17	-14.962	2.80171E-006	-0.434083	8
	57	119	141.263	1229.02	-363.131	1	1281.54	-16.4606	2.77616E-006	-0.434077	8
	58	121	125.911	1234.36	-402.911	1	1298.46	-18.0773	2.96109E-006	-0.434076	8
	59	123	112.198	1240.22	-447.388	1	1318.44	-19.8361	3.005E-006	-0.434084	8
	60	125	100.009	1246.68	-496.925	1	1342.06	-21.7322	3.00571E-006	-0.434082	8
	61	127	89.1164	1253.71	-552.115	1	1369.9	-23.7679	2.95259E-006	-0.434083	8
	62	129	79.4083	1261.85	-613.882	1	1403.25	-25.9426	3.03081E-006	-0.434087	8
	63	131	70.788	1270.74	-682.184	1	1442.28	-28.2286	3.06452E-006	-0.434077	8
	64	133	63.0971	1280.96	-758.595	1	1488.73	-30.6345	3.18673E-006	-0.434088	8
	65	135	54.5476	1295.08	-867.746	1	1558.92	-33.8233	2.92756E-006	-0.434085	8
	66	137	50.0083	1304.38	-940.393	1	1608.02	-35.7898	2.81501E-006	-0.43408	8
	67	139	46.1675	1315.03	-1012.68	1	1659.77	-37.5992	3.04037E-006	-0.434082	8
	68	142	40.0059	1334.75	-1156.85	1	1766.31	-40.9159	2.9213E-006	-0.434084	8
	69	144	35.3046	1355.36	-1299.5	1	1877.68	-43.7947	2.7806E-006	-0.434081	8
	70	146	31.5793	1375.35	-1442.25	1	1992.91	-46.3603	2.68788E-006	-0.434075	8
	71	148	28.5748	1397.18	-1583.11	1	2111.48	-48.5699	2.66828E-006	-0.434077	8
	72	150	24.9911	1432.91	-1794.08	1	2296.08	-51.386	2.88652E-006	-0.434072	8
	73	152	22.2195	1469.26	-2002.07	1	2483.35	-53.7262	2.9006E-006	-0.434072	8
	74	155	20.0011	1509.6	-2206.65	1	2673.61	-55.6235	2.85087E-006	-0.434082	8
	75	157	17.6486	1561.08	-2481.41	1	2931.61	-57.8256	2.86561E-006	-0.434078	8
	76	159	15.7934	1620.07	-2749.2	1	3191.04	-59.4897	2.71259E-006	-0.434079	8
	77	162	14.2828	1675.72	-3021.61	1	3455.17	-60.9882	2.73653E-006	-0.434082	8
	78	164	12.5002	1770.5	-3409.65	1	3841.92	-62.5588	2.69308E-006	-0.434076	8
	79	166	11.323	1858.1	-3744.65	1	4180.31	-63.6093	2.7317E-006	-0.434077	8
	80	169	9.9987	1973.01	-4198.17	1	4638.69	-64.8279	2.69852E-006	-0.434083	8
