EXPLAIN
TAG	EISPOT
TITLE	LABEL	Tomato_open	Test &Identifier
DATE	LABEL	5/9/2006	Date
TIME	LABEL	19:04:43	Time
NOTES	NOTES	1	&Notes...
	
PSTAT	PSTAT	300	Potentiostat
VDC	POTEN	1.00000E-001	T	DC &Voltage (V)
FREQINIT	QUANT	1.00000E+005	Initial Fre&q. (Hz)
FREQFINAL	QUANT	1.00000E+001	Final Fre&q. (Hz)
PTSPERDEC	QUANT	2.00000E+001	Points/&decade
VAC	QUANT	1.00000E+001	AC &Voltage (mV rms)
AREA	QUANT	1.00000E+000	&Area (cm²)
DENSITY	QUANT	7.87000E+000	&Density (gm/cm³)
EQUIV	QUANT	7.00000E+000	Equiv. &Wt
CONDIT	TWOPARAM	F	1.50000E+001	0.00000E+000	Conditionin&g	Time(s)	E(V)
DELAY	TWOPARAM	F	6.00000E+002	0.00000E+000	Init. De&lay	Time(s)	Stab.(mV/s)
SPEED	SELECTOR	1	&Optimize for:
ZGUESS	QUANT	1.00000E+002	E&stimated Z (ohms)
OCVCURVE	TABLE	39
	Pt	T	Vf	Vm	Ach	Over
	#	s	V vs. Ref.	V	V	bits
	0	0.258332	-5.10243E-001	6.42094E-006	2.15400E-004	......
	1	0.516663	-5.09543E-001	6.42094E-006	3.15400E-004	......
	2	0.774994	-5.06893E-001	6.42094E-006	1.54000E-005	......
	3	1.03333	-5.06494E-001	6.42094E-006	3.15400E-004	......
	4	1.29166	-5.07593E-001	6.42094E-006	1.54000E-005	......
	5	1.54999	-5.07194E-001	6.42094E-006	2.15400E-004	......
	6	1.80832	-5.10093E-001	6.42094E-006	2.15400E-004	......
	7	2.06665	-5.12693E-001	6.42094E-006	2.15400E-004	......
	8	2.32498	-5.10743E-001	6.42094E-006	1.54000E-005	......
	9	2.58332	-5.11343E-001	6.42094E-006	2.15400E-004	......
	10	2.84165	-5.10893E-001	6.42094E-006	1.54000E-005	......
	11	3.09998	-5.10943E-001	6.42094E-006	3.15400E-004	......
	12	3.35831	-5.13644E-001	6.42094E-006	1.54000E-005	......
	13	3.61664	-5.14793E-001	6.42094E-006	3.15400E-004	......
	14	3.87497	-5.16093E-001	6.42094E-006	1.54000E-005	......
	15	4.1333	-5.15293E-001	6.42094E-006	2.15400E-004	......
	16	4.39164	-5.14293E-001	6.42094E-006	2.15400E-004	......
	17	4.64997	-5.15743E-001	6.42094E-006	2.15400E-004	......
	18	4.9083	-5.18943E-001	6.42094E-006	1.15400E-004	......
	19	5.16663	-5.18943E-001	6.42094E-006	2.15400E-004	......
	20	5.42496	-5.17644E-001	6.42094E-006	1.54000E-005	......
	21	5.68329	-5.16843E-001	6.42094E-006	3.15400E-004	......
	22	5.94162	-5.13843E-001	6.42094E-006	2.15400E-004	......
	23	6.19996	-5.14243E-001	6.42094E-006	3.15400E-004	......
	24	6.45829	-5.15193E-001	6.42094E-006	1.54000E-005	......
	25	6.71662	-5.17944E-001	6.42094E-006	4.15400E-004	......
	26	6.97495	-5.19843E-001	6.42094E-006	1.15400E-004	......
	27	7.23328	-5.15144E-001	6.42094E-006	3.15400E-004	......
	28	7.49161	-5.11643E-001	6.42094E-006	1.15400E-004	......
	29	7.74995	-5.10593E-001	6.42094E-006	2.15400E-004	......
	30	8.00828	-5.13644E-001	6.42094E-006	1.54000E-005	......
	31	8.26661	-5.15194E-001	6.42094E-006	3.15400E-004	......
	32	8.52494	-5.12043E-001	6.42094E-006	-8.46000E-005	......
	33	8.78327	-5.11243E-001	6.42094E-006	3.15400E-004	......
	34	9.0416	-5.11443E-001	6.42094E-006	1.54000E-005	......
	35	9.29993	-5.12143E-001	6.42094E-006	3.15400E-004	......
	36	9.5583	-5.13243E-001	6.42094E-006	1.54000E-005	......
	37	9.8166	-5.13143E-001	6.42094E-006	1.15400E-004	......
	38	10.0749	-5.12493E-001	6.42094E-006	1.54000E-005	......
EOC	QUANT	-0.512493	Open Circuit (V)
PSTATMODEL	IQUANT	32	Pstat Model
PSTATSECTION	LABEL	PStat0	Pstat Section
CTRLMODE	IQUANT	1	Control Mode
IESTAB	IQUANT	0	I/E Stability
CASPEED	IQUANT	1	Control Amp Speed
CONVENTION	IQUANT	1	Current Convention
ICHRANGE	IQUANT	2	Ich Range
ICHRANGEMODE	TOGGLE	F	Ich Auto Range
ICHOFFSETENABLE	TOGGLE	T	Ich Offset Enable
ICHOFFSET	QUANT	0	Ich Offset (V)
ICHFILTER	IQUANT	3	Ich Filter
VCHRANGE	IQUANT	2	Vch Range
VCHRANGEMODE	TOGGLE	F	Vch Auto Range
VCHOFFSETENABLE	TOGGLE	T	Vch Offset Enable
VCHOFFSET	QUANT	0	Vch Offset (V)
VCHFILTER	IQUANT	3	Vch Filter
ACHRANGE	IQUANT	0	Ach Range
IERANGELOWERLIMIT	IQUANT	3	I/E Range Lower Limit
IERANGEMODE	TOGGLE	F	I/E AutoRange
IERANGE	IQUANT	11	I/E Range
POSFEEDENABLE	TOGGLE	F	Positive Feedback IR Comp
POSFEEDRESISTANCE	QUANT	0	Positive Feedback Resistance (ohm)
FC350IDIVISOR	IQUANT	0	FC350 I Divisor
FC350VRANGE	IQUANT	0	FC350 V Range
FRAMEWORKVERSION	QUANT	4.35	Framework Version
ZCURVE	TABLE
	Pt	Time	Freq	Zreal	Zimag	Zsig	Zmod	Zphz	Idc	Vdc	IERange
	#	s	Hz	ohm	ohm	V	ohm	°	A	V	#
	0	6	100007	887.261	-5.30985	1	887.277	-0.342885	4.55795E-006	-0.412327	9
	1	8	89134.1	884.998	-5.72985	1	885.016	-0.370952	4.39896E-006	-0.412318	9
	2	10	79433.6	883.525	-7.41801	1	883.556	-0.48104	4.47917E-006	-0.412314	9
	3	12	70800.8	881.447	-6.47654	1	881.471	-0.42098	4.80299E-006	-0.41234	9
	4	14	63105.5	881.341	-5.1572	1	881.356	-0.335265	5.04504E-006	-0.412342	9
	5	16	56243.5	880.81	-5.972	1	880.831	-0.388466	4.97056E-006	-0.412302	9
	6	18	50123.7	878.205	-6.76359	1	878.231	-0.441261	4.92876E-006	-0.412342	9
	7	20	44681	878.352	-4.61655	1	878.364	-0.301139	4.90343E-006	-0.412331	9
	8	22	39811.2	881.266	-9.673	1	881.319	-0.628867	4.84591E-006	-0.412332	9
	9	24	35488.3	876.644	-6.68896	1	876.67	-0.437169	4.79245E-006	-0.412336	9
	10	25	31634.1	877.957	-8.31384	1	877.996	-0.542548	5.06344E-006	-0.412307	9
	11	27	28173.1	877.321	-7.35714	1	877.352	-0.480466	4.89145E-006	-0.412327	9
	12	29	25123.7	877.943	-6.51096	1	877.967	-0.424907	4.98886E-006	-0.412352	9
	13	31	22389.3	878.118	-8.00258	1	878.154	-0.522141	4.86872E-006	-0.412355	9
	14	33	19954.4	877.031	-8.95896	1	877.077	-0.585262	4.77015E-006	-0.412344	9
	15	35	17778.2	878.648	-10.0531	1	878.706	-0.655524	4.6233E-006	-0.412325	9
	16	37	15852.9	879.52	-10.3369	1	879.581	-0.67336	4.86418E-006	-0.412343	9
	17	39	14122.3	879.95	-11.5876	1	880.026	-0.754455	4.76035E-006	-0.412321	9
	18	41	12587.2	879.079	-11.868	1	879.159	-0.773475	4.37441E-006	-0.412324	9
	19	43	11221.1	879.906	-12.2752	1	879.992	-0.799255	4.55464E-006	-0.412316	9
	20	45	9998.2	880.394	-13.5137	1	880.497	-0.879399	4.85706E-006	-0.412321	9
	21	47	8912.76	880.492	-14.1261	1	880.605	-0.919139	5.01926E-006	-0.412341	9
	22	49	7942.6	881.106	-15.3546	1	881.24	-0.99836	5.00616E-006	-0.412322	9
	23	51	7078.05	882.212	-15.8874	1	882.355	-1.0317	4.45219E-006	-0.412324	9
	24	53	6311.1	882.658	-19.1406	1	882.866	-1.24228	4.22397E-006	-0.41233	9
	25	55	5622.14	882.289	-19.3625	1	882.502	-1.25719	4.21005E-006	-0.412327	9
	26	57	5011.18	884.296	-19.8644	1	884.519	-1.28685	4.29028E-006	-0.412326	9
	27	59	4465.21	883.702	-23.0172	1	884.002	-1.49201	4.29675E-006	-0.412339	9
	28	61	3980.93	883.91	-24.6442	1	884.253	-1.59704	4.32889E-006	-0.412321	9
	29	63	3548.18	884.092	-25.7152	1	884.466	-1.66607	4.38846E-006	-0.412348	9
	30	65	3162.67	884.738	-29.1927	1	885.22	-1.88984	4.19744E-006	-0.41231	9
	31	67	2819.01	885.005	-33.0216	1	885.621	-2.13685	3.9947E-006	-0.41235	9
	32	69	2511.16	883.945	-37.4317	1	884.737	-2.42481	3.96477E-006	-0.412328	9
	33	71	2238.63	886.531	-39.6134	1	887.415	-2.55848	3.94501E-006	-0.412321	9
	34	73	1995.37	887.397	-43.7208	1	888.473	-2.8206	3.95164E-006	-0.412338	9
	35	75	1778.51	886.849	-48.0756	1	888.151	-3.10293	4.17868E-006	-0.412341	9
	36	76	1584.49	889.511	-53.749	1	891.133	-3.45792	4.70692E-006	-0.41233	9
	37	78	1412.76	890.205	-59.2093	1	892.172	-3.80525	4.66858E-006	-0.412317	9
	38	80	1259.04	889.445	-65.8574	1	891.879	-4.23464	4.46018E-006	-0.412323	9
	39	82	1121.63	892.587	-73.8106	1	895.634	-4.7272	4.28875E-006	-0.412321	9
	40	84	999.95	893.048	-81.1954	1	896.732	-5.19502	4.19332E-006	-0.412329	9
	41	86	891.184	895.085	-90.9345	1	899.693	-5.80095	4.19028E-006	-0.412328	9
	42	88	794.163	897.882	-99.645	1	903.394	-6.33262	4.24588E-006	-0.412338	9
	43	90	707.867	898.964	-109.905	1	905.657	-6.97023	4.17193E-006	-0.412337	9
	44	92	630.984	900.91	-122.93	1	909.259	-7.77009	4.12203E-006	-0.412338	9
	45	94	562.189	903.836	-135.009	1	913.864	-8.49565	4.10361E-006	-0.412347	9
	46	96	501.303	905.694	-149.295	1	917.916	-9.36051	3.98483E-006	-0.412345	9
	47	98	446.614	908.378	-165.619	1	923.352	-10.3329	4.1173E-006	-0.412351	9
	48	100	398.209	911.476	-183.341	1	929.732	-11.3731	4.1039E-006	-0.412345	9
	49	102	354.821	914.727	-203.128	1	937.009	-12.5202	4.2326E-006	-0.412347	9
	50	104	316.113	918.413	-225.057	1	945.586	-13.769	4.48721E-006	-0.412341	9
	51	106	281.926	922.435	-249.033	1	955.46	-15.1081	4.4349E-006	-0.412341	9
	52	108	251.185	926.798	-275.824	1	966.97	-16.5735	4.31122E-006	-0.412345	9
	53	110	223.946	931.605	-305.419	1	980.39	-18.1513	4.1177E-006	-0.412344	9
	54	112	199.495	936.826	-338.416	1	996.08	-19.8616	4.13354E-006	-0.412331	9
	55	114	177.836	942.49	-374.855	1	1014.3	-21.6891	4.22212E-006	-0.412336	9
	56	116	158.533	948.09	-415.211	1	1035.02	-23.6508	3.50137E-006	-0.412333	8
	57	118	141.263	954.83	-460.191	1	1059.94	-25.7323	3.20662E-006	-0.412332	8
	58	120	125.911	962.21	-510.32	1	1089.17	-27.9397	3.03132E-006	-0.412332	8
	59	122	112.198	970.21	-566.238	1	1123.36	-30.2688	3.06695E-006	-0.412338	8
	60	124	100.009	979.55	-628.488	1	1163.84	-32.6845	3.46178E-006	-0.412331	8
	61	126	89.1164	989.63	-697.657	1	1210.82	-35.1826	3.36364E-006	-0.412327	8
	62	128	79.4083	1001.11	-775.284	1	1266.21	-37.7551	3.52279E-006	-0.412335	8
	63	130	70.788	1013.76	-861.185	1	1330.17	-40.3478	3.66655E-006	-0.412335	8
	64	132	63.0971	1028.17	-956.57	1	1404.33	-42.9338	3.56156E-006	-0.412335	8
	65	134	54.5476	1049.07	-1093.08	1	1515.05	-46.1771	3.49996E-006	-0.412338	8
	66	137	50.0083	1063.42	-1184.68	1	1591.95	-48.0874	3.37946E-006	-0.412341	8
	67	139	46.1675	1077.48	-1274.68	1	1669.06	-49.7923	3.5068E-006	-0.412336	8
	68	141	40.0059	1106.75	-1454.85	1	1827.97	-52.7386	3.07426E-006	-0.412335	8
	69	143	35.3046	1137.46	-1632.52	1	1989.71	-55.133	3.21943E-006	-0.412338	8
	70	145	31.5793	1170.88	-1811.46	1	2156.94	-57.1224	3.62767E-006	-0.412347	8
	71	147	28.5748	1206.18	-1981.59	1	2319.82	-58.6715	3.56349E-006	-0.41235	8
	72	149	24.9911	1261.19	-2241.25	1	2571.73	-60.6328	3.34422E-006	-0.412343	8
	73	152	22.2195	1303.45	-2504.8	1	2823.65	-62.5084	3.12905E-006	-0.412355	8
	74	154	20.0011	1366.41	-2758.54	1	3078.42	-63.649	3.27452E-006	-0.412346	8
	75	156	17.6486	1441.13	-3094.22	1	3413.36	-65.0264	3.30828E-006	-0.412345	8
	76	159	15.7934	1523.46	-3431.74	1	3754.7	-66.062	3.20005E-006	-0.41234	8
	77	161	14.2828	1645.33	-3769.85	1	4113.26	-66.4214	3.43257E-006	-0.41234	8
	78	163	12.5002	1771.83	-4215.04	1	4572.3	-67.2001	3.31411E-006	-0.412346	8
	79	166	11.323	1882.9	-4620.74	1	4989.65	-67.8296	2.9826E-006	-0.412332	8
	80	168	9.9987	2107.57	-5194.2	1	5605.49	-67.915	3.23697E-006	-0.41234	8
