EXPLAIN
TAG	EISPOT
TITLE	LABEL	Tomato_open	Test &Identifier
DATE	LABEL	5/9/2006	Date
TIME	LABEL	19:09:45	Time
NOTES	NOTES	1	&Notes...
	
PSTAT	PSTAT	300	Potentiostat
VDC	POTEN	1.00000E-001	T	DC &Voltage (V)
FREQINIT	QUANT	1.00000E+005	Initial Fre&q. (Hz)
FREQFINAL	QUANT	1.00000E+001	Final Fre&q. (Hz)
PTSPERDEC	QUANT	2.00000E+001	Points/&decade
VAC	QUANT	1.00000E+001	AC &Voltage (mV rms)
AREA	QUANT	1.00000E+000	&Area (cm²)
DENSITY	QUANT	7.87000E+000	&Density (gm/cm³)
EQUIV	QUANT	7.00000E+000	Equiv. &Wt
CONDIT	TWOPARAM	F	1.50000E+001	0.00000E+000	Conditionin&g	Time(s)	E(V)
DELAY	TWOPARAM	F	6.00000E+002	0.00000E+000	Init. De&lay	Time(s)	Stab.(mV/s)
SPEED	SELECTOR	1	&Optimize for:
ZGUESS	QUANT	1.00000E+002	E&stimated Z (ohms)
OCVCURVE	TABLE	39
	Pt	T	Vf	Vm	Ach	Over
	#	s	V vs. Ref.	V	V	bits
	0	0.258332	-5.27043E-001	5.77984E-006	-1.84600E-004	......
	1	0.516663	-5.27593E-001	5.77984E-006	-8.46000E-005	......
	2	0.774994	-5.28094E-001	5.77984E-006	-8.46000E-005	......
	3	1.03333	-5.28343E-001	5.77984E-006	-8.46000E-005	......
	4	1.29166	-5.30643E-001	5.77984E-006	-1.84600E-004	......
	5	1.54999	-5.30793E-001	5.77984E-006	-8.46000E-005	......
	6	1.80832	-5.29844E-001	5.77984E-006	-1.84600E-004	......
	7	2.06665	-5.29893E-001	5.77984E-006	1.54000E-005	......
	8	2.32498	-5.29743E-001	5.77984E-006	-8.46000E-005	......
	9	2.58332	-5.29993E-001	5.77984E-006	-8.46000E-005	......
	10	2.84165	-5.30194E-001	5.77984E-006	-8.46000E-005	......
	11	3.09998	-5.29993E-001	5.77984E-006	-8.46000E-005	......
	12	3.35831	-5.30143E-001	5.77984E-006	-1.84600E-004	......
	13	3.61664	-5.30293E-001	5.77984E-006	-1.84600E-004	......
	14	3.87497	-5.30293E-001	5.77984E-006	-1.84600E-004	......
	15	4.1333	-5.30894E-001	5.77984E-006	-8.46000E-005	......
	16	4.39164	-5.30793E-001	5.77984E-006	-1.84600E-004	......
	17	4.64997	-5.31443E-001	5.77984E-006	1.54000E-005	......
	18	4.9083	-5.31944E-001	5.77984E-006	-8.46000E-005	......
	19	5.16663	-5.31443E-001	5.77984E-006	-8.46000E-005	......
	20	5.42496	-5.31293E-001	5.77984E-006	-8.46000E-005	......
	21	5.68329	-5.31393E-001	5.77984E-006	-8.46000E-005	......
	22	5.94162	-5.31993E-001	5.77984E-006	-8.46000E-005	......
	23	6.19996	-5.29043E-001	5.77984E-006	1.54000E-005	......
	24	6.45829	-5.30544E-001	5.77984E-006	-1.84600E-004	......
	25	6.71662	-5.30544E-001	5.77984E-006	-1.84600E-004	......
	26	6.97495	-5.30993E-001	5.77984E-006	-1.84600E-004	......
	27	7.23328	-5.29243E-001	5.77984E-006	-1.84600E-004	......
	28	7.49161	-5.27043E-001	5.77984E-006	-8.46000E-005	......
	29	7.74995	-5.27193E-001	5.77984E-006	-8.46000E-005	......
	30	8.00828	-5.28044E-001	5.77984E-006	-1.84600E-004	......
	31	8.26661	-5.29844E-001	5.77984E-006	-1.84600E-004	......
	32	8.52494	-5.30143E-001	5.77984E-006	-1.84600E-004	......
	33	8.78327	-5.30393E-001	5.77984E-006	-1.84600E-004	......
	34	9.0416	-5.31793E-001	5.77984E-006	-1.84600E-004	......
	35	9.29993	-5.31343E-001	5.77984E-006	-1.84600E-004	......
	36	9.5583	-5.31043E-001	5.77984E-006	-8.46000E-005	......
	37	9.8166	-5.28044E-001	5.77984E-006	-8.46000E-005	......
	38	10.0749	-5.14344E-001	5.77984E-006	-1.84600E-004	......
EOC	QUANT	-0.514344	Open Circuit (V)
PSTATMODEL	IQUANT	32	Pstat Model
PSTATSECTION	LABEL	PStat0	Pstat Section
CTRLMODE	IQUANT	1	Control Mode
IESTAB	IQUANT	0	I/E Stability
CASPEED	IQUANT	1	Control Amp Speed
CONVENTION	IQUANT	1	Current Convention
ICHRANGE	IQUANT	2	Ich Range
ICHRANGEMODE	TOGGLE	F	Ich Auto Range
ICHOFFSETENABLE	TOGGLE	T	Ich Offset Enable
ICHOFFSET	QUANT	0	Ich Offset (V)
ICHFILTER	IQUANT	3	Ich Filter
VCHRANGE	IQUANT	2	Vch Range
VCHRANGEMODE	TOGGLE	F	Vch Auto Range
VCHOFFSETENABLE	TOGGLE	T	Vch Offset Enable
VCHOFFSET	QUANT	0	Vch Offset (V)
VCHFILTER	IQUANT	3	Vch Filter
ACHRANGE	IQUANT	0	Ach Range
IERANGELOWERLIMIT	IQUANT	3	I/E Range Lower Limit
IERANGEMODE	TOGGLE	F	I/E AutoRange
IERANGE	IQUANT	11	I/E Range
POSFEEDENABLE	TOGGLE	F	Positive Feedback IR Comp
POSFEEDRESISTANCE	QUANT	0	Positive Feedback Resistance (ohm)
FC350IDIVISOR	IQUANT	0	FC350 I Divisor
FC350VRANGE	IQUANT	0	FC350 V Range
FRAMEWORKVERSION	QUANT	4.35	Framework Version
ZCURVE	TABLE
	Pt	Time	Freq	Zreal	Zimag	Zsig	Zmod	Zphz	Idc	Vdc	IERange
	#	s	Hz	ohm	ohm	V	ohm	°	A	V	#
	0	6	100007	886.676	-6.48928	1	886.7	-0.419321	3.38895E-006	-0.414002	9
	1	8	89134.1	884.826	-4.83964	1	884.839	-0.313382	3.86398E-006	-0.414015	9
	2	10	79433.6	883.908	-4.76558	1	883.921	-0.308907	4.14972E-006	-0.414042	9
	3	12	70800.8	881.205	-5.70178	1	881.224	-0.370724	4.33252E-006	-0.41401	9
	4	14	63105.5	879.027	-6.02089	1	879.048	-0.392441	4.21196E-006	-0.414017	9
	5	16	56243.5	878.812	-5.29307	1	878.828	-0.345088	4.05396E-006	-0.414022	9
	6	18	50123.7	878.626	-6.14271	1	878.648	-0.400564	3.77926E-006	-0.413996	9
	7	20	44681	878.857	-8.13653	1	878.895	-0.530434	3.80474E-006	-0.414001	9
	8	22	39811.2	878.08	-0.918483	1	878.08	-0.059932	4.13823E-006	-0.414003	9
	9	24	35488.3	878.765	-6.67883	1	878.79	-0.435454	4.1643E-006	-0.414025	9
	10	26	31634.1	876.427	-7.31735	1	876.458	-0.478355	4.01548E-006	-0.413997	9
	11	28	28173.1	877.636	-7.26774	1	877.666	-0.474458	4.10472E-006	-0.414018	9
	12	30	25123.7	878.866	-7.66378	1	878.899	-0.499611	3.88723E-006	-0.41403	9
	13	32	22389.3	877.714	-8.40854	1	877.754	-0.548879	3.81908E-006	-0.414005	9
	14	34	19954.4	877.789	-9.07666	1	877.836	-0.592438	3.94907E-006	-0.414049	9
	15	36	17778.2	878.693	-9.6498	1	878.745	-0.6292	3.83584E-006	-0.414021	9
	16	38	15852.9	878.851	-9.3179	1	878.901	-0.607448	4.02741E-006	-0.41402	9
	17	40	14122.3	879.94	-12.4282	1	880.028	-0.809189	4.59186E-006	-0.41403	9
	18	42	12587.2	879.552	-12.4588	1	879.641	-0.811538	4.76937E-006	-0.414018	9
	19	44	11221.1	879.504	-10.7299	1	879.569	-0.698969	4.98509E-006	-0.414018	9
	20	46	9998.2	882.072	-13.9655	1	882.182	-0.907066	4.22915E-006	-0.414037	9
	21	48	8912.76	881.312	-13.9582	1	881.423	-0.907372	4.36016E-006	-0.414007	9
	22	50	7942.6	881.836	-14.4787	1	881.955	-0.940641	4.80013E-006	-0.414038	9
	23	52	7078.05	881.916	-15.8285	1	882.058	-1.02823	5.08424E-006	-0.414027	9
	24	54	6311.1	881.952	-16.1124	1	882.099	-1.04662	4.64552E-006	-0.414014	9
	25	55	5622.14	881.757	-18.5045	1	881.951	-1.20223	4.6686E-006	-0.414031	9
	26	57	5011.18	881.806	-20.7362	1	882.05	-1.3471	4.49507E-006	-0.414024	9
	27	59	4465.21	883.875	-23.3548	1	884.183	-1.51359	4.42182E-006	-0.41402	9
	28	61	3980.93	885.365	-24.1129	1	885.693	-1.56007	4.48153E-006	-0.414034	9
	29	63	3548.18	882.989	-26.7262	1	883.393	-1.7337	4.38988E-006	-0.414001	9
	30	65	3162.67	885.599	-30.1261	1	886.111	-1.94832	4.61647E-006	-0.414035	9
	31	67	2819.01	886.039	-32.8953	1	886.65	-2.1262	4.55554E-006	-0.41404	9
	32	69	2511.16	886.828	-37.5448	1	887.622	-2.42423	4.48398E-006	-0.414018	9
	33	71	2238.63	885.81	-40.825	1	886.75	-2.63877	4.57948E-006	-0.414022	9
	34	73	1995.37	887.936	-44.02	1	889.027	-2.83815	4.44977E-006	-0.414017	9
	35	75	1778.51	887.416	-48.1028	1	888.718	-3.10271	4.02855E-006	-0.414012	9
	36	77	1584.49	889.379	-53.274	1	890.973	-3.42793	3.91449E-006	-0.414012	9
	37	79	1412.76	889.11	-60.257	1	891.149	-3.87714	3.91313E-006	-0.414014	9
	38	81	1259.04	891.527	-65.5806	1	893.936	-4.20709	4.30236E-006	-0.414021	9
	39	83	1121.63	893.745	-73.1282	1	896.731	-4.67765	4.17438E-006	-0.414029	9
	40	85	999.95	894.152	-81.4546	1	897.854	-5.20511	4.61419E-006	-0.414028	9
	41	87	891.184	894.982	-90.6712	1	899.564	-5.78493	4.55881E-006	-0.414032	9
	42	89	794.163	895.853	-99.135	1	901.322	-6.31467	3.91845E-006	-0.414026	9
	43	91	707.867	899.476	-110.021	1	906.18	-6.97361	4.36779E-006	-0.414012	9
	44	93	630.984	901.149	-122.046	1	909.376	-7.71288	4.4936E-006	-0.414017	9
	45	95	562.189	903.027	-136.263	1	913.25	-8.58094	4.10588E-006	-0.414005	9
	46	97	501.303	905.92	-149.712	1	918.207	-9.38384	4.4587E-006	-0.414037	9
	47	99	446.614	908.496	-165.913	1	923.521	-10.3495	3.60104E-006	-0.414039	9
	48	101	398.209	911.525	-183.822	1	929.875	-11.4016	3.3708E-006	-0.414044	9
	49	103	354.821	914.948	-203.646	1	937.337	-12.5482	3.37049E-006	-0.41404	9
	50	105	316.113	918.504	-225.519	1	945.785	-13.7949	3.25077E-006	-0.414038	9
	51	107	281.926	922.612	-249.708	1	955.81	-15.1444	3.30222E-006	-0.414041	9
	52	109	251.185	926.764	-276.388	1	967.1	-16.6061	3.23641E-006	-0.414036	9
	53	111	223.946	931.805	-306.213	1	980.83	-18.1917	3.29519E-006	-0.414043	9
	54	113	199.495	936.987	-339.104	1	996.46	-19.8956	3.2037E-006	-0.414041	9
	55	115	177.836	942.602	-375.594	1	1014.68	-21.7256	3.24531E-006	-0.414041	9
	56	117	158.533	947.837	-415.963	1	1035.09	-23.6945	2.39317E-006	-0.414047	8
	57	119	141.263	954.7	-461.423	1	1060.36	-25.7953	2.76741E-006	-0.414046	8
	58	121	125.911	962.1	-511.463	1	1089.6	-27.9955	2.82528E-006	-0.414042	8
	59	123	112.198	970.23	-567.464	1	1123.99	-30.3224	3.33466E-006	-0.414043	8
	60	125	100.009	979.49	-629.54	1	1164.35	-32.7298	3.34874E-006	-0.414048	8
	61	127	89.1164	989.33	-699.625	1	1211.71	-35.2668	3.18774E-006	-0.414047	8
	62	129	79.4083	1000.68	-776.985	1	1266.92	-37.8277	3.35706E-006	-0.414038	8
	63	131	70.788	1014.33	-862.501	1	1331.46	-40.3751	3.62418E-006	-0.414044	8
	64	133	63.0971	1029.51	-958.03	1	1406.32	-42.9403	3.60021E-006	-0.414045	8
	65	135	54.5476	1050.21	-1094.52	1	1516.87	-46.1836	3.38586E-006	-0.414042	8
	66	137	50.0083	1063.08	-1184.19	1	1591.37	-48.0849	2.9173E-006	-0.414044	8
	67	139	46.1675	1073.24	-1276.36	1	1667.62	-49.9409	2.97179E-006	-0.414044	8
	68	142	40.0059	1102.75	-1456.32	1	1826.73	-52.8664	2.98724E-006	-0.414043	8
	69	144	35.3046	1137.75	-1637.79	1	1994.2	-55.213	3.49251E-006	-0.414046	8
	70	146	31.5793	1174.18	-1819.57	1	2165.53	-57.1655	3.51355E-006	-0.414054	8
	71	148	28.5748	1204.62	-1991.82	1	2327.76	-58.8351	3.5371E-006	-0.414049	8
	72	150	24.9911	1264.86	-2249.42	1	2580.65	-60.6507	3.26643E-006	-0.414049	8
	73	152	22.2195	1313.94	-2502.48	1	2826.45	-62.298	3.62644E-006	-0.414045	8
	74	155	20.0011	1378.43	-2767.4	1	3091.7	-63.5223	3.52884E-006	-0.414049	8
	75	157	17.6486	1464.34	-3096.55	1	3425.33	-64.6907	3.40107E-006	-0.414044	8
	76	160	15.7934	1548.37	-3418.5	1	3752.81	-65.6323	3.04668E-006	-0.414048	8
	77	162	14.2828	1607.14	-3776.35	1	4104.11	-66.9464	3.11813E-006	-0.414044	8
	78	164	12.5002	1781.58	-4239.81	1	4598.92	-67.2078	2.96349E-006	-0.414037	8
	79	167	11.323	1831.11	-4617.78	1	4967.58	-68.37	2.78398E-006	-0.414046	8
	80	172	9.9987	1989.27	-5293.53	1	5654.97	-69.4042	2.19562E-006	-0.414045	8
