EXPLAIN
TAG	EISPOT
TITLE	LABEL	Tomato_open	Test &Identifier
DATE	LABEL	5/9/2006	Date
TIME	LABEL	18:54:47	Time
NOTES	NOTES	1	&Notes...
	
PSTAT	PSTAT	300	Potentiostat
VDC	POTEN	1.00000E-001	T	DC &Voltage (V)
FREQINIT	QUANT	1.00000E+005	Initial Fre&q. (Hz)
FREQFINAL	QUANT	1.00000E+001	Final Fre&q. (Hz)
PTSPERDEC	QUANT	2.00000E+001	Points/&decade
VAC	QUANT	1.00000E+001	AC &Voltage (mV rms)
AREA	QUANT	1.00000E+000	&Area (cm²)
DENSITY	QUANT	7.87000E+000	&Density (gm/cm³)
EQUIV	QUANT	7.00000E+000	Equiv. &Wt
CONDIT	TWOPARAM	F	1.50000E+001	0.00000E+000	Conditionin&g	Time(s)	E(V)
DELAY	TWOPARAM	F	6.00000E+002	0.00000E+000	Init. De&lay	Time(s)	Stab.(mV/s)
SPEED	SELECTOR	1	&Optimize for:
ZGUESS	QUANT	1.00000E+002	E&stimated Z (ohms)
OCVCURVE	TABLE	39
	Pt	T	Vf	Vm	Ach	Over
	#	s	V vs. Ref.	V	V	bits
	0	0.258332	-5.16493E-001	6.36904E-006	-8.46000E-005	......
	1	0.516663	-5.16993E-001	6.36904E-006	-1.84600E-004	......
	2	0.774994	-5.14593E-001	6.36904E-006	-8.46000E-005	......
	3	1.03333	-5.13593E-001	6.36904E-006	-1.84600E-004	......
	4	1.29166	-5.12644E-001	6.36904E-006	-8.46000E-005	......
	5	1.54999	-5.12594E-001	6.36904E-006	1.54000E-005	......
	6	1.80832	-5.12043E-001	6.36904E-006	-8.46000E-005	......
	7	2.06665	-5.12893E-001	6.36904E-006	-1.84600E-004	......
	8	2.32498	-5.13294E-001	6.36904E-006	-8.46000E-005	......
	9	2.58332	-5.14044E-001	6.36904E-006	-8.46000E-005	......
	10	2.84165	-5.14243E-001	6.36904E-006	-8.46000E-005	......
	11	3.09998	-5.16894E-001	6.36904E-006	-1.84600E-004	......
	12	3.35831	-5.18093E-001	6.36904E-006	-1.84600E-004	......
	13	3.61664	-5.17793E-001	6.36904E-006	-1.84600E-004	......
	14	3.87497	-5.18143E-001	6.36904E-006	-1.84600E-004	......
	15	4.1333	-5.18443E-001	6.36904E-006	1.54000E-005	......
	16	4.39164	-5.18843E-001	6.36904E-006	-2.84600E-004	......
	17	4.64997	-5.19044E-001	6.36904E-006	-1.84600E-004	......
	18	4.9083	-5.20043E-001	6.36904E-006	-8.46000E-005	......
	19	5.16663	-5.20593E-001	6.36904E-006	-8.46000E-005	......
	20	5.42496	-5.18493E-001	6.36904E-006	-8.46000E-005	......
	21	5.68329	-5.17443E-001	6.36904E-006	-1.84600E-004	......
	22	5.94162	-5.16144E-001	6.36904E-006	-8.46000E-005	......
	23	6.19996	-5.16944E-001	6.36904E-006	-1.84600E-004	......
	24	6.45829	-5.17693E-001	6.36904E-006	-1.84600E-004	......
	25	6.71662	-5.15993E-001	6.36904E-006	-1.84600E-004	......
	26	6.97495	-5.15693E-001	6.36904E-006	-2.84600E-004	......
	27	7.23328	-5.16693E-001	6.36904E-006	1.54000E-005	......
	28	7.49161	-5.18143E-001	6.36904E-006	-8.46000E-005	......
	29	7.74995	-5.19593E-001	6.36904E-006	-8.46000E-005	......
	30	8.00828	-5.19793E-001	6.36904E-006	-1.84600E-004	......
	31	8.26661	-5.19943E-001	6.36904E-006	-8.46000E-005	......
	32	8.52494	-5.20393E-001	6.36904E-006	-1.84600E-004	......
	33	8.78327	-5.20993E-001	6.36904E-006	-1.84600E-004	......
	34	9.0416	-5.20843E-001	6.36904E-006	-1.84600E-004	......
	35	9.29993	-5.20594E-001	6.36904E-006	-2.84600E-004	......
	36	9.5583	-5.21143E-001	6.36904E-006	-1.84600E-004	......
	37	9.8166	-5.21944E-001	6.36904E-006	-1.84600E-004	......
	38	10.0749	-5.22344E-001	6.36904E-006	-1.84600E-004	......
EOC	QUANT	-0.522344	Open Circuit (V)
PSTATMODEL	IQUANT	32	Pstat Model
PSTATSECTION	LABEL	PStat0	Pstat Section
CTRLMODE	IQUANT	1	Control Mode
IESTAB	IQUANT	0	I/E Stability
CASPEED	IQUANT	1	Control Amp Speed
CONVENTION	IQUANT	1	Current Convention
ICHRANGE	IQUANT	2	Ich Range
ICHRANGEMODE	TOGGLE	F	Ich Auto Range
ICHOFFSETENABLE	TOGGLE	T	Ich Offset Enable
ICHOFFSET	QUANT	0	Ich Offset (V)
ICHFILTER	IQUANT	3	Ich Filter
VCHRANGE	IQUANT	2	Vch Range
VCHRANGEMODE	TOGGLE	F	Vch Auto Range
VCHOFFSETENABLE	TOGGLE	T	Vch Offset Enable
VCHOFFSET	QUANT	0	Vch Offset (V)
VCHFILTER	IQUANT	3	Vch Filter
ACHRANGE	IQUANT	0	Ach Range
IERANGELOWERLIMIT	IQUANT	3	I/E Range Lower Limit
IERANGEMODE	TOGGLE	F	I/E AutoRange
IERANGE	IQUANT	11	I/E Range
POSFEEDENABLE	TOGGLE	F	Positive Feedback IR Comp
POSFEEDRESISTANCE	QUANT	0	Positive Feedback Resistance (ohm)
FC350IDIVISOR	IQUANT	0	FC350 I Divisor
FC350VRANGE	IQUANT	0	FC350 V Range
FRAMEWORKVERSION	QUANT	4.35	Framework Version
ZCURVE	TABLE
	Pt	Time	Freq	Zreal	Zimag	Zsig	Zmod	Zphz	Idc	Vdc	IERange
	#	s	Hz	ohm	ohm	V	ohm	°	A	V	#
	0	6	100007	892.593	-5.02185	1	892.607	-0.322351	4.88334E-006	-0.422027	9
	1	8	89134.1	889.293	-5.36906	1	889.309	-0.345916	4.64764E-006	-0.422041	9
	2	10	79433.6	886.88	-6.43697	1	886.903	-0.415845	4.51685E-006	-0.422011	9
	3	12	70800.8	884.557	-6.57053	1	884.581	-0.425588	4.7255E-006	-0.422036	9
	4	14	63105.5	882.572	-6.30056	1	882.595	-0.40902	4.62975E-006	-0.422025	9
	5	16	56243.5	885.367	-5.67842	1	885.385	-0.367469	4.77468E-006	-0.422008	9
	6	18	50123.7	882.421	-6.31994	1	882.444	-0.410348	4.94335E-006	-0.422043	9
	7	20	44681	881.117	-5.78695	1	881.136	-0.376298	5.0295E-006	-0.422044	9
	8	22	39811.2	884.208	-5.93142	1	884.227	-0.384345	4.37423E-006	-0.422039	9
	9	23	35488.3	879.111	-6.24464	1	879.134	-0.406985	4.46667E-006	-0.422037	9
	10	25	31634.1	881.799	-6.53069	1	881.823	-0.42433	4.23297E-006	-0.422019	9
	11	27	28173.1	879.895	-5.62432	1	879.913	-0.366232	4.30148E-006	-0.422042	9
	12	29	25123.7	879.598	-8.06899	1	879.635	-0.525588	4.60514E-006	-0.422058	9
	13	31	22389.3	880.349	-10.1704	1	880.407	-0.661889	4.25885E-006	-0.422011	9
	14	33	19954.4	881.231	-10.5904	1	881.295	-0.688534	4.48226E-006	-0.422019	9
	15	35	17778.2	880.977	-10.7902	1	881.043	-0.701725	4.61149E-006	-0.422034	9
	16	37	15852.9	881.18	-9.6995	1	881.234	-0.630654	4.32081E-006	-0.422066	9
	17	39	14122.3	882.067	-11.1731	1	882.137	-0.725723	4.38365E-006	-0.422046	9
	18	41	12587.2	883.084	-11.7399	1	883.162	-0.761659	4.64101E-006	-0.422039	9
	19	43	11221.1	883.517	-13.0111	1	883.612	-0.843704	4.49935E-006	-0.422051	9
	20	45	9998.2	882.634	-12.7799	1	882.727	-0.829544	4.26892E-006	-0.422053	9
	21	47	8912.76	884.259	-14.9405	1	884.385	-0.96798	4.08443E-006	-0.422015	9
	22	49	7942.6	884.416	-14.7775	1	884.54	-0.95725	4.31385E-006	-0.422048	9
	23	51	7078.05	886.179	-15.812	1	886.32	-1.02221	4.38559E-006	-0.422041	9
	24	53	6311.1	885.565	-16.6513	1	885.722	-1.07721	4.20199E-006	-0.422046	9
	25	55	5622.14	886.653	-18.1836	1	886.84	-1.17486	4.25263E-006	-0.422045	9
	26	57	5011.18	884.801	-20.2053	1	885.032	-1.30818	4.30028E-006	-0.422048	9
	27	59	4465.21	886.05	-22.2125	1	886.328	-1.43606	4.19066E-006	-0.422047	9
	28	61	3980.93	886.31	-24.3648	1	886.645	-1.57467	4.39868E-006	-0.422029	9
	29	63	3548.18	886.499	-27.2039	1	886.916	-1.75768	4.40693E-006	-0.42203	9
	30	65	3162.67	887.594	-29.9787	1	888.1	-1.93445	4.218E-006	-0.422045	9
	31	67	2819.01	887.466	-32.5592	1	888.063	-2.10112	4.10232E-006	-0.422021	9
	32	69	2511.16	888.144	-36.6979	1	888.902	-2.3661	4.12983E-006	-0.422045	9
	33	70	2238.63	888.637	-40.398	1	889.555	-2.60291	4.08387E-006	-0.422044	9
	34	72	1995.37	890.266	-42.5607	1	891.283	-2.73704	4.0569E-006	-0.422062	9
	35	74	1778.51	890.533	-48.2851	1	891.841	-3.10356	3.62467E-006	-0.422063	9
	36	76	1584.49	891.777	-54.1863	1	893.422	-3.47714	3.86074E-006	-0.422058	9
	37	78	1412.76	892.91	-57.8452	1	894.782	-3.7066	4.13549E-006	-0.422041	9
	38	80	1259.04	893.786	-66.0451	1	896.223	-4.22611	4.50839E-006	-0.422052	9
	39	82	1121.63	894.954	-75.54	1	898.137	-4.8247	4.50644E-006	-0.42204	9
	40	84	999.95	890.56	-76.1539	1	893.81	-4.88761	4.61789E-006	-0.422041	9
	41	86	891.184	896.517	-89.0462	1	900.928	-5.67228	3.9184E-006	-0.422045	9
	42	88	794.163	899.858	-97.98	1	905.176	-6.21413	4.29416E-006	-0.422038	9
	43	90	707.867	899.987	-109.512	1	906.625	-6.93774	3.98736E-006	-0.422038	9
	44	92	630.984	901.49	-120.481	1	909.505	-7.61226	3.94262E-006	-0.422045	9
	45	94	562.189	904.568	-133.434	1	914.357	-8.39126	3.69742E-006	-0.422067	9
	46	96	501.303	907.664	-147.868	1	919.63	-9.25278	3.67955E-006	-0.42206	9
	47	98	446.614	910.459	-163.947	1	925.102	-10.2079	4.06168E-006	-0.422061	9
	48	100	398.209	913.43	-181.543	1	931.296	-11.241	3.98101E-006	-0.422064	9
	49	102	354.821	916.773	-201.158	1	938.583	-12.3757	4.05397E-006	-0.422064	9
	50	104	316.113	920.493	-222.816	1	947.077	-13.6074	4.10444E-006	-0.422059	9
	51	106	281.926	924.433	-246.63	1	956.77	-14.9381	3.99984E-006	-0.422057	9
	52	108	251.185	928.763	-273.014	1	968.06	-16.381	3.76931E-006	-0.422055	9
	53	110	223.946	933.497	-302.394	1	981.25	-17.9491	3.89956E-006	-0.422056	9
	54	112	199.495	938.812	-335.147	1	996.84	-19.6461	3.92434E-006	-0.422051	9
	55	114	177.836	944.273	-371.29	1	1014.65	-21.4648	3.93941E-006	-0.42205	9
	56	116	158.533	949.675	-410.962	1	1034.78	-23.4	2.99182E-006	-0.422056	8
	57	118	141.263	956.42	-455.724	1	1059.44	-25.4773	2.93736E-006	-0.422059	8
	58	120	125.911	963.87	-505.394	1	1088.34	-27.6697	2.88261E-006	-0.422057	8
	59	122	112.198	972.12	-560.607	1	1122.19	-29.9713	2.81033E-006	-0.422062	8
	60	124	100.009	980.74	-621.998	1	1161.35	-32.3834	2.62993E-006	-0.422062	8
	61	126	89.1164	991.01	-690.967	1	1208.12	-34.8854	2.9254E-006	-0.422057	8
	62	128	79.4083	1002.14	-767.617	1	1262.35	-37.4512	2.77907E-006	-0.422053	8
	63	130	70.788	1015.09	-852.437	1	1325.54	-40.0222	2.8773E-006	-0.42205	8
	64	132	63.0971	1029.39	-947.261	1	1398.91	-42.6208	3.09269E-006	-0.422046	8
	65	134	54.5476	1050.68	-1082.61	1	1508.63	-45.8576	2.9413E-006	-0.422051	8
	66	136	50.0083	1065.23	-1172.71	1	1584.29	-47.7497	2.99782E-006	-0.422052	8
	67	138	46.1675	1080.52	-1262.77	1	1661.96	-49.4471	3.26013E-006	-0.422049	8
	68	141	40.0059	1113.16	-1440.12	1	1820.19	-52.2973	3.386E-006	-0.422045	8
	69	143	35.3046	1148.74	-1610.76	1	1978.42	-54.5046	2.95981E-006	-0.422042	8
	70	145	31.5793	1175.9	-1788.6	1	2140.52	-56.6775	3.01802E-006	-0.422042	8
	71	147	28.5748	1204.44	-1964.22	1	2304.09	-58.4837	2.49715E-006	-0.422042	8
	72	149	24.9911	1247.56	-2224.73	1	2550.66	-60.7178	2.36894E-006	-0.422036	8
	73	151	22.2195	1304.51	-2481.06	1	2803.11	-62.2652	2.488E-006	-0.422034	8
	74	154	20.0011	1347.07	-2724.1	1	3038.96	-63.6876	2.33154E-006	-0.422036	8
	75	156	17.6486	1419.82	-3062.42	1	3375.55	-65.1263	2.45968E-006	-0.422038	8
	76	158	15.7934	1509.57	-3401.98	1	3721.86	-66.0716	2.60684E-006	-0.422043	8
	77	161	14.2828	1621.22	-3723.75	1	4061.36	-66.473	2.8406E-006	-0.422034	8
	78	163	12.5002	1773.12	-4204.36	1	4562.96	-67.1332	2.83822E-006	-0.422039	8
	79	165	11.323	1914.19	-4592.82	1	4975.75	-67.3746	2.96349E-006	-0.422041	8
	80	168	9.9987	2071.49	-5141.27	1	5542.9	-68.0548	2.63953E-006	-0.422043	8
