EXPLAIN
TAG	EISPOT
TITLE	LABEL	Tomato_open	Test &Identifier
DATE	LABEL	5/9/2006	Date
TIME	LABEL	18:59:50	Time
NOTES	NOTES	1	&Notes...
	
PSTAT	PSTAT	300	Potentiostat
VDC	POTEN	1.00000E-001	T	DC &Voltage (V)
FREQINIT	QUANT	1.00000E+005	Initial Fre&q. (Hz)
FREQFINAL	QUANT	1.00000E+001	Final Fre&q. (Hz)
PTSPERDEC	QUANT	2.00000E+001	Points/&decade
VAC	QUANT	1.00000E+001	AC &Voltage (mV rms)
AREA	QUANT	1.00000E+000	&Area (cm²)
DENSITY	QUANT	7.87000E+000	&Density (gm/cm³)
EQUIV	QUANT	7.00000E+000	Equiv. &Wt
CONDIT	TWOPARAM	F	1.50000E+001	0.00000E+000	Conditionin&g	Time(s)	E(V)
DELAY	TWOPARAM	F	6.00000E+002	0.00000E+000	Init. De&lay	Time(s)	Stab.(mV/s)
SPEED	SELECTOR	1	&Optimize for:
ZGUESS	QUANT	1.00000E+002	E&stimated Z (ohms)
OCVCURVE	TABLE	39
	Pt	T	Vf	Vm	Ach	Over
	#	s	V vs. Ref.	V	V	bits
	0	0.258332	-4.99444E-001	5.21207E-006	-8.46000E-005	......
	1	0.516663	-4.97443E-001	5.21207E-006	-1.84600E-004	......
	2	0.774994	-4.96143E-001	5.21207E-006	-8.46000E-005	......
	3	1.03333	-4.95993E-001	5.21207E-006	1.54000E-005	......
	4	1.29166	-4.95293E-001	5.21207E-006	-1.84600E-004	......
	5	1.54999	-4.94043E-001	5.21207E-006	-8.46000E-005	......
	6	1.80832	-4.93243E-001	5.21207E-006	-1.84600E-004	......
	7	2.06665	-4.92343E-001	5.21207E-006	-8.46000E-005	......
	8	2.32498	-4.95293E-001	5.21207E-006	-1.84600E-004	......
	9	2.58332	-4.95243E-001	5.21207E-006	-8.46000E-005	......
	10	2.84165	-4.94343E-001	5.21207E-006	-8.46000E-005	......
	11	3.09998	-4.95743E-001	5.21207E-006	-8.46000E-005	......
	12	3.35831	-4.97093E-001	5.21207E-006	1.54000E-005	......
	13	3.61664	-4.96393E-001	5.21207E-006	-1.84600E-004	......
	14	3.87497	-4.95643E-001	5.21207E-006	-8.46000E-005	......
	15	4.1333	-4.90793E-001	5.21207E-006	-8.46000E-005	......
	16	4.39164	-4.89293E-001	5.21207E-006	-1.84600E-004	......
	17	4.64997	-4.86293E-001	5.21207E-006	-2.84600E-004	......
	18	4.9083	-4.88293E-001	5.21207E-006	-1.84600E-004	......
	19	5.16663	-4.92843E-001	5.21207E-006	-8.46000E-005	......
	20	5.42496	-4.88743E-001	5.21207E-006	-8.46000E-005	......
	21	5.68329	-4.87843E-001	5.21207E-006	-1.84600E-004	......
	22	5.94162	-4.91093E-001	5.21207E-006	-1.84600E-004	......
	23	6.19996	-4.91343E-001	5.21207E-006	-1.84600E-004	......
	24	6.45829	-4.87293E-001	5.21207E-006	-1.84600E-004	......
	25	6.71662	-4.85543E-001	5.21207E-006	-1.84600E-004	......
	26	6.97495	-4.91544E-001	5.21207E-006	1.54000E-005	......
	27	7.23328	-4.92893E-001	5.21207E-006	-8.46000E-005	......
	28	7.49161	-4.90993E-001	5.21207E-006	-1.84600E-004	......
	29	7.74995	-4.87643E-001	5.21207E-006	-8.46000E-005	......
	30	8.00828	-4.92794E-001	5.21207E-006	-1.84600E-004	......
	31	8.26661	-4.91093E-001	5.21207E-006	-1.84600E-004	......
	32	8.52494	-4.89643E-001	5.21207E-006	1.54000E-005	......
	33	8.78327	-4.86743E-001	5.21207E-006	-1.84600E-004	......
	34	9.0416	-4.90793E-001	5.21207E-006	-1.84600E-004	......
	35	9.29993	-4.89543E-001	5.21207E-006	-1.84600E-004	......
	36	9.5583	-4.88193E-001	5.21207E-006	-8.46000E-005	......
	37	9.8166	-4.93243E-001	5.21207E-006	-8.46000E-005	......
	38	10.0749	-4.92493E-001	5.21207E-006	-1.84600E-004	......
EOC	QUANT	-0.492493	Open Circuit (V)
PSTATMODEL	IQUANT	32	Pstat Model
PSTATSECTION	LABEL	PStat0	Pstat Section
CTRLMODE	IQUANT	1	Control Mode
IESTAB	IQUANT	0	I/E Stability
CASPEED	IQUANT	1	Control Amp Speed
CONVENTION	IQUANT	1	Current Convention
ICHRANGE	IQUANT	2	Ich Range
ICHRANGEMODE	TOGGLE	F	Ich Auto Range
ICHOFFSETENABLE	TOGGLE	T	Ich Offset Enable
ICHOFFSET	QUANT	0	Ich Offset (V)
ICHFILTER	IQUANT	3	Ich Filter
VCHRANGE	IQUANT	2	Vch Range
VCHRANGEMODE	TOGGLE	F	Vch Auto Range
VCHOFFSETENABLE	TOGGLE	T	Vch Offset Enable
VCHOFFSET	QUANT	0	Vch Offset (V)
VCHFILTER	IQUANT	3	Vch Filter
ACHRANGE	IQUANT	0	Ach Range
IERANGELOWERLIMIT	IQUANT	3	I/E Range Lower Limit
IERANGEMODE	TOGGLE	F	I/E AutoRange
IERANGE	IQUANT	11	I/E Range
POSFEEDENABLE	TOGGLE	F	Positive Feedback IR Comp
POSFEEDRESISTANCE	QUANT	0	Positive Feedback Resistance (ohm)
FC350IDIVISOR	IQUANT	0	FC350 I Divisor
FC350VRANGE	IQUANT	0	FC350 V Range
FRAMEWORKVERSION	QUANT	4.35	Framework Version
ZCURVE	TABLE
	Pt	Time	Freq	Zreal	Zimag	Zsig	Zmod	Zphz	Idc	Vdc	IERange
	#	s	Hz	ohm	ohm	V	ohm	°	A	V	#
	0	6	100007	891.331	-5.96578	1	891.351	-0.383481	4.79121E-006	-0.392357	9
	1	8	89134.1	886.187	-6.03508	1	886.207	-0.390188	5.04405E-006	-0.392327	9
	2	10	79433.6	884.609	-7.54053	1	884.641	-0.488386	5.14365E-006	-0.392331	9
	3	12	70800.8	883.243	-5.71466	1	883.262	-0.370704	5.03729E-006	-0.392312	9
	4	14	63105.5	881.268	-4.35148	1	881.279	-0.282909	5.37738E-006	-0.39238	9
	5	16	56243.5	882.075	-6.2004	1	882.097	-0.402745	4.90795E-006	-0.392323	9
	6	18	50123.7	879.487	-4.93294	1	879.501	-0.321362	5.30754E-006	-0.39236	9
	7	20	44681	878.313	-6.39897	1	878.337	-0.417422	5.34879E-006	-0.392349	9
	8	22	39811.2	883.419	-5.28522	1	883.435	-0.342779	5.41393E-006	-0.39238	9
	9	24	35488.3	877.5	-7.08461	1	877.528	-0.462575	4.94897E-006	-0.392319	9
	10	26	31634.1	879.105	-7.41084	1	879.136	-0.482991	5.61903E-006	-0.392344	9
	11	28	28173.1	876.925	-6.95455	1	876.953	-0.454381	5.53215E-006	-0.392349	9
	12	30	25123.7	879.01	-8.54836	1	879.052	-0.557183	5.49446E-006	-0.39236	9
	13	32	22389.3	879.116	-9.01099	1	879.162	-0.587265	5.65485E-006	-0.392344	9
	14	34	19954.4	880.346	-9.9842	1	880.402	-0.649779	5.48364E-006	-0.39234	9
	15	36	17778.2	878.856	-9.5985	1	878.909	-0.625734	5.06658E-006	-0.392355	9
	16	38	15852.9	882.115	-10.5788	1	882.179	-0.687091	5.36177E-006	-0.392368	9
	17	40	14122.3	879.406	-10.4739	1	879.469	-0.68237	5.35912E-006	-0.392353	9
	18	42	12587.2	881.396	-11.8849	1	881.476	-0.772539	5.29308E-006	-0.392346	9
	19	44	11221.1	882.841	-11.9266	1	882.922	-0.773982	5.33294E-006	-0.392341	9
	20	45	9998.2	883.205	-14.4522	1	883.323	-0.937469	5.18206E-006	-0.392343	9
	21	47	8912.76	883.79	-13.3503	1	883.891	-0.865432	5.1238E-006	-0.392325	9
	22	49	7942.6	882.887	-14.3425	1	883.003	-0.930686	5.47598E-006	-0.392356	9
	23	51	7078.05	882.701	-16.4403	1	882.854	-1.06701	5.50343E-006	-0.392339	9
	24	53	6311.1	882.854	-17.8284	1	883.034	-1.15688	5.1369E-006	-0.392347	9
	25	55	5622.14	883.563	-18.2243	1	883.751	-1.18161	5.35625E-006	-0.392341	9
	26	57	5011.18	883.89	-19.2709	1	884.1	-1.24899	5.41536E-006	-0.392334	9
	27	59	4465.21	883.357	-23.4243	1	883.667	-1.51898	5.30956E-006	-0.392359	9
	28	61	3980.93	884.666	-25.4648	1	885.033	-1.64878	4.75444E-006	-0.392356	9
	29	63	3548.18	884.754	-26.5987	1	885.154	-1.72199	4.67132E-006	-0.392378	9
	30	65	3162.67	886.469	-29.0743	1	886.946	-1.87851	4.69622E-006	-0.392352	9
	31	67	2819.01	886.603	-33.1542	1	887.222	-2.14156	4.58162E-006	-0.39231	9
	32	69	2511.16	887.886	-36.3868	1	888.632	-2.34675	4.69164E-006	-0.392349	9
	33	71	2238.63	885.99	-40.7031	1	886.924	-2.63037	4.8918E-006	-0.392336	9
	34	73	1995.37	887.904	-43.2448	1	888.957	-2.78835	4.83736E-006	-0.392356	9
	35	75	1778.51	887.558	-49.4467	1	888.934	-3.18871	5.06438E-006	-0.392347	9
	36	77	1584.49	889.452	-54.9532	1	891.148	-3.53542	5.27842E-006	-0.392344	9
	37	79	1412.76	889.814	-59.2309	1	891.784	-3.8083	5.17343E-006	-0.39233	9
	38	81	1259.04	891.259	-66.7253	1	893.753	-4.28154	5.43746E-006	-0.392338	9
	39	83	1121.63	892.363	-72.6997	1	895.32	-4.65753	5.06973E-006	-0.392351	9
	40	85	999.95	893.729	-80.6294	1	897.358	-5.15509	4.96049E-006	-0.392346	9
	41	87	891.184	894.709	-90.2261	1	899.247	-5.75847	5.23433E-006	-0.39234	9
	42	89	794.163	897.661	-98.535	1	903.053	-6.26421	5.64831E-006	-0.392346	9
	43	91	707.867	899.54	-110.526	1	906.304	-7.00478	5.53205E-006	-0.392318	9
	44	93	630.984	900.379	-121.015	1	908.475	-7.65491	5.44605E-006	-0.392345	9
	45	95	562.189	905.432	-134.628	1	915.386	-8.45733	5.43615E-006	-0.392321	9
	46	97	501.303	906.572	-148.666	1	918.681	-9.31287	5.42686E-006	-0.392346	9
	47	99	446.614	909.278	-164.827	1	924.096	-10.2746	5.20113E-006	-0.392359	9
	48	101	398.209	912.241	-182.508	1	930.318	-11.3135	5.29653E-006	-0.392348	9
	49	103	354.821	915.565	-202.177	1	937.621	-12.4523	5.10472E-006	-0.392351	9
	50	105	316.113	919.309	-223.897	1	946.181	-13.6879	5.0683E-006	-0.392349	9
	51	107	281.926	923.133	-247.912	1	955.84	-15.0324	4.9411E-006	-0.392348	9
	52	109	251.185	927.724	-274.519	1	967.49	-16.4838	5.19804E-006	-0.392347	9
	53	111	223.946	932.457	-303.889	1	980.73	-18.0509	4.98939E-006	-0.392338	9
	54	113	199.495	937.718	-336.815	1	996.37	-19.7576	4.99497E-006	-0.39234	9
	55	115	177.836	943.385	-373.089	1	1014.48	-21.5778	4.75816E-006	-0.392348	9
	56	117	158.533	948.783	-413.076	1	1034.8	-23.5271	3.94139E-006	-0.392348	8
	57	119	141.263	955.7	-458.131	1	1059.84	-25.6114	4.01395E-006	-0.392352	8
	58	121	125.911	963.23	-507.95	1	1088.95	-27.8046	3.98211E-006	-0.392357	8
	59	123	112.198	971.54	-563.55	1	1123.15	-30.1163	4.00815E-006	-0.392356	8
	60	125	100.009	980.57	-625.291	1	1162.97	-32.525	3.74348E-006	-0.392358	8
	61	127	89.1164	990.77	-694.148	1	1209.74	-35.0155	3.76745E-006	-0.392352	8
	62	129	79.4083	1001.68	-770.902	1	1263.99	-37.5821	3.84492E-006	-0.392351	8
	63	131	70.788	1014.65	-855.905	1	1327.44	-40.1491	3.71644E-006	-0.392354	8
	64	133	63.0971	1028.25	-951.06	1	1400.65	-42.7667	3.49632E-006	-0.392352	8
	65	135	54.5476	1048.38	-1086.45	1	1509.8	-46.0215	3.27705E-006	-0.392344	8
	66	137	50.0083	1063.42	-1177.43	1	1586.58	-47.9126	3.48473E-006	-0.39235	8
	67	139	46.1675	1076.92	-1267.53	1	1663.25	-49.6479	3.40705E-006	-0.392344	8
	68	141	40.0059	1105.14	-1446.99	1	1820.74	-52.6293	3.41257E-006	-0.392346	8
	69	143	35.3046	1136.83	-1623.12	1	1981.64	-54.9925	3.46666E-006	-0.392348	8
	70	146	31.5793	1167.29	-1797.7	1	2143.44	-57.0033	3.55453E-006	-0.392345	8
	71	148	28.5748	1199.69	-1975.19	1	2310.98	-58.7264	3.61315E-006	-0.39235	8
	72	150	24.9911	1253.98	-2230.56	1	2558.88	-60.656	3.53739E-006	-0.392351	8
	73	152	22.2195	1308.76	-2489.97	1	2812.97	-62.2729	3.56777E-006	-0.39235	8
	74	154	20.0011	1369.65	-2747	1	3069.52	-63.4992	3.55716E-006	-0.392351	8
	75	157	17.6486	1446.42	-3084.4	1	3406.71	-64.8758	3.57823E-006	-0.392353	8
	76	159	15.7934	1537.59	-3412.34	1	3742.76	-65.7439	3.61445E-006	-0.392353	8
	77	161	14.2828	1606.3	-3719.9	1	4051.89	-66.6447	3.31422E-006	-0.392354	8
	78	163	12.5002	1757.04	-4211.16	1	4563.01	-67.3524	3.3776E-006	-0.392358	8
	79	166	11.323	1940.45	-4613.64	1	5005.1	-67.1889	4.00979E-006	-0.392356	8
	80	169	9.9987	2118.67	-5139.39	1	5558.97	-67.5965	3.92552E-006	-0.39235	8
