EXPLAIN
TAG	EISPOT
TITLE	LABEL	Tomato_open	Test &Identifier
DATE	LABEL	5/9/2006	Date
TIME	LABEL	18:49:42	Time
NOTES	NOTES	1	&Notes...
	
PSTAT	PSTAT	300	Potentiostat
VDC	POTEN	1.00000E-001	T	DC &Voltage (V)
FREQINIT	QUANT	1.00000E+005	Initial Fre&q. (Hz)
FREQFINAL	QUANT	1.00000E+001	Final Fre&q. (Hz)
PTSPERDEC	QUANT	2.00000E+001	Points/&decade
VAC	QUANT	1.00000E+001	AC &Voltage (mV rms)
AREA	QUANT	1.00000E+000	&Area (cm²)
DENSITY	QUANT	7.87000E+000	&Density (gm/cm³)
EQUIV	QUANT	7.00000E+000	Equiv. &Wt
CONDIT	TWOPARAM	F	1.50000E+001	0.00000E+000	Conditionin&g	Time(s)	E(V)
DELAY	TWOPARAM	F	6.00000E+002	0.00000E+000	Init. De&lay	Time(s)	Stab.(mV/s)
SPEED	SELECTOR	1	&Optimize for:
ZGUESS	QUANT	1.00000E+002	E&stimated Z (ohms)
OCVCURVE	TABLE	39
	Pt	T	Vf	Vm	Ach	Over
	#	s	V vs. Ref.	V	V	bits
	0	0.258332	-4.88543E-001	5.04407E-006	2.15400E-004	......
	1	0.516663	-4.89243E-001	5.04407E-006	1.54000E-005	......
	2	0.774994	-4.88893E-001	5.04407E-006	2.15400E-004	......
	3	1.03333	-4.89443E-001	5.04407E-006	1.54000E-005	......
	4	1.29166	-4.89693E-001	5.04407E-006	2.15400E-004	......
	5	1.54999	-4.89443E-001	5.04407E-006	2.15400E-004	......
	6	1.80832	-4.90193E-001	5.04407E-006	3.15400E-004	......
	7	2.06665	-4.90443E-001	5.04407E-006	1.15400E-004	......
	8	2.32498	-4.89943E-001	5.04407E-006	3.15400E-004	......
	9	2.58332	-4.90593E-001	5.04407E-006	1.54000E-005	......
	10	2.84165	-4.90143E-001	5.04407E-006	3.15400E-004	......
	11	3.09998	-4.90693E-001	5.04407E-006	1.54000E-005	......
	12	3.35831	-4.90593E-001	5.04407E-006	2.15400E-004	......
	13	3.61664	-4.90543E-001	5.04407E-006	1.54000E-005	......
	14	3.87497	-4.91194E-001	5.04407E-006	2.15400E-004	......
	15	4.1333	-4.90743E-001	5.04407E-006	1.54000E-005	......
	16	4.39164	-4.91093E-001	5.04407E-006	3.15400E-004	......
	17	4.64997	-4.91093E-001	5.04407E-006	1.54000E-005	......
	18	4.9083	-4.90793E-001	5.04407E-006	3.15400E-004	......
	19	5.16663	-4.91293E-001	5.04407E-006	1.54000E-005	......
	20	5.42496	-4.91544E-001	5.04407E-006	2.15400E-004	......
	21	5.68329	-4.92243E-001	5.04407E-006	1.54000E-005	......
	22	5.94162	-4.92143E-001	5.04407E-006	2.15400E-004	......
	23	6.19996	-4.92043E-001	5.04407E-006	2.15400E-004	......
	24	6.45829	-4.92193E-001	5.04407E-006	3.15400E-004	......
	25	6.71662	-4.91993E-001	5.04407E-006	1.15400E-004	......
	26	6.97495	-4.92743E-001	5.04407E-006	3.15400E-004	......
	27	7.23328	-4.92693E-001	5.04407E-006	1.54000E-005	......
	28	7.49161	-4.93243E-001	5.04407E-006	3.15400E-004	......
	29	7.74995	-4.93393E-001	5.04407E-006	2.15400E-004	......
	30	8.00828	-4.93443E-001	5.04407E-006	2.15400E-004	......
	31	8.26661	-4.93543E-001	5.04407E-006	1.54000E-005	......
	32	8.52494	-4.92843E-001	5.04407E-006	4.15400E-004	......
	33	8.78327	-4.93293E-001	5.04407E-006	1.54000E-005	......
	34	9.0416	-4.93493E-001	5.04407E-006	2.15400E-004	......
	35	9.29993	-4.93093E-001	5.04407E-006	1.15400E-004	......
	36	9.5583	-4.93843E-001	5.04407E-006	3.15400E-004	......
	37	9.8166	-4.93793E-001	5.04407E-006	1.15400E-004	......
	38	10.0749	-4.93393E-001	5.04407E-006	2.15400E-004	......
EOC	QUANT	-0.493393	Open Circuit (V)
PSTATMODEL	IQUANT	32	Pstat Model
PSTATSECTION	LABEL	PStat0	Pstat Section
CTRLMODE	IQUANT	1	Control Mode
IESTAB	IQUANT	0	I/E Stability
CASPEED	IQUANT	1	Control Amp Speed
CONVENTION	IQUANT	1	Current Convention
ICHRANGE	IQUANT	2	Ich Range
ICHRANGEMODE	TOGGLE	F	Ich Auto Range
ICHOFFSETENABLE	TOGGLE	T	Ich Offset Enable
ICHOFFSET	QUANT	0	Ich Offset (V)
ICHFILTER	IQUANT	3	Ich Filter
VCHRANGE	IQUANT	2	Vch Range
VCHRANGEMODE	TOGGLE	F	Vch Auto Range
VCHOFFSETENABLE	TOGGLE	T	Vch Offset Enable
VCHOFFSET	QUANT	0	Vch Offset (V)
VCHFILTER	IQUANT	3	Vch Filter
ACHRANGE	IQUANT	0	Ach Range
IERANGELOWERLIMIT	IQUANT	3	I/E Range Lower Limit
IERANGEMODE	TOGGLE	F	I/E AutoRange
IERANGE	IQUANT	11	I/E Range
POSFEEDENABLE	TOGGLE	F	Positive Feedback IR Comp
POSFEEDRESISTANCE	QUANT	0	Positive Feedback Resistance (ohm)
FC350IDIVISOR	IQUANT	0	FC350 I Divisor
FC350VRANGE	IQUANT	0	FC350 V Range
FRAMEWORKVERSION	QUANT	4.35	Framework Version
ZCURVE	TABLE
	Pt	Time	Freq	Zreal	Zimag	Zsig	Zmod	Zphz	Idc	Vdc	IERange
	#	s	Hz	ohm	ohm	V	ohm	°	A	V	#
	0	6	100007	895.682	-8.31341	1	895.72	-0.531784	2.88741E-006	-0.393308	9
	1	8	89134.1	890.902	-5.35433	1	890.918	-0.344344	3.26885E-006	-0.39332	9
	2	10	79433.6	889.781	-6.4227	1	889.804	-0.41357	3.50418E-006	-0.393318	9
	3	12	70800.8	889.094	-5.6481	1	889.112	-0.363975	3.60444E-006	-0.393355	9
	4	14	63105.5	886.484	-5.64595	1	886.502	-0.364908	3.82783E-006	-0.393363	9
	5	16	56243.5	884.253	-5.25258	1	884.269	-0.34034	3.76544E-006	-0.39336	9
	6	18	50123.7	884.794	-7.81281	1	884.828	-0.505914	3.76023E-006	-0.393365	9
	7	20	44681	884.823	-6.20538	1	884.844	-0.401817	3.88216E-006	-0.393358	9
	8	22	39811.2	880.308	-4.67624	1	880.32	-0.304355	4.10653E-006	-0.393371	9
	9	24	35488.3	883.246	-7.26719	1	883.276	-0.471408	4.35489E-006	-0.393361	9
	10	26	31634.1	883.665	-7.97919	1	883.701	-0.517347	4.28376E-006	-0.393368	9
	11	28	28173.1	884.549	-7.86131	1	884.584	-0.509195	4.36116E-006	-0.393329	9
	12	30	25123.7	883.906	-8.5027	1	883.947	-0.551138	4.29285E-006	-0.393306	9
	13	32	22389.3	883.721	-7.6964	1	883.755	-0.498981	4.42224E-006	-0.393344	9
	14	34	19954.4	883.672	-8.95434	1	883.717	-0.580564	4.7978E-006	-0.393366	9
	15	36	17778.2	884.615	-9.4185	1	884.665	-0.610005	4.89124E-006	-0.393339	9
	16	38	15852.9	887.618	-10.7255	1	887.683	-0.6923	5.28187E-006	-0.393355	9
	17	40	14122.3	886.857	-10.3565	1	886.918	-0.669059	5.54662E-006	-0.393347	9
	18	41	12587.2	886.909	-11.6318	1	886.986	-0.75139	5.63586E-006	-0.39334	9
	19	43	11221.1	886.458	-11.3669	1	886.531	-0.734654	5.48594E-006	-0.393341	9
	20	45	9998.2	887.204	-12.4862	1	887.292	-0.806309	5.59951E-006	-0.393346	9
	21	47	8912.76	888.602	-13.902	1	888.711	-0.896305	5.4911E-006	-0.393316	9
	22	49	7942.6	888.647	-12.8909	1	888.74	-0.831087	5.40047E-006	-0.393343	9
	23	51	7078.05	890.157	-15.6373	1	890.294	-1.00641	5.25638E-006	-0.393356	9
	24	53	6311.1	890.305	-18.2697	1	890.492	-1.17559	5.39902E-006	-0.393339	9
	25	55	5622.14	891.876	-19.1576	1	892.082	-1.23053	5.31786E-006	-0.393342	9
	26	57	5011.18	890.386	-20.6796	1	890.626	-1.33048	5.42274E-006	-0.393342	9
	27	59	4465.21	889.899	-23.181	1	890.201	-1.49217	5.42816E-006	-0.39335	9
	28	61	3980.93	889.18	-25.3447	1	889.541	-1.63269	5.24637E-006	-0.393331	9
	29	63	3548.18	890.911	-26.2722	1	891.299	-1.68911	5.39776E-006	-0.393354	9
	30	65	3162.67	891.267	-28.5693	1	891.724	-1.83597	5.13818E-006	-0.393352	9
	31	67	2819.01	893.506	-32.8297	1	894.109	-2.10425	5.35554E-006	-0.393356	9
	32	69	2511.16	891.492	-36.6628	1	892.245	-2.35498	5.34986E-006	-0.393334	9
	33	71	2238.63	894.149	-40.6094	1	895.07	-2.60041	5.52799E-006	-0.393345	9
	34	73	1995.37	894.159	-44.3003	1	895.256	-2.83635	5.28195E-006	-0.393343	9
	35	75	1778.51	895.154	-47.9249	1	896.436	-3.06459	5.47775E-006	-0.393341	9
	36	77	1584.49	897.517	-53.7759	1	899.126	-3.42885	5.43534E-006	-0.393335	9
	37	79	1412.76	896.185	-58.0053	1	898.06	-3.70329	5.67325E-006	-0.393375	9
	38	81	1259.04	896.852	-64.324	1	899.156	-4.10234	5.70139E-006	-0.393349	9
	39	83	1121.63	899.1	-72.7129	1	902.035	-4.62362	5.49123E-006	-0.393361	9
	40	85	999.95	900.106	-79.9818	1	903.652	-5.07786	5.40245E-006	-0.393358	9
	41	87	891.184	901.765	-89.1986	1	906.166	-5.64907	5.40778E-006	-0.393354	9
	42	89	794.163	904.999	-98.269	1	910.318	-6.19719	5.41087E-006	-0.393358	9
	43	91	707.867	905.247	-106.299	1	911.467	-6.69734	5.41419E-006	-0.39333	9
	44	93	630.984	907.034	-119.675	1	914.895	-7.51622	5.65822E-006	-0.393353	9
	45	95	562.189	909.553	-131.257	1	918.975	-8.21164	5.45023E-006	-0.393336	9
	46	97	501.303	912.722	-146.091	1	924.34	-9.09366	5.37956E-006	-0.393355	9
	47	99	446.614	915.373	-162.032	1	929.603	-10.0381	5.37062E-006	-0.393355	9
	48	101	398.209	918.38	-179.355	1	935.73	-11.0505	5.47639E-006	-0.393352	9
	49	103	354.821	921.762	-198.528	1	942.899	-12.1546	5.53085E-006	-0.393351	9
	50	105	316.113	925.54	-219.824	1	951.29	-13.3607	5.58788E-006	-0.393355	9
	51	107	281.926	929.576	-243.304	1	960.89	-14.6674	5.22329E-006	-0.393357	9
	52	109	251.185	934.073	-269.411	1	972.15	-16.0889	5.03197E-006	-0.393356	9
	53	111	223.946	938.994	-298.144	1	985.19	-17.6154	4.96182E-006	-0.393355	9
	54	113	199.495	944.22	-330.545	1	1000.41	-19.2937	5.01894E-006	-0.393361	9
	55	115	177.836	949.375	-365.616	1	1017.34	-21.0623	4.17848E-006	-0.393356	8
	56	117	158.533	955.79	-404.969	1	1038.05	-22.9623	4.18106E-006	-0.393365	8
	57	119	141.263	962.94	-448.917	1	1062.44	-24.9946	4.14691E-006	-0.393367	8
	58	121	125.911	970.71	-497.762	1	1090.89	-27.148	4.12774E-006	-0.393367	8
	59	123	112.198	979.35	-552.054	1	1124.23	-29.4097	4.15866E-006	-0.393359	8
	60	125	100.009	988.94	-612.292	1	1163.14	-31.7633	4.10805E-006	-0.393369	8
	61	127	89.1164	999.94	-679.616	1	1209.03	-34.2022	4.17766E-006	-0.39337	8
	62	129	79.4083	1012.42	-754.865	1	1262.86	-36.7084	4.3195E-006	-0.393366	8
	63	131	70.788	1026.33	-837.756	1	1324.84	-39.2234	4.38554E-006	-0.393365	8
	64	133	63.0971	1041.44	-930.657	1	1396.68	-41.7846	4.16083E-006	-0.393371	8
	65	135	54.5476	1064.38	-1062.98	1	1504.27	-44.9624	4.10653E-006	-0.393366	8
	66	137	50.0083	1080.3	-1151.12	1	1578.65	-46.8177	4.06983E-006	-0.393368	8
	67	139	46.1675	1096.44	-1239.04	1	1654.51	-48.4941	4.14205E-006	-0.393364	8
	68	141	40.0059	1130.1	-1412.86	1	1809.23	-51.345	4.15952E-006	-0.39337	8
	69	144	35.3046	1165.21	-1584.52	1	1966.83	-53.6703	4.00003E-006	-0.393373	8
	70	146	31.5793	1202.31	-1755.94	1	2128.12	-55.6001	4.12088E-006	-0.393373	8
	71	148	28.5748	1242.89	-1924.13	1	2290.65	-57.1396	4.22119E-006	-0.393373	8
	72	150	24.9911	1306.34	-2173.56	1	2535.92	-58.9935	4.2238E-006	-0.393375	8
	73	152	22.2195	1369.26	-2420.87	1	2781.28	-60.5072	4.12558E-006	-0.393366	8
	74	155	20.0011	1433.74	-2662.77	1	3024.23	-61.7003	3.95835E-006	-0.393363	8
	75	157	17.6486	1528.7	-2980.86	1	3350	-62.8495	3.84898E-006	-0.393362	8
	76	159	15.7934	1624.21	-3295.88	1	3674.36	-63.7659	3.85436E-006	-0.393371	8
	77	161	14.2828	1736.62	-3608.28	1	4004.44	-64.2991	3.87548E-006	-0.393368	8
	78	164	12.5002	1922.48	-4050.86	1	4483.9	-64.6116	4.00432E-006	-0.393368	8
	79	166	11.323	2109.97	-4391.94	1	4872.49	-64.3395	4.0565E-006	-0.393365	8
	80	169	9.9987	2346.17	-4916.94	1	5448.01	-64.4914	4.03692E-006	-0.39336	8
