EXPLAIN
TAG	EISPOT
TITLE	LABEL	Tomato_open	Test &Identifier
DATE	LABEL	5/9/2006	Date
TIME	LABEL	17:22:38	Time
NOTES	NOTES	1	&Notes...
	
PSTAT	PSTAT	300	Potentiostat
VDC	POTEN	1.00000E-001	T	DC &Voltage (V)
FREQINIT	QUANT	1.00000E+005	Initial Fre&q. (Hz)
FREQFINAL	QUANT	1.00000E+001	Final Fre&q. (Hz)
PTSPERDEC	QUANT	2.00000E+001	Points/&decade
VAC	QUANT	1.00000E+001	AC &Voltage (mV rms)
AREA	QUANT	1.00000E+000	&Area (cm²)
DENSITY	QUANT	7.87000E+000	&Density (gm/cm³)
EQUIV	QUANT	7.00000E+000	Equiv. &Wt
CONDIT	TWOPARAM	F	1.50000E+001	0.00000E+000	Conditionin&g	Time(s)	E(V)
DELAY	TWOPARAM	F	6.00000E+002	0.00000E+000	Init. De&lay	Time(s)	Stab.(mV/s)
SPEED	SELECTOR	1	&Optimize for:
ZGUESS	QUANT	1.00000E+002	E&stimated Z (ohms)
OCVCURVE	TABLE	39
	Pt	T	Vf	Vm	Ach	Over
	#	s	V vs. Ref.	V	V	bits
	0	0.258332	-4.91393E-001	6.13308E-006	3.15400E-004	......
	1	0.516663	-4.91793E-001	6.13308E-006	2.15400E-004	......
	2	0.774994	-4.91443E-001	6.13308E-006	3.15400E-004	......
	3	1.03333	-4.91194E-001	6.13308E-006	2.15400E-004	......
	4	1.29166	-4.91443E-001	6.13308E-006	3.15400E-004	......
	5	1.54999	-4.90093E-001	6.13308E-006	2.15400E-004	......
	6	1.80832	-4.90143E-001	6.13308E-006	3.15400E-004	......
	7	2.06665	-4.90943E-001	6.13308E-006	3.15400E-004	......
	8	2.32498	-4.91394E-001	6.13308E-006	3.15400E-004	......
	9	2.58332	-4.92143E-001	6.13308E-006	2.15400E-004	......
	10	2.84165	-4.91643E-001	6.13308E-006	4.15400E-004	......
	11	3.09998	-4.91043E-001	6.13308E-006	2.15400E-004	......
	12	3.35831	-4.91544E-001	6.13308E-006	2.15400E-004	......
	13	3.61664	-4.91743E-001	6.13308E-006	3.15400E-004	......
	14	3.87497	-4.91843E-001	6.13308E-006	3.15400E-004	......
	15	4.1333	-4.91443E-001	6.13308E-006	3.15400E-004	......
	16	4.39164	-4.90893E-001	6.13308E-006	3.15400E-004	......
	17	4.64997	-4.90543E-001	6.13308E-006	3.15400E-004	......
	18	4.9083	-4.91043E-001	6.13308E-006	3.15400E-004	......
	19	5.16663	-4.91043E-001	6.13308E-006	2.15400E-004	......
	20	5.42496	-4.91544E-001	6.13308E-006	3.15400E-004	......
	21	5.68329	-4.90593E-001	6.13308E-006	4.15400E-004	......
	22	5.94162	-4.90743E-001	6.13308E-006	3.15400E-004	......
	23	6.19996	-4.89843E-001	6.13308E-006	2.15400E-004	......
	24	6.45829	-4.89243E-001	6.13308E-006	3.15400E-004	......
	25	6.71662	-4.90443E-001	6.13308E-006	2.15400E-004	......
	26	6.97495	-4.91293E-001	6.13308E-006	4.15400E-004	......
	27	7.23328	-4.91943E-001	6.13308E-006	3.15400E-004	......
	28	7.49161	-4.92243E-001	6.13308E-006	3.15400E-004	......
	29	7.74995	-4.92743E-001	6.13308E-006	4.15400E-004	......
	30	8.00828	-4.93393E-001	6.13308E-006	4.15400E-004	......
	31	8.26661	-4.94193E-001	6.13308E-006	3.15400E-004	......
	32	8.52494	-4.96043E-001	6.13308E-006	3.15400E-004	......
	33	8.78327	-4.96643E-001	6.13308E-006	3.15400E-004	......
	34	9.0416	-4.96443E-001	6.13308E-006	2.15400E-004	......
	35	9.29993	-4.95893E-001	6.13308E-006	2.15400E-004	......
	36	9.5583	-4.94943E-001	6.13308E-006	3.15400E-004	......
	37	9.8166	-4.93993E-001	6.13308E-006	3.15400E-004	......
	38	10.0749	-4.93543E-001	6.13308E-006	3.15400E-004	......
EOC	QUANT	-0.493543	Open Circuit (V)
PSTATMODEL	IQUANT	32	Pstat Model
PSTATSECTION	LABEL	PStat0	Pstat Section
CTRLMODE	IQUANT	1	Control Mode
IESTAB	IQUANT	0	I/E Stability
CASPEED	IQUANT	1	Control Amp Speed
CONVENTION	IQUANT	1	Current Convention
ICHRANGE	IQUANT	2	Ich Range
ICHRANGEMODE	TOGGLE	F	Ich Auto Range
ICHOFFSETENABLE	TOGGLE	T	Ich Offset Enable
ICHOFFSET	QUANT	0	Ich Offset (V)
ICHFILTER	IQUANT	3	Ich Filter
VCHRANGE	IQUANT	2	Vch Range
VCHRANGEMODE	TOGGLE	F	Vch Auto Range
VCHOFFSETENABLE	TOGGLE	T	Vch Offset Enable
VCHOFFSET	QUANT	0	Vch Offset (V)
VCHFILTER	IQUANT	3	Vch Filter
ACHRANGE	IQUANT	0	Ach Range
IERANGELOWERLIMIT	IQUANT	3	I/E Range Lower Limit
IERANGEMODE	TOGGLE	F	I/E AutoRange
IERANGE	IQUANT	11	I/E Range
POSFEEDENABLE	TOGGLE	F	Positive Feedback IR Comp
POSFEEDRESISTANCE	QUANT	0	Positive Feedback Resistance (ohm)
FC350IDIVISOR	IQUANT	0	FC350 I Divisor
FC350VRANGE	IQUANT	0	FC350 V Range
FRAMEWORKVERSION	QUANT	4.35	Framework Version
ZCURVE	TABLE
	Pt	Time	Freq	Zreal	Zimag	Zsig	Zmod	Zphz	Idc	Vdc	IERange
	#	s	Hz	ohm	ohm	V	ohm	°	A	V	#
	0	6	100007	1606.42	-28.8725	1	1606.68	-1.02968	5.30977E-006	-0.393296	9
	1	8	89134.1	1602.94	-18.4773	1	1603.05	-0.660426	5.23663E-006	-0.393352	9
	2	10	79433.6	1599.31	-21.5784	1	1599.46	-0.773005	5.22934E-006	-0.393359	9
	3	12	70800.8	1594.51	-18.2277	1	1594.61	-0.65495	5.25792E-006	-0.393361	9
	4	14	63105.5	1596.32	-17.8706	1	1596.42	-0.641391	4.95254E-006	-0.393301	9
	5	16	56243.5	1592	-18.4258	1	1592.11	-0.663111	5.04531E-006	-0.393358	9
	6	18	50123.7	1592.28	-17.0121	1	1592.38	-0.612128	5.02992E-006	-0.393337	9
	7	20	44681	1590.27	-12.9932	1	1590.33	-0.46812	4.73791E-006	-0.393298	9
	8	22	39811.2	1601.59	-22.6279	1	1601.75	-0.809443	4.93063E-006	-0.393345	9
	9	24	35488.3	1589.27	-13.0247	1	1589.32	-0.469553	5.04353E-006	-0.393306	9
	10	26	31634.1	1589.41	-15.0102	1	1589.48	-0.541081	4.96444E-006	-0.393354	9
	11	28	28173.1	1588.53	8.14929	1	1588.55	0.293929	3.94963E-006	-0.393314	8
	12	30	25123.7	1586.56	3.85996	1	1586.56	0.139395	4.11273E-006	-0.393331	8
	13	32	22389.3	1587.06	3.41769	1	1587.06	0.123385	4.11459E-006	-0.39334	8
	14	34	19954.4	1589.67	0.270018	1	1589.67	0.009732	4.196E-006	-0.39333	8
	15	36	17778.2	1589.9	-2.03534	1	1589.91	-0.073348	4.15507E-006	-0.393321	8
	16	38	15852.9	1590.92	-1.99369	1	1590.92	-0.071801	3.97831E-006	-0.393349	8
	17	40	14122.3	1589.96	-3.55805	1	1589.96	-0.128218	3.96134E-006	-0.39332	8
	18	42	12587.2	1589.06	-5.10496	1	1589.07	-0.184066	3.93722E-006	-0.393319	8
	19	44	11221.1	1591.74	-6.12032	1	1591.75	-0.220304	3.47628E-006	-0.393329	8
	20	46	9998.2	1595.6	-12.6191	1	1595.65	-0.453125	3.55454E-006	-0.393316	8
	21	48	8912.76	1592.72	-7.89511	1	1592.74	-0.284013	3.40042E-006	-0.393307	8
	22	50	7942.6	1592.69	-9.4815	1	1592.72	-0.341085	3.59702E-006	-0.393326	8
	23	52	7078.05	1594.06	-11.6938	1	1594.11	-0.420304	3.42957E-006	-0.393322	8
	24	54	6311.1	1595.02	-12.4457	1	1595.07	-0.447061	2.99631E-006	-0.393308	8
	25	56	5622.14	1595.72	-14.7937	1	1595.79	-0.531167	3.83689E-006	-0.393326	8
	26	58	5011.18	1594.81	-15.7167	1	1594.89	-0.564625	4.04676E-006	-0.393318	8
	27	60	4465.21	1595.22	-17.5874	1	1595.32	-0.631664	4.13922E-006	-0.393325	8
	28	62	3980.93	1594.36	-19.1503	1	1594.48	-0.688162	4.28836E-006	-0.393285	8
	29	63	3548.18	1595.38	-20.9276	1	1595.52	-0.75154	3.99167E-006	-0.39334	8
	30	65	3162.67	1598.69	-20.6799	1	1598.82	-0.741111	4.0825E-006	-0.393356	8
	31	67	2819.01	1597.29	-27.9077	1	1597.53	-1.00096	3.98889E-006	-0.393358	8
	32	69	2511.16	1599.44	-29.6417	1	1599.71	-1.06172	4.15962E-006	-0.393326	8
	33	71	2238.63	1597.53	-34.4404	1	1597.9	-1.23502	4.22933E-006	-0.393313	8
	34	73	1995.37	1600.81	-35.0722	1	1601.19	-1.25509	4.29098E-006	-0.393316	8
	35	75	1778.51	1598.45	-37.3429	1	1598.88	-1.3383	4.31656E-006	-0.393306	8
	36	77	1584.49	1602.17	-43.1044	1	1602.75	-1.5411	3.73185E-006	-0.39331	8
	37	79	1412.76	1601.52	-47.4408	1	1602.22	-1.69674	3.68528E-006	-0.393337	8
	38	81	1259.04	1604.33	-52.2096	1	1605.18	-1.86391	3.34312E-006	-0.393318	8
	39	83	1121.63	1603.24	-58.8434	1	1604.32	-2.10197	3.55945E-006	-0.393316	8
	40	85	999.95	1606.08	-64.6953	1	1607.38	-2.30671	3.2952E-006	-0.393318	8
	41	87	891.184	1607.24	-72.734	1	1608.89	-2.59109	3.21309E-006	-0.393317	8
	42	89	794.163	1608.25	-77.4072	1	1610.11	-2.7556	3.16413E-006	-0.39333	8
	43	91	707.867	1607.9	-87.9824	1	1610.31	-3.13203	3.77972E-006	-0.393285	8
	44	93	630.984	1612.51	-97.967	1	1615.49	-3.4767	4.11519E-006	-0.39332	8
	45	95	562.189	1614.52	-105.076	1	1617.93	-3.72367	4.31895E-006	-0.393295	8
	46	97	501.303	1615.82	-118.011	1	1620.12	-4.17717	4.10546E-006	-0.393341	8
	47	99	446.614	1618.09	-131.113	1	1623.39	-4.63254	3.51277E-006	-0.393345	8
	48	101	398.209	1620.74	-145.207	1	1627.23	-5.11966	4.09732E-006	-0.393349	8
	49	103	354.821	1623.71	-160.856	1	1631.66	-5.65763	4.12955E-006	-0.393343	8
	50	105	316.113	1627.05	-177.99	1	1636.75	-6.24303	4.1619E-006	-0.393341	8
	51	107	281.926	1630.63	-196.769	1	1642.46	-6.88063	4.09055E-006	-0.393341	8
	52	109	251.185	1634.77	-217.657	1	1649.19	-7.58388	3.57028E-006	-0.393344	8
	53	111	223.946	1639.17	-240.849	1	1656.77	-8.35886	4.02975E-006	-0.393342	8
	54	113	199.495	1644.21	-266.526	1	1665.68	-9.20751	4.07855E-006	-0.393341	8
	55	115	177.836	1649.63	-294.673	1	1675.74	-10.1279	4.04594E-006	-0.39335	8
	56	117	158.533	1655.52	-326.106	1	1687.33	-11.1435	3.84751E-006	-0.393351	8
	57	119	141.263	1662.13	-360.749	1	1700.82	-12.2456	3.91987E-006	-0.393341	8
	58	121	125.911	1669.52	-399.194	1	1716.58	-13.4473	3.79011E-006	-0.393354	8
	59	123	112.198	1677.41	-441.446	1	1734.52	-14.7443	3.13264E-006	-0.39335	8
	60	125	100.009	1686.96	-489.197	1	1756.46	-16.1715	3.1521E-006	-0.393349	8
	61	127	89.1164	1696.51	-540.887	1	1780.65	-17.6835	2.9647E-006	-0.39335	8
	62	129	79.4083	1707.36	-598.947	1	1809.37	-19.331	3.00399E-006	-0.393347	8
	63	131	70.788	1720.12	-663.37	1	1843.6	-21.0893	3.43041E-006	-0.393342	8
	64	133	63.0971	1733.94	-733.356	1	1882.65	-22.9255	3.32589E-006	-0.393352	8
	65	136	54.5476	1754.87	-837.047	1	1944.28	-25.5005	3.51578E-006	-0.393347	8
	66	138	50.0083	1766.78	-903.511	1	1984.4	-27.0847	3.89732E-006	-0.393348	8
	67	140	46.1675	1781.11	-971.05	1	2028.62	-28.5988	4.04127E-006	-0.393352	8
	68	142	40.0059	1808.17	-1102.88	1	2117.97	-31.3809	3.87186E-006	-0.393346	8
	69	144	35.3046	1835.03	-1232.6	1	2210.57	-33.8896	4.0106E-006	-0.39335	8
	70	146	31.5793	1865.34	-1364.67	1	2311.24	-36.1889	4.21774E-006	-0.393344	8
	71	148	28.5748	1890.1	-1487.75	1	2405.39	-38.2073	3.32281E-006	-0.393343	8
	72	150	24.9911	1938.28	-1681.86	1	2566.24	-40.9485	3.62656E-006	-0.393352	8
	73	153	22.2195	1990.73	-1869.98	1	2731.27	-43.2086	3.92276E-006	-0.393341	8
	74	155	20.0011	2035.74	-2044.77	1	2885.36	-45.1268	3.70315E-006	-0.393336	8
	75	158	17.6486	2115.93	-2300.75	1	3125.8	-47.3962	3.63768E-006	-0.393335	8
	76	160	15.7934	2179.95	-2561.06	1	3363.22	-49.5959	3.61527E-006	-0.393334	8
	77	162	14.2828	2262.08	-2787.77	1	3590.08	-50.9432	3.79235E-006	-0.39333	8
	78	164	12.5002	2381.81	-3126.47	1	3930.37	-52.6992	3.20242E-006	-0.393332	8
	79	167	11.323	2482.01	-3429.95	1	4233.78	-54.1094	3.2181E-006	-0.393326	8
	80	169	9.9987	2659.78	-3823.48	1	4657.62	-55.1759	3.30881E-006	-0.393323	8
