EXPLAIN
TAG	EISPOT
TITLE	LABEL	Tomato_open	Test &Identifier
DATE	LABEL	5/9/2006	Date
TIME	LABEL	20:00:23	Time
NOTES	NOTES	1	&Notes...
	
PSTAT	PSTAT	300	Potentiostat
VDC	POTEN	1.00000E-001	T	DC &Voltage (V)
FREQINIT	QUANT	1.00000E+005	Initial Fre&q. (Hz)
FREQFINAL	QUANT	1.00000E+001	Final Fre&q. (Hz)
PTSPERDEC	QUANT	2.00000E+001	Points/&decade
VAC	QUANT	1.00000E+001	AC &Voltage (mV rms)
AREA	QUANT	1.00000E+000	&Area (cm²)
DENSITY	QUANT	7.87000E+000	&Density (gm/cm³)
EQUIV	QUANT	7.00000E+000	Equiv. &Wt
CONDIT	TWOPARAM	F	1.50000E+001	0.00000E+000	Conditionin&g	Time(s)	E(V)
DELAY	TWOPARAM	F	6.00000E+002	0.00000E+000	Init. De&lay	Time(s)	Stab.(mV/s)
SPEED	SELECTOR	1	&Optimize for:
ZGUESS	QUANT	1.00000E+002	E&stimated Z (ohms)
OCVCURVE	TABLE	39
	Pt	T	Vf	Vm	Ach	Over
	#	s	V vs. Ref.	V	V	bits
	0	0.258332	-5.09893E-001	3.88684E-006	-1.84600E-004	......
	1	0.516663	-5.09593E-001	3.88684E-006	-8.46000E-005	......
	2	0.774994	-5.09843E-001	3.88684E-006	-1.84600E-004	......
	3	1.03333	-5.10243E-001	3.88684E-006	1.54000E-005	......
	4	1.29166	-5.09993E-001	3.88684E-006	-1.84600E-004	......
	5	1.54999	-5.09643E-001	3.88684E-006	-1.84600E-004	......
	6	1.80832	-5.09744E-001	3.88684E-006	-8.46000E-005	......
	7	2.06665	-5.10394E-001	3.88684E-006	-1.84600E-004	......
	8	2.32498	-5.10494E-001	3.88684E-006	-8.46000E-005	......
	9	2.58332	-5.10593E-001	3.88684E-006	-1.84600E-004	......
	10	2.84165	-5.08893E-001	3.88684E-006	-8.46000E-005	......
	11	3.09998	-5.05893E-001	3.88684E-006	-1.84600E-004	......
	12	3.35831	-5.02593E-001	3.88684E-006	-8.46000E-005	......
	13	3.61664	-5.00643E-001	3.88684E-006	-1.84600E-004	......
	14	3.87497	-4.98843E-001	3.88684E-006	-8.46000E-005	......
	15	4.1333	-4.94743E-001	3.88684E-006	-1.84600E-004	......
	16	4.39164	-4.91843E-001	3.88684E-006	-8.46000E-005	......
	17	4.64997	-4.89443E-001	3.88684E-006	-8.46000E-005	......
	18	4.9083	-4.86643E-001	3.88684E-006	-8.46000E-005	......
	19	5.16663	-4.87093E-001	3.88684E-006	-1.84600E-004	......
	20	5.42496	-4.89443E-001	3.88684E-006	-8.46000E-005	......
	21	5.68329	-4.92643E-001	3.88684E-006	-1.84600E-004	......
	22	5.94162	-4.95543E-001	3.88684E-006	-1.84600E-004	......
	23	6.19996	-4.98043E-001	3.88684E-006	-1.84600E-004	......
	24	6.45829	-4.99593E-001	3.88684E-006	-8.46000E-005	......
	25	6.71662	-4.99643E-001	3.88684E-006	-1.84600E-004	......
	26	6.97495	-4.99593E-001	3.88684E-006	-1.84600E-004	......
	27	7.23328	-5.01393E-001	3.88684E-006	-8.46000E-005	......
	28	7.49161	-5.01243E-001	3.88684E-006	-8.46000E-005	......
	29	7.74995	-5.01794E-001	3.88684E-006	-8.46000E-005	......
	30	8.00828	-5.01894E-001	3.88684E-006	-8.46000E-005	......
	31	8.26661	-5.01794E-001	3.88684E-006	-1.84600E-004	......
	32	8.52494	-5.01844E-001	3.88684E-006	-8.46000E-005	......
	33	8.78327	-5.00943E-001	3.88684E-006	-8.46000E-005	......
	34	9.0416	-5.00943E-001	3.88684E-006	-2.84600E-004	......
	35	9.29993	-5.01444E-001	3.88684E-006	-1.84600E-004	......
	36	9.5583	-5.01844E-001	3.88684E-006	-1.84600E-004	......
	37	9.8166	-5.02243E-001	3.88684E-006	-8.46000E-005	......
	38	10.0749	-5.02693E-001	3.88684E-006	-1.84600E-004	......
EOC	QUANT	-0.502693	Open Circuit (V)
PSTATMODEL	IQUANT	32	Pstat Model
PSTATSECTION	LABEL	PStat0	Pstat Section
CTRLMODE	IQUANT	1	Control Mode
IESTAB	IQUANT	0	I/E Stability
CASPEED	IQUANT	1	Control Amp Speed
CONVENTION	IQUANT	1	Current Convention
ICHRANGE	IQUANT	2	Ich Range
ICHRANGEMODE	TOGGLE	F	Ich Auto Range
ICHOFFSETENABLE	TOGGLE	T	Ich Offset Enable
ICHOFFSET	QUANT	0	Ich Offset (V)
ICHFILTER	IQUANT	3	Ich Filter
VCHRANGE	IQUANT	2	Vch Range
VCHRANGEMODE	TOGGLE	F	Vch Auto Range
VCHOFFSETENABLE	TOGGLE	T	Vch Offset Enable
VCHOFFSET	QUANT	0	Vch Offset (V)
VCHFILTER	IQUANT	3	Vch Filter
ACHRANGE	IQUANT	0	Ach Range
IERANGELOWERLIMIT	IQUANT	3	I/E Range Lower Limit
IERANGEMODE	TOGGLE	F	I/E AutoRange
IERANGE	IQUANT	11	I/E Range
POSFEEDENABLE	TOGGLE	F	Positive Feedback IR Comp
POSFEEDRESISTANCE	QUANT	0	Positive Feedback Resistance (ohm)
FC350IDIVISOR	IQUANT	0	FC350 I Divisor
FC350VRANGE	IQUANT	0	FC350 V Range
FRAMEWORKVERSION	QUANT	4.35	Framework Version
ZCURVE	TABLE
	Pt	Time	Freq	Zreal	Zimag	Zsig	Zmod	Zphz	Idc	Vdc	IERange
	#	s	Hz	ohm	ohm	V	ohm	°	A	V	#
	0	6	100007	2087.29	-36.7148	1	2087.61	-1.00771	2.19773E-006	-0.402506	9
	1	8	89134.1	2072.81	-39.1779	1	2073.18	-1.08281	2.09433E-006	-0.40255	9
	2	10	79433.6	2071.06	-34.3068	1	2071.35	-0.94901	2.06282E-006	-0.40253	9
	3	12	70800.8	2070.88	-30.6373	1	2071.11	-0.847591	2.35524E-006	-0.402573	9
	4	14	63105.5	2064.49	-29.2418	1	2064.7	-0.811493	2.46698E-006	-0.402523	9
	5	16	56243.5	2066.53	-29.6715	1	2066.74	-0.822604	2.32658E-006	-0.402563	9
	6	18	50123.7	2061.17	-19.8861	1	2061.27	-0.552771	2.2711E-006	-0.402555	9
	7	20	44681	2057.59	-24.3494	1	2057.73	-0.678006	2.44638E-006	-0.40251	9
	8	22	39811.2	2076.1	-49.0278	1	2076.68	-1.35281	2.52087E-006	-0.402579	9
	9	24	35488.3	2053.45	-28.1246	1	2053.64	-0.784691	2.5039E-006	-0.402572	9
	10	26	31634.1	2059.92	-18.3644	1	2060	-0.510784	2.29643E-006	-0.402535	9
	11	28	28173.1	2056.77	5.95896	1	2056.78	0.165999	1.37991E-006	-0.402545	8
	12	30	25123.7	2057.87	5.22927	1	2057.87	0.145595	1.4662E-006	-0.402536	8
	13	32	22389.3	2057	0.98155	1	2057	0.02734	1.39827E-006	-0.402527	8
	14	34	19954.4	2058.93	-0.531114	1	2058.93	-0.01478	1.43248E-006	-0.402517	8
	15	36	17778.2	2059.79	0.766184	1	2059.79	0.021312	1.415E-006	-0.402532	8
	16	38	15852.9	2059.54	-3.10387	1	2059.54	-0.086349	1.46078E-006	-0.402508	8
	17	40	14122.3	2057.74	-5.32341	1	2057.74	-0.148225	1.43947E-006	-0.402542	8
	18	42	12587.2	2061.59	-7.7091	1	2061.6	-0.21425	1.41899E-006	-0.402533	8
	19	44	11221.1	2062.53	-8.69462	1	2062.55	-0.241529	1.38677E-006	-0.402534	8
	20	46	9998.2	2067.84	-12.6858	1	2067.88	-0.351492	1.39217E-006	-0.40254	8
	21	48	8912.76	2061.44	-12.0659	1	2061.48	-0.335356	1.35273E-006	-0.402503	8
	22	50	7942.6	2065.64	-12.9658	1	2065.68	-0.359636	1.36712E-006	-0.402551	8
	23	52	7078.05	2064.64	-13.9825	1	2064.69	-0.388023	1.36872E-006	-0.402545	8
	24	54	6311.1	2064.35	-16.9324	1	2064.42	-0.469946	1.3857E-006	-0.402551	8
	25	56	5622.14	2067.86	-20.62	1	2067.96	-0.571315	1.35043E-006	-0.402546	8
	26	58	5011.18	2065.63	-20.0608	1	2065.72	-0.556425	1.30295E-006	-0.40255	8
	27	60	4465.21	2067.68	-20.233	1	2067.78	-0.560644	1.3771E-006	-0.402541	8
	28	62	3980.93	2066.66	-22.5909	1	2066.78	-0.626284	1.4656E-006	-0.402511	8
	29	63	3548.18	2070.1	-25.2649	1	2070.26	-0.699242	1.38895E-006	-0.402568	8
	30	65	3162.67	2068.4	-27.9863	1	2068.59	-0.775188	1.51978E-006	-0.402555	8
	31	67	2819.01	2067.82	-30.6782	1	2068.05	-0.849979	1.43231E-006	-0.402545	8
	32	69	2511.16	2070.86	-32.2371	1	2071.11	-0.891849	1.56514E-006	-0.402543	8
	33	71	2238.63	2069.82	-37.867	1	2070.17	-1.0481	1.52105E-006	-0.402542	8
	34	73	1995.37	2070.03	-44.3017	1	2070.5	-1.22603	1.43317E-006	-0.402538	8
	35	75	1778.51	2068.73	-49.1586	1	2069.31	-1.36125	1.48132E-006	-0.402536	8
	36	77	1584.49	2074.37	-51.6119	1	2075.01	-1.42527	1.56165E-006	-0.402527	8
	37	79	1412.76	2073.48	-54.0174	1	2074.18	-1.49231	1.68379E-006	-0.402503	8
	38	81	1259.04	2077.75	-59.4968	1	2078.6	-1.64023	1.58723E-006	-0.402523	8
	39	83	1121.63	2076.94	-66.7631	1	2078.01	-1.84114	1.56992E-006	-0.402526	8
	40	85	999.95	2076.62	-76.9256	1	2078.04	-2.12148	1.50159E-006	-0.40254	8
	41	87	891.184	2080.77	-82.5543	1	2082.41	-2.27201	1.48073E-006	-0.402541	8
	42	89	794.163	2079.88	-91.6079	1	2081.9	-2.52195	1.50252E-006	-0.402538	8
	43	91	707.867	2079.16	-101.185	1	2081.62	-2.78617	1.72162E-006	-0.402558	8
	44	93	630.984	2085.77	-113.595	1	2088.86	-3.11734	1.68718E-006	-0.402543	8
	45	95	562.189	2089.28	-124.395	1	2092.98	-3.40734	1.77294E-006	-0.402524	8
	46	97	501.303	2091.03	-137.958	1	2095.57	-3.7747	1.71723E-006	-0.402555	8
	47	99	446.614	2093.73	-153.017	1	2099.31	-4.17995	1.79413E-006	-0.402549	8
	48	101	398.209	2096.87	-169.17	1	2103.68	-4.6125	1.74747E-006	-0.402557	8
	49	103	354.821	2100.49	-187.235	1	2108.82	-5.09381	1.71624E-006	-0.402552	8
	50	105	316.113	2104.44	-206.994	1	2114.59	-5.61758	1.50892E-006	-0.402545	8
	51	107	281.926	2108.72	-228.786	1	2121.09	-6.19212	1.59125E-006	-0.402551	8
	52	109	251.185	2113.61	-252.592	1	2128.65	-6.81494	1.61789E-006	-0.402551	8
	53	111	223.946	2118.99	-279.06	1	2137.28	-7.50239	1.56498E-006	-0.402553	8
	54	113	199.495	2124.78	-308.572	1	2147.07	-8.26303	1.56856E-006	-0.402539	8
	55	115	177.836	2131.37	-340.881	1	2158.46	-9.08665	1.57855E-006	-0.402539	8
	56	117	158.533	2138.36	-376.71	1	2171.29	-9.9911	1.63947E-006	-0.40254	8
	57	119	141.263	2146.13	-416.19	1	2186.11	-10.9749	1.50508E-006	-0.402534	8
	58	121	125.911	2154.74	-460.063	1	2203.3	-12.0524	1.35488E-006	-0.402539	8
	59	123	112.198	2164.24	-508.497	1	2223.17	-13.2221	1.3563E-006	-0.402541	8
	60	125	100.009	2174.3	-561.918	1	2245.73	-14.4903	1.3503E-006	-0.402544	8
	61	127	89.1164	2185.46	-621.364	1	2272.08	-15.8714	1.3604E-006	-0.402544	8
	62	129	79.4083	2197.58	-687.058	1	2302.47	-17.3615	1.34689E-006	-0.40255	8
	63	131	70.788	2210.97	-759.649	1	2337.83	-18.9618	1.33194E-006	-0.402545	8
	64	133	63.0971	2225.4	-840.018	1	2378.66	-20.68	1.32399E-006	-0.402548	8
	65	135	54.5476	2245.39	-954.09	1	2439.69	-23.0212	1.39766E-006	-0.402543	8
	66	137	50.0083	2258.57	-1030.18	1	2482.42	-24.5187	1.47951E-006	-0.402554	8
	67	140	46.1675	2271.54	-1105.5	1	2526.27	-25.9511	1.45177E-006	-0.402552	8
	68	142	40.0059	2295.83	-1253.4	1	2615.69	-28.6321	1.39352E-006	-0.402551	8
	69	144	35.3046	2320.05	-1401.81	1	2710.67	-31.1411	1.41864E-006	-0.402551	8
	70	146	31.5793	2343.69	-1547.92	1	2808.73	-33.4433	1.48355E-006	-0.402548	8
	71	148	28.5748	2366.37	-1692.6	1	2909.4	-35.5751	1.44849E-006	-0.40255	8
	72	150	24.9911	2399.85	-1907.37	1	3065.5	-38.4772	1.33031E-006	-0.402542	8
	73	153	22.2195	2435.61	-2122.92	1	3230.94	-41.0759	1.48025E-006	-0.402551	8
	74	155	20.0011	2467.95	-2333.82	1	3396.69	-43.4	1.5056E-006	-0.402557	8
	75	157	17.6486	2515.92	-2614.71	1	3628.58	-46.1031	1.58513E-006	-0.402542	8
	76	160	15.7934	2563.55	-2891.96	1	3864.61	-48.445	1.65222E-006	-0.402547	8
	77	162	14.2828	2609.12	-3171.73	1	4106.99	-50.5587	1.55765E-006	-0.402542	8
	78	164	12.5002	2680.67	-3574.55	1	4468.04	-53.1327	1.55906E-006	-0.402548	8
	79	167	11.323	2739.72	-3921.37	1	4783.64	-55.0594	1.50205E-006	-0.402556	8
	80	169	9.9987	2833.85	-4391.89	1	5226.8	-57.168	1.5988E-006	-0.402552	8
