EXPLAIN
TAG	EISPOT
TITLE	LABEL	Tomato_open	Test &Identifier
DATE	LABEL	5/9/2006	Date
TIME	LABEL	19:55:22	Time
NOTES	NOTES	1	&Notes...
	
PSTAT	PSTAT	300	Potentiostat
VDC	POTEN	1.00000E-001	T	DC &Voltage (V)
FREQINIT	QUANT	1.00000E+005	Initial Fre&q. (Hz)
FREQFINAL	QUANT	1.00000E+001	Final Fre&q. (Hz)
PTSPERDEC	QUANT	2.00000E+001	Points/&decade
VAC	QUANT	1.00000E+001	AC &Voltage (mV rms)
AREA	QUANT	1.00000E+000	&Area (cm²)
DENSITY	QUANT	7.87000E+000	&Density (gm/cm³)
EQUIV	QUANT	7.00000E+000	Equiv. &Wt
CONDIT	TWOPARAM	F	1.50000E+001	0.00000E+000	Conditionin&g	Time(s)	E(V)
DELAY	TWOPARAM	F	6.00000E+002	0.00000E+000	Init. De&lay	Time(s)	Stab.(mV/s)
SPEED	SELECTOR	1	&Optimize for:
ZGUESS	QUANT	1.00000E+002	E&stimated Z (ohms)
OCVCURVE	TABLE	39
	Pt	T	Vf	Vm	Ach	Over
	#	s	V vs. Ref.	V	V	bits
	0	0.258332	-5.00443E-001	3.96607E-006	-1.84600E-004	......
	1	0.516663	-5.00493E-001	3.96607E-006	-8.46000E-005	......
	2	0.774994	-4.99444E-001	3.96607E-006	-1.84600E-004	......
	3	1.03333	-4.97343E-001	3.96607E-006	-1.84600E-004	......
	4	1.29166	-4.96793E-001	3.96607E-006	-8.46000E-005	......
	5	1.54999	-4.97143E-001	3.96607E-006	-8.46000E-005	......
	6	1.80832	-4.97693E-001	3.96607E-006	-1.84600E-004	......
	7	2.06665	-4.97993E-001	3.96607E-006	-1.84600E-004	......
	8	2.32498	-4.98143E-001	3.96607E-006	-8.46000E-005	......
	9	2.58332	-4.98293E-001	3.96607E-006	1.54000E-005	......
	10	2.84165	-4.98493E-001	3.96607E-006	-8.46000E-005	......
	11	3.09998	-4.99444E-001	3.96607E-006	-8.46000E-005	......
	12	3.35831	-5.00044E-001	3.96607E-006	-8.46000E-005	......
	13	3.61664	-5.00393E-001	3.96607E-006	-1.84600E-004	......
	14	3.87497	-5.00443E-001	3.96607E-006	-8.46000E-005	......
	15	4.1333	-5.00193E-001	3.96607E-006	-8.46000E-005	......
	16	4.39164	-4.99843E-001	3.96607E-006	-1.84600E-004	......
	17	4.64997	-4.99793E-001	3.96607E-006	-8.46000E-005	......
	18	4.9083	-5.00493E-001	3.96607E-006	-1.84600E-004	......
	19	5.16663	-4.98793E-001	3.96607E-006	1.54000E-005	......
	20	5.42496	-4.96593E-001	3.96607E-006	1.54000E-005	......
	21	5.68329	-4.95543E-001	3.96607E-006	-8.46000E-005	......
	22	5.94162	-4.95993E-001	3.96607E-006	-8.46000E-005	......
	23	6.19996	-4.96643E-001	3.96607E-006	-1.84600E-004	......
	24	6.45829	-4.97743E-001	3.96607E-006	-8.46000E-005	......
	25	6.71662	-4.97993E-001	3.96607E-006	-1.84600E-004	......
	26	6.97495	-4.99043E-001	3.96607E-006	-8.46000E-005	......
	27	7.23328	-4.99843E-001	3.96607E-006	-8.46000E-005	......
	28	7.49161	-5.00044E-001	3.96607E-006	-1.84600E-004	......
	29	7.74995	-5.00243E-001	3.96607E-006	-1.84600E-004	......
	30	8.00828	-5.00193E-001	3.96607E-006	-1.84600E-004	......
	31	8.26661	-5.00044E-001	3.96607E-006	-8.46000E-005	......
	32	8.52494	-4.99943E-001	3.96607E-006	1.54000E-005	......
	33	8.78327	-4.99743E-001	3.96607E-006	-1.84600E-004	......
	34	9.0416	-4.98393E-001	3.96607E-006	-1.84600E-004	......
	35	9.29993	-4.98243E-001	3.96607E-006	-8.46000E-005	......
	36	9.5583	-4.97494E-001	3.96607E-006	-1.84600E-004	......
	37	9.8166	-4.96843E-001	3.96607E-006	-1.84600E-004	......
	38	10.0749	-4.96793E-001	3.96607E-006	-1.84600E-004	......
EOC	QUANT	-0.496793	Open Circuit (V)
PSTATMODEL	IQUANT	32	Pstat Model
PSTATSECTION	LABEL	PStat0	Pstat Section
CTRLMODE	IQUANT	1	Control Mode
IESTAB	IQUANT	0	I/E Stability
CASPEED	IQUANT	1	Control Amp Speed
CONVENTION	IQUANT	1	Current Convention
ICHRANGE	IQUANT	2	Ich Range
ICHRANGEMODE	TOGGLE	F	Ich Auto Range
ICHOFFSETENABLE	TOGGLE	T	Ich Offset Enable
ICHOFFSET	QUANT	0	Ich Offset (V)
ICHFILTER	IQUANT	3	Ich Filter
VCHRANGE	IQUANT	2	Vch Range
VCHRANGEMODE	TOGGLE	F	Vch Auto Range
VCHOFFSETENABLE	TOGGLE	T	Vch Offset Enable
VCHOFFSET	QUANT	0	Vch Offset (V)
VCHFILTER	IQUANT	3	Vch Filter
ACHRANGE	IQUANT	0	Ach Range
IERANGELOWERLIMIT	IQUANT	3	I/E Range Lower Limit
IERANGEMODE	TOGGLE	F	I/E AutoRange
IERANGE	IQUANT	11	I/E Range
POSFEEDENABLE	TOGGLE	F	Positive Feedback IR Comp
POSFEEDRESISTANCE	QUANT	0	Positive Feedback Resistance (ohm)
FC350IDIVISOR	IQUANT	0	FC350 I Divisor
FC350VRANGE	IQUANT	0	FC350 V Range
FRAMEWORKVERSION	QUANT	4.35	Framework Version
ZCURVE	TABLE
	Pt	Time	Freq	Zreal	Zimag	Zsig	Zmod	Zphz	Idc	Vdc	IERange
	#	s	Hz	ohm	ohm	V	ohm	°	A	V	#
	0	7	100007	2091.27	-44.0158	1	2091.73	-1.20575	2.35329E-006	-0.396582	9
	1	9	89134.1	2078.33	-36.5504	1	2078.66	-1.00752	2.36181E-006	-0.396552	9
	2	11	79433.6	2077.69	-33.0083	1	2077.95	-0.910182	2.27955E-006	-0.396597	9
	3	13	70800.8	2073.95	-31.2072	1	2074.18	-0.862078	2.14577E-006	-0.396565	9
	4	14	63105.5	2069.54	-25.4346	1	2069.7	-0.704127	2.25125E-006	-0.39657	9
	5	16	56243.5	2070.45	-23.6386	1	2070.58	-0.654126	2.40696E-006	-0.396604	9
	6	18	50123.7	2069.47	-27.5648	1	2069.65	-0.763121	2.2426E-006	-0.396593	9
	7	20	44681	2069.08	-23.5758	1	2069.21	-0.652819	2.16768E-006	-0.396589	9
	8	22	39811.2	2050.63	-46.4075	1	2051.15	-1.29643	2.38652E-006	-0.396571	9
	9	24	35488.3	2060.04	-21.63	1	2060.15	-0.601572	2.45717E-006	-0.396611	9
	10	26	31634.1	2064.1	-20.0218	1	2064.19	-0.555753	2.4118E-006	-0.396558	9
	11	28	28173.1	2063.82	10.1712	1	2063.84	0.28237	1.40689E-006	-0.396572	8
	12	30	25123.7	2063.99	3.6981	1	2064	0.102658	1.4446E-006	-0.396569	8
	13	32	22389.3	2065.45	0.847508	1	2065.45	0.02351	1.35632E-006	-0.396583	8
	14	34	19954.4	2064.73	-2.02415	1	2064.73	-0.05617	1.48314E-006	-0.396564	8
	15	36	17778.2	2063.89	-3.31737	1	2063.89	-0.092094	1.39843E-006	-0.396573	8
	16	38	15852.9	2068.75	-6.66692	1	2068.76	-0.184645	1.38857E-006	-0.396565	8
	17	40	14122.3	2067.78	-4.99346	1	2067.78	-0.138363	1.39706E-006	-0.396575	8
	18	42	12587.2	2067.95	-5.69876	1	2067.95	-0.157893	1.39247E-006	-0.396575	8
	19	44	11221.1	2067.59	-8.79858	1	2067.61	-0.243819	1.43835E-006	-0.396562	8
	20	46	9998.2	2066.65	-9.14109	1	2066.67	-0.253426	1.40306E-006	-0.396573	8
	21	48	8912.76	2069.42	-12.33	1	2069.45	-0.341375	1.50348E-006	-0.396564	8
	22	50	7942.6	2067.62	-10.6443	1	2067.65	-0.294962	1.45915E-006	-0.396579	8
	23	52	7078.05	2072	-15.8812	1	2072.06	-0.439145	1.48925E-006	-0.396574	8
	24	54	6311.1	2070.85	-14.7707	1	2070.9	-0.408665	1.46803E-006	-0.396576	8
	25	56	5622.14	2071.88	-16.6374	1	2071.94	-0.460082	1.42719E-006	-0.396566	8
	26	58	5011.18	2071.35	-19.8418	1	2071.44	-0.548829	1.42133E-006	-0.396565	8
	27	60	4465.21	2072.11	-23.4541	1	2072.24	-0.648501	1.31888E-006	-0.396565	8
	28	62	3980.93	2070.44	-23.6383	1	2070.57	-0.65412	1.26933E-006	-0.396596	8
	29	64	3548.18	2075.17	-23.8522	1	2075.31	-0.658533	1.38797E-006	-0.396559	8
	30	66	3162.67	2073.72	-26.4386	1	2073.89	-0.730444	1.40675E-006	-0.39656	8
	31	68	2819.01	2075.31	-29.3733	1	2075.52	-0.810895	1.42993E-006	-0.396547	8
	32	70	2511.16	2074.76	-35.5134	1	2075.06	-0.98063	1.34258E-006	-0.396558	8
	33	72	2238.63	2074.9	-37.6644	1	2075.24	-1.03994	1.27794E-006	-0.396578	8
	34	74	1995.37	2076.77	-42.8308	1	2077.21	-1.18149	1.34743E-006	-0.396572	8
	35	76	1778.51	2076.7	-45.3694	1	2077.19	-1.25154	1.35987E-006	-0.396574	8
	36	78	1584.49	2075.97	-48.221	1	2076.53	-1.33064	1.28696E-006	-0.396573	8
	37	79	1412.76	2081.57	-60.028	1	2082.43	-1.65183	1.32907E-006	-0.39658	8
	38	81	1259.04	2080.74	-62.5332	1	2081.68	-1.72141	1.36782E-006	-0.396575	8
	39	83	1121.63	2083.87	-68.4996	1	2084.99	-1.88271	1.42317E-006	-0.396569	8
	40	85	999.95	2082.03	-78.4604	1	2083.5	-2.15815	1.39619E-006	-0.396566	8
	41	87	891.184	2082.83	-81.532	1	2084.42	-2.24169	1.45597E-006	-0.39656	8
	42	89	794.163	2086.04	-94.1043	1	2088.16	-2.58294	1.38817E-006	-0.396563	8
	43	91	707.867	2088.94	-102.03	1	2091.44	-2.79626	1.51056E-006	-0.39656	8
	44	93	630.984	2088.29	-115.092	1	2091.46	-3.15456	1.43942E-006	-0.396574	8
	45	95	562.189	2090.27	-125.137	1	2094.01	-3.42602	1.39373E-006	-0.396543	8
	46	97	501.303	2095.84	-137.753	1	2100.36	-3.76047	1.41965E-006	-0.396578	8
	47	99	446.614	2098.63	-152.714	1	2104.18	-4.162	1.44412E-006	-0.396582	8
	48	101	398.209	2101.66	-169.094	1	2108.45	-4.59996	1.4458E-006	-0.396591	8
	49	103	354.821	2105.33	-186.932	1	2113.61	-5.074	1.4103E-006	-0.396583	8
	50	105	316.113	2109.15	-206.545	1	2119.24	-5.59304	1.40258E-006	-0.396583	8
	51	107	281.926	2113.6	-228.188	1	2125.88	-6.1619	1.47949E-006	-0.396591	8
	52	109	251.185	2118.29	-252.418	1	2133.28	-6.79539	1.56293E-006	-0.396586	8
	53	111	223.946	2123.5	-278.759	1	2141.72	-7.47864	1.57446E-006	-0.396592	8
	54	113	199.495	2129.51	-308.184	1	2151.7	-8.23471	1.60466E-006	-0.396586	8
	55	115	177.836	2135.86	-340.486	1	2162.83	-9.05755	1.48099E-006	-0.396592	8
	56	117	158.533	2142.75	-376.227	1	2175.53	-9.9585	1.54003E-006	-0.39659	8
	57	119	141.263	2150.44	-416.013	1	2190.31	-10.9489	1.57556E-006	-0.396598	8
	58	121	125.911	2158.96	-459.732	1	2207.37	-12.0211	1.67161E-006	-0.39659	8
	59	123	112.198	2168.39	-508.179	1	2227.14	-13.1897	1.59836E-006	-0.396588	8
	60	125	100.009	2178.56	-561.817	1	2249.84	-14.4606	1.62976E-006	-0.396586	8
	61	127	89.1164	2189.72	-621.185	1	2276.13	-15.8377	1.58017E-006	-0.39659	8
	62	130	79.4083	2202.04	-686.996	1	2306.71	-17.327	1.53387E-006	-0.396591	8
	63	132	70.788	2215.34	-759.532	1	2341.92	-18.9244	1.57427E-006	-0.396585	8
	64	134	63.0971	2229.68	-840	1	2382.67	-20.6431	1.58159E-006	-0.396601	8
	65	136	54.5476	2249.75	-954.54	1	2443.88	-22.9909	1.47477E-006	-0.396597	8
	66	138	50.0083	2263.33	-1030.35	1	2486.82	-24.4767	1.5761E-006	-0.396596	8
	67	140	46.1675	2275.9	-1105.5	1	2530.18	-25.9078	1.58215E-006	-0.396589	8
	68	142	40.0059	2301.14	-1254.75	1	2621	-28.6025	1.55029E-006	-0.396594	8
	69	144	35.3046	2324.8	-1401.78	1	2714.72	-31.0887	1.55523E-006	-0.396597	8
	70	146	31.5793	2347.27	-1547.28	1	2811.36	-33.3921	1.40256E-006	-0.396597	8
	71	148	28.5748	2370.92	-1692.61	1	2913.11	-35.5233	1.43486E-006	-0.396593	8
	72	151	24.9911	2405.97	-1909.39	1	3071.56	-38.4357	1.48585E-006	-0.396593	8
	73	153	22.2195	2440.82	-2121.89	1	3234.2	-41.0015	1.61582E-006	-0.396593	8
	74	155	20.0011	2476.16	-2334.87	1	3403.38	-43.3178	1.68533E-006	-0.39659	8
	75	158	17.6486	2523.55	-2613.76	1	3633.18	-46.006	1.70952E-006	-0.396584	8
	76	160	15.7934	2569	-2891.6	1	3867.96	-48.3809	1.72733E-006	-0.396588	8
	77	162	14.2828	2609.92	-3162.09	1	4100.06	-50.4645	1.59778E-006	-0.396595	8
	78	164	12.5002	2687.27	-3581.95	1	4477.92	-53.1218	1.5196E-006	-0.396597	8
	79	167	11.323	2752.94	-3920.25	1	4790.31	-54.922	1.65761E-006	-0.396593	8
	80	169	9.9987	2843.11	-4387.5	1	5228.14	-57.0567	1.70697E-006	-0.396598	8
