EXPLAIN
TAG	EISPOT
TITLE	LABEL	Tomato_open	Test &Identifier
DATE	LABEL	5/9/2006	Date
TIME	LABEL	17:17:35	Time
NOTES	NOTES	1	&Notes...
	
PSTAT	PSTAT	300	Potentiostat
VDC	POTEN	1.00000E-001	T	DC &Voltage (V)
FREQINIT	QUANT	1.00000E+005	Initial Fre&q. (Hz)
FREQFINAL	QUANT	1.00000E+001	Final Fre&q. (Hz)
PTSPERDEC	QUANT	2.00000E+001	Points/&decade
VAC	QUANT	1.00000E+001	AC &Voltage (mV rms)
AREA	QUANT	1.00000E+000	&Area (cm²)
DENSITY	QUANT	7.87000E+000	&Density (gm/cm³)
EQUIV	QUANT	7.00000E+000	Equiv. &Wt
CONDIT	TWOPARAM	F	1.50000E+001	0.00000E+000	Conditionin&g	Time(s)	E(V)
DELAY	TWOPARAM	F	6.00000E+002	0.00000E+000	Init. De&lay	Time(s)	Stab.(mV/s)
SPEED	SELECTOR	1	&Optimize for:
ZGUESS	QUANT	1.00000E+002	E&stimated Z (ohms)
OCVCURVE	TABLE	39
	Pt	T	Vf	Vm	Ach	Over
	#	s	V vs. Ref.	V	V	bits
	0	0.258332	-4.81543E-001	4.47208E-006	-1.84600E-004	......
	1	0.516663	-4.81193E-001	4.47208E-006	-8.46000E-005	......
	2	0.774994	-4.79993E-001	4.47208E-006	-1.84600E-004	......
	3	1.03333	-4.79893E-001	4.47208E-006	1.54000E-005	......
	4	1.29166	-4.79243E-001	4.47208E-006	-1.84600E-004	......
	5	1.54999	-4.79593E-001	4.47208E-006	-8.46000E-005	......
	6	1.80832	-4.79643E-001	4.47208E-006	-8.46000E-005	......
	7	2.06665	-4.79843E-001	4.47208E-006	-1.84600E-004	......
	8	2.32498	-4.80343E-001	4.47208E-006	-1.84600E-004	......
	9	2.58332	-4.81343E-001	4.47208E-006	-8.46000E-005	......
	10	2.84165	-4.80893E-001	4.47208E-006	-1.84600E-004	......
	11	3.09998	-4.80493E-001	4.47208E-006	-8.46000E-005	......
	12	3.35831	-4.78243E-001	4.47208E-006	-1.84600E-004	......
	13	3.61664	-4.78793E-001	4.47208E-006	-1.84600E-004	......
	14	3.87497	-4.78493E-001	4.47208E-006	-1.84600E-004	......
	15	4.1333	-4.79093E-001	4.47208E-006	-1.84600E-004	......
	16	4.39164	-4.79793E-001	4.47208E-006	-1.84600E-004	......
	17	4.64997	-4.79693E-001	4.47208E-006	-2.84600E-004	......
	18	4.9083	-4.77143E-001	4.47208E-006	-8.46000E-005	......
	19	5.16663	-4.77743E-001	4.47208E-006	-8.46000E-005	......
	20	5.42496	-4.78193E-001	4.47208E-006	-8.46000E-005	......
	21	5.68329	-4.77843E-001	4.47208E-006	-8.46000E-005	......
	22	5.94162	-4.78393E-001	4.47208E-006	-1.84600E-004	......
	23	6.19996	-4.79443E-001	4.47208E-006	-8.46000E-005	......
	24	6.45829	-4.80193E-001	4.47208E-006	-8.46000E-005	......
	25	6.71662	-4.80493E-001	4.47208E-006	-1.84600E-004	......
	26	6.97495	-4.78543E-001	4.47208E-006	-8.46000E-005	......
	27	7.23328	-4.75793E-001	4.47208E-006	-8.46000E-005	......
	28	7.49161	-4.76193E-001	4.47208E-006	-8.46000E-005	......
	29	7.74995	-4.77793E-001	4.47208E-006	-8.46000E-005	......
	30	8.00828	-4.79043E-001	4.47208E-006	-1.84600E-004	......
	31	8.26661	-4.79443E-001	4.47208E-006	-1.84600E-004	......
	32	8.52494	-4.79993E-001	4.47208E-006	-8.46000E-005	......
	33	8.78327	-4.79743E-001	4.47208E-006	-1.84600E-004	......
	34	9.0416	-4.80293E-001	4.47208E-006	-8.46000E-005	......
	35	9.29993	-4.80493E-001	4.47208E-006	-8.46000E-005	......
	36	9.5583	-4.78994E-001	4.47208E-006	-1.84600E-004	......
	37	9.8166	-4.78243E-001	4.47208E-006	-1.84600E-004	......
	38	10.0749	-4.79293E-001	4.47208E-006	-1.84600E-004	......
EOC	QUANT	-0.479293	Open Circuit (V)
PSTATMODEL	IQUANT	32	Pstat Model
PSTATSECTION	LABEL	PStat0	Pstat Section
CTRLMODE	IQUANT	1	Control Mode
IESTAB	IQUANT	0	I/E Stability
CASPEED	IQUANT	1	Control Amp Speed
CONVENTION	IQUANT	1	Current Convention
ICHRANGE	IQUANT	2	Ich Range
ICHRANGEMODE	TOGGLE	F	Ich Auto Range
ICHOFFSETENABLE	TOGGLE	T	Ich Offset Enable
ICHOFFSET	QUANT	0	Ich Offset (V)
ICHFILTER	IQUANT	3	Ich Filter
VCHRANGE	IQUANT	2	Vch Range
VCHRANGEMODE	TOGGLE	F	Vch Auto Range
VCHOFFSETENABLE	TOGGLE	T	Vch Offset Enable
VCHOFFSET	QUANT	0	Vch Offset (V)
VCHFILTER	IQUANT	3	Vch Filter
ACHRANGE	IQUANT	0	Ach Range
IERANGELOWERLIMIT	IQUANT	3	I/E Range Lower Limit
IERANGEMODE	TOGGLE	F	I/E AutoRange
IERANGE	IQUANT	11	I/E Range
POSFEEDENABLE	TOGGLE	F	Positive Feedback IR Comp
POSFEEDRESISTANCE	QUANT	0	Positive Feedback Resistance (ohm)
FC350IDIVISOR	IQUANT	0	FC350 I Divisor
FC350VRANGE	IQUANT	0	FC350 V Range
FRAMEWORKVERSION	QUANT	4.35	Framework Version
ZCURVE	TABLE
	Pt	Time	Freq	Zreal	Zimag	Zsig	Zmod	Zphz	Idc	Vdc	IERange
	#	s	Hz	ohm	ohm	V	ohm	°	A	V	#
	0	6	100007	1610.43	-28.2913	1	1610.68	-1.00644	4.53906E-006	-0.379305	9
	1	8	89134.1	1600	-22.2212	1	1600.16	-0.795685	4.30291E-006	-0.379327	9
	2	10	79433.6	1597.88	-18.8735	1	1598	-0.67672	4.5486E-006	-0.379363	9
	3	12	70800.8	1592.97	-21.3341	1	1593.11	-0.767298	4.2748E-006	-0.379318	9
	4	14	63105.5	1593.83	-17.2479	1	1593.93	-0.620009	4.43252E-006	-0.379324	9
	5	16	56243.5	1590.58	-13.4879	1	1590.64	-0.485846	4.33576E-006	-0.379327	9
	6	18	50123.7	1590.9	-16.1219	1	1590.98	-0.580608	4.40809E-006	-0.379354	9
	7	20	44681	1587.83	-16.365	1	1587.92	-0.590498	4.34346E-006	-0.379324	9
	8	22	39811.2	1598.28	-4.00531	1	1598.28	-0.143584	4.55787E-006	-0.379355	9
	9	24	35488.3	1589.4	-14.9921	1	1589.47	-0.54043	4.53121E-006	-0.379362	9
	10	26	31634.1	1587.7	-17.1757	1	1587.79	-0.619799	4.28622E-006	-0.379363	9
	11	28	28173.1	1589.21	4.95093	1	1589.22	0.178495	3.30646E-006	-0.37934	8
	12	30	25123.7	1587.95	3.05731	1	1587.96	0.110312	3.24282E-006	-0.379304	8
	13	32	22389.3	1588.76	2.79853	1	1588.76	0.100924	3.12302E-006	-0.379354	8
	14	34	19954.4	1589.63	-0.083546	1	1589.63	-0.003011	3.61401E-006	-0.379337	8
	15	36	17778.2	1588.89	-2.79423	1	1588.9	-0.10076	3.76867E-006	-0.379359	8
	16	38	15852.9	1583.66	-9.6718	1	1583.69	-0.349913	3.55651E-006	-0.379384	8
	17	40	14122.3	1588.57	-3.30862	1	1588.58	-0.119333	3.55911E-006	-0.379351	8
	18	42	12587.2	1588.83	-4.58887	1	1588.84	-0.165481	3.70044E-006	-0.379334	8
	19	44	11221.1	1591.43	-7.00046	1	1591.45	-0.252034	3.7349E-006	-0.379337	8
	20	46	9998.2	1591.24	-7.91633	1	1591.26	-0.285041	3.85369E-006	-0.379346	8
	21	48	8912.76	1593.84	-10.8447	1	1593.87	-0.389842	3.78701E-006	-0.379361	8
	22	50	7942.6	1593.94	-9.15156	1	1593.96	-0.32896	3.52885E-006	-0.379351	8
	23	52	7078.05	1593.6	-12.4081	1	1593.65	-0.446108	3.47759E-006	-0.379358	8
	24	54	6311.1	1593.35	-13.3296	1	1593.41	-0.479313	3.31003E-006	-0.37935	8
	25	56	5622.14	1592.88	-15.3739	1	1592.95	-0.552984	3.44561E-006	-0.379357	8
	26	58	5011.18	1594.43	-11.161	1	1594.46	-0.401064	3.28611E-006	-0.379352	8
	27	60	4465.21	1593.72	-17.5051	1	1593.82	-0.6293	3.07384E-006	-0.379346	8
	28	62	3980.93	1595.63	-17.5018	1	1595.73	-0.628426	3.15876E-006	-0.379368	8
	29	64	3548.18	1595.02	-21.3158	1	1595.16	-0.765652	2.85625E-006	-0.379331	8
	30	66	3162.67	1595.45	-24.7537	1	1595.64	-0.888883	3.14692E-006	-0.379321	8
	31	68	2819.01	1595.82	-28.1273	1	1596.07	-1.00977	3.71345E-006	-0.37937	8
	32	69	2511.16	1597.83	-29.8651	1	1598.11	-1.0708	3.85068E-006	-0.379356	8
	33	71	2238.63	1600.54	-31.3349	1	1600.84	-1.12158	3.9914E-006	-0.379355	8
	34	73	1995.37	1597.21	-34.6893	1	1597.59	-1.24419	3.8956E-006	-0.37936	8
	35	75	1778.51	1599.56	-39.4017	1	1600.04	-1.41107	3.65068E-006	-0.379354	8
	36	77	1584.49	1601.16	-42.2997	1	1601.72	-1.5133	3.56368E-006	-0.379357	8
	37	79	1412.76	1599.87	-46.9713	1	1600.56	-1.68168	3.58803E-006	-0.379379	8
	38	81	1259.04	1602.33	-51.2433	1	1603.15	-1.83173	3.83927E-006	-0.37935	8
	39	83	1121.63	1602.89	-57.803	1	1603.93	-2.06529	3.59709E-006	-0.379361	8
	40	85	999.95	1603.03	-64.8763	1	1604.34	-2.31756	3.92705E-006	-0.379362	8
	41	87	891.184	1606.59	-74.3361	1	1608.31	-2.64915	3.85613E-006	-0.379358	8
	42	89	794.163	1607.94	-78.1361	1	1609.83	-2.78204	3.77658E-006	-0.379357	8
	43	91	707.867	1608.35	-87.6706	1	1610.73	-3.12009	3.8775E-006	-0.379377	8
	44	93	630.984	1611.54	-96.461	1	1614.43	-3.42541	3.46246E-006	-0.379358	8
	45	95	562.189	1611.88	-108.738	1	1615.54	-3.85936	3.17179E-006	-0.379375	8
	46	97	501.303	1614.88	-118.649	1	1619.23	-4.20212	3.54077E-006	-0.379373	8
	47	99	446.614	1617.18	-131.707	1	1622.54	-4.65602	4.0893E-006	-0.379369	8
	48	101	398.209	1619.79	-145.847	1	1626.34	-5.14508	3.95984E-006	-0.379375	8
	49	103	354.821	1622.69	-161.446	1	1630.7	-5.6818	4.03051E-006	-0.379362	8
	50	105	316.113	1625.97	-178.689	1	1635.76	-6.27143	4.1687E-006	-0.379363	8
	51	107	281.926	1629.71	-197.7	1	1641.66	-6.91675	3.84476E-006	-0.37937	8
	52	109	251.185	1633.62	-218.533	1	1648.17	-7.61936	3.65643E-006	-0.379369	8
	53	111	223.946	1637.94	-241.725	1	1655.68	-8.39504	3.50329E-006	-0.379366	8
	54	113	199.495	1643.04	-267.485	1	1664.67	-9.24657	3.42586E-006	-0.379363	8
	55	115	177.836	1648.41	-295.953	1	1674.76	-10.1784	3.11443E-006	-0.379369	8
	56	117	158.533	1654.34	-327.353	1	1686.42	-11.1928	3.13438E-006	-0.379362	8
	57	119	141.263	1661	-362.259	1	1700.05	-12.3034	3.22776E-006	-0.37936	8
	58	121	125.911	1668.2	-400.779	1	1715.67	-13.5091	3.13942E-006	-0.379369	8
	59	123	112.198	1676.3	-443.56	1	1733.99	-14.8211	3.30596E-006	-0.379362	8
	60	125	100.009	1685.09	-490.917	1	1755.15	-16.2424	3.21816E-006	-0.379359	8
	61	127	89.1164	1694.68	-543.312	1	1779.64	-17.7758	3.19076E-006	-0.379355	8
	62	129	79.4083	1706.23	-601.687	1	1809.21	-19.4248	3.31773E-006	-0.379361	8
	63	131	70.788	1718.04	-666.513	1	1842.8	-21.2037	3.33906E-006	-0.379366	8
	64	133	63.0971	1731.85	-737.428	1	1882.31	-23.0645	3.41676E-006	-0.379364	8
	65	135	54.5476	1750.57	-839.053	1	1941.27	-25.6085	3.49582E-006	-0.37936	8
	66	138	50.0083	1764.41	-907.387	1	1984.06	-27.2155	3.96272E-006	-0.379361	8
	67	140	46.1675	1777.41	-975.12	1	2027.33	-28.7499	4.05257E-006	-0.379359	8
	68	142	40.0059	1805.32	-1107.07	1	2117.73	-31.5177	3.88742E-006	-0.379355	8
	69	144	35.3046	1830.17	-1238.77	1	2209.99	-34.0926	3.93786E-006	-0.379354	8
	70	146	31.5793	1862.82	-1367.14	1	2310.67	-36.2753	3.85181E-006	-0.379351	8
	71	148	28.5748	1892.23	-1494.52	1	2411.25	-38.3024	3.83984E-006	-0.379356	8
	72	150	24.9911	1931.34	-1684.92	1	2563.01	-41.1017	3.72133E-006	-0.379359	8
	73	153	22.2195	1969.43	-1886.19	1	2726.97	-43.7633	3.56652E-006	-0.379357	8
	74	155	20.0011	2029.06	-2067.98	1	2897.17	-45.5442	4.00445E-006	-0.379358	8
	75	158	17.6486	2089.49	-2314.53	1	3118.18	-47.9251	4.03037E-006	-0.379363	8
	76	160	15.7934	2175.36	-2560.1	1	3359.51	-49.6449	4.53187E-006	-0.379359	8
	77	162	14.2828	2259.21	-2804.81	1	3601.52	-51.1493	4.59517E-006	-0.379364	8
	78	164	12.5002	2373.93	-3168.42	1	3959.09	-53.1578	4.31132E-006	-0.379364	8
	79	167	11.323	2513.75	-3426.83	1	4249.96	-53.7381	4.46999E-006	-0.379355	8
	80	169	9.9987	2657.71	-3785.38	1	4625.21	-54.9273	4.09365E-006	-0.379358	8
