EXPLAIN
TAG	EISPOT
TITLE	LABEL	Tomato_open	Test &Identifier
DATE	LABEL	5/9/2006	Date
TIME	LABEL	19:40:20	Time
NOTES	NOTES	1	&Notes...
	
PSTAT	PSTAT	300	Potentiostat
VDC	POTEN	1.00000E-001	T	DC &Voltage (V)
FREQINIT	QUANT	1.00000E+005	Initial Fre&q. (Hz)
FREQFINAL	QUANT	1.00000E+001	Final Fre&q. (Hz)
PTSPERDEC	QUANT	2.00000E+001	Points/&decade
VAC	QUANT	1.00000E+001	AC &Voltage (mV rms)
AREA	QUANT	1.00000E+000	&Area (cm²)
DENSITY	QUANT	7.87000E+000	&Density (gm/cm³)
EQUIV	QUANT	7.00000E+000	Equiv. &Wt
CONDIT	TWOPARAM	F	1.50000E+001	0.00000E+000	Conditionin&g	Time(s)	E(V)
DELAY	TWOPARAM	F	6.00000E+002	0.00000E+000	Init. De&lay	Time(s)	Stab.(mV/s)
SPEED	SELECTOR	1	&Optimize for:
ZGUESS	QUANT	1.00000E+002	E&stimated Z (ohms)
OCVCURVE	TABLE	39
	Pt	T	Vf	Vm	Ach	Over
	#	s	V vs. Ref.	V	V	bits
	0	0.258332	-4.29243E-001	4.96707E-006	2.15400E-004	......
	1	0.516663	-4.29193E-001	4.96707E-006	2.15400E-004	......
	2	0.774994	-4.33193E-001	4.96707E-006	2.15400E-004	......
	3	1.03333	-4.52593E-001	4.96707E-006	3.15400E-004	......
	4	1.29166	-4.72694E-001	4.96707E-006	3.15400E-004	......
	5	1.54999	-4.81093E-001	4.96707E-006	3.15400E-004	......
	6	1.80832	-4.85393E-001	4.96707E-006	2.15400E-004	......
	7	2.06665	-4.82643E-001	4.96707E-006	3.15400E-004	......
	8	2.32498	-4.77343E-001	4.96707E-006	3.15400E-004	......
	9	2.58332	-4.74793E-001	4.96707E-006	3.15400E-004	......
	10	2.84165	-4.70593E-001	4.96707E-006	1.15400E-004	......
	11	3.09998	-4.68843E-001	4.96707E-006	2.15400E-004	......
	12	3.35831	-4.69243E-001	4.96707E-006	3.15400E-004	......
	13	3.61664	-4.72643E-001	4.96707E-006	3.15400E-004	......
	14	3.87497	-4.72493E-001	4.96707E-006	2.15400E-004	......
	15	4.1333	-4.70543E-001	4.96707E-006	3.15400E-004	......
	16	4.39164	-4.68693E-001	4.96707E-006	2.15400E-004	......
	17	4.64997	-4.69444E-001	4.96707E-006	2.15400E-004	......
	18	4.9083	-4.71693E-001	4.96707E-006	3.15400E-004	......
	19	5.16663	-4.75493E-001	4.96707E-006	4.15400E-004	......
	20	5.42496	-4.80143E-001	4.96707E-006	2.15400E-004	......
	21	5.68329	-4.85043E-001	4.96707E-006	3.15400E-004	......
	22	5.94162	-4.81193E-001	4.96707E-006	3.15400E-004	......
	23	6.19996	-4.75843E-001	4.96707E-006	2.15400E-004	......
	24	6.45829	-4.72493E-001	4.96707E-006	2.15400E-004	......
	25	6.71662	-4.70393E-001	4.96707E-006	3.15400E-004	......
	26	6.97495	-4.70643E-001	4.96707E-006	4.15400E-004	......
	27	7.23328	-4.72593E-001	4.96707E-006	3.15400E-004	......
	28	7.49161	-4.76743E-001	4.96707E-006	2.15400E-004	......
	29	7.74995	-4.82393E-001	4.96707E-006	4.15400E-004	......
	30	8.00828	-4.88043E-001	4.96707E-006	2.15400E-004	......
	31	8.26661	-4.92993E-001	4.96707E-006	2.15400E-004	......
	32	8.52494	-4.96893E-001	4.96707E-006	3.15400E-004	......
	33	8.78327	-4.99643E-001	4.96707E-006	4.15400E-004	......
	34	9.0416	-5.01293E-001	4.96707E-006	2.15400E-004	......
	35	9.29993	-5.02443E-001	4.96707E-006	3.15400E-004	......
	36	9.5583	-5.03393E-001	4.96707E-006	2.15400E-004	......
	37	9.8166	-5.04043E-001	4.96707E-006	3.15400E-004	......
	38	10.0749	-5.04443E-001	4.96707E-006	1.15400E-004	......
EOC	QUANT	-0.504443	Open Circuit (V)
PSTATMODEL	IQUANT	32	Pstat Model
PSTATSECTION	LABEL	PStat0	Pstat Section
CTRLMODE	IQUANT	1	Control Mode
IESTAB	IQUANT	0	I/E Stability
CASPEED	IQUANT	1	Control Amp Speed
CONVENTION	IQUANT	1	Current Convention
ICHRANGE	IQUANT	2	Ich Range
ICHRANGEMODE	TOGGLE	F	Ich Auto Range
ICHOFFSETENABLE	TOGGLE	T	Ich Offset Enable
ICHOFFSET	QUANT	0	Ich Offset (V)
ICHFILTER	IQUANT	3	Ich Filter
VCHRANGE	IQUANT	2	Vch Range
VCHRANGEMODE	TOGGLE	F	Vch Auto Range
VCHOFFSETENABLE	TOGGLE	T	Vch Offset Enable
VCHOFFSET	QUANT	0	Vch Offset (V)
VCHFILTER	IQUANT	3	Vch Filter
ACHRANGE	IQUANT	0	Ach Range
IERANGELOWERLIMIT	IQUANT	3	I/E Range Lower Limit
IERANGEMODE	TOGGLE	F	I/E AutoRange
IERANGE	IQUANT	11	I/E Range
POSFEEDENABLE	TOGGLE	F	Positive Feedback IR Comp
POSFEEDRESISTANCE	QUANT	0	Positive Feedback Resistance (ohm)
FC350IDIVISOR	IQUANT	0	FC350 I Divisor
FC350VRANGE	IQUANT	0	FC350 V Range
FRAMEWORKVERSION	QUANT	4.35	Framework Version
ZCURVE	TABLE
	Pt	Time	Freq	Zreal	Zimag	Zsig	Zmod	Zphz	Idc	Vdc	IERange
	#	s	Hz	ohm	ohm	V	ohm	°	A	V	#
	0	6	100007	2118.23	-44.488	1	2118.7	-1.20318	1.79426E-006	-0.404367	9
	1	8	89134.1	2113.65	-37.0363	1	2113.98	-1.00386	1.60584E-006	-0.404365	9
	2	10	79433.6	2107.79	-36.5643	1	2108.11	-0.99382	1.66458E-006	-0.40436	9
	3	12	70800.8	2104.99	-32.4501	1	2105.24	-0.883193	1.64909E-006	-0.404366	9
	4	14	63105.5	2099.92	-28.6796	1	2100.11	-0.782469	1.61448E-006	-0.404364	9
	5	16	56243.5	2098.58	-27.2569	1	2098.76	-0.744131	1.70411E-006	-0.404339	9
	6	18	50123.7	2096.48	-29.607	1	2096.69	-0.809092	1.67911E-006	-0.404334	9
	7	20	44681	2095.88	-25.7847	1	2096.04	-0.704849	1.61016E-006	-0.404371	9
	8	22	39811.2	2113.12	-49.1448	1	2113.69	-1.33229	1.43495E-006	-0.404359	9
	9	24	35488.3	2091.47	-24.4573	1	2091.61	-0.669977	1.20123E-006	-0.404327	9
	10	26	31634.1	2086.11	-24.1151	1	2086.25	-0.662302	1.14895E-006	-0.404369	9
	11	28	28173.1	2088.17	5.80294	1	2088.18	0.159222	3.7085E-007	-0.404359	8
	12	30	25123.7	2088.04	5.74637	1	2088.05	0.15768	3.25208E-007	-0.404335	8
	13	32	22389.3	2090.26	1.38254	1	2090.26	0.037897	5.35555E-007	-0.404323	8
	14	34	19954.4	2089.3	-0.543776	1	2089.3	-0.014912	3.39334E-007	-0.404351	8
	15	36	17778.2	2091.68	-4.87857	1	2091.68	-0.133635	3.57147E-007	-0.404345	8
	16	38	15852.9	2091.36	-6.15266	1	2091.37	-0.16856	4.26056E-007	-0.404336	8
	17	40	14122.3	2094.32	-7.09035	1	2094.34	-0.193974	3.90734E-007	-0.404342	8
	18	42	12587.2	2091.86	-9.62	1	2091.88	-0.263489	3.83641E-007	-0.404341	8
	19	44	11221.1	2095.35	-9.07954	1	2095.37	-0.248272	3.83492E-007	-0.404338	8
	20	46	9998.2	2094.96	-8.88108	1	2094.98	-0.24289	3.83162E-007	-0.404339	8
	21	48	8912.76	2099.17	-12.8403	1	2099.2	-0.350467	4.45616E-007	-0.404327	8
	22	50	7942.6	2098.05	-9.22247	1	2098.07	-0.251855	4.30361E-007	-0.404328	8
	23	52	7078.05	2095.96	-13.4902	1	2096	-0.368767	4.31895E-007	-0.404334	8
	24	53	6311.1	2100.14	-15.4546	1	2100.2	-0.421623	3.93669E-007	-0.404348	8
	25	55	5622.14	2100.03	-19.4154	1	2100.12	-0.529701	3.69375E-007	-0.404347	8
	26	57	5011.18	2102.55	-18.6713	1	2102.63	-0.508792	3.67441E-007	-0.404339	8
	27	59	4465.21	2104.58	-19.8713	1	2104.67	-0.540968	3.67061E-007	-0.40434	8
	28	61	3980.93	2102.94	-21.6741	1	2103.06	-0.590502	3.25442E-007	-0.40435	8
	29	63	3548.18	2107.72	-25.3139	1	2107.87	-0.688094	3.51814E-007	-0.404364	8
	30	65	3162.67	2104.59	-27.2209	1	2104.76	-0.741028	3.64692E-007	-0.404354	8
	31	67	2819.01	2109.06	-32.5412	1	2109.31	-0.88396	4.56061E-007	-0.404358	8
	32	69	2511.16	2107.56	-31.6762	1	2107.8	-0.861078	4.21837E-007	-0.404342	8
	33	71	2238.63	2109.25	-38.7666	1	2109.61	-1.05294	4.04153E-007	-0.404353	8
	34	73	1995.37	2111.46	-39.6428	1	2111.83	-1.07561	4.1615E-007	-0.404362	8
	35	75	1778.51	2111.42	-46.4183	1	2111.93	-1.25941	4.03527E-007	-0.404342	8
	36	77	1584.49	2112.37	-51.52	1	2113	-1.39715	4.52856E-007	-0.404353	8
	37	79	1412.76	2112.1	-55.5618	1	2112.83	-1.5069	5.00069E-007	-0.404335	8
	38	81	1259.04	2112.8	-61.6974	1	2113.7	-1.67266	4.51536E-007	-0.404342	8
	39	83	1121.63	2116.74	-68.9438	1	2117.87	-1.8655	5.2803E-007	-0.404336	8
	40	85	999.95	2115.24	-76.8996	1	2116.64	-2.08207	6.48942E-007	-0.404351	8
	41	87	891.184	2118.4	-83.7155	1	2120.05	-2.26306	5.689E-007	-0.40435	8
	42	89	794.163	2119.93	-93.597	1	2122	-2.52802	5.19637E-007	-0.404348	8
	43	91	707.867	2123.52	-103.304	1	2126.04	-2.78511	5.38517E-007	-0.404336	8
	44	93	630.984	2122.89	-112.165	1	2125.85	-3.02449	5.03503E-007	-0.404339	8
	45	95	562.189	2128.55	-126.73	1	2132.32	-3.40726	4.56147E-007	-0.404331	8
	46	97	501.303	2127.7	-138.525	1	2132.21	-3.72502	4.14023E-007	-0.404359	8
	47	99	446.614	2130.23	-153.55	1	2135.76	-4.12283	3.85484E-007	-0.40435	8
	48	101	398.209	2133.25	-169.95	1	2140.01	-4.55498	3.70652E-007	-0.404352	8
	49	103	354.821	2136.42	-187.987	1	2144.68	-5.02858	3.82861E-007	-0.404355	8
	50	105	316.113	2140.28	-207.884	1	2150.35	-5.54769	3.62989E-007	-0.404351	8
	51	107	281.926	2144.57	-229.718	1	2156.84	-6.11398	3.39142E-007	-0.40435	8
	52	109	251.185	2149.11	-253.88	1	2164.05	-6.73728	2.97912E-007	-0.404352	8
	53	111	223.946	2154.41	-280.432	1	2172.59	-7.41629	2.86559E-007	-0.404357	8
	54	113	199.495	2159.97	-309.877	1	2182.08	-8.16415	2.77128E-007	-0.404356	8
	55	115	177.836	2166.18	-342.554	1	2193.09	-8.98621	2.86347E-007	-0.404354	8
	56	117	158.533	2173.16	-378.379	1	2205.86	-9.877	2.80573E-007	-0.404356	8
	57	119	141.263	2180.83	-418.184	1	2220.56	-10.855	2.85898E-007	-0.404355	8
	58	121	125.911	2189.11	-462.374	1	2237.41	-11.9265	2.77556E-007	-0.404351	8
	59	123	112.198	2198.41	-510.92	1	2257	-13.0836	2.76997E-007	-0.404353	8
	60	125	100.009	2208.56	-564.823	1	2279.64	-14.3455	2.83759E-007	-0.404357	8
	61	127	89.1164	2219.43	-624.426	1	2305.59	-15.7137	2.79037E-007	-0.404358	8
	62	129	79.4083	2231.57	-690.402	1	2335.93	-17.191	3.4387E-007	-0.404358	8
	63	131	70.788	2244.64	-763.241	1	2370.85	-18.7795	3.71711E-007	-0.404349	8
	64	133	63.0971	2258.69	-843.796	1	2411.16	-20.4846	3.8612E-007	-0.404349	8
	65	135	54.5476	2278.51	-958.37	1	2471.86	-22.8122	3.70901E-007	-0.404348	8
	66	137	50.0083	2291.21	-1034.16	1	2513.79	-24.2924	3.60803E-007	-0.40435	8
	67	139	46.1675	2303.19	-1109.4	1	2556.45	-25.7192	3.69677E-007	-0.404349	8
	68	142	40.0059	2327.52	-1258.68	1	2646.06	-28.4036	3.84011E-007	-0.404353	8
	69	144	35.3046	2350.55	-1405.58	1	2738.75	-30.8786	3.7075E-007	-0.404355	8
	70	146	31.5793	2372.73	-1551.87	1	2835.16	-33.1864	3.71547E-007	-0.404347	8
	71	148	28.5748	2394.48	-1696.06	1	2934.3	-35.3108	3.76003E-007	-0.404351	8
	72	150	24.9911	2426.43	-1912.58	1	3089.58	-38.2462	3.85097E-007	-0.404352	8
	73	152	22.2195	2457.18	-2124.73	1	3248.42	-40.85	3.89644E-007	-0.404352	8
	74	155	20.0011	2487.21	-2336.18	1	3412.32	-43.2064	3.77806E-007	-0.404346	8
	75	157	17.6486	2526.85	-2616.02	1	3637.1	-45.9933	4.15006E-007	-0.404347	8
	76	159	15.7934	2570	-2892.23	1	3869.09	-48.3761	4.04937E-007	-0.404351	8
	77	162	14.2828	2606.51	-3169.79	1	4103.83	-50.5696	3.7093E-007	-0.404344	8
	78	164	12.5002	2664.67	-3581.92	1	4464.37	-53.3536	3.75934E-007	-0.40435	8
	79	166	11.323	2710.75	-3913.91	1	4760.97	-55.2937	3.76178E-007	-0.404347	8
	80	169	9.9987	2781.64	-4388.62	1	5195.92	-57.6323	3.72376E-007	-0.404346	8
