EXPLAIN
TAG	EISPOT
TITLE	LABEL	Tomato_open	Test &Identifier
DATE	LABEL	5/9/2006	Date
TIME	LABEL	19:50:21	Time
NOTES	NOTES	1	&Notes...
	
PSTAT	PSTAT	300	Potentiostat
VDC	POTEN	1.00000E-001	T	DC &Voltage (V)
FREQINIT	QUANT	1.00000E+005	Initial Fre&q. (Hz)
FREQFINAL	QUANT	1.00000E+001	Final Fre&q. (Hz)
PTSPERDEC	QUANT	2.00000E+001	Points/&decade
VAC	QUANT	1.00000E+001	AC &Voltage (mV rms)
AREA	QUANT	1.00000E+000	&Area (cm²)
DENSITY	QUANT	7.87000E+000	&Density (gm/cm³)
EQUIV	QUANT	7.00000E+000	Equiv. &Wt
CONDIT	TWOPARAM	F	1.50000E+001	0.00000E+000	Conditionin&g	Time(s)	E(V)
DELAY	TWOPARAM	F	6.00000E+002	0.00000E+000	Init. De&lay	Time(s)	Stab.(mV/s)
SPEED	SELECTOR	1	&Optimize for:
ZGUESS	QUANT	1.00000E+002	E&stimated Z (ohms)
OCVCURVE	TABLE	39
	Pt	T	Vf	Vm	Ach	Over
	#	s	V vs. Ref.	V	V	bits
	0	0.258332	-4.84693E-001	4.08954E-006	-1.84600E-004	......
	1	0.516663	-4.85643E-001	4.08954E-006	-8.46000E-005	......
	2	0.774994	-4.85543E-001	4.08954E-006	1.54000E-005	......
	3	1.03333	-4.85193E-001	4.08954E-006	-8.46000E-005	......
	4	1.29166	-4.84693E-001	4.08954E-006	-1.84600E-004	......
	5	1.54999	-4.85643E-001	4.08954E-006	-8.46000E-005	......
	6	1.80832	-4.86643E-001	4.08954E-006	-8.46000E-005	......
	7	2.06665	-4.86894E-001	4.08954E-006	-8.46000E-005	......
	8	2.32498	-4.86743E-001	4.08954E-006	-8.46000E-005	......
	9	2.58332	-4.86143E-001	4.08954E-006	-1.84600E-004	......
	10	2.84165	-4.86643E-001	4.08954E-006	-1.84600E-004	......
	11	3.09998	-4.87944E-001	4.08954E-006	-8.46000E-005	......
	12	3.35831	-4.88243E-001	4.08954E-006	-1.84600E-004	......
	13	3.61664	-4.87993E-001	4.08954E-006	-1.84600E-004	......
	14	3.87497	-4.87443E-001	4.08954E-006	-8.46000E-005	......
	15	4.1333	-4.87693E-001	4.08954E-006	-1.84600E-004	......
	16	4.39164	-4.88593E-001	4.08954E-006	-1.84600E-004	......
	17	4.64997	-4.88844E-001	4.08954E-006	-1.84600E-004	......
	18	4.9083	-4.87843E-001	4.08954E-006	-1.84600E-004	......
	19	5.16663	-4.86543E-001	4.08954E-006	-8.46000E-005	......
	20	5.42496	-4.85943E-001	4.08954E-006	-1.84600E-004	......
	21	5.68329	-4.85543E-001	4.08954E-006	-8.46000E-005	......
	22	5.94162	-4.85293E-001	4.08954E-006	-1.84600E-004	......
	23	6.19996	-4.84843E-001	4.08954E-006	-8.46000E-005	......
	24	6.45829	-4.84343E-001	4.08954E-006	-8.46000E-005	......
	25	6.71662	-4.85444E-001	4.08954E-006	-1.84600E-004	......
	26	6.97495	-4.86143E-001	4.08954E-006	-1.84600E-004	......
	27	7.23328	-4.86043E-001	4.08954E-006	-8.46000E-005	......
	28	7.49161	-4.85293E-001	4.08954E-006	1.54000E-005	......
	29	7.74995	-4.84393E-001	4.08954E-006	-1.84600E-004	......
	30	8.00828	-4.85243E-001	4.08954E-006	-8.46000E-005	......
	31	8.26661	-4.84893E-001	4.08954E-006	-1.84600E-004	......
	32	8.52494	-4.83893E-001	4.08954E-006	-1.84600E-004	......
	33	8.78327	-4.82793E-001	4.08954E-006	-8.46000E-005	......
	34	9.0416	-4.81793E-001	4.08954E-006	-1.84600E-004	......
	35	9.29993	-4.82343E-001	4.08954E-006	-8.46000E-005	......
	36	9.5583	-4.83743E-001	4.08954E-006	-8.46000E-005	......
	37	9.8166	-4.84293E-001	4.08954E-006	-1.84600E-004	......
	38	10.0749	-4.84243E-001	4.08954E-006	-8.46000E-005	......
EOC	QUANT	-0.484243	Open Circuit (V)
PSTATMODEL	IQUANT	32	Pstat Model
PSTATSECTION	LABEL	PStat0	Pstat Section
CTRLMODE	IQUANT	1	Control Mode
IESTAB	IQUANT	0	I/E Stability
CASPEED	IQUANT	1	Control Amp Speed
CONVENTION	IQUANT	1	Current Convention
ICHRANGE	IQUANT	2	Ich Range
ICHRANGEMODE	TOGGLE	F	Ich Auto Range
ICHOFFSETENABLE	TOGGLE	T	Ich Offset Enable
ICHOFFSET	QUANT	0	Ich Offset (V)
ICHFILTER	IQUANT	3	Ich Filter
VCHRANGE	IQUANT	2	Vch Range
VCHRANGEMODE	TOGGLE	F	Vch Auto Range
VCHOFFSETENABLE	TOGGLE	T	Vch Offset Enable
VCHOFFSET	QUANT	0	Vch Offset (V)
VCHFILTER	IQUANT	3	Vch Filter
ACHRANGE	IQUANT	0	Ach Range
IERANGELOWERLIMIT	IQUANT	3	I/E Range Lower Limit
IERANGEMODE	TOGGLE	F	I/E AutoRange
IERANGE	IQUANT	11	I/E Range
POSFEEDENABLE	TOGGLE	F	Positive Feedback IR Comp
POSFEEDRESISTANCE	QUANT	0	Positive Feedback Resistance (ohm)
FC350IDIVISOR	IQUANT	0	FC350 I Divisor
FC350VRANGE	IQUANT	0	FC350 V Range
FRAMEWORKVERSION	QUANT	4.35	Framework Version
ZCURVE	TABLE
	Pt	Time	Freq	Zreal	Zimag	Zsig	Zmod	Zphz	Idc	Vdc	IERange
	#	s	Hz	ohm	ohm	V	ohm	°	A	V	#
	0	6	100007	2100.25	-44.0459	1	2100.71	-1.20142	2.13269E-006	-0.384159	9
	1	8	89134.1	2091.6	-38.5777	1	2091.95	-1.05665	2.26063E-006	-0.384122	9
	2	10	79433.6	2085.72	-33.4364	1	2085.99	-0.918433	2.44255E-006	-0.384175	9
	3	12	70800.8	2084.07	-29.0117	1	2084.28	-0.797544	2.24342E-006	-0.384162	9
	4	14	63105.5	2077.83	-29.4775	1	2078.04	-0.812781	2.26182E-006	-0.384167	9
	5	16	56243.5	2080.55	-22.847	1	2080.68	-0.629153	2.28568E-006	-0.384146	9
	6	18	50123.7	2077.07	-23.1649	1	2077.2	-0.638974	2.35948E-006	-0.384146	9
	7	20	44681	2075.77	-25.1623	1	2075.92	-0.6945	2.35828E-006	-0.384151	9
	8	22	39811.2	2098.31	-30.926	1	2098.53	-0.844394	2.33437E-006	-0.384112	9
	9	24	35488.3	2072.01	-18.3156	1	2072.09	-0.506455	2.36297E-006	-0.384117	9
	10	26	31634.1	2072.5	-22.1396	1	2072.61	-0.612042	2.58989E-006	-0.384125	9
	11	28	28173.1	2070.96	6.3226	1	2070.97	0.174923	1.41502E-006	-0.384139	8
	12	30	25123.7	2074.78	4.90328	1	2074.79	0.135405	1.37286E-006	-0.384147	8
	13	32	22389.3	2074.65	2.70677	1	2074.65	0.074753	1.42947E-006	-0.384169	8
	14	33	19954.4	2073.54	-0.027685	1	2073.54	-0.000765	1.40517E-006	-0.384097	8
	15	35	17778.2	2074.84	-2.18911	1	2074.84	-0.060451	1.53716E-006	-0.384133	8
	16	37	15852.9	2074.37	-5.82119	1	2074.38	-0.160786	1.53221E-006	-0.384121	8
	17	39	14122.3	2077.18	-7.40786	1	2077.19	-0.204333	1.60622E-006	-0.384136	8
	18	41	12587.2	2076.44	-7.7488	1	2076.46	-0.213814	1.65654E-006	-0.384141	8
	19	43	11221.1	2079.57	-9.13488	1	2079.59	-0.251681	1.41996E-006	-0.384145	8
	20	45	9998.2	2076.71	-12.5606	1	2076.75	-0.346541	1.44521E-006	-0.384137	8
	21	47	8912.76	2080.26	-10.2441	1	2080.28	-0.282146	1.43998E-006	-0.384156	8
	22	49	7942.6	2081.39	-11.2397	1	2081.42	-0.309399	1.52186E-006	-0.384142	8
	23	51	7078.05	2082.09	-12.6115	1	2082.12	-0.347043	1.53864E-006	-0.384146	8
	24	53	6311.1	2079.7	-16.114	1	2079.76	-0.443933	1.56321E-006	-0.384136	8
	25	55	5622.14	2081.44	-17.9856	1	2081.52	-0.495078	1.57653E-006	-0.384137	8
	26	57	5011.18	2081.28	-19.6303	1	2081.37	-0.54039	1.45422E-006	-0.384141	8
	27	59	4465.21	2084.72	-19.9532	1	2084.81	-0.548372	1.52532E-006	-0.384132	8
	28	61	3980.93	2079.7	-23.4485	1	2079.84	-0.645978	1.48477E-006	-0.384165	8
	29	63	3548.18	2082.86	-25.3739	1	2083.01	-0.697959	1.58093E-006	-0.384145	8
	30	65	3162.67	2080.06	-27.3797	1	2080.24	-0.754135	1.47282E-006	-0.384129	8
	31	67	2819.01	2083.48	-29.3547	1	2083.69	-0.807201	1.45197E-006	-0.384128	8
	32	69	2511.16	2088.7	-37.406	1	2089.04	-1.02598	1.49602E-006	-0.384143	8
	33	71	2238.63	2083.33	-37.2857	1	2083.67	-1.02532	1.57992E-006	-0.384137	8
	34	73	1995.37	2087.07	-43.6752	1	2087.53	-1.19883	1.70208E-006	-0.384142	8
	35	75	1778.51	2087.33	-42.7436	1	2087.77	-1.17312	1.7619E-006	-0.384144	8
	36	77	1584.49	2089.58	-51.8443	1	2090.23	-1.42127	1.79986E-006	-0.384156	8
	37	79	1412.76	2090.02	-55.2301	1	2090.75	-1.51373	1.70128E-006	-0.384165	8
	38	81	1259.04	2090.65	-63.1371	1	2091.61	-1.72979	1.8007E-006	-0.38415	8
	39	83	1121.63	2093.14	-67.9736	1	2094.24	-1.86	1.71782E-006	-0.38415	8
	40	85	999.95	2096.19	-75.823	1	2097.56	-2.07159	1.76937E-006	-0.384142	8
	41	87	891.184	2095.91	-83.1988	1	2097.56	-2.2732	1.66492E-006	-0.384141	8
	42	89	794.163	2097.07	-93.6915	1	2099.16	-2.55813	1.69394E-006	-0.384145	8
	43	91	707.867	2100.01	-103.678	1	2102.57	-2.82641	1.76272E-006	-0.384155	8
	44	93	630.984	2101.48	-115.315	1	2104.65	-3.14084	1.59874E-006	-0.384142	8
	45	95	562.189	2103	-123.818	1	2106.64	-3.36951	1.65062E-006	-0.384125	8
	46	97	501.303	2106.29	-137.446	1	2110.77	-3.73354	1.68587E-006	-0.384153	8
	47	99	446.614	2109.09	-152.442	1	2114.59	-4.13408	1.76432E-006	-0.384153	8
	48	100	398.209	2112.27	-168.824	1	2119	-4.56968	1.7724E-006	-0.384161	8
	49	102	354.821	2115.65	-186.647	1	2123.86	-5.04171	1.80687E-006	-0.384159	8
	50	104	316.113	2119.69	-206.374	1	2129.71	-5.56084	1.65645E-006	-0.384158	8
	51	106	281.926	2123.97	-228.009	1	2136.18	-6.12725	1.60931E-006	-0.384154	8
	52	108	251.185	2128.73	-252.045	1	2143.6	-6.75247	1.63817E-006	-0.38416	8
	53	110	223.946	2133.95	-278.357	1	2152.02	-7.43183	1.62476E-006	-0.384163	8
	54	112	199.495	2139.79	-307.736	1	2161.81	-8.18392	1.60196E-006	-0.384155	8
	55	114	177.836	2146.02	-340.035	1	2172.79	-9.00363	1.70611E-006	-0.384156	8
	56	116	158.533	2153.22	-375.775	1	2185.77	-9.8994	1.71971E-006	-0.384155	8
	57	118	141.263	2160.88	-415.44	1	2200.45	-10.8826	1.75983E-006	-0.384155	8
	58	121	125.911	2169.35	-458.956	1	2217.37	-11.9456	1.79609E-006	-0.384158	8
	59	123	112.198	2178.69	-507.52	1	2237.02	-13.113	1.72359E-006	-0.38415	8
	60	125	100.009	2188.87	-561.048	1	2259.63	-14.3764	1.7704E-006	-0.384148	8
	61	127	89.1164	2200.05	-620.418	1	2285.86	-15.7485	1.76886E-006	-0.384151	8
	62	129	79.4083	2212.14	-685.938	1	2316.04	-17.2276	1.70147E-006	-0.384151	8
	63	131	70.788	2225.54	-758.636	1	2351.29	-18.8231	1.69181E-006	-0.384149	8
	64	133	63.0971	2240.06	-839.063	1	2392.05	-20.5345	1.70508E-006	-0.384153	8
	65	135	54.5476	2260.25	-953.13	1	2452.99	-22.8649	1.88258E-006	-0.384154	8
	66	137	50.0083	2273.29	-1029	1	2495.33	-24.3538	1.77216E-006	-0.384157	8
	67	139	46.1675	2286.57	-1104.26	1	2539.25	-25.7774	1.82893E-006	-0.384153	8
	68	141	40.0059	2312.02	-1253.29	1	2629.86	-28.461	1.82411E-006	-0.384151	8
	69	143	35.3046	2337.03	-1400.44	1	2724.5	-30.9317	1.82083E-006	-0.38416	8
	70	146	31.5793	2361.51	-1546	1	2822.56	-33.2115	1.83471E-006	-0.384163	8
	71	148	28.5748	2385.56	-1690.4	1	2923.76	-35.3212	1.91117E-006	-0.384155	8
	72	150	24.9911	2422.05	-1906.24	1	3082.22	-38.204	1.8233E-006	-0.38415	8
	73	152	22.2195	2460.31	-2115.47	1	3244.74	-40.6902	1.92183E-006	-0.384153	8
	74	154	20.0011	2493.69	-2327.64	1	3411.22	-43.0275	1.8777E-006	-0.384162	8
	75	157	17.6486	2539.1	-2608.56	1	3640.27	-45.773	1.82596E-006	-0.384156	8
	76	159	15.7934	2589.27	-2882.28	1	3874.51	-48.0654	1.87825E-006	-0.384162	8
	77	161	14.2828	2639.01	-3159.68	1	4116.79	-50.131	1.89818E-006	-0.384158	8
	78	164	12.5002	2715.49	-3564.25	1	4480.82	-52.6973	1.95828E-006	-0.384164	8
	79	166	11.323	2794.19	-3900.72	1	4798.24	-54.385	2.01656E-006	-0.384168	8
	80	169	9.9987	2870.84	-4366.89	1	5226.03	-56.6787	1.84782E-006	-0.384163	8
