EXPLAIN
TAG	EISPOT
TITLE	LABEL	Tomato_open	Test &Identifier
DATE	LABEL	5/9/2006	Date
TIME	LABEL	17:27:41	Time
NOTES	NOTES	1	&Notes...
	
PSTAT	PSTAT	300	Potentiostat
VDC	POTEN	1.00000E-001	T	DC &Voltage (V)
FREQINIT	QUANT	1.00000E+005	Initial Fre&q. (Hz)
FREQFINAL	QUANT	1.00000E+001	Final Fre&q. (Hz)
PTSPERDEC	QUANT	2.00000E+001	Points/&decade
VAC	QUANT	1.00000E+001	AC &Voltage (mV rms)
AREA	QUANT	1.00000E+000	&Area (cm²)
DENSITY	QUANT	7.87000E+000	&Density (gm/cm³)
EQUIV	QUANT	7.00000E+000	Equiv. &Wt
CONDIT	TWOPARAM	F	1.50000E+001	0.00000E+000	Conditionin&g	Time(s)	E(V)
DELAY	TWOPARAM	F	6.00000E+002	0.00000E+000	Init. De&lay	Time(s)	Stab.(mV/s)
SPEED	SELECTOR	1	&Optimize for:
ZGUESS	QUANT	1.00000E+002	E&stimated Z (ohms)
OCVCURVE	TABLE	39
	Pt	T	Vf	Vm	Ach	Over
	#	s	V vs. Ref.	V	V	bits
	0	0.258332	-5.01893E-001	5.75107E-006	2.15400E-004	......
	1	0.516663	-5.01593E-001	5.75107E-006	1.54000E-005	......
	2	0.774994	-5.01844E-001	5.75107E-006	2.15400E-004	......
	3	1.03333	-5.01144E-001	5.75107E-006	2.15400E-004	......
	4	1.29166	-4.98544E-001	5.75107E-006	2.15400E-004	......
	5	1.54999	-4.97293E-001	5.75107E-006	1.54000E-005	......
	6	1.80832	-4.98043E-001	5.75107E-006	2.15400E-004	......
	7	2.06665	-4.98143E-001	5.75107E-006	1.54000E-005	......
	8	2.32498	-4.95993E-001	5.75107E-006	2.15400E-004	......
	9	2.58332	-4.93793E-001	5.75107E-006	2.15400E-004	......
	10	2.84165	-4.93943E-001	5.75107E-006	3.15400E-004	......
	11	3.09998	-4.94443E-001	5.75107E-006	1.54000E-005	......
	12	3.35831	-4.94643E-001	5.75107E-006	3.15400E-004	......
	13	3.61664	-4.95043E-001	5.75107E-006	1.54000E-005	......
	14	3.87497	-4.95393E-001	5.75107E-006	4.15400E-004	......
	15	4.1333	-4.96794E-001	5.75107E-006	1.15400E-004	......
	16	4.39164	-4.97443E-001	5.75107E-006	3.15400E-004	......
	17	4.64997	-4.97243E-001	5.75107E-006	1.15400E-004	......
	18	4.9083	-4.98443E-001	5.75107E-006	2.15400E-004	......
	19	5.16663	-4.99193E-001	5.75107E-006	1.15400E-004	......
	20	5.42496	-4.98643E-001	5.75107E-006	2.15400E-004	......
	21	5.68329	-4.98043E-001	5.75107E-006	2.15400E-004	......
	22	5.94162	-4.95643E-001	5.75107E-006	4.15400E-004	......
	23	6.19996	-4.96443E-001	5.75107E-006	1.54000E-005	......
	24	6.45829	-4.97593E-001	5.75107E-006	3.15400E-004	......
	25	6.71662	-4.98394E-001	5.75107E-006	-8.46000E-005	......
	26	6.97495	-5.00344E-001	5.75107E-006	3.15400E-004	......
	27	7.23328	-5.00893E-001	5.75107E-006	1.15400E-004	......
	28	7.49161	-4.99243E-001	5.75107E-006	3.15400E-004	......
	29	7.74995	-5.01193E-001	5.75107E-006	2.15400E-004	......
	30	8.00828	-5.02243E-001	5.75107E-006	2.15400E-004	......
	31	8.26661	-5.02193E-001	5.75107E-006	2.15400E-004	......
	32	8.52494	-5.02843E-001	5.75107E-006	2.15400E-004	......
	33	8.78327	-5.03043E-001	5.75107E-006	1.54000E-005	......
	34	9.0416	-5.01943E-001	5.75107E-006	2.15400E-004	......
	35	9.29993	-5.02393E-001	5.75107E-006	1.54000E-005	......
	36	9.5583	-5.03644E-001	5.75107E-006	3.15400E-004	......
	37	9.8166	-5.05343E-001	5.75107E-006	1.54000E-005	......
	38	10.0749	-5.07293E-001	5.75107E-006	2.15400E-004	......
EOC	QUANT	-0.507293	Open Circuit (V)
PSTATMODEL	IQUANT	32	Pstat Model
PSTATSECTION	LABEL	PStat0	Pstat Section
CTRLMODE	IQUANT	1	Control Mode
IESTAB	IQUANT	0	I/E Stability
CASPEED	IQUANT	1	Control Amp Speed
CONVENTION	IQUANT	1	Current Convention
ICHRANGE	IQUANT	2	Ich Range
ICHRANGEMODE	TOGGLE	F	Ich Auto Range
ICHOFFSETENABLE	TOGGLE	T	Ich Offset Enable
ICHOFFSET	QUANT	0	Ich Offset (V)
ICHFILTER	IQUANT	3	Ich Filter
VCHRANGE	IQUANT	2	Vch Range
VCHRANGEMODE	TOGGLE	F	Vch Auto Range
VCHOFFSETENABLE	TOGGLE	T	Vch Offset Enable
VCHOFFSET	QUANT	0	Vch Offset (V)
VCHFILTER	IQUANT	3	Vch Filter
ACHRANGE	IQUANT	0	Ach Range
IERANGELOWERLIMIT	IQUANT	3	I/E Range Lower Limit
IERANGEMODE	TOGGLE	F	I/E AutoRange
IERANGE	IQUANT	11	I/E Range
POSFEEDENABLE	TOGGLE	F	Positive Feedback IR Comp
POSFEEDRESISTANCE	QUANT	0	Positive Feedback Resistance (ohm)
FC350IDIVISOR	IQUANT	0	FC350 I Divisor
FC350VRANGE	IQUANT	0	FC350 V Range
FRAMEWORKVERSION	QUANT	4.35	Framework Version
ZCURVE	TABLE
	Pt	Time	Freq	Zreal	Zimag	Zsig	Zmod	Zphz	Idc	Vdc	IERange
	#	s	Hz	ohm	ohm	V	ohm	°	A	V	#
	0	6	100007	1611.31	-27.7125	1	1611.55	-0.98532	5.08717E-006	-0.407082	9
	1	8	89134.1	1604.73	-20.0848	1	1604.86	-0.717077	5.03163E-006	-0.407098	9
	2	10	79433.6	1599.68	-22.2628	1	1599.84	-0.797337	4.93781E-006	-0.40711	9
	3	12	70800.8	1596.77	-19.0188	1	1596.89	-0.682403	4.71711E-006	-0.40707	9
	4	14	63105.5	1592.26	-18.9856	1	1592.37	-0.683145	4.63951E-006	-0.407104	9
	5	16	56243.5	1594.65	-14.705	1	1594.72	-0.528337	4.70653E-006	-0.407111	9
	6	18	50123.7	1591.3	-12.4227	1	1591.35	-0.447279	4.3877E-006	-0.407094	9
	7	20	44681	1589.65	-15.5881	1	1589.73	-0.561824	4.60701E-006	-0.407084	9
	8	22	39811.2	1573.07	-9.6661	1	1573.1	-0.352064	4.68841E-006	-0.407073	9
	9	24	35488.3	1590.85	-11.9666	1	1590.9	-0.430977	4.49544E-006	-0.407097	9
	10	26	31634.1	1589.01	-12.4543	1	1589.05	-0.449062	4.72423E-006	-0.407118	9
	11	28	28173.1	1588.84	8.32129	1	1588.86	0.300075	3.79448E-006	-0.407091	8
	12	30	25123.7	1590.45	4.88752	1	1590.46	0.176072	3.73888E-006	-0.407036	8
	13	32	22389.3	1588.17	2.51943	1	1588.17	0.090892	3.68622E-006	-0.407075	8
	14	34	19954.4	1590.78	0.284263	1	1590.78	0.010238	3.74987E-006	-0.407072	8
	15	36	17778.2	1591.14	0.633968	1	1591.14	0.022829	3.72444E-006	-0.407077	8
	16	38	15852.9	1591.33	-3.6178	1	1591.34	-0.130258	3.58675E-006	-0.407119	8
	17	40	14122.3	1593.7	-3.80259	1	1593.7	-0.136708	3.51718E-006	-0.407076	8
	18	42	12587.2	1592.46	-7.23014	1	1592.47	-0.260135	3.46014E-006	-0.407081	8
	19	44	11221.1	1593.47	-6.00171	1	1593.48	-0.2158	3.47897E-006	-0.407095	8
	20	46	9998.2	1595.55	-9.8288	1	1595.58	-0.352945	3.60383E-006	-0.407081	8
	21	48	8912.76	1594.89	-8.12569	1	1594.91	-0.29191	3.75473E-006	-0.407081	8
	22	50	7942.6	1595.74	-12.0894	1	1595.79	-0.434069	3.528E-006	-0.407082	8
	23	52	7078.05	1596.18	-13.1774	1	1596.23	-0.473001	3.56595E-006	-0.407094	8
	24	54	6311.1	1596.43	-12.4698	1	1596.48	-0.447531	3.57196E-006	-0.407092	8
	25	56	5622.14	1595.05	-15.764	1	1595.13	-0.56624	3.52375E-006	-0.407089	8
	26	58	5011.18	1595.72	-15.6135	1	1595.79	-0.560601	3.33241E-006	-0.407089	8
	27	60	4465.21	1598.23	-16.9508	1	1598.32	-0.607657	3.37395E-006	-0.407094	8
	28	62	3980.93	1598.21	-17.3256	1	1598.31	-0.621096	3.55084E-006	-0.407052	8
	29	64	3548.18	1595.19	-21.7216	1	1595.34	-0.780143	3.54914E-006	-0.407046	8
	30	66	3162.67	1597.27	-24.8092	1	1597.47	-0.88986	3.59892E-006	-0.407066	8
	31	67	2819.01	1601.32	-25.609	1	1601.52	-0.916222	3.31865E-006	-0.407109	8
	32	69	2511.16	1599.35	-28.9086	1	1599.61	-1.03552	3.12709E-006	-0.407105	8
	33	71	2238.63	1601.84	-29.8278	1	1602.11	-1.06678	3.11836E-006	-0.407085	8
	34	73	1995.37	1602.4	-33.2791	1	1602.75	-1.18976	3.29215E-006	-0.407096	8
	35	75	1778.51	1601.4	-38.3514	1	1601.86	-1.37189	3.75152E-006	-0.407087	8
	36	77	1584.49	1604.12	-42.3995	1	1604.68	-1.51407	3.63053E-006	-0.407088	8
	37	79	1412.76	1603.81	-49.7062	1	1604.58	-1.77518	3.19956E-006	-0.407079	8
	38	81	1259.04	1604.82	-52.2991	1	1605.67	-1.86654	3.01009E-006	-0.407094	8
	39	83	1121.63	1606.75	-58.4428	1	1607.81	-2.08312	2.95386E-006	-0.407108	8
	40	85	999.95	1607.55	-64.4183	1	1608.84	-2.29475	2.994E-006	-0.407098	8
	41	87	891.184	1608.11	-72.1024	1	1609.73	-2.56723	2.84443E-006	-0.407094	8
	42	89	794.163	1609.41	-78.6178	1	1611.33	-2.79661	2.97065E-006	-0.407096	8
	43	91	707.867	1609.76	-87.6214	1	1612.14	-3.11561	3.03626E-006	-0.407109	8
	44	93	630.984	1613.14	-95.991	1	1615.99	-3.40543	3.20791E-006	-0.407101	8
	45	95	562.189	1613.51	-105.283	1	1616.94	-3.73332	3.3838E-006	-0.407114	8
	46	97	501.303	1616.78	-118.051	1	1621.09	-4.1761	3.43311E-006	-0.407117	8
	47	99	446.614	1619.13	-131.02	1	1624.43	-4.62629	3.63487E-006	-0.407112	8
	48	101	398.209	1621.67	-145.159	1	1628.16	-5.11504	3.33809E-006	-0.407114	8
	49	103	354.821	1624.61	-160.595	1	1632.53	-5.64541	3.36464E-006	-0.407115	8
	50	105	316.113	1627.97	-177.903	1	1637.66	-6.2365	3.15939E-006	-0.407113	8
	51	107	281.926	1631.51	-196.693	1	1643.33	-6.87432	3.22422E-006	-0.407116	8
	52	109	251.185	1635.58	-217.735	1	1650.01	-7.58284	2.91288E-006	-0.407108	8
	53	111	223.946	1640.05	-240.874	1	1657.64	-8.3553	3.22528E-006	-0.407104	8
	54	113	199.495	1644.89	-266.412	1	1666.32	-9.19992	3.54232E-006	-0.407101	8
	55	115	177.836	1650.34	-294.658	1	1676.44	-10.1231	3.55448E-006	-0.407096	8
	56	117	158.533	1656.48	-325.932	1	1688.24	-11.1314	3.07395E-006	-0.407097	8
	57	119	141.263	1662.93	-360.663	1	1701.59	-12.237	3.069E-006	-0.407099	8
	58	121	125.911	1670.3	-398.919	1	1717.28	-13.4324	2.92918E-006	-0.407093	8
	59	123	112.198	1678.29	-441.578	1	1735.41	-14.7411	3.00593E-006	-0.407088	8
	60	125	100.009	1687.02	-488.699	1	1756.37	-16.1554	2.7535E-006	-0.407093	8
	61	128	89.1164	1697.03	-540.972	1	1781.17	-17.681	2.77981E-006	-0.407094	8
	62	130	79.4083	1707.91	-599.365	1	1810.03	-19.3377	2.65193E-006	-0.407095	8
	63	132	70.788	1720.11	-663.56	1	1843.66	-21.0949	2.74351E-006	-0.407096	8
	64	134	63.0971	1733.6	-734.776	1	1882.89	-22.9694	2.78303E-006	-0.407097	8
	65	136	54.5476	1752.68	-836.067	1	1941.88	-25.5022	2.708E-006	-0.407097	8
	66	138	50.0083	1765.82	-903.672	1	1983.61	-27.1015	2.71944E-006	-0.407094	8
	67	140	46.1675	1778.48	-969.97	1	2025.79	-28.6076	2.7461E-006	-0.407097	8
	68	142	40.0059	1802.75	-1102.31	1	2113.05	-31.4443	2.38698E-006	-0.407096	8
	69	144	35.3046	1829.75	-1232.83	1	2206.32	-33.9708	2.41163E-006	-0.407096	8
	70	147	31.5793	1856.34	-1363.75	1	2303.43	-36.3027	2.53817E-006	-0.407097	8
	71	149	28.5748	1883.89	-1491.94	1	2403.11	-38.3772	2.65085E-006	-0.407096	8
	72	151	24.9911	1927.83	-1684.57	1	2560.14	-41.1475	2.81613E-006	-0.40711	8
	73	153	22.2195	1971.48	-1873.65	1	2719.79	-43.5426	2.80574E-006	-0.407099	8
	74	155	20.0011	2018.74	-2057.4	1	2882.39	-45.5435	2.81352E-006	-0.407106	8
	75	158	17.6486	2085.86	-2310.78	1	3112.96	-47.9286	2.99302E-006	-0.407105	8
	76	160	15.7934	2152.25	-2552.75	1	3338.97	-49.8654	2.96032E-006	-0.407102	8
	77	162	14.2828	2228.59	-2793.64	1	3573.66	-51.4193	2.98154E-006	-0.407098	8
	78	165	12.5002	2342.96	-3138.55	1	3916.63	-53.2584	2.85811E-006	-0.407109	8
	79	167	11.323	2437.93	-3439.14	1	4215.59	-54.668	2.74292E-006	-0.407108	8
	80	170	9.9987	2589.05	-3860.83	1	4648.57	-56.1545	2.85431E-006	-0.407102	8
