EXPLAIN
TAG	EISPOT
TITLE	LABEL	Tomato_open	Test &Identifier
DATE	LABEL	5/9/2006	Date
TIME	LABEL	17:32:36	Time
NOTES	NOTES	1	&Notes...
	
PSTAT	PSTAT	300	Potentiostat
VDC	POTEN	1.00000E-001	T	DC &Voltage (V)
FREQINIT	QUANT	1.00000E+005	Initial Fre&q. (Hz)
FREQFINAL	QUANT	1.00000E+001	Final Fre&q. (Hz)
PTSPERDEC	QUANT	2.00000E+001	Points/&decade
VAC	QUANT	1.00000E+001	AC &Voltage (mV rms)
AREA	QUANT	1.00000E+000	&Area (cm²)
DENSITY	QUANT	7.87000E+000	&Density (gm/cm³)
EQUIV	QUANT	7.00000E+000	Equiv. &Wt
CONDIT	TWOPARAM	F	1.50000E+001	0.00000E+000	Conditionin&g	Time(s)	E(V)
DELAY	TWOPARAM	F	6.00000E+002	0.00000E+000	Init. De&lay	Time(s)	Stab.(mV/s)
SPEED	SELECTOR	1	&Optimize for:
ZGUESS	QUANT	1.00000E+002	E&stimated Z (ohms)
OCVCURVE	TABLE	39
	Pt	T	Vf	Vm	Ach	Over
	#	s	V vs. Ref.	V	V	bits
	0	0.258332	-5.04543E-001	5.47307E-006	2.15400E-004	......
	1	0.516663	-5.05843E-001	5.47307E-006	2.15400E-004	......
	2	0.774994	-5.07194E-001	5.47307E-006	2.15400E-004	......
	3	1.03333	-5.06944E-001	5.47307E-006	3.15400E-004	......
	4	1.29166	-5.06893E-001	5.47307E-006	2.15400E-004	......
	5	1.54999	-5.07393E-001	5.47307E-006	2.15400E-004	......
	6	1.80832	-5.06844E-001	5.47307E-006	2.15400E-004	......
	7	2.06665	-5.05343E-001	5.47307E-006	2.15400E-004	......
	8	2.32498	-5.05343E-001	5.47307E-006	3.15400E-004	......
	9	2.58332	-5.05543E-001	5.47307E-006	3.15400E-004	......
	10	2.84165	-5.06043E-001	5.47307E-006	1.15400E-004	......
	11	3.09998	-5.06894E-001	5.47307E-006	3.15400E-004	......
	12	3.35831	-5.07593E-001	5.47307E-006	2.15400E-004	......
	13	3.61664	-5.08193E-001	5.47307E-006	3.15400E-004	......
	14	3.87497	-5.09193E-001	5.47307E-006	3.15400E-004	......
	15	4.1333	-5.09143E-001	5.47307E-006	3.15400E-004	......
	16	4.39164	-5.08994E-001	5.47307E-006	2.15400E-004	......
	17	4.64997	-5.08843E-001	5.47307E-006	2.15400E-004	......
	18	4.9083	-5.09593E-001	5.47307E-006	3.15400E-004	......
	19	5.16663	-5.09443E-001	5.47307E-006	3.15400E-004	......
	20	5.42496	-5.09193E-001	5.47307E-006	3.15400E-004	......
	21	5.68329	-5.08593E-001	5.47307E-006	2.15400E-004	......
	22	5.94162	-5.08593E-001	5.47307E-006	2.15400E-004	......
	23	6.19996	-5.08743E-001	5.47307E-006	4.15400E-004	......
	24	6.45829	-5.08543E-001	5.47307E-006	2.15400E-004	......
	25	6.71662	-5.08644E-001	5.47307E-006	3.15400E-004	......
	26	6.97495	-5.08644E-001	5.47307E-006	2.15400E-004	......
	27	7.23328	-5.08244E-001	5.47307E-006	4.15400E-004	......
	28	7.49161	-5.06393E-001	5.47307E-006	3.15400E-004	......
	29	7.74995	-5.04393E-001	5.47307E-006	3.15400E-004	......
	30	8.00828	-5.04843E-001	5.47307E-006	4.15400E-004	......
	31	8.26661	-5.04993E-001	5.47307E-006	4.15400E-004	......
	32	8.52494	-5.05044E-001	5.47307E-006	3.15400E-004	......
	33	8.78327	-5.05593E-001	5.47307E-006	4.15400E-004	......
	34	9.0416	-5.05543E-001	5.47307E-006	3.15400E-004	......
	35	9.29993	-5.04993E-001	5.47307E-006	3.15400E-004	......
	36	9.5583	-5.02443E-001	5.47307E-006	2.15400E-004	......
	37	9.8166	-5.03493E-001	5.47307E-006	3.15400E-004	......
	38	10.0749	-5.04993E-001	5.47307E-006	2.15400E-004	......
EOC	QUANT	-0.504993	Open Circuit (V)
PSTATMODEL	IQUANT	32	Pstat Model
PSTATSECTION	LABEL	PStat0	Pstat Section
CTRLMODE	IQUANT	1	Control Mode
IESTAB	IQUANT	0	I/E Stability
CASPEED	IQUANT	1	Control Amp Speed
CONVENTION	IQUANT	1	Current Convention
ICHRANGE	IQUANT	2	Ich Range
ICHRANGEMODE	TOGGLE	F	Ich Auto Range
ICHOFFSETENABLE	TOGGLE	T	Ich Offset Enable
ICHOFFSET	QUANT	0	Ich Offset (V)
ICHFILTER	IQUANT	3	Ich Filter
VCHRANGE	IQUANT	2	Vch Range
VCHRANGEMODE	TOGGLE	F	Vch Auto Range
VCHOFFSETENABLE	TOGGLE	T	Vch Offset Enable
VCHOFFSET	QUANT	0	Vch Offset (V)
VCHFILTER	IQUANT	3	Vch Filter
ACHRANGE	IQUANT	0	Ach Range
IERANGELOWERLIMIT	IQUANT	3	I/E Range Lower Limit
IERANGEMODE	TOGGLE	F	I/E AutoRange
IERANGE	IQUANT	11	I/E Range
POSFEEDENABLE	TOGGLE	F	Positive Feedback IR Comp
POSFEEDRESISTANCE	QUANT	0	Positive Feedback Resistance (ohm)
FC350IDIVISOR	IQUANT	0	FC350 I Divisor
FC350VRANGE	IQUANT	0	FC350 V Range
FRAMEWORKVERSION	QUANT	4.35	Framework Version
ZCURVE	TABLE
	Pt	Time	Freq	Zreal	Zimag	Zsig	Zmod	Zphz	Idc	Vdc	IERange
	#	s	Hz	ohm	ohm	V	ohm	°	A	V	#
	0	6	100007	1607.52	-22.5155	1	1607.68	-0.802451	5.35957E-006	-0.404817	9
	1	8	89134.1	1602.21	-20.0739	1	1602.33	-0.717818	5.0361E-006	-0.404774	9
	2	10	79433.6	1598.94	-20.1784	1	1599.07	-0.723025	5.23731E-006	-0.404782	9
	3	12	70800.8	1597.79	-17.4637	1	1597.89	-0.626213	4.92782E-006	-0.404857	9
	4	14	63105.5	1592.18	-14.7361	1	1592.25	-0.530273	4.77357E-006	-0.40482	9
	5	16	56243.5	1592.59	-16.6117	1	1592.68	-0.597606	4.71176E-006	-0.404815	9
	6	18	50123.7	1593.89	-17.2839	1	1593.98	-0.621282	4.50167E-006	-0.40478	9
	7	20	44681	1589.69	-14.9211	1	1589.76	-0.537772	4.5667E-006	-0.404805	9
	8	22	39811.2	1580.17	1.71626	1	1580.17	0.062231	4.62528E-006	-0.404809	9
	9	24	35488.3	1593.64	-16.0799	1	1593.72	-0.578098	4.53173E-006	-0.404791	9
	10	26	31634.1	1591.63	-17.0447	1	1591.72	-0.613552	4.20665E-006	-0.404819	9
	11	28	28173.1	1589.93	6.92978	1	1589.95	0.249725	3.19215E-006	-0.404799	8
	12	30	25123.7	1590.45	4.23952	1	1590.46	0.152728	3.27433E-006	-0.404834	8
	13	32	22389.3	1589.49	1.97855	1	1589.49	0.07132	3.14624E-006	-0.404776	8
	14	34	19954.4	1590.79	0.562743	1	1590.79	0.020268	2.88163E-006	-0.404792	8
	15	36	17778.2	1590.52	-1.38729	1	1590.52	-0.049975	2.85207E-006	-0.404809	8
	16	38	15852.9	1589.86	-3.72719	1	1589.87	-0.134321	2.89771E-006	-0.404835	8
	17	40	14122.3	1591.5	-3.36597	1	1591.51	-0.121178	3.05395E-006	-0.40481	8
	18	42	12587.2	1593.78	-6.66306	1	1593.79	-0.239533	2.96477E-006	-0.404814	8
	19	44	11221.1	1593.56	-6.90544	1	1593.57	-0.248281	2.92195E-006	-0.404822	8
	20	46	9998.2	1594.33	-7.98395	1	1594.35	-0.286918	2.95723E-006	-0.404819	8
	21	48	8912.76	1595.12	-8.08864	1	1595.14	-0.290537	2.93806E-006	-0.404775	8
	22	50	7942.6	1592.76	-11.7886	1	1592.8	-0.424062	2.7356E-006	-0.404815	8
	23	52	7078.05	1595.87	-10.4964	1	1595.91	-0.376843	2.73715E-006	-0.404814	8
	24	54	6311.1	1596.59	-12.1017	1	1596.64	-0.434276	2.79249E-006	-0.404822	8
	25	56	5622.14	1596.52	-12.8341	1	1596.57	-0.460579	2.88553E-006	-0.404806	8
	26	58	5011.18	1597.67	-14.0692	1	1597.74	-0.504538	2.8531E-006	-0.404812	8
	27	60	4465.21	1597.73	-15.7163	1	1597.81	-0.563581	2.66598E-006	-0.404823	8
	28	62	3980.93	1598.04	-17.8927	1	1598.14	-0.641495	2.87211E-006	-0.404837	8
	29	64	3548.18	1598.27	-22.3009	1	1598.43	-0.799403	2.88943E-006	-0.404834	8
	30	66	3162.67	1597.88	-22.5298	1	1598.04	-0.807806	3.01726E-006	-0.404784	8
	31	68	2819.01	1599.47	-27.9248	1	1599.72	-1.00021	2.92108E-006	-0.404783	8
	32	69	2511.16	1599.92	-27.1224	1	1600.15	-0.9712	2.97733E-006	-0.404816	8
	33	71	2238.63	1601.98	-33.1996	1	1602.32	-1.18724	2.99341E-006	-0.404814	8
	34	73	1995.37	1601	-33.7951	1	1601.36	-1.20926	2.99195E-006	-0.40481	8
	35	75	1778.51	1603.02	-36.8449	1	1603.44	-1.31669	2.93316E-006	-0.404806	8
	36	77	1584.49	1601.81	-42.6232	1	1602.38	-1.52424	2.85669E-006	-0.404801	8
	37	79	1412.76	1605.47	-47.277	1	1606.17	-1.68672	2.97252E-006	-0.4048	8
	38	81	1259.04	1603	-51.3435	1	1603.82	-1.83454	2.84928E-006	-0.40481	8
	39	83	1121.63	1606.19	-59.4673	1	1607.29	-2.12035	2.76158E-006	-0.404813	8
	40	85	999.95	1606.04	-63.8821	1	1607.31	-2.27781	2.8083E-006	-0.4048	8
	41	87	891.184	1609.09	-70.6287	1	1610.64	-2.5133	2.87041E-006	-0.404815	8
	42	89	794.163	1610.24	-78.8965	1	1612.17	-2.80507	2.73225E-006	-0.404803	8
	43	91	707.867	1612.32	-86.1	1	1614.61	-3.05677	2.73801E-006	-0.404761	8
	44	93	630.984	1613.13	-95.049	1	1615.93	-3.37211	2.80173E-006	-0.404814	8
	45	95	562.189	1614.36	-105.529	1	1617.81	-3.74006	2.91604E-006	-0.40482	8
	46	97	501.303	1616.89	-117.807	1	1621.17	-4.16722	2.87107E-006	-0.404825	8
	47	99	446.614	1619.17	-130.829	1	1624.45	-4.61947	2.85799E-006	-0.404819	8
	48	101	398.209	1621.76	-144.851	1	1628.21	-5.10397	2.73628E-006	-0.40482	8
	49	103	354.821	1624.68	-160.443	1	1632.59	-5.63986	2.73007E-006	-0.40481	8
	50	105	316.113	1627.87	-177.524	1	1637.52	-6.22368	2.83115E-006	-0.404812	8
	51	107	281.926	1631.46	-196.375	1	1643.23	-6.86354	2.83547E-006	-0.404817	8
	52	109	251.185	1635.5	-217.362	1	1649.88	-7.57042	2.77818E-006	-0.40481	8
	53	111	223.946	1639.81	-240.269	1	1657.32	-8.33579	2.90845E-006	-0.404814	8
	54	113	199.495	1644.74	-266.018	1	1666.11	-9.18739	2.96041E-006	-0.404807	8
	55	115	177.836	1650	-294.145	1	1676.02	-10.1079	2.81368E-006	-0.404816	8
	56	117	158.533	1655.83	-325.382	1	1687.5	-11.1173	2.85152E-006	-0.404807	8
	57	119	141.263	1662.33	-360.199	1	1700.9	-12.226	2.80008E-006	-0.404812	8
	58	121	125.911	1669.5	-398.628	1	1716.43	-13.4291	2.85041E-006	-0.404813	8
	59	123	112.198	1677.63	-441.232	1	1734.68	-14.7356	2.89864E-006	-0.40482	8
	60	126	100.009	1686.51	-488.418	1	1755.81	-16.1512	2.92103E-006	-0.404813	8
	61	128	89.1164	1696.04	-540.549	1	1780.1	-17.6777	2.98954E-006	-0.404815	8
	62	130	79.4083	1706.99	-598.742	1	1808.95	-19.3288	2.91485E-006	-0.404816	8
	63	132	70.788	1719.17	-663.098	1	1842.62	-21.092	2.86598E-006	-0.404813	8
	64	134	63.0971	1732.46	-734.539	1	1881.75	-22.9762	2.9579E-006	-0.404823	8
	65	136	54.5476	1751.76	-835.725	1	1940.9	-25.5048	3.02863E-006	-0.404818	8
	66	138	50.0083	1764.97	-903.263	1	1982.68	-27.1021	2.94863E-006	-0.404818	8
	67	140	46.1675	1777.9	-970.08	1	2025.33	-28.6184	3.03986E-006	-0.404817	8
	68	142	40.0059	1802.92	-1103.91	1	2114.04	-31.4787	2.87471E-006	-0.404815	8
	69	144	35.3046	1831.47	-1234.37	1	2208.61	-33.979	3.05372E-006	-0.404813	8
	70	147	31.5793	1858.76	-1364.79	1	2306	-36.2878	3.01514E-006	-0.404813	8
	71	149	28.5748	1886.9	-1492.96	1	2406.1	-38.352	3.09757E-006	-0.404816	8
	72	151	24.9911	1930.73	-1682.56	1	2561	-41.071	2.9965E-006	-0.404811	8
	73	153	22.2195	1971.64	-1875.27	1	2721.03	-43.565	2.71556E-006	-0.404816	8
	74	155	20.0011	2019.88	-2060.13	1	2885.14	-45.5651	2.73315E-006	-0.404809	8
	75	158	17.6486	2084.55	-2305.98	1	3108.52	-47.8871	2.7363E-006	-0.404817	8
	76	160	15.7934	2155.56	-2549.01	1	3338.25	-49.7806	2.78374E-006	-0.404815	8
	77	162	14.2828	2226.46	-2798.61	1	3576.22	-51.4957	2.77741E-006	-0.404812	8
	78	165	12.5002	2343.09	-3147.7	1	3924.04	-53.3367	2.82397E-006	-0.404808	8
	79	167	11.323	2437.37	-3443.26	1	4218.63	-54.7066	2.73298E-006	-0.404814	8
	80	170	9.9987	2590.26	-3833.92	1	4626.92	-55.9563	2.70347E-006	-0.404802	8
