EXPLAIN
TAG	EISPOT
TITLE	LABEL	Tomato_open	Test &Identifier
DATE	LABEL	5/9/2006	Date
TIME	LABEL	19:45:23	Time
NOTES	NOTES	1	&Notes...
	
PSTAT	PSTAT	300	Potentiostat
VDC	POTEN	1.00000E-001	T	DC &Voltage (V)
FREQINIT	QUANT	1.00000E+005	Initial Fre&q. (Hz)
FREQFINAL	QUANT	1.00000E+001	Final Fre&q. (Hz)
PTSPERDEC	QUANT	2.00000E+001	Points/&decade
VAC	QUANT	1.00000E+001	AC &Voltage (mV rms)
AREA	QUANT	1.00000E+000	&Area (cm²)
DENSITY	QUANT	7.87000E+000	&Density (gm/cm³)
EQUIV	QUANT	7.00000E+000	Equiv. &Wt
CONDIT	TWOPARAM	F	1.50000E+001	0.00000E+000	Conditionin&g	Time(s)	E(V)
DELAY	TWOPARAM	F	6.00000E+002	0.00000E+000	Init. De&lay	Time(s)	Stab.(mV/s)
SPEED	SELECTOR	1	&Optimize for:
ZGUESS	QUANT	1.00000E+002	E&stimated Z (ohms)
OCVCURVE	TABLE	39
	Pt	T	Vf	Vm	Ach	Over
	#	s	V vs. Ref.	V	V	bits
	0	0.258332	-4.71343E-001	2.58834E-006	3.15400E-004	......
	1	0.516663	-4.71543E-001	2.58834E-006	3.15400E-004	......
	2	0.774994	-4.71943E-001	2.58834E-006	2.15400E-004	......
	3	1.03333	-4.72843E-001	2.58834E-006	3.15400E-004	......
	4	1.29166	-4.72593E-001	2.58834E-006	2.15400E-004	......
	5	1.54999	-4.73193E-001	2.58834E-006	3.15400E-004	......
	6	1.80832	-4.73393E-001	2.58834E-006	2.15400E-004	......
	7	2.06665	-4.72543E-001	2.58834E-006	4.15400E-004	......
	8	2.32498	-4.73594E-001	2.58834E-006	3.15400E-004	......
	9	2.58332	-4.73643E-001	2.58834E-006	2.15400E-004	......
	10	2.84165	-4.73743E-001	2.58834E-006	3.15400E-004	......
	11	3.09998	-4.74243E-001	2.58834E-006	2.15400E-004	......
	12	3.35831	-4.68893E-001	2.58834E-006	3.15400E-004	......
	13	3.61664	-4.67844E-001	2.58834E-006	2.15400E-004	......
	14	3.87497	-4.67443E-001	2.58834E-006	3.15400E-004	......
	15	4.1333	-4.66044E-001	2.58834E-006	3.15400E-004	......
	16	4.39164	-4.67043E-001	2.58834E-006	3.15400E-004	......
	17	4.64997	-4.65743E-001	2.58834E-006	3.15400E-004	......
	18	4.9083	-4.66893E-001	2.58834E-006	4.15400E-004	......
	19	5.16663	-4.65543E-001	2.58834E-006	2.15400E-004	......
	20	5.42496	-4.66543E-001	2.58834E-006	3.15400E-004	......
	21	5.68329	-4.63793E-001	2.58834E-006	3.15400E-004	......
	22	5.94162	-4.62893E-001	2.58834E-006	3.15400E-004	......
	23	6.19996	-4.62444E-001	2.58834E-006	2.15400E-004	......
	24	6.45829	-4.60243E-001	2.58834E-006	4.15400E-004	......
	25	6.71662	-4.60943E-001	2.58834E-006	3.15400E-004	......
	26	6.97495	-4.59993E-001	2.58834E-006	3.15400E-004	......
	27	7.23328	-4.59543E-001	2.58834E-006	2.15400E-004	......
	28	7.49161	-4.60093E-001	2.58834E-006	4.15400E-004	......
	29	7.74995	-4.58643E-001	2.58834E-006	2.15400E-004	......
	30	8.00828	-4.60644E-001	2.58834E-006	3.15400E-004	......
	31	8.26661	-4.59993E-001	2.58834E-006	2.15400E-004	......
	32	8.52494	-4.61443E-001	2.58834E-006	2.15400E-004	......
	33	8.78327	-4.61043E-001	2.58834E-006	4.15400E-004	......
	34	9.0416	-4.62143E-001	2.58834E-006	3.15400E-004	......
	35	9.29993	-4.61993E-001	2.58834E-006	2.15400E-004	......
	36	9.5583	-4.62993E-001	2.58834E-006	2.15400E-004	......
	37	9.8166	-4.62943E-001	2.58834E-006	2.15400E-004	......
	38	10.0749	-4.59394E-001	2.58834E-006	3.15400E-004	......
EOC	QUANT	-0.459394	Open Circuit (V)
PSTATMODEL	IQUANT	32	Pstat Model
PSTATSECTION	LABEL	PStat0	Pstat Section
CTRLMODE	IQUANT	1	Control Mode
IESTAB	IQUANT	0	I/E Stability
CASPEED	IQUANT	1	Control Amp Speed
CONVENTION	IQUANT	1	Current Convention
ICHRANGE	IQUANT	2	Ich Range
ICHRANGEMODE	TOGGLE	F	Ich Auto Range
ICHOFFSETENABLE	TOGGLE	T	Ich Offset Enable
ICHOFFSET	QUANT	0	Ich Offset (V)
ICHFILTER	IQUANT	3	Ich Filter
VCHRANGE	IQUANT	2	Vch Range
VCHRANGEMODE	TOGGLE	F	Vch Auto Range
VCHOFFSETENABLE	TOGGLE	T	Vch Offset Enable
VCHOFFSET	QUANT	0	Vch Offset (V)
VCHFILTER	IQUANT	3	Vch Filter
ACHRANGE	IQUANT	0	Ach Range
IERANGELOWERLIMIT	IQUANT	3	I/E Range Lower Limit
IERANGEMODE	TOGGLE	F	I/E AutoRange
IERANGE	IQUANT	11	I/E Range
POSFEEDENABLE	TOGGLE	F	Positive Feedback IR Comp
POSFEEDRESISTANCE	QUANT	0	Positive Feedback Resistance (ohm)
FC350IDIVISOR	IQUANT	0	FC350 I Divisor
FC350VRANGE	IQUANT	0	FC350 V Range
FRAMEWORKVERSION	QUANT	4.35	Framework Version
ZCURVE	TABLE
	Pt	Time	Freq	Zreal	Zimag	Zsig	Zmod	Zphz	Idc	Vdc	IERange
	#	s	Hz	ohm	ohm	V	ohm	°	A	V	#
	0	6	100007	2112.39	-33.9221	1	2112.66	-0.920014	1.86573E-006	-0.359478	9
	1	8	89134.1	2094.05	-35.2855	1	2094.35	-0.96536	2.0235E-006	-0.35951	9
	2	10	79433.6	2089.83	-29.9541	1	2090.04	-0.821181	2.10823E-006	-0.359511	9
	3	12	70800.8	2082.53	-28.5458	1	2082.73	-0.785318	2.14618E-006	-0.35948	9
	4	14	63105.5	2080.79	-27.8193	1	2080.98	-0.765976	2.05884E-006	-0.359486	9
	5	16	56243.5	2078.99	-25.6817	1	2079.15	-0.707736	2.02676E-006	-0.359521	9
	6	18	50123.7	2078.35	-28.5068	1	2078.55	-0.785821	2.0755E-006	-0.359454	9
	7	20	44681	2076.29	-28.387	1	2076.48	-0.783298	2.18694E-006	-0.359475	9
	8	22	39811.2	2093.5	-25.9817	1	2093.66	-0.71104	2.0321E-006	-0.359479	9
	9	24	35488.3	2073.04	-22.6059	1	2073.16	-0.62477	2.16584E-006	-0.359459	9
	10	26	31634.1	2072.28	-24.1299	1	2072.42	-0.667129	2.24557E-006	-0.359465	9
	11	28	28173.1	2074.61	4.17365	1	2074.61	0.115266	1.25537E-006	-0.359465	8
	12	30	25123.7	2074.89	0.481887	1	2074.89	0.013307	1.42495E-006	-0.359447	8
	13	32	22389.3	2076.04	3.3126	1	2076.05	0.091423	1.40046E-006	-0.359442	8
	14	34	19954.4	2075.75	-0.581066	1	2075.75	-0.016039	1.13078E-006	-0.359495	8
	15	36	17778.2	2077.92	-5.24196	1	2077.93	-0.144539	1.12611E-006	-0.359468	8
	16	38	15852.9	2076.97	-2.17484	1	2076.97	-0.059996	1.15321E-006	-0.359445	8
	17	40	14122.3	2077.04	-3.29409	1	2077.04	-0.090869	1.22474E-006	-0.359486	8
	18	42	12587.2	2077.6	-7.48631	1	2077.62	-0.206455	1.27391E-006	-0.359471	8
	19	44	11221.1	2082.36	-9.6827	1	2082.39	-0.266415	1.22903E-006	-0.359479	8
	20	46	9998.2	2075.99	-8.97878	1	2076.01	-0.247806	1.31975E-006	-0.359488	8
	21	48	8912.76	2079.7	-12.5355	1	2079.73	-0.345351	1.24424E-006	-0.35947	8
	22	50	7942.6	2079.51	-10.8403	1	2079.54	-0.298675	1.28717E-006	-0.359472	8
	23	52	7078.05	2080.69	-15.8764	1	2080.75	-0.437177	1.26738E-006	-0.359474	8
	24	54	6311.1	2084.51	-17.7645	1	2084.59	-0.488271	1.26174E-006	-0.359489	8
	25	56	5622.14	2080.61	-18.5873	1	2080.69	-0.511844	1.28921E-006	-0.359473	8
	26	58	5011.18	2083.71	-18.8893	1	2083.8	-0.519383	1.31876E-006	-0.35947	8
	27	60	4465.21	2084.62	-17.8095	1	2084.7	-0.489483	1.26836E-006	-0.359471	8
	28	62	3980.93	2088.13	-23.1227	1	2088.25	-0.634435	1.37996E-006	-0.359468	8
	29	64	3548.18	2081.43	-25.273	1	2081.58	-0.695661	1.42821E-006	-0.3595	8
	30	65	3162.67	2088.21	-30.6531	1	2088.43	-0.840992	1.4266E-006	-0.359493	8
	31	67	2819.01	2083.31	-30.5325	1	2083.53	-0.839652	1.37638E-006	-0.359468	8
	32	69	2511.16	2086.08	-31.4682	1	2086.31	-0.864233	1.46524E-006	-0.359478	8
	33	71	2238.63	2090.34	-38.2098	1	2090.69	-1.04721	1.45831E-006	-0.359476	8
	34	73	1995.37	2089.5	-42.8774	1	2089.94	-1.17557	1.51519E-006	-0.359482	8
	35	75	1778.51	2091.58	-45.8419	1	2092.09	-1.25557	1.55692E-006	-0.359465	8
	36	77	1584.49	2088.75	-48.6592	1	2089.32	-1.33451	1.53566E-006	-0.359473	8
	37	79	1412.76	2089.8	-54.668	1	2090.51	-1.49849	1.62782E-006	-0.359485	8
	38	81	1259.04	2093.09	-63.7399	1	2094.06	-1.74426	1.57109E-006	-0.35948	8
	39	83	1121.63	2090.41	-64.9603	1	2091.42	-1.77991	1.6197E-006	-0.359472	8
	40	85	999.95	2096.95	-74.4361	1	2098.27	-2.03299	1.71893E-006	-0.35947	8
	41	87	891.184	2098.61	-83.4715	1	2100.27	-2.27772	1.65954E-006	-0.359478	8
	42	89	794.163	2103.6	-94.2133	1	2105.71	-2.56438	1.65685E-006	-0.359483	8
	43	91	707.867	2102.28	-101.562	1	2104.74	-2.76584	1.66737E-006	-0.359495	8
	44	93	630.984	2103.67	-110.104	1	2106.55	-2.99607	1.64044E-006	-0.359479	8
	45	95	562.189	2104.54	-125.629	1	2108.29	-3.41619	1.7512E-006	-0.359467	8
	46	97	501.303	2108.42	-137.59	1	2112.91	-3.73368	1.83318E-006	-0.359489	8
	47	99	446.614	2111.35	-152.681	1	2116.87	-4.13611	1.8795E-006	-0.359481	8
	48	101	398.209	2114.35	-168.879	1	2121.08	-4.56669	1.68111E-006	-0.359478	8
	49	103	354.821	2118.06	-186.803	1	2126.28	-5.04018	1.65921E-006	-0.359486	8
	50	105	316.113	2122.05	-206.612	1	2132.08	-5.56103	1.70903E-006	-0.359486	8
	51	107	281.926	2126.39	-228.127	1	2138.59	-6.12349	1.59101E-006	-0.359488	8
	52	109	251.185	2131.1	-252.137	1	2145.96	-6.74748	1.67641E-006	-0.359489	8
	53	111	223.946	2136.52	-278.526	1	2154.6	-7.42742	1.66834E-006	-0.35949	8
	54	113	199.495	2142.36	-307.826	1	2164.36	-8.17659	1.75704E-006	-0.359489	8
	55	115	177.836	2148.8	-340.186	1	2175.56	-8.99607	1.65898E-006	-0.359491	8
	56	117	158.533	2156	-375.829	1	2188.51	-9.8883	1.83238E-006	-0.35949	8
	57	119	141.263	2163.88	-415.324	1	2203.38	-10.8649	1.78337E-006	-0.359482	8
	58	121	125.911	2172.3	-459.084	1	2220.28	-11.9331	1.73655E-006	-0.359488	8
	59	123	112.198	2181.62	-507.544	1	2239.88	-13.0967	1.63858E-006	-0.35949	8
	60	125	100.009	2191.88	-561.033	1	2262.54	-14.3572	1.65064E-006	-0.35949	8
	61	127	89.1164	2203.04	-620.156	1	2288.67	-15.7219	1.66733E-006	-0.359486	8
	62	129	79.4083	2215.3	-685.888	1	2319.05	-17.2032	1.73706E-006	-0.359487	8
	63	131	70.788	2228.56	-758.059	1	2353.96	-18.7861	1.64649E-006	-0.359483	8
	64	133	63.0971	2243.23	-838.727	1	2394.9	-20.5004	1.72333E-006	-0.359491	8
	65	135	54.5476	2263.55	-952.8	1	2455.91	-22.8277	1.75736E-006	-0.359484	8
	66	137	50.0083	2276.73	-1028.46	1	2498.24	-24.31	1.76961E-006	-0.359492	8
	67	140	46.1675	2288.94	-1103	1	2540.84	-25.7287	1.71413E-006	-0.359489	8
	68	142	40.0059	2314.3	-1252.28	1	2631.39	-28.4179	1.71111E-006	-0.359487	8
	69	144	35.3046	2338.81	-1398.84	1	2725.21	-30.8835	1.62994E-006	-0.359493	8
	70	146	31.5793	2364.39	-1545.08	1	2824.47	-33.1637	1.76151E-006	-0.359493	8
	71	148	28.5748	2386.77	-1689.04	1	2923.96	-35.2858	1.76324E-006	-0.359492	8
	72	150	24.9911	2423.53	-1904.52	1	3082.32	-38.1619	1.86007E-006	-0.359502	8
	73	153	22.2195	2459.32	-2113.77	1	3242.89	-40.6788	1.92653E-006	-0.35949	8
	74	155	20.0011	2492.34	-2325.7	1	3408.91	-43.0191	1.98839E-006	-0.359495	8
	75	157	17.6486	2541.17	-2603.26	1	3637.93	-45.6916	2.00178E-006	-0.3595	8
	76	160	15.7934	2587.43	-2881.22	1	3872.5	-48.0752	1.89657E-006	-0.3595	8
	77	162	14.2828	2638.79	-3153.42	1	4111.84	-50.0773	1.96425E-006	-0.35949	8
	78	164	12.5002	2708.37	-3565.02	1	4477.13	-52.7758	1.88244E-006	-0.359488	8
	79	167	11.323	2773.26	-3896.38	1	4782.54	-54.5585	1.94054E-006	-0.359489	8
	80	169	9.9987	2854.94	-4365.95	1	5216.53	-56.8189	1.83555E-006	-0.35949	8
