EXPLAIN
TAG	EISPOT
TITLE	LABEL	Tomato_open	Test &Identifier
DATE	LABEL	5/9/2006	Date
TIME	LABEL	17:12:34	Time
NOTES	NOTES	1	&Notes...
	
PSTAT	PSTAT	300	Potentiostat
VDC	POTEN	1.00000E-001	T	DC &Voltage (V)
FREQINIT	QUANT	1.00000E+005	Initial Fre&q. (Hz)
FREQFINAL	QUANT	1.00000E+001	Final Fre&q. (Hz)
PTSPERDEC	QUANT	2.00000E+001	Points/&decade
VAC	QUANT	1.00000E+001	AC &Voltage (mV rms)
AREA	QUANT	1.00000E+000	&Area (cm²)
DENSITY	QUANT	7.87000E+000	&Density (gm/cm³)
EQUIV	QUANT	7.00000E+000	Equiv. &Wt
CONDIT	TWOPARAM	F	1.50000E+001	0.00000E+000	Conditionin&g	Time(s)	E(V)
DELAY	TWOPARAM	F	6.00000E+002	0.00000E+000	Init. De&lay	Time(s)	Stab.(mV/s)
SPEED	SELECTOR	1	&Optimize for:
ZGUESS	QUANT	1.00000E+002	E&stimated Z (ohms)
OCVCURVE	TABLE	39
	Pt	T	Vf	Vm	Ach	Over
	#	s	V vs. Ref.	V	V	bits
	0	0.258332	-4.81393E-001	-2.17792E-006	-2.84600E-004	......
	1	0.516663	-4.81593E-001	-2.17792E-006	-1.84600E-004	......
	2	0.774994	-4.80594E-001	-2.17792E-006	-2.84600E-004	......
	3	1.03333	-4.79493E-001	-2.17792E-006	-8.46000E-005	......
	4	1.29166	-4.80193E-001	-2.17792E-006	-8.46000E-005	......
	5	1.54999	-4.80393E-001	-2.17792E-006	-1.84600E-004	......
	6	1.80832	-4.80594E-001	-2.17792E-006	-8.46000E-005	......
	7	2.06665	-4.78993E-001	-2.17792E-006	-8.46000E-005	......
	8	2.32498	-4.77693E-001	-2.17792E-006	-1.84600E-004	......
	9	2.58332	-4.77193E-001	-2.17792E-006	-1.84600E-004	......
	10	2.84165	-4.78143E-001	-2.17792E-006	-8.46000E-005	......
	11	3.09998	-4.87193E-001	-2.17792E-006	-1.84600E-004	......
	12	3.35831	-4.96643E-001	-2.17792E-006	1.54000E-005	......
	13	3.61664	-4.99493E-001	-2.17792E-006	-1.84600E-004	......
	14	3.87497	-4.97893E-001	-2.17792E-006	-1.84600E-004	......
	15	4.1333	-4.99493E-001	-2.17792E-006	-8.46000E-005	......
	16	4.39164	-5.01543E-001	-2.17792E-006	-1.84600E-004	......
	17	4.64997	-5.06844E-001	-2.17792E-006	-8.46000E-005	......
	18	4.9083	-5.08994E-001	-2.17792E-006	-1.84600E-004	......
	19	5.16663	-5.09744E-001	-2.17792E-006	-8.46000E-005	......
	20	5.42496	-5.11393E-001	-2.17792E-006	-1.84600E-004	......
	21	5.68329	-5.13593E-001	-2.17792E-006	-1.84600E-004	......
	22	5.94162	-5.12993E-001	-2.17792E-006	-1.84600E-004	......
	23	6.19996	-5.12393E-001	-2.17792E-006	-2.84600E-004	......
	24	6.45829	-5.12393E-001	-2.17792E-006	-8.46000E-005	......
	25	6.71662	-5.12493E-001	-2.17792E-006	-8.46000E-005	......
	26	6.97495	-5.11193E-001	-2.17792E-006	-1.84600E-004	......
	27	7.23328	-5.12194E-001	-2.17792E-006	-8.46000E-005	......
	28	7.49161	-5.09843E-001	-2.17792E-006	-8.46000E-005	......
	29	7.74995	-5.04143E-001	-2.17792E-006	-8.46000E-005	......
	30	8.00828	-5.08743E-001	-2.17792E-006	-1.84600E-004	......
	31	8.26661	-5.09993E-001	-2.17792E-006	-1.84600E-004	......
	32	8.52494	-5.11844E-001	-2.17792E-006	-1.84600E-004	......
	33	8.78327	-5.13193E-001	-2.17792E-006	-1.84600E-004	......
	34	9.0416	-5.12543E-001	-2.17792E-006	-1.84600E-004	......
	35	9.29993	-5.09243E-001	-2.17792E-006	-8.46000E-005	......
	36	9.5583	-5.10543E-001	-2.17792E-006	-8.46000E-005	......
	37	9.8166	-5.07793E-001	-2.17792E-006	-8.46000E-005	......
	38	10.0749	-5.04643E-001	-2.17792E-006	1.54000E-005	......
EOC	QUANT	-0.504643	Open Circuit (V)
PSTATMODEL	IQUANT	32	Pstat Model
PSTATSECTION	LABEL	PStat0	Pstat Section
CTRLMODE	IQUANT	1	Control Mode
IESTAB	IQUANT	0	I/E Stability
CASPEED	IQUANT	1	Control Amp Speed
CONVENTION	IQUANT	1	Current Convention
ICHRANGE	IQUANT	2	Ich Range
ICHRANGEMODE	TOGGLE	F	Ich Auto Range
ICHOFFSETENABLE	TOGGLE	T	Ich Offset Enable
ICHOFFSET	QUANT	0	Ich Offset (V)
ICHFILTER	IQUANT	3	Ich Filter
VCHRANGE	IQUANT	2	Vch Range
VCHRANGEMODE	TOGGLE	F	Vch Auto Range
VCHOFFSETENABLE	TOGGLE	T	Vch Offset Enable
VCHOFFSET	QUANT	0	Vch Offset (V)
VCHFILTER	IQUANT	3	Vch Filter
ACHRANGE	IQUANT	0	Ach Range
IERANGELOWERLIMIT	IQUANT	3	I/E Range Lower Limit
IERANGEMODE	TOGGLE	F	I/E AutoRange
IERANGE	IQUANT	11	I/E Range
POSFEEDENABLE	TOGGLE	F	Positive Feedback IR Comp
POSFEEDRESISTANCE	QUANT	0	Positive Feedback Resistance (ohm)
FC350IDIVISOR	IQUANT	0	FC350 I Divisor
FC350VRANGE	IQUANT	0	FC350 V Range
FRAMEWORKVERSION	QUANT	4.35	Framework Version
ZCURVE	TABLE
	Pt	Time	Freq	Zreal	Zimag	Zsig	Zmod	Zphz	Idc	Vdc	IERange
	#	s	Hz	ohm	ohm	V	ohm	°	A	V	#
	0	6	100007	1611.15	-31.2234	1	1611.46	-1.11023	4.10479E-006	-0.404551	9
	1	8	89134.1	1596.85	-19.6639	1	1596.97	-0.705514	3.72851E-006	-0.404545	9
	2	10	79433.6	1596.04	-17.9669	1	1596.14	-0.644961	4.55702E-006	-0.404581	9
	3	12	70800.8	1591.7	-19.9065	1	1591.82	-0.716531	5.08577E-006	-0.404576	9
	4	14	63105.5	1588.52	-17.6193	1	1588.61	-0.635481	4.58103E-006	-0.404538	9
	5	16	56243.5	1590.01	-15.7784	1	1590.09	-0.568552	4.16187E-006	-0.40457	9
	6	18	50123.7	1586.5	-17.759	1	1586.6	-0.641332	4.34466E-006	-0.40458	9
	7	20	44681	1586.91	-13.8401	1	1586.97	-0.49969	3.87663E-006	-0.404558	9
	8	22	39811.2	1578.64	-29.4107	1	1578.92	-1.06732	3.94286E-006	-0.404519	9
	9	24	35488.3	1588.04	-15.7522	1	1588.12	-0.568313	3.6242E-006	-0.404522	9
	10	26	31634.1	1584.63	-15.3028	1	1584.7	-0.553292	4.331E-006	-0.404533	9
	11	28	28173.1	1585.43	7.22228	1	1585.45	0.261004	3.03729E-006	-0.404546	8
	12	30	25123.7	1586.63	3.68302	1	1586.63	0.133	3.3362E-006	-0.404581	8
	13	32	22389.3	1583.58	2.3457	1	1583.58	0.08487	3.33938E-006	-0.40459	8
	14	34	19954.4	1588.29	2.36368	1	1588.29	0.085267	2.52995E-006	-0.404572	8
	15	36	17778.2	1585.78	0.552022	1	1585.78	0.019945	2.2098E-006	-0.40455	8
	16	38	15852.9	1589.59	1.73598	1	1589.59	0.062572	2.29336E-006	-0.404565	8
	17	40	14122.3	1591.23	-4.92732	1	1591.24	-0.177418	2.44984E-006	-0.40455	8
	18	42	12587.2	1587.65	-3.43396	1	1587.66	-0.123926	2.77817E-006	-0.40456	8
	19	44	11221.1	1588.5	-5.64783	1	1588.51	-0.203712	3.06707E-006	-0.404557	8
	20	46	9998.2	1592.34	-10.3476	1	1592.37	-0.372323	3.25201E-006	-0.404558	8
	21	48	8912.76	1589.65	-9.34408	1	1589.68	-0.336785	2.32804E-006	-0.40458	8
	22	49	7942.6	1590.36	-11.1506	1	1590.4	-0.401718	2.54442E-006	-0.404548	8
	23	51	7078.05	1590.98	-11.837	1	1591.02	-0.426277	2.63382E-006	-0.404552	8
	24	53	6311.1	1591.16	-13.1566	1	1591.21	-0.473744	2.09287E-006	-0.404534	8
	25	55	5622.14	1591.8	-14.9957	1	1591.87	-0.539744	2.76917E-006	-0.404551	8
	26	57	5011.18	1593.47	-16.8685	1	1593.56	-0.606511	3.16908E-006	-0.404554	8
	27	59	4465.21	1594.47	-18.0942	1	1594.58	-0.65017	3.50037E-006	-0.404537	8
	28	61	3980.93	1594.57	-18.5558	1	1594.68	-0.666712	3.60863E-006	-0.404532	8
	29	63	3548.18	1593.51	-21.8758	1	1593.66	-0.786512	3.57975E-006	-0.404546	8
	30	65	3162.67	1593.73	-22.4115	1	1593.89	-0.805653	3.44938E-006	-0.40453	8
	31	67	2819.01	1595.63	-26.9793	1	1595.86	-0.96868	2.88562E-006	-0.404548	8
	32	69	2511.16	1598.14	-29.8882	1	1598.41	-1.07141	2.84166E-006	-0.404543	8
	33	71	2238.63	1598.16	-31.9941	1	1598.48	-1.14687	2.36369E-006	-0.404553	8
	34	73	1995.37	1598.19	-34.688	1	1598.56	-1.24339	2.3838E-006	-0.404548	8
	35	75	1778.51	1598.07	-38.7015	1	1598.54	-1.3873	2.5551E-006	-0.404549	8
	36	77	1584.49	1600.72	-44.5961	1	1601.34	-1.59585	2.62034E-006	-0.404557	8
	37	79	1412.76	1598.43	-50.134	1	1599.22	-1.79647	2.53965E-006	-0.404536	8
	38	81	1259.04	1602.33	-53.2862	1	1603.22	-1.90469	2.43566E-006	-0.404546	8
	39	83	1121.63	1603.95	-56.9657	1	1604.96	-2.03405	2.3292E-006	-0.404551	8
	40	85	999.95	1604.56	-63.2279	1	1605.8	-2.25658	2.35578E-006	-0.404556	8
	41	87	891.184	1607.2	-75.019	1	1608.95	-2.67245	2.26335E-006	-0.404547	8
	42	89	794.163	1605.42	-79.3837	1	1607.38	-2.83082	2.2356E-006	-0.404542	8
	43	91	707.867	1604.96	-88.5696	1	1607.4	-3.15866	3.18115E-006	-0.404573	8
	44	93	630.984	1609.17	-95.604	1	1612.01	-3.40004	3.67311E-006	-0.404546	8
	45	95	562.189	1613.69	-107.119	1	1617.24	-3.79782	3.41215E-006	-0.404558	8
	46	97	501.303	1613.49	-119.121	1	1617.89	-4.22238	3.55973E-006	-0.404573	8
	47	99	446.614	1615.86	-132.337	1	1621.27	-4.682	3.48035E-006	-0.404561	8
	48	101	398.209	1618.49	-146.459	1	1625.1	-5.1707	3.52846E-006	-0.404569	8
	49	103	354.821	1621.41	-162.152	1	1629.5	-5.71099	2.51346E-006	-0.404566	8
	50	105	316.113	1624.77	-179.63	1	1634.67	-6.30884	2.39885E-006	-0.404568	8
	51	107	281.926	1628.29	-198.508	1	1640.35	-6.95075	2.17248E-006	-0.404564	8
	52	109	251.185	1632.47	-219.681	1	1647.18	-7.66424	2.50265E-006	-0.404561	8
	53	111	223.946	1636.82	-242.855	1	1654.74	-8.43939	2.74124E-006	-0.404563	8
	54	113	199.495	1641.86	-268.909	1	1663.73	-9.3015	2.17303E-006	-0.404559	8
	55	115	177.836	1647.22	-297.423	1	1673.85	-10.2351	2.33536E-006	-0.404566	8
	56	117	158.533	1653.2	-328.919	1	1685.6	-11.2526	3.051E-006	-0.404559	8
	57	119	141.263	1659.95	-364.054	1	1699.4	-12.37	3.23805E-006	-0.404562	8
	58	121	125.911	1667.22	-402.753	1	1715.17	-13.5809	3.40602E-006	-0.404566	8
	59	123	112.198	1675.5	-445.919	1	1733.82	-14.9033	2.71513E-006	-0.404569	8
	60	125	100.009	1684.26	-493.244	1	1755	-16.323	3.41237E-006	-0.404565	8
	61	127	89.1164	1693.4	-546.143	1	1779.29	-17.8751	3.20828E-006	-0.40456	8
	62	129	79.4083	1704.8	-604.437	1	1808.78	-19.522	2.1927E-006	-0.40456	8
	63	131	70.788	1715.91	-669.734	1	1841.98	-21.3211	2.6033E-006	-0.404559	8
	64	133	63.0971	1729.22	-740.709	1	1881.18	-23.1878	2.66121E-006	-0.404554	8
	65	135	54.5476	1748.03	-842.609	1	1940.51	-25.7357	2.65095E-006	-0.404558	8
	66	137	50.0083	1760.9	-910.813	1	1982.51	-27.3499	2.6905E-006	-0.40455	8
	67	139	46.1675	1772.07	-978.09	1	2024.08	-28.8962	2.53984E-006	-0.404557	8
	68	142	40.0059	1798.77	-1111.28	1	2114.36	-31.7078	2.49433E-006	-0.404558	8
	69	144	35.3046	1820.5	-1241.27	1	2203.4	-34.2872	1.99621E-006	-0.404557	8
	70	146	31.5793	1848.34	-1372.83	1	2302.4	-36.6027	2.15714E-006	-0.404554	8
	71	148	28.5748	1873.19	-1503.52	1	2401.96	-38.7524	2.16736E-006	-0.40456	8
	72	150	24.9911	1910.28	-1696.96	1	2555.16	-41.6157	2.00353E-006	-0.404568	8
	73	152	22.2195	1949.5	-1888.48	1	2714.21	-44.0892	1.94136E-006	-0.404567	8
	74	155	20.0011	1990.88	-2076.78	1	2876.91	-46.2098	1.89878E-006	-0.404566	8
	75	157	17.6486	2043.76	-2325.47	1	3095.93	-48.689	1.94182E-006	-0.404563	8
	76	159	15.7934	2107.45	-2582.7	1	3333.42	-50.786	1.95676E-006	-0.404571	8
	77	161	14.2828	2169.18	-2829.68	1	3565.45	-52.527	2.04617E-006	-0.404564	8
	78	164	12.5002	2267.91	-3193.41	1	3916.79	-54.6182	1.96406E-006	-0.404573	8
	79	166	11.323	2366.57	-3492.51	1	4218.8	-55.8779	1.91896E-006	-0.404571	8
	80	169	9.9987	2487.27	-3916.67	1	4639.71	-57.5825	1.90779E-006	-0.404569	8
