EXPLAIN
TAG	EISPOT
TITLE	LABEL	Tomato_open	Test &Identifier
DATE	LABEL	5/12/2006	Date
TIME	LABEL	16:37:56	Time
NOTES	NOTES	1	&Notes...
	
PSTAT	PSTAT	300	Potentiostat
VDC	POTEN	1.00000E-001	T	DC &Voltage (V)
FREQINIT	QUANT	1.00000E+005	Initial Fre&q. (Hz)
FREQFINAL	QUANT	1.00000E+001	Final Fre&q. (Hz)
PTSPERDEC	QUANT	2.00000E+001	Points/&decade
VAC	QUANT	1.00000E+001	AC &Voltage (mV rms)
AREA	QUANT	1.00000E+000	&Area (cm²)
DENSITY	QUANT	7.87000E+000	&Density (gm/cm³)
EQUIV	QUANT	7.00000E+000	Equiv. &Wt
CONDIT	TWOPARAM	F	1.50000E+001	0.00000E+000	Conditionin&g	Time(s)	E(V)
DELAY	TWOPARAM	F	6.00000E+002	0.00000E+000	Init. De&lay	Time(s)	Stab.(mV/s)
SPEED	SELECTOR	1	&Optimize for:
ZGUESS	QUANT	1.00000E+002	E&stimated Z (ohms)
OCVCURVE	TABLE	39
	Pt	T	Vf	Vm	Ach	Over
	#	s	V vs. Ref.	V	V	bits
	0	0.258332	-5.71869E-001	4.70924E-006	-1.63400E-004	......
	1	0.516663	-5.68669E-001	4.70924E-006	-6.34000E-005	......
	2	0.774994	-5.70319E-001	4.70924E-006	-1.63400E-004	......
	3	1.03333	-5.71719E-001	4.70924E-006	-1.63400E-004	......
	4	1.29166	-5.73419E-001	4.70924E-006	-1.63400E-004	......
	5	1.54999	-5.76169E-001	4.70924E-006	-1.63400E-004	......
	6	1.80832	-5.77969E-001	4.70924E-006	-1.63400E-004	......
	7	2.06665	-5.78019E-001	4.70924E-006	-1.63400E-004	......
	8	2.32498	-5.77369E-001	4.70924E-006	-1.63400E-004	......
	9	2.58332	-5.76119E-001	4.70924E-006	-2.63400E-004	......
	10	2.84165	-5.77719E-001	4.70924E-006	-1.63400E-004	......
	11	3.09998	-5.74919E-001	4.70924E-006	-1.63400E-004	......
	12	3.35831	-5.74470E-001	4.70924E-006	-6.34000E-005	......
	13	3.61664	-5.75319E-001	4.70924E-006	-1.63400E-004	......
	14	3.87497	-5.73869E-001	4.70924E-006	-1.63400E-004	......
	15	4.1333	-5.73569E-001	4.70924E-006	-1.63400E-004	......
	16	4.39164	-5.73119E-001	4.70924E-006	-1.63400E-004	......
	17	4.64997	-5.74219E-001	4.70924E-006	-6.34000E-005	......
	18	4.9083	-5.77119E-001	4.70924E-006	-1.63400E-004	......
	19	5.16663	-5.79170E-001	4.70924E-006	-1.63400E-004	......
	20	5.42496	-5.80419E-001	4.70924E-006	-1.63400E-004	......
	21	5.68329	-5.80669E-001	4.70924E-006	-6.34000E-005	......
	22	5.94162	-5.80219E-001	4.70924E-006	-1.63400E-004	......
	23	6.19996	-5.79969E-001	4.70924E-006	-2.63400E-004	......
	24	6.45829	-5.79419E-001	4.70924E-006	-2.63400E-004	......
	25	6.71662	-5.78070E-001	4.70924E-006	-1.63400E-004	......
	26	6.97495	-5.77019E-001	4.70924E-006	-6.34000E-005	......
	27	7.23328	-5.77569E-001	4.70924E-006	-6.34000E-005	......
	28	7.49161	-5.77619E-001	4.70924E-006	-1.63400E-004	......
	29	7.74995	-5.77619E-001	4.70924E-006	-6.34000E-005	......
	30	8.00828	-5.78569E-001	4.70924E-006	-6.34000E-005	......
	31	8.26661	-5.79319E-001	4.70924E-006	-1.63400E-004	......
	32	8.52494	-5.79319E-001	4.70924E-006	-1.63400E-004	......
	33	8.78327	-5.79470E-001	4.70924E-006	-2.63400E-004	......
	34	9.0416	-5.79820E-001	4.70924E-006	-1.63400E-004	......
	35	9.29993	-5.79820E-001	4.70924E-006	-1.63400E-004	......
	36	9.5583	-5.78919E-001	4.70924E-006	-6.34000E-005	......
	37	9.8166	-5.78770E-001	4.70924E-006	-6.34000E-005	......
	38	10.0749	-5.79919E-001	4.70924E-006	-1.63400E-004	......
EOC	QUANT	-0.579919	Open Circuit (V)
PSTATMODEL	IQUANT	32	Pstat Model
PSTATSECTION	LABEL	PStat0	Pstat Section
CTRLMODE	IQUANT	1	Control Mode
IESTAB	IQUANT	0	I/E Stability
CASPEED	IQUANT	1	Control Amp Speed
CONVENTION	IQUANT	1	Current Convention
ICHRANGE	IQUANT	2	Ich Range
ICHRANGEMODE	TOGGLE	F	Ich Auto Range
ICHOFFSETENABLE	TOGGLE	T	Ich Offset Enable
ICHOFFSET	QUANT	0	Ich Offset (V)
ICHFILTER	IQUANT	3	Ich Filter
VCHRANGE	IQUANT	2	Vch Range
VCHRANGEMODE	TOGGLE	F	Vch Auto Range
VCHOFFSETENABLE	TOGGLE	T	Vch Offset Enable
VCHOFFSET	QUANT	0	Vch Offset (V)
VCHFILTER	IQUANT	3	Vch Filter
ACHRANGE	IQUANT	0	Ach Range
IERANGELOWERLIMIT	IQUANT	3	I/E Range Lower Limit
IERANGEMODE	TOGGLE	F	I/E AutoRange
IERANGE	IQUANT	11	I/E Range
POSFEEDENABLE	TOGGLE	F	Positive Feedback IR Comp
POSFEEDRESISTANCE	QUANT	0	Positive Feedback Resistance (ohm)
FC350IDIVISOR	IQUANT	0	FC350 I Divisor
FC350VRANGE	IQUANT	0	FC350 V Range
FRAMEWORKVERSION	QUANT	4.35	Framework Version
ZCURVE	TABLE
	Pt	Time	Freq	Zreal	Zimag	Zsig	Zmod	Zphz	Idc	Vdc	IERange
	#	s	Hz	ohm	ohm	V	ohm	°	A	V	#
	0	4	100007	114.915	-0.438824	1	114.916	-0.218793	2.29623E-006	-0.479965	9
	1	6	89134.1	114.511	-1.00661	1	114.516	-0.503646	2.90626E-006	-0.479994	9
	2	8	79433.6	114.09	-1.23842	1	114.097	-0.62191	2.98399E-006	-0.479993	9
	3	10	70800.8	113.93	-1.63492	1	113.942	-0.822152	2.82693E-006	-0.479978	9
	4	12	63105.5	113.65	-1.87106	1	113.666	-0.943194	3.51667E-006	-0.479991	9
	5	14	56243.5	113.611	-1.88483	1	113.627	-0.95046	3.30026E-006	-0.479981	9
	6	16	50123.7	113.393	-2.53366	1	113.422	-1.28	3.23293E-006	-0.479962	9
	7	18	44681	113.508	-2.75902	1	113.542	-1.3924	3.41732E-006	-0.479965	9
	8	20	39811.2	113.479	-3.34064	1	113.528	-1.68621	4.06421E-006	-0.479971	9
	9	22	35488.3	113.396	-3.60621	1	113.453	-1.8215	3.77598E-006	-0.47997	9
	10	23	31634.1	113.604	-3.95871	1	113.673	-1.99575	3.76856E-006	-0.479996	9
	11	25	28173.1	113.625	-4.52408	1	113.715	-2.28008	3.69056E-006	-0.479991	9
	12	27	25123.7	113.746	-5.16359	1	113.863	-2.59921	4.02479E-006	-0.48	9
	13	29	22389.3	113.85	-5.56192	1	113.985	-2.79686	3.47778E-006	-0.479968	9
	14	31	19954.4	113.976	-6.23716	1	114.147	-3.13229	3.51167E-006	-0.479988	9
	15	33	17778.2	114.069	-6.92691	1	114.279	-3.47506	3.7316E-006	-0.479986	9
	16	35	15852.9	114.254	-7.63132	1	114.509	-3.82125	3.8322E-006	-0.479993	9
	17	37	14122.3	114.493	-8.38985	1	114.8	-4.19106	3.46215E-006	-0.479982	9
	18	39	12587.2	114.74	-9.149	1	115.104	-4.55895	3.70281E-006	-0.479985	9
	19	41	11221.1	115.038	-10.1878	1	115.488	-5.06096	3.56096E-006	-0.479986	9
	20	43	9998.2	115.234	-11.2698	1	115.784	-5.58574	3.56776E-006	-0.479986	9
	21	45	8912.76	115.422	-12.5464	1	116.102	-6.20369	3.5971E-006	-0.480016	9
	22	47	7942.6	115.957	-13.958	1	116.794	-6.86381	3.39698E-006	-0.47999	9
	23	49	7078.05	116.272	-15.2492	1	117.268	-7.47175	3.35653E-006	-0.479995	9
	24	51	6311.1	116.588	-16.6121	1	117.766	-8.10922	3.20117E-006	-0.47999	9
	25	53	5622.14	116.965	-18.4729	1	118.415	-8.97486	3.22407E-006	-0.479988	9
	26	55	5011.18	117.386	-20.1425	1	119.101	-9.7367	3.22407E-006	-0.479991	9
	27	57	4465.21	118.081	-22.4435	1	120.195	-10.7618	3.28968E-006	-0.479992	9
	28	59	3980.93	118.608	-24.6301	1	121.139	-11.7313	3.48045E-006	-0.480003	9
	29	61	3548.18	119.147	-26.9038	1	122.147	-12.7241	3.18599E-006	-0.479978	9
	30	63	3162.67	119.787	-29.7361	1	123.422	-13.9414	3.03253E-006	-0.479982	9
	31	65	2819.01	120.576	-32.8597	1	124.973	-15.2443	2.84284E-006	-0.479975	9
	32	67	2511.16	121.514	-36.0642	1	126.753	-16.5304	2.9189E-006	-0.479997	9
	33	69	2238.63	122.047	-39.6282	1	128.32	-17.9884	3.0807E-006	-0.479998	9
	34	71	1995.37	123.292	-44.0539	1	130.926	-19.6625	3.01801E-006	-0.479986	9
	35	73	1778.51	124.21	-48.2837	1	133.265	-21.2424	2.88667E-006	-0.479992	9
	36	75	1584.49	125.193	-52.9634	1	135.935	-22.931	2.68674E-006	-0.479989	9
	37	77	1412.76	126.294	-58.5317	1	139.198	-24.8657	2.90781E-006	-0.480001	9
	38	79	1259.04	127.498	-64.4669	1	142.87	-26.8225	2.84051E-006	-0.480005	9
	39	81	1121.63	128.688	-71.3101	1	147.124	-28.9923	2.83962E-006	-0.480001	9
	40	83	999.95	130.198	-78.7443	1	152.159	-31.1657	2.63417E-006	-0.479997	9
	41	85	891.184	131.505	-86.8061	1	157.572	-33.4286	2.94554E-006	-0.479994	9
	42	87	794.163	133.003	-95.82	1	163.924	-35.7705	2.77109E-006	-0.479999	9
	43	89	707.867	134.762	-105.843	1	171.358	-38.1461	2.76206E-006	-0.47999	9
	44	91	630.984	136.528	-117.317	1	180.008	-40.6722	2.71528E-006	-0.479998	9
	45	93	562.189	138.065	-129.498	1	189.292	-43.166	2.63574E-006	-0.479981	9
	46	94	501.303	140.272	-143.413	1	200.607	-45.6343	2.78509E-006	-0.479993	9
	47	96	446.614	142.348	-158.987	1	213.401	-48.1605	2.65187E-006	-0.479997	9
	48	98	398.209	144.619	-176.204	1	227.952	-50.6227	2.83737E-006	-0.480004	9
	49	100	354.821	147.083	-195.487	1	244.639	-53.0425	2.8369E-006	-0.479995	9
	50	102	316.113	149.8	-217.014	1	263.696	-55.3835	2.66746E-006	-0.479991	9
	51	104	281.926	152.709	-240.794	1	285.134	-57.6176	2.49184E-006	-0.479996	9
	52	106	251.185	155.974	-267.529	1	309.677	-59.757	2.79515E-006	-0.479991	9
	53	108	223.946	159.579	-297.184	1	337.318	-61.7655	2.79396E-006	-0.479989	9
	54	110	199.495	163.592	-330.47	1	368.745	-63.6633	2.74251E-006	-0.479991	9
	55	112	177.836	168.051	-367.325	1	403.941	-65.4159	2.8894E-006	-0.479996	9
	56	114	158.533	172.942	-408.468	1	443.571	-67.0526	2.6772E-006	-0.479994	9
	57	116	141.263	178.564	-454.474	1	488.295	-68.5501	2.76751E-006	-0.479996	9
	58	119	125.911	185.086	-505.697	1	538.504	-69.8972	2.93382E-006	-0.479998	9
	59	121	112.198	192.386	-562.845	1	594.816	-71.1291	2.86961E-006	-0.479997	9
	60	123	100.009	200.434	-626.308	1	657.598	-72.2541	2.90854E-006	-0.479992	9
	61	125	89.1164	209.672	-697.222	1	728.066	-73.2626	2.86516E-006	-0.479995	9
	62	127	79.4083	220.14	-776.107	1	806.724	-74.1642	2.94371E-006	-0.479993	9
	63	129	70.788	231.64	-863.997	1	894.51	-74.9918	2.70238E-006	-0.479989	9
	64	131	63.0971	244.501	-961.8	1	992.39	-75.7369	2.56386E-006	-0.479986	9
	65	133	54.5476	264.601	-1101.51	1	1132.85	-76.4926	2.6572E-006	-0.479994	9
	66	135	50.0083	277.922	-1193.79	1	1225.71	-76.8946	1.83297E-006	-0.479996	8
	67	137	46.1675	293.424	-1285.65	1	1318.71	-77.1436	1.85389E-006	-0.479999	8
	68	139	40.0059	324.618	-1469.17	1	1504.61	-77.5405	2.07578E-006	-0.479997	8
	69	141	35.3046	357.525	-1650.23	1	1688.51	-77.7757	2.04805E-006	-0.479995	8
	70	144	31.5793	389.605	-1830.44	1	1871.44	-77.984	2.03693E-006	-0.47999	8
	71	146	28.5748	424.333	-2006.99	1	2051.36	-78.0619	2.09551E-006	-0.479993	8
	72	148	24.9911	478.43	-2273.88	1	2323.66	-78.1181	2.1559E-006	-0.48	8
	73	150	22.2195	534.152	-2532.74	1	2588.45	-78.0909	1.94808E-006	-0.479991	8
	74	152	20.0011	591.836	-2793.25	1	2855.26	-78.037	1.98438E-006	-0.479996	8
	75	155	17.6486	669.211	-3133.69	1	3204.34	-77.9453	1.87044E-006	-0.479997	8
	76	157	15.7934	745.344	-3470.69	1	3549.82	-77.8796	1.76071E-006	-0.479991	8
	77	159	14.2828	844.41	-3802.44	1	3895.07	-77.4795	1.86686E-006	-0.479997	8
	78	162	12.5002	995.72	-4289.67	1	4403.72	-76.9319	1.97322E-006	-0.480002	8
	79	164	11.323	1120.42	-4673.22	1	4805.65	-76.5176	1.87635E-006	-0.479992	8
	80	167	9.9987	1296.33	-5246.48	1	5404.26	-76.121	1.90355E-006	-0.479992	8
