EXPLAIN
TAG	EISPOT
TITLE	LABEL	Tomato_open	Test &Identifier
DATE	LABEL	5/12/2006	Date
TIME	LABEL	16:42:52	Time
NOTES	NOTES	1	&Notes...
	
PSTAT	PSTAT	300	Potentiostat
VDC	POTEN	1.00000E-001	T	DC &Voltage (V)
FREQINIT	QUANT	1.00000E+005	Initial Fre&q. (Hz)
FREQFINAL	QUANT	1.00000E+001	Final Fre&q. (Hz)
PTSPERDEC	QUANT	2.00000E+001	Points/&decade
VAC	QUANT	1.00000E+001	AC &Voltage (mV rms)
AREA	QUANT	1.00000E+000	&Area (cm²)
DENSITY	QUANT	7.87000E+000	&Density (gm/cm³)
EQUIV	QUANT	7.00000E+000	Equiv. &Wt
CONDIT	TWOPARAM	F	1.50000E+001	0.00000E+000	Conditionin&g	Time(s)	E(V)
DELAY	TWOPARAM	F	6.00000E+002	0.00000E+000	Init. De&lay	Time(s)	Stab.(mV/s)
SPEED	SELECTOR	1	&Optimize for:
ZGUESS	QUANT	1.00000E+002	E&stimated Z (ohms)
OCVCURVE	TABLE	39
	Pt	T	Vf	Vm	Ach	Over
	#	s	V vs. Ref.	V	V	bits
	0	0.258332	-5.68469E-001	4.33484E-006	-6.34000E-005	......
	1	0.516663	-5.69669E-001	4.33484E-006	-6.34000E-005	......
	2	0.774994	-5.68569E-001	4.33484E-006	-6.34000E-005	......
	3	1.03333	-5.67419E-001	4.33484E-006	-1.63400E-004	......
	4	1.29166	-5.67919E-001	4.33484E-006	-6.34000E-005	......
	5	1.54999	-5.67169E-001	4.33484E-006	-1.63400E-004	......
	6	1.80832	-5.67519E-001	4.33484E-006	-2.63400E-004	......
	7	2.06665	-5.71669E-001	4.33484E-006	-1.63400E-004	......
	8	2.32498	-5.72919E-001	4.33484E-006	-1.63400E-004	......
	9	2.58332	-5.73169E-001	4.33484E-006	-1.63400E-004	......
	10	2.84165	-5.75469E-001	4.33484E-006	-1.63400E-004	......
	11	3.09998	-5.76469E-001	4.33484E-006	-2.63400E-004	......
	12	3.35831	-5.76769E-001	4.33484E-006	-6.34000E-005	......
	13	3.61664	-5.78819E-001	4.33484E-006	-6.34000E-005	......
	14	3.87497	-5.80519E-001	4.33484E-006	-6.34000E-005	......
	15	4.1333	-5.78619E-001	4.33484E-006	-6.34000E-005	......
	16	4.39164	-5.75870E-001	4.33484E-006	-1.63400E-004	......
	17	4.64997	-5.73419E-001	4.33484E-006	-2.63400E-004	......
	18	4.9083	-5.73120E-001	4.33484E-006	-6.34000E-005	......
	19	5.16663	-5.75369E-001	4.33484E-006	-2.63400E-004	......
	20	5.42496	-5.76469E-001	4.33484E-006	3.66000E-005	......
	21	5.68329	-5.77569E-001	4.33484E-006	-1.63400E-004	......
	22	5.94162	-5.78219E-001	4.33484E-006	-6.34000E-005	......
	23	6.19996	-5.77819E-001	4.33484E-006	-2.63400E-004	......
	24	6.45829	-5.77819E-001	4.33484E-006	-6.34000E-005	......
	25	6.71662	-5.79369E-001	4.33484E-006	-1.63400E-004	......
	26	6.97495	-5.78169E-001	4.33484E-006	-6.34000E-005	......
	27	7.23328	-5.77569E-001	4.33484E-006	-1.63400E-004	......
	28	7.49161	-5.76869E-001	4.33484E-006	-1.63400E-004	......
	29	7.74995	-5.74369E-001	4.33484E-006	-6.34000E-005	......
	30	8.00828	-5.71769E-001	4.33484E-006	-1.63400E-004	......
	31	8.26661	-5.69169E-001	4.33484E-006	-2.63400E-004	......
	32	8.52494	-5.67469E-001	4.33484E-006	-1.63400E-004	......
	33	8.78327	-5.67270E-001	4.33484E-006	-1.63400E-004	......
	34	9.0416	-5.66719E-001	4.33484E-006	-1.63400E-004	......
	35	9.29993	-5.67569E-001	4.33484E-006	-2.63400E-004	......
	36	9.5583	-5.70369E-001	4.33484E-006	-1.63400E-004	......
	37	9.8166	-5.72769E-001	4.33484E-006	-2.63400E-004	......
	38	10.0749	-5.72769E-001	4.33484E-006	-1.63400E-004	......
EOC	QUANT	-0.572769	Open Circuit (V)
PSTATMODEL	IQUANT	32	Pstat Model
PSTATSECTION	LABEL	PStat0	Pstat Section
CTRLMODE	IQUANT	1	Control Mode
IESTAB	IQUANT	0	I/E Stability
CASPEED	IQUANT	1	Control Amp Speed
CONVENTION	IQUANT	1	Current Convention
ICHRANGE	IQUANT	2	Ich Range
ICHRANGEMODE	TOGGLE	F	Ich Auto Range
ICHOFFSETENABLE	TOGGLE	T	Ich Offset Enable
ICHOFFSET	QUANT	0	Ich Offset (V)
ICHFILTER	IQUANT	3	Ich Filter
VCHRANGE	IQUANT	2	Vch Range
VCHRANGEMODE	TOGGLE	F	Vch Auto Range
VCHOFFSETENABLE	TOGGLE	T	Vch Offset Enable
VCHOFFSET	QUANT	0	Vch Offset (V)
VCHFILTER	IQUANT	3	Vch Filter
ACHRANGE	IQUANT	0	Ach Range
IERANGELOWERLIMIT	IQUANT	3	I/E Range Lower Limit
IERANGEMODE	TOGGLE	F	I/E AutoRange
IERANGE	IQUANT	11	I/E Range
POSFEEDENABLE	TOGGLE	F	Positive Feedback IR Comp
POSFEEDRESISTANCE	QUANT	0	Positive Feedback Resistance (ohm)
FC350IDIVISOR	IQUANT	0	FC350 I Divisor
FC350VRANGE	IQUANT	0	FC350 V Range
FRAMEWORKVERSION	QUANT	4.35	Framework Version
ZCURVE	TABLE
	Pt	Time	Freq	Zreal	Zimag	Zsig	Zmod	Zphz	Idc	Vdc	IERange
	#	s	Hz	ohm	ohm	V	ohm	°	A	V	#
	0	4	100007	115.059	-0.769411	1	115.062	-0.383136	2.83571E-006	-0.472669	9
	1	6	89134.1	114.326	-0.910846	1	114.329	-0.456472	3.38759E-006	-0.472702	9
	2	8	79433.6	114.135	-1.36608	1	114.143	-0.685742	3.3716E-006	-0.472703	9
	3	10	70800.8	113.775	-1.56089	1	113.786	-0.785996	3.76713E-006	-0.472707	9
	4	12	63105.5	113.657	-1.93186	1	113.673	-0.97378	3.73727E-006	-0.472714	9
	5	14	56243.5	113.665	-2.12098	1	113.685	-1.06901	3.57374E-006	-0.472689	9
	6	16	50123.7	113.441	-2.61106	1	113.471	-1.31854	3.98804E-006	-0.472722	9
	7	18	44681	113.448	-2.88661	1	113.485	-1.45754	3.80267E-006	-0.472709	9
	8	20	39811.2	113.462	-3.33539	1	113.511	-1.68381	3.56507E-006	-0.472706	9
	9	22	35488.3	113.25	-3.61765	1	113.308	-1.82963	3.92576E-006	-0.472704	9
	10	24	31634.1	113.551	-4.07042	1	113.624	-2.05299	3.86807E-006	-0.472709	9
	11	25	28173.1	113.734	-4.68866	1	113.83	-2.36068	3.72784E-006	-0.472698	9
	12	27	25123.7	113.793	-5.09218	1	113.907	-2.56224	3.63757E-006	-0.472703	9
	13	29	22389.3	113.93	-5.67963	1	114.072	-2.85394	3.42237E-006	-0.472694	9
	14	31	19954.4	114.017	-6.33829	1	114.194	-3.18183	3.3292E-006	-0.472679	9
	15	33	17778.2	114.343	-6.97178	1	114.555	-3.48915	3.53774E-006	-0.472688	9
	16	35	15852.9	114.408	-7.7582	1	114.671	-3.87938	3.17163E-006	-0.472672	9
	17	37	14122.3	114.541	-8.61116	1	114.865	-4.29938	3.41376E-006	-0.472695	9
	18	39	12587.2	114.773	-9.5164	1	115.166	-4.73983	3.44792E-006	-0.472684	9
	19	41	11221.1	115.194	-10.2886	1	115.653	-5.10385	3.17168E-006	-0.472675	9
	20	43	9998.2	115.452	-11.4069	1	116.014	-5.64262	3.31477E-006	-0.472685	9
	21	45	8912.76	115.677	-12.4369	1	116.344	-6.13651	3.16979E-006	-0.472687	9
	22	47	7942.6	116.001	-13.7587	1	116.814	-6.7642	3.30806E-006	-0.472683	9
	23	49	7078.05	116.287	-15.3332	1	117.294	-7.51148	3.06398E-006	-0.472688	9
	24	51	6311.1	116.61	-16.8123	1	117.816	-8.20409	2.76624E-006	-0.472687	9
	25	53	5622.14	117.086	-18.4265	1	118.527	-8.94362	2.90276E-006	-0.47269	9
	26	55	5011.18	117.626	-20.4433	1	119.389	-9.8595	3.05518E-006	-0.472697	9
	27	57	4465.21	118.011	-22.5021	1	120.137	-10.7954	2.89849E-006	-0.472698	9
	28	59	3980.93	118.483	-24.7735	1	121.046	-11.8097	2.79924E-006	-0.472671	9
	29	61	3548.18	119.128	-27.3683	1	122.231	-12.9386	2.81924E-006	-0.472676	9
	30	63	3162.67	119.94	-30.0468	1	123.646	-14.0641	3.07999E-006	-0.472707	9
	31	65	2819.01	120.562	-33.0101	1	124.999	-15.3124	3.13559E-006	-0.472705	9
	32	67	2511.16	121.677	-36.3777	1	126.999	-16.645	2.81481E-006	-0.472695	9
	33	69	2238.63	122.248	-40.1177	1	128.663	-18.168	2.70228E-006	-0.472699	9
	34	71	1995.37	123.204	-44.1985	1	130.893	-19.735	2.86518E-006	-0.472691	9
	35	73	1778.51	124.183	-48.5774	1	133.346	-21.3643	2.81567E-006	-0.472689	9
	36	75	1584.49	125.242	-53.5809	1	136.222	-23.1621	2.75143E-006	-0.472696	9
	37	77	1412.76	126.43	-59.1084	1	139.565	-25.0569	3.01281E-006	-0.47271	9
	38	79	1259.04	127.624	-65.2505	1	143.337	-27.0793	2.84345E-006	-0.472694	9
	39	81	1121.63	129.029	-72.0227	1	147.769	-29.1699	2.82024E-006	-0.472694	9
	40	83	999.95	130.374	-79.3436	1	152.62	-31.324	2.73021E-006	-0.472694	9
	41	85	891.184	131.737	-87.5073	1	158.153	-33.5943	2.88137E-006	-0.472696	9
	42	87	794.163	133.318	-96.701	1	164.696	-35.955	2.80735E-006	-0.472682	9
	43	89	707.867	135.178	-106.732	1	172.235	-38.2935	2.75392E-006	-0.472694	9
	44	91	630.984	136.475	-118.333	1	180.633	-40.9276	2.67731E-006	-0.472692	9
	45	93	562.189	138.248	-130.831	1	190.34	-43.4211	2.6489E-006	-0.472697	9
	46	95	501.303	140.545	-144.857	1	201.833	-45.8657	2.87868E-006	-0.472687	9
	47	97	446.614	142.644	-160.556	1	214.768	-48.3808	2.65707E-006	-0.472696	9
	48	99	398.209	144.908	-177.937	1	229.477	-50.8414	2.65098E-006	-0.472695	9
	49	101	354.821	147.4	-197.404	1	246.364	-53.2517	2.70743E-006	-0.4727	9
	50	103	316.113	150.117	-219.128	1	265.617	-55.5863	2.79624E-006	-0.472694	9
	51	105	281.926	153.064	-243.113	1	287.285	-57.8055	2.69832E-006	-0.472697	9
	52	107	251.185	156.379	-270.163	1	312.158	-59.9364	2.92774E-006	-0.472689	9
	53	109	223.946	159.981	-300.047	1	340.033	-61.934	2.88924E-006	-0.472691	9
	54	111	199.495	164.07	-333.674	1	371.83	-63.8164	3.03659E-006	-0.472689	9
	55	113	177.836	168.492	-370.855	1	407.336	-65.5661	2.8691E-006	-0.472685	9
	56	115	158.533	173.429	-412.323	1	447.311	-67.1877	2.90485E-006	-0.472681	9
	57	117	141.263	179.036	-458.837	1	492.53	-68.6846	2.95195E-006	-0.472681	9
	58	119	125.911	185.256	-510.337	1	542.922	-70.0487	2.87293E-006	-0.472678	9
	59	121	112.198	192.13	-568.146	1	599.753	-71.316	2.67386E-006	-0.47268	9
	60	123	100.009	200.524	-632.412	1	663.442	-72.4073	2.99879E-006	-0.472684	9
	61	125	89.1164	209.866	-703.934	1	734.552	-73.3989	3.06074E-006	-0.472691	9
	62	127	79.4083	220.679	-783.884	1	814.355	-74.2771	3.18301E-006	-0.472685	9
	63	129	70.788	232.021	-872.385	1	902.712	-75.1063	3.0093E-006	-0.472686	9
	64	131	63.0971	245.906	-971	1	1001.66	-75.7887	3.06454E-006	-0.472685	9
	65	133	54.5476	266.206	-1111.53	1	1142.97	-76.5317	2.14223E-006	-0.472688	8
	66	135	50.0083	279.223	-1205.5	1	1237.41	-76.9588	2.03186E-006	-0.472692	8
	67	137	46.1675	292.273	-1298.03	1	1330.53	-77.3106	1.97728E-006	-0.472694	8
	68	140	40.0059	327.001	-1484.46	1	1520.05	-77.5771	2.211E-006	-0.472695	8
	69	142	35.3046	357.763	-1668.13	1	1706.07	-77.8952	2.1987E-006	-0.47269	8
	70	144	31.5793	385.329	-1850.33	1	1890.03	-78.2364	1.93269E-006	-0.472687	8
	71	146	28.5748	421.711	-2028.91	1	2072.28	-78.2582	1.98393E-006	-0.472689	8
	72	148	24.9911	467.498	-2296.29	1	2343.4	-78.4925	1.84147E-006	-0.472685	8
	73	150	22.2195	520.991	-2562.34	1	2614.77	-78.5069	1.74281E-006	-0.47269	8
	74	153	20.0011	569.267	-2824.84	1	2881.63	-78.6063	1.7813E-006	-0.472686	8
	75	155	17.6486	651.395	-3172.17	1	3238.36	-78.3958	1.77181E-006	-0.472692	8
	76	157	15.7934	720.141	-3513.49	1	3586.54	-78.4168	1.69906E-006	-0.472696	8
	77	159	14.2828	833.973	-3849.39	1	3938.7	-77.7758	1.82924E-006	-0.472697	8
	78	162	12.5002	974	-4346.53	1	4454.32	-77.3695	1.80886E-006	-0.472698	8
	79	164	11.323	1118.56	-4758.38	1	4888.08	-76.7716	1.93128E-006	-0.472695	8
	80	167	9.9987	1288.86	-5327.49	1	5481.18	-76.3999	1.92323E-006	-0.4727	8
