EXPLAIN
TAG	EISPOT
TITLE	LABEL	Tomato_open	Test &Identifier
DATE	LABEL	5/12/2006	Date
TIME	LABEL	16:32:51	Time
NOTES	NOTES	1	&Notes...
	
PSTAT	PSTAT	300	Potentiostat
VDC	POTEN	1.00000E-001	T	DC &Voltage (V)
FREQINIT	QUANT	1.00000E+005	Initial Fre&q. (Hz)
FREQFINAL	QUANT	1.00000E+001	Final Fre&q. (Hz)
PTSPERDEC	QUANT	2.00000E+001	Points/&decade
VAC	QUANT	1.00000E+001	AC &Voltage (mV rms)
AREA	QUANT	1.00000E+000	&Area (cm²)
DENSITY	QUANT	7.87000E+000	&Density (gm/cm³)
EQUIV	QUANT	7.00000E+000	Equiv. &Wt
CONDIT	TWOPARAM	F	1.50000E+001	0.00000E+000	Conditionin&g	Time(s)	E(V)
DELAY	TWOPARAM	F	6.00000E+002	0.00000E+000	Init. De&lay	Time(s)	Stab.(mV/s)
SPEED	SELECTOR	1	&Optimize for:
ZGUESS	QUANT	1.00000E+002	E&stimated Z (ohms)
OCVCURVE	TABLE	39
	Pt	T	Vf	Vm	Ach	Over
	#	s	V vs. Ref.	V	V	bits
	0	0.258332	-6.15569E-001	2.54843E-010	3.36600E-004	......
	1	0.516663	-6.10569E-001	2.54843E-010	2.36600E-004	......
	2	0.774994	-6.09269E-001	2.54843E-010	1.36600E-004	......
	3	1.03333	-6.07219E-001	2.54843E-010	2.36600E-004	......
	4	1.29166	-6.04169E-001	2.54843E-010	3.36600E-004	......
	5	1.54999	-6.02170E-001	2.54843E-010	1.36600E-004	......
	6	1.80832	-5.98719E-001	2.54843E-010	3.36600E-004	......
	7	2.06665	-5.96619E-001	2.54843E-010	2.36600E-004	......
	8	2.32498	-5.95719E-001	2.54843E-010	3.36600E-004	......
	9	2.58332	-5.97869E-001	2.54843E-010	2.36600E-004	......
	10	2.84165	-5.99970E-001	2.54843E-010	3.36600E-004	......
	11	3.09998	-6.02019E-001	2.54843E-010	3.66000E-005	......
	12	3.35831	-6.03519E-001	2.54843E-010	3.36600E-004	......
	13	3.61664	-6.03570E-001	2.54843E-010	3.66000E-005	......
	14	3.87497	-6.01569E-001	2.54843E-010	3.36600E-004	......
	15	4.1333	-5.99169E-001	2.54843E-010	2.36600E-004	......
	16	4.39164	-5.99919E-001	2.54843E-010	3.36600E-004	......
	17	4.64997	-5.97820E-001	2.54843E-010	3.36600E-004	......
	18	4.9083	-5.96770E-001	2.54843E-010	2.36600E-004	......
	19	5.16663	-5.95819E-001	2.54843E-010	3.66000E-005	......
	20	5.42496	-5.92719E-001	2.54843E-010	3.36600E-004	......
	21	5.68329	-5.89019E-001	2.54843E-010	2.36600E-004	......
	22	5.94162	-5.88069E-001	2.54843E-010	3.36600E-004	......
	23	6.19996	-5.87070E-001	2.54843E-010	1.36600E-004	......
	24	6.45829	-5.85869E-001	2.54843E-010	3.36600E-004	......
	25	6.71662	-5.85819E-001	2.54843E-010	2.36600E-004	......
	26	6.97495	-5.83719E-001	2.54843E-010	3.36600E-004	......
	27	7.23328	-5.83770E-001	2.54843E-010	2.36600E-004	......
	28	7.49161	-5.82819E-001	2.54843E-010	2.36600E-004	......
	29	7.74995	-5.80069E-001	2.54843E-010	2.36600E-004	......
	30	8.00828	-5.79470E-001	2.54843E-010	3.36600E-004	......
	31	8.26661	-5.79669E-001	2.54843E-010	2.36600E-004	......
	32	8.52494	-5.81819E-001	2.54843E-010	3.36600E-004	......
	33	8.78327	-5.82269E-001	2.54843E-010	2.36600E-004	......
	34	9.0416	-5.81269E-001	2.54843E-010	3.36600E-004	......
	35	9.29993	-5.81119E-001	2.54843E-010	2.36600E-004	......
	36	9.5583	-5.82169E-001	2.54843E-010	2.36600E-004	......
	37	9.8166	-5.79820E-001	2.54843E-010	2.36600E-004	......
	38	10.0749	-5.81469E-001	2.54843E-010	3.36600E-004	......
EOC	QUANT	-0.581469	Open Circuit (V)
PSTATMODEL	IQUANT	32	Pstat Model
PSTATSECTION	LABEL	PStat0	Pstat Section
CTRLMODE	IQUANT	1	Control Mode
IESTAB	IQUANT	0	I/E Stability
CASPEED	IQUANT	1	Control Amp Speed
CONVENTION	IQUANT	1	Current Convention
ICHRANGE	IQUANT	2	Ich Range
ICHRANGEMODE	TOGGLE	F	Ich Auto Range
ICHOFFSETENABLE	TOGGLE	T	Ich Offset Enable
ICHOFFSET	QUANT	0	Ich Offset (V)
ICHFILTER	IQUANT	3	Ich Filter
VCHRANGE	IQUANT	2	Vch Range
VCHRANGEMODE	TOGGLE	F	Vch Auto Range
VCHOFFSETENABLE	TOGGLE	T	Vch Offset Enable
VCHOFFSET	QUANT	0	Vch Offset (V)
VCHFILTER	IQUANT	3	Vch Filter
ACHRANGE	IQUANT	0	Ach Range
IERANGELOWERLIMIT	IQUANT	3	I/E Range Lower Limit
IERANGEMODE	TOGGLE	F	I/E AutoRange
IERANGE	IQUANT	11	I/E Range
POSFEEDENABLE	TOGGLE	F	Positive Feedback IR Comp
POSFEEDRESISTANCE	QUANT	0	Positive Feedback Resistance (ohm)
FC350IDIVISOR	IQUANT	0	FC350 I Divisor
FC350VRANGE	IQUANT	0	FC350 V Range
FRAMEWORKVERSION	QUANT	4.35	Framework Version
ZCURVE	TABLE
	Pt	Time	Freq	Zreal	Zimag	Zsig	Zmod	Zphz	Idc	Vdc	IERange
	#	s	Hz	ohm	ohm	V	ohm	°	A	V	#
	0	4	100007	115.611	-0.897403	1	115.615	-0.444734	5.75538E-006	-0.481477	9
	1	6	89134.1	115.142	-1.08367	1	115.147	-0.539229	6.96606E-006	-0.481518	9
	2	8	79433.6	114.859	-1.07096	1	114.864	-0.534214	6.34453E-006	-0.481499	9
	3	10	70800.8	114.852	-1.59122	1	114.863	-0.793756	7.19809E-006	-0.481489	9
	4	12	63105.5	114.644	-1.9065	1	114.66	-0.95273	7.09903E-006	-0.481483	9
	5	14	56243.5	114.511	-2.1598	1	114.532	-1.08053	6.65251E-006	-0.481503	9
	6	16	50123.7	114.425	-2.50443	1	114.452	-1.25384	5.69585E-006	-0.481463	9
	7	18	44681	114.398	-2.80383	1	114.432	-1.404	5.48906E-006	-0.48149	9
	8	20	39811.2	114.313	-3.31377	1	114.361	-1.66046	4.77084E-006	-0.481487	9
	9	21	35488.3	114.611	-3.6632	1	114.669	-1.83067	4.29201E-006	-0.481497	9
	10	23	31634.1	114.514	-4.16121	1	114.589	-2.0811	3.84485E-006	-0.481491	9
	11	25	28173.1	114.563	-4.5223	1	114.652	-2.26053	3.31765E-006	-0.481505	9
	12	27	25123.7	114.693	-5.18695	1	114.81	-2.58942	2.99248E-006	-0.481476	9
	13	29	22389.3	114.948	-5.57982	1	115.083	-2.77908	2.76227E-006	-0.48147	9
	14	31	19954.4	114.981	-6.12282	1	115.144	-3.04816	3.29965E-006	-0.481499	9
	15	33	17778.2	115.011	-6.78537	1	115.211	-3.37639	2.71928E-006	-0.481488	9
	16	35	15852.9	115.131	-7.57566	1	115.38	-3.76465	2.65309E-006	-0.481476	9
	17	37	14122.3	115.515	-8.33588	1	115.816	-4.12746	2.96273E-006	-0.481485	9
	18	39	12587.2	115.662	-9.09584	1	116.019	-4.49658	2.87113E-006	-0.481501	9
	19	41	11221.1	115.79	-10.0997	1	116.23	-4.98496	2.5116E-006	-0.481484	9
	20	43	9998.2	116.054	-11.1662	1	116.59	-5.49585	2.74999E-006	-0.481486	9
	21	45	8912.76	116.29	-12.2032	1	116.929	-5.99056	2.86621E-006	-0.481491	9
	22	47	7942.6	116.578	-13.5181	1	117.359	-6.61437	2.64938E-006	-0.481478	9
	23	49	7078.05	116.936	-15.009	1	117.895	-7.31406	2.57153E-006	-0.48149	9
	24	51	6311.1	117.255	-16.4559	1	118.405	-7.98885	2.65213E-006	-0.481502	9
	25	53	5622.14	117.846	-18.1635	1	119.237	-8.76201	2.60145E-006	-0.481494	9
	26	55	5011.18	118.292	-19.7792	1	119.935	-9.49238	2.59499E-006	-0.481498	9
	27	57	4465.21	118.698	-21.9903	1	120.718	-10.4957	2.56604E-006	-0.481486	9
	28	59	3980.93	119.287	-24.1653	1	121.71	-11.452	2.73113E-006	-0.481497	9
	29	61	3548.18	119.726	-26.3886	1	122.599	-12.4298	2.42095E-006	-0.481484	9
	30	63	3162.67	120.535	-29.3275	1	124.052	-13.675	2.50301E-006	-0.481468	9
	31	65	2819.01	121.45	-32.3016	1	125.673	-14.8939	2.69959E-006	-0.481503	9
	32	67	2511.16	122.257	-35.569	1	127.326	-16.2216	2.56965E-006	-0.48149	9
	33	69	2238.63	122.844	-39.0941	1	128.914	-17.6533	2.80149E-006	-0.481485	9
	34	71	1995.37	123.748	-43.0204	1	131.012	-19.1698	2.72063E-006	-0.481489	9
	35	73	1778.51	124.826	-47.3596	1	133.508	-20.777	2.37528E-006	-0.481493	9
	36	75	1584.49	125.982	-52.3071	1	136.41	-22.5479	2.41667E-006	-0.481497	9
	37	77	1412.76	126.721	-57.4697	1	139.143	-24.395	2.4979E-006	-0.481499	9
	38	79	1259.04	128.231	-63.5359	1	143.108	-26.3575	2.43623E-006	-0.481492	9
	39	81	1121.63	129.416	-69.9316	1	147.102	-28.3851	2.41201E-006	-0.481479	9
	40	83	999.95	130.675	-77.1516	1	151.751	-30.5579	2.54637E-006	-0.481487	9
	41	85	891.184	132.062	-85.3035	1	157.217	-32.8598	2.67949E-006	-0.481493	9
	42	87	794.163	133.676	-93.9242	1	163.374	-35.0929	2.75412E-006	-0.481491	9
	43	89	707.867	135.175	-103.925	1	170.508	-37.5538	3.25556E-006	-0.481493	9
	44	91	630.984	136.977	-114.855	1	178.757	-39.9798	2.88132E-006	-0.481485	9
	45	93	562.189	138.819	-127.355	1	188.388	-42.534	2.77563E-006	-0.48149	9
	46	95	501.303	140.69	-140.771	1	199.023	-45.0166	2.56098E-006	-0.481485	9
	47	97	446.614	142.776	-156.043	1	211.505	-47.5421	2.72213E-006	-0.48148	9
	48	99	398.209	145.012	-172.969	1	225.714	-50.0245	2.72412E-006	-0.481492	9
	49	101	354.821	147.49	-191.902	1	242.033	-52.4551	2.75929E-006	-0.481487	9
	50	103	316.113	150.198	-212.995	1	260.626	-54.8097	2.88484E-006	-0.481486	9
	51	105	281.926	153.139	-236.373	1	281.645	-57.062	2.82877E-006	-0.481488	9
	52	107	251.185	156.468	-262.602	1	305.683	-59.2119	2.86995E-006	-0.481483	9
	53	109	223.946	160.012	-291.712	1	332.716	-61.254	2.8366E-006	-0.481481	9
	54	111	199.495	164.073	-324.338	1	363.476	-63.1665	2.82581E-006	-0.481488	9
	55	113	177.836	168.693	-360.588	1	398.097	-64.9285	2.90902E-006	-0.481487	9
	56	115	158.533	173.743	-400.911	1	436.94	-66.5695	2.89813E-006	-0.481484	9
	57	117	141.263	179.406	-446.014	1	480.745	-68.0879	2.96793E-006	-0.481477	9
	58	119	125.911	185.653	-496.229	1	529.821	-69.4878	2.69919E-006	-0.481477	9
	59	121	112.198	192.887	-552.26	1	584.976	-70.7473	2.69509E-006	-0.481479	9
	60	123	100.009	201.428	-614.526	1	646.695	-71.852	2.87898E-006	-0.481477	9
	61	125	89.1164	211.191	-684.099	1	715.956	-72.8438	2.97376E-006	-0.481478	9
	62	127	79.4083	222.543	-761.44	1	793.295	-73.7082	3.08621E-006	-0.481475	9
	63	129	70.788	234.496	-847.275	1	879.127	-74.5298	3.00241E-006	-0.481477	9
	64	131	63.0971	248.367	-943.054	1	975.21	-75.2453	2.85327E-006	-0.481482	9
	65	133	54.5476	269.443	-1079.63	1	1112.74	-75.9869	2.98254E-006	-0.481484	9
	66	135	50.0083	286.086	-1169.56	1	1204.04	-76.2548	2.32584E-006	-0.481486	8
	67	137	46.1675	302.098	-1259.49	1	1295.22	-76.512	2.48391E-006	-0.481486	8
	68	139	40.0059	332.594	-1438.26	1	1476.21	-76.9793	2.33617E-006	-0.481493	8
	69	142	35.3046	366.599	-1613.79	1	1654.9	-77.2015	2.37959E-006	-0.481488	8
	70	144	31.5793	400.249	-1789.54	1	1833.75	-77.3927	2.35911E-006	-0.481488	8
	71	146	28.5748	437.461	-1963.07	1	2011.22	-77.4372	2.33783E-006	-0.481491	8
	72	148	24.9911	493.303	-2220.76	1	2274.89	-77.4761	2.22823E-006	-0.481492	8
	73	150	22.2195	556.248	-2472.93	1	2534.71	-77.3232	2.2614E-006	-0.48149	8
	74	153	20.0011	625.876	-2723.48	1	2794.47	-77.0577	2.45635E-006	-0.481486	8
	75	155	17.6486	701.117	-3055.98	1	3135.38	-77.0786	2.27662E-006	-0.481485	8
	76	157	15.7934	812.534	-3380.33	1	3476.61	-76.4842	2.36048E-006	-0.481486	8
	77	159	14.2828	920.422	-3704.9	1	3817.52	-76.0483	2.16465E-006	-0.481486	8
	78	162	12.5002	1067.65	-4172.58	1	4307.01	-75.6475	2.24526E-006	-0.481492	8
	79	164	11.323	1202.33	-4563.87	1	4719.58	-75.2411	2.08118E-006	-0.481485	8
	80	167	9.9987	1399.89	-5068.11	1	5257.89	-74.559	2.16991E-006	-0.481493	8
