EXPLAIN
TAG	EISPOT
TITLE	LABEL	Tomato_open	Test &Identifier
DATE	LABEL	5/12/2006	Date
TIME	LABEL	16:47:52	Time
NOTES	NOTES	1	&Notes...
	
PSTAT	PSTAT	300	Potentiostat
VDC	POTEN	1.00000E-001	T	DC &Voltage (V)
FREQINIT	QUANT	1.00000E+005	Initial Fre&q. (Hz)
FREQFINAL	QUANT	1.00000E+001	Final Fre&q. (Hz)
PTSPERDEC	QUANT	2.00000E+001	Points/&decade
VAC	QUANT	1.00000E+001	AC &Voltage (mV rms)
AREA	QUANT	1.00000E+000	&Area (cm²)
DENSITY	QUANT	7.87000E+000	&Density (gm/cm³)
EQUIV	QUANT	7.00000E+000	Equiv. &Wt
CONDIT	TWOPARAM	F	1.50000E+001	0.00000E+000	Conditionin&g	Time(s)	E(V)
DELAY	TWOPARAM	F	6.00000E+002	0.00000E+000	Init. De&lay	Time(s)	Stab.(mV/s)
SPEED	SELECTOR	1	&Optimize for:
ZGUESS	QUANT	1.00000E+002	E&stimated Z (ohms)
OCVCURVE	TABLE	39
	Pt	T	Vf	Vm	Ach	Over
	#	s	V vs. Ref.	V	V	bits
	0	0.258332	-5.87619E-001	4.28784E-006	-1.63400E-004	......
	1	0.516663	-5.84719E-001	4.28784E-006	-1.63400E-004	......
	2	0.774994	-5.87319E-001	4.28784E-006	-1.63400E-004	......
	3	1.03333	-5.86569E-001	4.28784E-006	3.66000E-005	......
	4	1.29166	-5.84669E-001	4.28784E-006	-1.63400E-004	......
	5	1.54999	-5.85619E-001	4.28784E-006	-6.34000E-005	......
	6	1.80832	-5.81469E-001	4.28784E-006	-1.63400E-004	......
	7	2.06665	-5.81569E-001	4.28784E-006	-6.34000E-005	......
	8	2.32498	-5.82619E-001	4.28784E-006	-1.63400E-004	......
	9	2.58332	-5.84369E-001	4.28784E-006	-2.63400E-004	......
	10	2.84165	-5.84570E-001	4.28784E-006	-1.63400E-004	......
	11	3.09998	-5.83420E-001	4.28784E-006	-1.63400E-004	......
	12	3.35831	-5.83420E-001	4.28784E-006	-6.34000E-005	......
	13	3.61664	-5.83919E-001	4.28784E-006	-1.63400E-004	......
	14	3.87497	-5.84469E-001	4.28784E-006	-1.63400E-004	......
	15	4.1333	-5.85119E-001	4.28784E-006	-1.63400E-004	......
	16	4.39164	-5.86469E-001	4.28784E-006	-1.63400E-004	......
	17	4.64997	-5.87219E-001	4.28784E-006	-6.34000E-005	......
	18	4.9083	-5.87419E-001	4.28784E-006	-1.63400E-004	......
	19	5.16663	-5.87419E-001	4.28784E-006	-1.63400E-004	......
	20	5.42496	-5.87219E-001	4.28784E-006	-1.63400E-004	......
	21	5.68329	-5.86419E-001	4.28784E-006	-1.63400E-004	......
	22	5.94162	-5.81869E-001	4.28784E-006	-1.63400E-004	......
	23	6.19996	-5.77069E-001	4.28784E-006	-6.34000E-005	......
	24	6.45829	-5.73869E-001	4.28784E-006	-1.63400E-004	......
	25	6.71662	-5.78869E-001	4.28784E-006	-1.63400E-004	......
	26	6.97495	-5.85619E-001	4.28784E-006	-1.63400E-004	......
	27	7.23328	-5.87669E-001	4.28784E-006	-6.34000E-005	......
	28	7.49161	-5.88470E-001	4.28784E-006	-1.63400E-004	......
	29	7.74995	-5.88619E-001	4.28784E-006	-1.63400E-004	......
	30	8.00828	-5.88619E-001	4.28784E-006	-1.63400E-004	......
	31	8.26661	-5.88319E-001	4.28784E-006	-6.34000E-005	......
	32	8.52494	-5.88519E-001	4.28784E-006	-1.63400E-004	......
	33	8.78327	-5.88919E-001	4.28784E-006	-1.63400E-004	......
	34	9.0416	-5.89969E-001	4.28784E-006	-1.63400E-004	......
	35	9.29993	-5.91169E-001	4.28784E-006	-1.63400E-004	......
	36	9.5583	-5.92470E-001	4.28784E-006	-1.63400E-004	......
	37	9.8166	-5.93170E-001	4.28784E-006	-1.63400E-004	......
	38	10.0749	-5.91320E-001	4.28784E-006	-6.34000E-005	......
EOC	QUANT	-0.59132	Open Circuit (V)
PSTATMODEL	IQUANT	32	Pstat Model
PSTATSECTION	LABEL	PStat0	Pstat Section
CTRLMODE	IQUANT	1	Control Mode
IESTAB	IQUANT	0	I/E Stability
CASPEED	IQUANT	1	Control Amp Speed
CONVENTION	IQUANT	1	Current Convention
ICHRANGE	IQUANT	2	Ich Range
ICHRANGEMODE	TOGGLE	F	Ich Auto Range
ICHOFFSETENABLE	TOGGLE	T	Ich Offset Enable
ICHOFFSET	QUANT	0	Ich Offset (V)
ICHFILTER	IQUANT	3	Ich Filter
VCHRANGE	IQUANT	2	Vch Range
VCHRANGEMODE	TOGGLE	F	Vch Auto Range
VCHOFFSETENABLE	TOGGLE	T	Vch Offset Enable
VCHOFFSET	QUANT	0	Vch Offset (V)
VCHFILTER	IQUANT	3	Vch Filter
ACHRANGE	IQUANT	0	Ach Range
IERANGELOWERLIMIT	IQUANT	3	I/E Range Lower Limit
IERANGEMODE	TOGGLE	F	I/E AutoRange
IERANGE	IQUANT	11	I/E Range
POSFEEDENABLE	TOGGLE	F	Positive Feedback IR Comp
POSFEEDRESISTANCE	QUANT	0	Positive Feedback Resistance (ohm)
FC350IDIVISOR	IQUANT	0	FC350 I Divisor
FC350VRANGE	IQUANT	0	FC350 V Range
FRAMEWORKVERSION	QUANT	4.35	Framework Version
ZCURVE	TABLE
	Pt	Time	Freq	Zreal	Zimag	Zsig	Zmod	Zphz	Idc	Vdc	IERange
	#	s	Hz	ohm	ohm	V	ohm	°	A	V	#
	0	4	100007	115.182	-0.439068	1	115.183	-0.218407	3.39299E-006	-0.491185	9
	1	6	89134.1	114.296	-0.87706	1	114.3	-0.439654	3.36337E-006	-0.491167	9
	2	8	79433.6	114.292	-1.2559	1	114.299	-0.629568	3.28615E-006	-0.491174	9
	3	10	70800.8	113.916	-1.47601	1	113.926	-0.742338	3.88742E-006	-0.491197	9
	4	12	63105.5	113.744	-1.95869	1	113.761	-0.98655	3.50604E-006	-0.491188	9
	5	14	56243.5	113.867	-2.15298	1	113.888	-1.08321	3.75046E-006	-0.491205	9
	6	16	50123.7	113.732	-2.46542	1	113.759	-1.24184	3.43342E-006	-0.491189	9
	7	18	44681	113.587	-2.82738	1	113.623	-1.42589	3.06935E-006	-0.491174	9
	8	20	39811.2	113.715	-3.46072	1	113.768	-1.74316	3.25118E-006	-0.49118	9
	9	22	35488.3	113.851	-3.82528	1	113.915	-1.92436	3.1582E-006	-0.491159	9
	10	24	31634.1	113.777	-4.1766	1	113.853	-2.10231	3.38196E-006	-0.491185	9
	11	26	28173.1	113.772	-4.76428	1	113.872	-2.3979	3.16542E-006	-0.491179	9
	12	28	25123.7	113.89	-5.16983	1	114.007	-2.59906	3.02795E-006	-0.491156	9
	13	30	22389.3	114.067	-5.78528	1	114.214	-2.90345	2.93243E-006	-0.491176	9
	14	32	19954.4	114.203	-6.23602	1	114.373	-3.12551	2.76176E-006	-0.491152	9
	15	34	17778.2	114.401	-6.94833	1	114.612	-3.47569	2.67674E-006	-0.491183	9
	16	36	15852.9	114.433	-7.68134	1	114.691	-3.84023	2.56988E-006	-0.491168	9
	17	38	14122.3	114.673	-8.53173	1	114.99	-4.255	2.52371E-006	-0.491172	9
	18	40	12587.2	114.967	-9.40262	1	115.351	-4.67556	2.54734E-006	-0.491176	9
	19	42	11221.1	115.223	-10.3435	1	115.686	-5.12967	2.53001E-006	-0.491177	9
	20	44	9998.2	115.482	-11.4537	1	116.048	-5.66417	2.65713E-006	-0.49117	9
	21	46	8912.76	115.614	-12.4501	1	116.282	-6.14629	2.45645E-006	-0.491156	9
	22	48	7942.6	116.046	-13.9334	1	116.879	-6.8466	2.48276E-006	-0.491169	9
	23	50	7078.05	116.409	-15.1741	1	117.393	-7.42674	2.42406E-006	-0.491161	9
	24	52	6311.1	116.828	-16.7479	1	118.022	-8.1581	2.68924E-006	-0.491156	9
	25	54	5622.14	116.99	-18.6691	1	118.47	-9.06671	2.78413E-006	-0.491167	9
	26	56	5011.18	117.755	-20.4577	1	119.519	-9.8557	2.75185E-006	-0.491161	9
	27	58	4465.21	118.313	-22.4504	1	120.425	-10.7443	2.63454E-006	-0.491159	9
	28	60	3980.93	118.707	-24.818	1	121.274	-11.8087	2.59523E-006	-0.491155	9
	29	62	3548.18	119.446	-27.5529	1	122.582	-12.9894	2.58134E-006	-0.491148	9
	30	64	3162.67	120.095	-30.2893	1	123.856	-14.1555	2.51887E-006	-0.491154	9
	31	66	2819.01	120.853	-33.488	1	125.407	-15.4879	2.48679E-006	-0.49117	9
	32	68	2511.16	121.587	-36.5707	1	126.968	-16.7401	2.50143E-006	-0.491165	9
	33	70	2238.63	122.439	-40.5825	1	128.99	-18.3377	2.50579E-006	-0.491161	9
	34	72	1995.37	123.383	-44.5135	1	131.167	-19.8382	2.24706E-006	-0.491167	9
	35	74	1778.51	124.41	-48.9551	1	133.695	-21.4796	2.09896E-006	-0.491169	9
	36	76	1584.49	125.307	-54.1819	1	136.519	-23.3833	1.99667E-006	-0.491162	9
	37	77	1412.76	126.554	-59.6208	1	139.895	-25.2256	2.07953E-006	-0.491152	9
	38	79	1259.04	127.721	-65.4599	1	143.519	-27.1362	2.23984E-006	-0.49117	9
	39	81	1121.63	129.172	-72.4325	1	148.095	-29.2812	2.13323E-006	-0.491151	9
	40	83	999.95	130.559	-79.7739	1	153.002	-31.4256	2.2092E-006	-0.491157	9
	41	85	891.184	131.968	-88.0098	1	158.623	-33.6995	2.27734E-006	-0.491154	9
	42	87	794.163	133.603	-97.363	1	165.316	-36.0827	2.40165E-006	-0.491155	9
	43	89	707.867	135.16	-107.591	1	172.754	-38.5208	2.36656E-006	-0.491156	9
	44	91	630.984	136.747	-119.241	1	181.433	-41.0879	2.34912E-006	-0.491162	9
	45	93	562.189	138.808	-131.724	1	191.361	-43.4999	2.35026E-006	-0.491167	9
	46	95	501.303	140.825	-145.883	1	202.765	-46.0107	2.44238E-006	-0.491152	9
	47	97	446.614	142.952	-161.701	1	215.83	-48.5217	2.34454E-006	-0.49115	9
	48	99	398.209	145.225	-179.197	1	230.655	-50.978	2.4371E-006	-0.491148	9
	49	101	354.821	147.756	-198.766	1	247.668	-53.3742	2.33343E-006	-0.491153	9
	50	103	316.113	150.499	-220.621	1	267.064	-55.6998	2.17504E-006	-0.491154	9
	51	105	281.926	153.443	-244.764	1	288.884	-57.9164	2.1576E-006	-0.491156	9
	52	107	251.185	156.696	-271.906	1	313.825	-60.0457	2.06437E-006	-0.491155	9
	53	109	223.946	160.296	-302.003	1	341.908	-62.0418	2.06149E-006	-0.491158	9
	54	111	199.495	164.234	-335.768	1	373.782	-63.9353	2.14846E-006	-0.49116	9
	55	113	177.836	168.723	-373.246	1	409.61	-65.6751	2.1957E-006	-0.491162	9
	56	115	158.533	173.621	-414.953	1	449.811	-67.2951	2.21549E-006	-0.49116	9
	57	117	141.263	178.887	-461.719	1	495.162	-68.8218	2.05529E-006	-0.491158	9
	58	119	125.911	185.055	-513.648	1	545.967	-70.1871	2.11378E-006	-0.491164	9
	59	121	112.198	192.336	-571.771	1	603.254	-71.4077	2.39242E-006	-0.491164	9
	60	123	100.009	199.721	-636.119	1	666.736	-72.5694	2.33899E-006	-0.491162	9
	61	126	89.1164	208.946	-708.423	1	738.594	-73.5668	2.5722E-006	-0.491161	9
	62	128	79.4083	219.125	-788.586	1	818.464	-74.4709	2.66332E-006	-0.491164	9
	63	130	70.788	230.732	-878.071	1	907.88	-75.2772	2.71316E-006	-0.491164	9
	64	132	63.0971	243.495	-977.04	1	1006.92	-76.006	2.60684E-006	-0.491168	9
	65	134	54.5476	262.352	-1118.48	1	1148.84	-76.7993	1.8352E-006	-0.491165	8
	66	136	50.0083	275.418	-1213.11	1	1243.99	-77.2088	1.76569E-006	-0.491167	8
	67	138	46.1675	288.943	-1307.61	1	1339.16	-77.5396	1.95725E-006	-0.491164	8
	68	140	40.0059	322.197	-1493.16	1	1527.52	-77.8233	2.08202E-006	-0.491161	8
	69	142	35.3046	353.57	-1678.91	1	1715.74	-78.1076	2.0442E-006	-0.491163	8
	70	144	31.5793	381.094	-1864.47	1	1903.01	-78.448	1.96936E-006	-0.491162	8
	71	146	28.5748	411.094	-2045.6	1	2086.5	-78.6369	1.96969E-006	-0.491166	8
	72	149	24.9911	468.775	-2316.65	1	2363.6	-78.5607	1.77371E-006	-0.491162	8
	73	151	22.2195	503.712	-2581.79	1	2630.47	-78.9602	1.556E-006	-0.491164	8
	74	153	20.0011	559.049	-2842.59	1	2897.04	-78.8737	1.65355E-006	-0.491161	8
	75	156	17.6486	645.578	-3194.56	1	3259.14	-78.5752	1.7112E-006	-0.491169	8
	76	158	15.7934	709.79	-3549.82	1	3620.08	-78.6928	1.70069E-006	-0.49117	8
	77	160	14.2828	792.365	-3880.47	1	3960.54	-78.4593	1.63348E-006	-0.491164	8
	78	162	12.5002	954.67	-4376.27	1	4479.19	-77.694	1.73572E-006	-0.491167	8
	79	165	11.323	1060.22	-4789.84	1	4905.77	-77.519	1.81213E-006	-0.491168	8
	80	168	9.9987	1290.45	-5352.99	1	5506.34	-76.4462	1.77372E-006	-0.491167	8
