EXPLAIN
TAG	EISPOT
TITLE	LABEL	Tomato_open	Test &Identifier
DATE	LABEL	5/12/2006	Date
TIME	LABEL	16:52:51	Time
NOTES	NOTES	1	&Notes...
	
PSTAT	PSTAT	300	Potentiostat
VDC	POTEN	1.00000E-001	T	DC &Voltage (V)
FREQINIT	QUANT	1.00000E+005	Initial Fre&q. (Hz)
FREQFINAL	QUANT	1.00000E+001	Final Fre&q. (Hz)
PTSPERDEC	QUANT	2.00000E+001	Points/&decade
VAC	QUANT	1.00000E+001	AC &Voltage (mV rms)
AREA	QUANT	1.00000E+000	&Area (cm²)
DENSITY	QUANT	7.87000E+000	&Density (gm/cm³)
EQUIV	QUANT	7.00000E+000	Equiv. &Wt
CONDIT	TWOPARAM	F	1.50000E+001	0.00000E+000	Conditionin&g	Time(s)	E(V)
DELAY	TWOPARAM	F	6.00000E+002	0.00000E+000	Init. De&lay	Time(s)	Stab.(mV/s)
SPEED	SELECTOR	1	&Optimize for:
ZGUESS	QUANT	1.00000E+002	E&stimated Z (ohms)
OCVCURVE	TABLE	39
	Pt	T	Vf	Vm	Ach	Over
	#	s	V vs. Ref.	V	V	bits
	0	0.258332	-5.75520E-001	4.04454E-006	-6.34000E-005	......
	1	0.516663	-5.75069E-001	4.04454E-006	-1.63400E-004	......
	2	0.774994	-5.74470E-001	4.04454E-006	-6.34000E-005	......
	3	1.03333	-5.72769E-001	4.04454E-006	-6.34000E-005	......
	4	1.29166	-5.71220E-001	4.04454E-006	-1.63400E-004	......
	5	1.54999	-5.70669E-001	4.04454E-006	-1.63400E-004	......
	6	1.80832	-5.69819E-001	4.04454E-006	-1.63400E-004	......
	7	2.06665	-5.70219E-001	4.04454E-006	-1.63400E-004	......
	8	2.32498	-5.71220E-001	4.04454E-006	-1.63400E-004	......
	9	2.58332	-5.71069E-001	4.04454E-006	-1.63400E-004	......
	10	2.84165	-5.70419E-001	4.04454E-006	-1.63400E-004	......
	11	3.09998	-5.69470E-001	4.04454E-006	-1.63400E-004	......
	12	3.35831	-5.69470E-001	4.04454E-006	-1.63400E-004	......
	13	3.61664	-5.68069E-001	4.04454E-006	-6.34000E-005	......
	14	3.87497	-5.70319E-001	4.04454E-006	-1.63400E-004	......
	15	4.1333	-5.70169E-001	4.04454E-006	-1.63400E-004	......
	16	4.39164	-5.70120E-001	4.04454E-006	-1.63400E-004	......
	17	4.64997	-5.70520E-001	4.04454E-006	-1.63400E-004	......
	18	4.9083	-5.69919E-001	4.04454E-006	-1.63400E-004	......
	19	5.16663	-5.71019E-001	4.04454E-006	-2.63400E-004	......
	20	5.42496	-5.71019E-001	4.04454E-006	-1.63400E-004	......
	21	5.68329	-5.70619E-001	4.04454E-006	-1.63400E-004	......
	22	5.94162	-5.66719E-001	4.04454E-006	-1.63400E-004	......
	23	6.19996	-5.65219E-001	4.04454E-006	-1.63400E-004	......
	24	6.45829	-5.64669E-001	4.04454E-006	-1.63400E-004	......
	25	6.71662	-5.64369E-001	4.04454E-006	-1.63400E-004	......
	26	6.97495	-5.63619E-001	4.04454E-006	-1.63400E-004	......
	27	7.23328	-5.63119E-001	4.04454E-006	-6.34000E-005	......
	28	7.49161	-5.63069E-001	4.04454E-006	-1.63400E-004	......
	29	7.74995	-5.63619E-001	4.04454E-006	-6.34000E-005	......
	30	8.00828	-5.63969E-001	4.04454E-006	-6.34000E-005	......
	31	8.26661	-5.64319E-001	4.04454E-006	-1.63400E-004	......
	32	8.52494	-5.64619E-001	4.04454E-006	-1.63400E-004	......
	33	8.78327	-5.64869E-001	4.04454E-006	-1.63400E-004	......
	34	9.0416	-5.64820E-001	4.04454E-006	-3.63400E-004	......
	35	9.29993	-5.65170E-001	4.04454E-006	-2.63400E-004	......
	36	9.5583	-5.65719E-001	4.04454E-006	-6.34000E-005	......
	37	9.8166	-5.66319E-001	4.04454E-006	-2.63400E-004	......
	38	10.0749	-5.67020E-001	4.04454E-006	-6.34000E-005	......
EOC	QUANT	-0.56702	Open Circuit (V)
PSTATMODEL	IQUANT	32	Pstat Model
PSTATSECTION	LABEL	PStat0	Pstat Section
CTRLMODE	IQUANT	1	Control Mode
IESTAB	IQUANT	0	I/E Stability
CASPEED	IQUANT	1	Control Amp Speed
CONVENTION	IQUANT	1	Current Convention
ICHRANGE	IQUANT	2	Ich Range
ICHRANGEMODE	TOGGLE	F	Ich Auto Range
ICHOFFSETENABLE	TOGGLE	T	Ich Offset Enable
ICHOFFSET	QUANT	0	Ich Offset (V)
ICHFILTER	IQUANT	3	Ich Filter
VCHRANGE	IQUANT	2	Vch Range
VCHRANGEMODE	TOGGLE	F	Vch Auto Range
VCHOFFSETENABLE	TOGGLE	T	Vch Offset Enable
VCHOFFSET	QUANT	0	Vch Offset (V)
VCHFILTER	IQUANT	3	Vch Filter
ACHRANGE	IQUANT	0	Ach Range
IERANGELOWERLIMIT	IQUANT	3	I/E Range Lower Limit
IERANGEMODE	TOGGLE	F	I/E AutoRange
IERANGE	IQUANT	11	I/E Range
POSFEEDENABLE	TOGGLE	F	Positive Feedback IR Comp
POSFEEDRESISTANCE	QUANT	0	Positive Feedback Resistance (ohm)
FC350IDIVISOR	IQUANT	0	FC350 I Divisor
FC350VRANGE	IQUANT	0	FC350 V Range
FRAMEWORKVERSION	QUANT	4.35	Framework Version
ZCURVE	TABLE
	Pt	Time	Freq	Zreal	Zimag	Zsig	Zmod	Zphz	Idc	Vdc	IERange
	#	s	Hz	ohm	ohm	V	ohm	°	A	V	#
	0	5	100007	115.311	-0.816528	1	115.314	-0.40571	3.15212E-006	-0.466927	9
	1	7	89134.1	114.601	-0.930415	1	114.605	-0.465159	3.46551E-006	-0.466932	9
	2	9	79433.6	114.399	-1.15937	1	114.405	-0.580642	3.60128E-006	-0.466928	9
	3	11	70800.8	114.208	-1.58137	1	114.219	-0.793289	3.71612E-006	-0.466939	9
	4	12	63105.5	114.026	-1.86596	1	114.042	-0.937524	3.81321E-006	-0.46695	9
	5	14	56243.5	113.986	-2.23694	1	114.008	-1.12426	3.53048E-006	-0.466957	9
	6	16	50123.7	113.911	-2.54224	1	113.939	-1.2785	3.47424E-006	-0.466946	9
	7	18	44681	113.822	-2.92095	1	113.859	-1.47003	3.26129E-006	-0.466919	9
	8	20	39811.2	113.809	-3.33245	1	113.858	-1.67721	3.19537E-006	-0.466922	9
	9	22	35488.3	113.87	-3.6292	1	113.927	-1.82549	3.43714E-006	-0.466958	9
	10	24	31634.1	113.905	-4.18552	1	113.981	-2.10444	3.47198E-006	-0.466949	9
	11	26	28173.1	114.011	-4.63781	1	114.105	-2.32943	3.3252E-006	-0.466939	9
	12	28	25123.7	114.085	-5.24911	1	114.205	-2.63436	3.50112E-006	-0.46694	9
	13	30	22389.3	114.221	-5.83339	1	114.37	-2.92362	3.15928E-006	-0.466929	9
	14	32	19954.4	114.243	-6.39832	1	114.422	-3.20557	3.43129E-006	-0.466947	9
	15	34	17778.2	114.585	-7.04598	1	114.801	-3.51877	3.04129E-006	-0.466933	9
	16	36	15852.9	114.837	-7.70471	1	115.095	-3.83836	3.10978E-006	-0.466931	9
	17	38	14122.3	114.984	-8.59765	1	115.305	-4.27621	3.03731E-006	-0.466928	9
	18	40	12587.2	115.162	-9.40612	1	115.546	-4.66938	2.95445E-006	-0.466931	9
	19	42	11221.1	115.399	-10.5125	1	115.877	-5.20512	3.02829E-006	-0.466932	9
	20	44	9998.2	115.619	-11.5749	1	116.197	-5.71695	2.96563E-006	-0.466929	9
	21	46	8912.76	116.054	-12.6092	1	116.737	-6.20082	2.96603E-006	-0.466924	9
	22	48	7942.6	116.316	-13.8952	1	117.143	-6.81233	2.97528E-006	-0.466929	9
	23	50	7078.05	116.549	-15.3553	1	117.557	-7.50544	2.98946E-006	-0.46693	9
	24	52	6311.1	116.934	-16.9526	1	118.156	-8.24902	2.98718E-006	-0.466937	9
	25	54	5622.14	117.39	-18.5423	1	118.845	-8.97599	3.0327E-006	-0.466936	9
	26	56	5011.18	117.882	-20.5229	1	119.656	-9.876	2.88832E-006	-0.466931	9
	27	58	4465.21	118.338	-22.7659	1	120.508	-10.8895	2.7376E-006	-0.46693	9
	28	60	3980.93	119.03	-24.9364	1	121.614	-11.8321	2.96267E-006	-0.466939	9
	29	62	3548.18	119.587	-27.6608	1	122.744	-13.0236	2.70735E-006	-0.466916	9
	30	64	3162.67	120.115	-30.4917	1	123.925	-14.2439	2.71643E-006	-0.46692	9
	31	66	2819.01	120.941	-33.3385	1	125.452	-15.4113	3.03438E-006	-0.466947	9
	32	68	2511.16	121.565	-36.5914	1	126.952	-16.752	2.87824E-006	-0.466934	9
	33	70	2238.63	122.435	-40.5429	1	128.973	-18.3216	2.74199E-006	-0.466936	9
	34	72	1995.37	123.605	-44.8903	1	131.504	-19.9598	2.66121E-006	-0.466936	9
	35	74	1778.51	124.509	-49.1913	1	133.874	-21.5581	2.72509E-006	-0.46693	9
	36	76	1584.49	125.602	-54.1674	1	136.784	-23.3288	2.94388E-006	-0.466933	9
	37	78	1412.76	126.879	-59.6617	1	140.206	-25.1841	2.69171E-006	-0.466928	9
	38	80	1259.04	128.155	-65.83	1	144.074	-27.1884	3.11274E-006	-0.466944	9
	39	82	1121.63	129.362	-72.7555	1	148.418	-29.3543	3.05174E-006	-0.46694	9
	40	84	999.95	130.653	-80.3219	1	153.368	-31.5821	3.04576E-006	-0.466929	9
	41	86	891.184	132.299	-88.7491	1	159.309	-33.8546	3.10785E-006	-0.466932	9
	42	88	794.163	133.708	-97.753	1	165.631	-36.1701	3.05349E-006	-0.466936	9
	43	90	707.867	135.287	-108.291	1	173.29	-38.6756	2.96309E-006	-0.466948	9
	44	92	630.984	136.997	-119.507	1	181.797	-41.0992	2.98168E-006	-0.466944	9
	45	93	562.189	139.174	-132.216	1	191.964	-43.5314	3.18499E-006	-0.466962	9
	46	95	501.303	141.114	-146.556	1	203.45	-46.0839	2.95299E-006	-0.466937	9
	47	97	446.614	143.247	-162.423	1	216.566	-48.5897	2.88938E-006	-0.466933	9
	48	99	398.209	145.546	-179.989	1	231.473	-51.0396	2.77887E-006	-0.46693	9
	49	101	354.821	148.083	-199.64	1	248.566	-53.4338	2.87092E-006	-0.466927	9
	50	103	316.113	150.824	-221.6	1	268.057	-55.7604	2.82762E-006	-0.466927	9
	51	105	281.926	153.829	-245.837	1	289.999	-57.9644	2.90509E-006	-0.466935	9
	52	107	251.185	157.116	-273.107	1	315.076	-60.0885	3.06259E-006	-0.46693	9
	53	109	223.946	160.758	-303.315	1	343.283	-62.0763	2.95029E-006	-0.466934	9
	54	111	199.495	164.785	-337.239	1	375.345	-63.9585	3.06248E-006	-0.466936	9
	55	113	177.836	169.173	-374.869	1	411.274	-65.711	3.03581E-006	-0.466931	9
	56	115	158.533	174.162	-416.794	1	451.719	-67.3218	3.04729E-006	-0.466929	9
	57	117	141.263	179.63	-463.633	1	497.215	-68.8217	3.0506E-006	-0.46693	9
	58	119	125.911	185.988	-515.841	1	548.346	-70.1731	3.08772E-006	-0.466936	9
	59	122	112.198	193.045	-574.103	1	605.69	-71.4145	3.037E-006	-0.466937	9
	60	124	100.009	201.171	-639.051	1	669.967	-72.5262	3.16601E-006	-0.466939	9
	61	126	89.1164	209.994	-711.312	1	741.661	-73.5523	3.13628E-006	-0.466944	9
	62	128	79.4083	220.824	-792.235	1	822.435	-74.425	3.23852E-006	-0.46694	9
	63	130	70.788	232.821	-881.907	1	912.122	-75.2115	3.31117E-006	-0.466939	9
	64	132	63.0971	245.828	-981.41	1	1011.73	-75.9376	3.19659E-006	-0.466939	9
	65	134	54.5476	265.387	-1123.36	1	1154.28	-76.7079	2.38751E-006	-0.466938	8
	66	136	50.0083	278.614	-1218.29	1	1249.74	-77.1184	2.35822E-006	-0.466936	8
	67	138	46.1675	292.685	-1312.77	1	1345	-77.4313	2.30768E-006	-0.46694	8
	68	140	40.0059	321.816	-1500.71	1	1534.83	-77.8967	2.28126E-006	-0.46694	8
	69	142	35.3046	353.071	-1685.53	1	1722.12	-78.1693	2.39823E-006	-0.466938	8
	70	145	31.5793	383.747	-1868.51	1	1907.51	-78.3942	2.47204E-006	-0.466937	8
	71	147	28.5748	419.089	-2048.81	1	2091.23	-78.4395	2.37409E-006	-0.466944	8
	72	149	24.9911	467.233	-2328.24	1	2374.66	-78.6526	2.26705E-006	-0.466935	8
	73	151	22.2195	520.017	-2593.32	1	2644.94	-78.6613	2.31958E-006	-0.466935	8
	74	153	20.0011	563.242	-2857.19	1	2912.18	-78.8482	2.15051E-006	-0.466943	8
	75	156	17.6486	654.293	-3205.01	1	3271.12	-78.4618	2.39655E-006	-0.466946	8
	76	158	15.7934	729.178	-3548.33	1	3622.48	-78.3874	2.21581E-006	-0.466944	8
	77	160	14.2828	821.207	-3886.29	1	3972.1	-78.0684	2.26106E-006	-0.46694	8
	78	163	12.5002	983.31	-4404.17	1	4512.61	-77.4141	2.36005E-006	-0.466943	8
	79	165	11.323	1090.91	-4812.93	1	4935.02	-77.2289	2.13753E-006	-0.466936	8
	80	168	9.9987	1288.79	-5372.28	1	5524.71	-76.5099	2.02747E-006	-0.466936	8
