EXPLAIN
TAG	EISPOT
TITLE	LABEL	Tomato_open	Test &Identifier
DATE	LABEL	5/12/2006	Date
TIME	LABEL	15:47:54	Time
NOTES	NOTES	1	&Notes...
	
PSTAT	PSTAT	300	Potentiostat
VDC	POTEN	1.00000E-001	T	DC &Voltage (V)
FREQINIT	QUANT	1.00000E+005	Initial Fre&q. (Hz)
FREQFINAL	QUANT	1.00000E+001	Final Fre&q. (Hz)
PTSPERDEC	QUANT	2.00000E+001	Points/&decade
VAC	QUANT	1.00000E+001	AC &Voltage (mV rms)
AREA	QUANT	1.00000E+000	&Area (cm²)
DENSITY	QUANT	7.87000E+000	&Density (gm/cm³)
EQUIV	QUANT	7.00000E+000	Equiv. &Wt
CONDIT	TWOPARAM	F	1.50000E+001	0.00000E+000	Conditionin&g	Time(s)	E(V)
DELAY	TWOPARAM	F	6.00000E+002	0.00000E+000	Init. De&lay	Time(s)	Stab.(mV/s)
SPEED	SELECTOR	1	&Optimize for:
ZGUESS	QUANT	1.00000E+002	E&stimated Z (ohms)
OCVCURVE	TABLE	39
	Pt	T	Vf	Vm	Ach	Over
	#	s	V vs. Ref.	V	V	bits
	0	0.258332	-5.47620E-001	3.66834E-006	1.36600E-004	......
	1	0.516663	-5.44869E-001	3.66834E-006	3.66000E-005	......
	2	0.774994	-5.45619E-001	3.66834E-006	2.36600E-004	......
	3	1.03333	-5.44569E-001	3.66834E-006	-6.34000E-005	......
	4	1.29166	-5.44369E-001	3.66834E-006	3.36600E-004	......
	5	1.54999	-5.44620E-001	3.66834E-006	3.66000E-005	......
	6	1.80832	-5.48019E-001	3.66834E-006	1.36600E-004	......
	7	2.06665	-5.47469E-001	3.66834E-006	3.66000E-005	......
	8	2.32498	-5.45619E-001	3.66834E-006	1.36600E-004	......
	9	2.58332	-5.43069E-001	3.66834E-006	-6.34000E-005	......
	10	2.84165	-5.40469E-001	3.66834E-006	2.36600E-004	......
	11	3.09998	-5.39119E-001	3.66834E-006	-6.34000E-005	......
	12	3.35831	-5.35969E-001	3.66834E-006	2.36600E-004	......
	13	3.61664	-5.35569E-001	3.66834E-006	3.66000E-005	......
	14	3.87497	-5.34419E-001	3.66834E-006	2.36600E-004	......
	15	4.1333	-5.35169E-001	3.66834E-006	-6.34000E-005	......
	16	4.39164	-5.36169E-001	3.66834E-006	2.36600E-004	......
	17	4.64997	-5.35569E-001	3.66834E-006	-6.34000E-005	......
	18	4.9083	-5.37870E-001	3.66834E-006	2.36600E-004	......
	19	5.16663	-5.34970E-001	3.66834E-006	-6.34000E-005	......
	20	5.42496	-5.33719E-001	3.66834E-006	2.36600E-004	......
	21	5.68329	-5.31919E-001	3.66834E-006	3.66000E-005	......
	22	5.94162	-5.30519E-001	3.66834E-006	3.66000E-005	......
	23	6.19996	-5.31519E-001	3.66834E-006	-6.34000E-005	......
	24	6.45829	-5.30169E-001	3.66834E-006	2.36600E-004	......
	25	6.71662	-5.28369E-001	3.66834E-006	3.66000E-005	......
	26	6.97495	-5.30019E-001	3.66834E-006	2.36600E-004	......
	27	7.23328	-5.30270E-001	3.66834E-006	3.66000E-005	......
	28	7.49161	-5.27020E-001	3.66834E-006	3.36600E-004	......
	29	7.74995	-5.26269E-001	3.66834E-006	-6.34000E-005	......
	30	8.00828	-5.24819E-001	3.66834E-006	2.36600E-004	......
	31	8.26661	-5.26420E-001	3.66834E-006	3.66000E-005	......
	32	8.52494	-5.26269E-001	3.66834E-006	1.36600E-004	......
	33	8.78327	-5.26019E-001	3.66834E-006	3.66000E-005	......
	34	9.0416	-5.27769E-001	3.66834E-006	2.36600E-004	......
	35	9.29993	-5.26869E-001	3.66834E-006	3.66000E-005	......
	36	9.5583	-5.26819E-001	3.66834E-006	2.36600E-004	......
	37	9.8166	-5.26720E-001	3.66834E-006	3.66000E-005	......
	38	10.0749	-5.26370E-001	3.66834E-006	2.36600E-004	......
EOC	QUANT	-0.52637	Open Circuit (V)
PSTATMODEL	IQUANT	32	Pstat Model
PSTATSECTION	LABEL	PStat0	Pstat Section
CTRLMODE	IQUANT	1	Control Mode
IESTAB	IQUANT	0	I/E Stability
CASPEED	IQUANT	1	Control Amp Speed
CONVENTION	IQUANT	1	Current Convention
ICHRANGE	IQUANT	2	Ich Range
ICHRANGEMODE	TOGGLE	F	Ich Auto Range
ICHOFFSETENABLE	TOGGLE	T	Ich Offset Enable
ICHOFFSET	QUANT	0	Ich Offset (V)
ICHFILTER	IQUANT	3	Ich Filter
VCHRANGE	IQUANT	2	Vch Range
VCHRANGEMODE	TOGGLE	F	Vch Auto Range
VCHOFFSETENABLE	TOGGLE	T	Vch Offset Enable
VCHOFFSET	QUANT	0	Vch Offset (V)
VCHFILTER	IQUANT	3	Vch Filter
ACHRANGE	IQUANT	0	Ach Range
IERANGELOWERLIMIT	IQUANT	3	I/E Range Lower Limit
IERANGEMODE	TOGGLE	F	I/E AutoRange
IERANGE	IQUANT	11	I/E Range
POSFEEDENABLE	TOGGLE	F	Positive Feedback IR Comp
POSFEEDRESISTANCE	QUANT	0	Positive Feedback Resistance (ohm)
FC350IDIVISOR	IQUANT	0	FC350 I Divisor
FC350VRANGE	IQUANT	0	FC350 V Range
FRAMEWORKVERSION	QUANT	4.35	Framework Version
ZCURVE	TABLE
	Pt	Time	Freq	Zreal	Zimag	Zsig	Zmod	Zphz	Idc	Vdc	IERange
	#	s	Hz	ohm	ohm	V	ohm	°	A	V	#
	0	4	100007	117.823	-0.720327	1	117.825	-0.350281	3.88938E-006	-0.426163	9
	1	6	89134.1	117.266	-0.699377	1	117.268	-0.34171	4.03167E-006	-0.426173	9
	2	8	79433.6	117.167	-1.08194	1	117.172	-0.529064	4.24943E-006	-0.426165	9
	3	10	70800.8	116.805	-1.38238	1	116.813	-0.678061	4.43537E-006	-0.426142	9
	4	12	63105.5	116.753	-1.76965	1	116.767	-0.868377	5.09704E-006	-0.426141	9
	5	14	56243.5	116.637	-1.95745	1	116.654	-0.96147	5.16157E-006	-0.426159	9
	6	16	50123.7	116.511	-2.41985	1	116.536	-1.18982	4.41059E-006	-0.426163	9
	7	18	44681	116.323	-2.80649	1	116.357	-1.38209	4.85212E-006	-0.426162	9
	8	20	39811.2	116.402	-3.09346	1	116.443	-1.52232	5.52634E-006	-0.426148	9
	9	22	35488.3	116.439	-3.56488	1	116.494	-1.7536	4.71209E-006	-0.426163	9
	10	23	31634.1	116.413	-3.783	1	116.474	-1.86125	3.69562E-006	-0.426138	9
	11	25	28173.1	116.332	-4.60958	1	116.424	-2.26912	3.89101E-006	-0.426148	9
	12	27	25123.7	116.493	-4.9655	1	116.599	-2.44075	3.85456E-006	-0.42617	9
	13	29	22389.3	116.57	-5.52729	1	116.701	-2.71471	3.96287E-006	-0.426168	9
	14	31	19954.4	116.868	-6.00568	1	117.023	-2.94175	4.41973E-006	-0.426166	9
	15	33	17778.2	116.991	-6.65131	1	117.18	-3.25394	4.0046E-006	-0.42616	9
	16	35	15852.9	116.995	-7.42986	1	117.23	-3.63374	2.96827E-006	-0.426157	9
	17	37	14122.3	117.211	-8.08468	1	117.49	-3.94574	3.54601E-006	-0.426158	9
	18	39	12587.2	117.463	-9.0029	1	117.808	-4.38283	2.90746E-006	-0.426165	9
	19	41	11221.1	117.607	-10.0497	1	118.036	-4.88415	2.70987E-006	-0.426163	9
	20	43	9998.2	117.653	-10.8085	1	118.148	-5.24891	2.38763E-006	-0.426147	9
	21	45	8912.76	117.868	-12.0355	1	118.481	-5.83024	2.56279E-006	-0.426171	9
	22	47	7942.6	118.26	-13.4026	1	119.018	-6.46583	2.6744E-006	-0.426157	9
	23	49	7078.05	118.502	-14.7771	1	119.42	-7.10805	2.41259E-006	-0.426159	9
	24	51	6311.1	118.743	-16.2771	1	119.853	-7.80539	2.41537E-006	-0.426158	9
	25	53	5622.14	119.152	-18.0768	1	120.516	-8.62666	2.24935E-006	-0.426161	9
	26	55	5011.18	119.653	-19.9057	1	121.297	-9.44535	1.95281E-006	-0.426163	9
	27	57	4465.21	119.936	-22.1689	1	121.968	-10.4723	1.83226E-006	-0.426159	9
	28	59	3980.93	120.527	-24.315	1	122.955	-11.4057	1.66798E-006	-0.426166	9
	29	61	3548.18	120.701	-27.0497	1	123.695	-12.6316	1.81889E-006	-0.42616	9
	30	63	3162.67	121.628	-29.6616	1	125.193	-13.7053	1.86513E-006	-0.426166	9
	31	65	2819.01	122.034	-32.7178	1	126.343	-15.0083	1.96737E-006	-0.426176	9
	32	67	2511.16	122.761	-36.4204	1	128.05	-16.5244	1.91832E-006	-0.426168	9
	33	69	2238.63	123.392	-40.2148	1	129.78	-18.0513	1.94837E-006	-0.426165	9
	34	71	1995.37	124.266	-44.3938	1	131.957	-19.6593	1.99013E-006	-0.426168	9
	35	73	1778.51	125.323	-48.9735	1	134.552	-21.3444	2.15338E-006	-0.426172	9
	36	75	1584.49	126.27	-54.0944	1	137.369	-23.1905	2.20274E-006	-0.426171	9
	37	77	1412.76	127.263	-59.9333	1	140.669	-25.2177	2.18571E-006	-0.42614	9
	38	79	1259.04	128.087	-66.317	1	144.236	-27.3729	2.24142E-006	-0.426162	9
	39	81	1121.63	129.626	-73.3079	1	148.919	-29.4897	2.08017E-006	-0.426161	9
	40	83	999.95	130.8	-81.1406	1	153.924	-31.813	2.02587E-006	-0.426159	9
	41	85	891.184	132.113	-89.4782	1	159.563	-34.1091	2.21307E-006	-0.426167	9
	42	86	794.163	133.876	-99.078	1	166.551	-36.504	2.00363E-006	-0.426172	9
	43	88	707.867	135.537	-109.988	1	174.55	-39.0594	1.99851E-006	-0.426144	9
	44	90	630.984	137.414	-121.752	1	183.593	-41.5416	1.86345E-006	-0.426162	9
	45	92	562.189	139.566	-135.088	1	194.236	-44.0659	2.07071E-006	-0.426141	9
	46	94	501.303	141.736	-149.303	1	205.865	-46.4893	2.14226E-006	-0.426166	9
	47	96	446.614	144.081	-165.59	1	219.498	-48.9733	2.33923E-006	-0.426163	9
	48	98	398.209	146.681	-183.558	1	234.966	-51.3718	2.60443E-006	-0.426163	9
	49	100	354.821	149.512	-203.637	1	252.63	-53.7135	2.31081E-006	-0.426161	9
	50	102	316.113	152.634	-226.001	1	272.715	-55.9661	2.21229E-006	-0.426164	9
	51	104	281.926	156.033	-250.655	1	295.253	-58.0976	1.83676E-006	-0.426162	9
	52	106	251.185	159.873	-278.359	1	321.003	-60.1294	2.10082E-006	-0.426165	9
	53	108	223.946	163.932	-308.927	1	349.728	-62.0473	1.57406E-006	-0.426159	9
	54	110	199.495	168.643	-343.285	1	382.472	-63.8368	1.75034E-006	-0.426157	9
	55	112	177.836	173.794	-381.233	1	418.978	-65.493	1.69615E-006	-0.426156	9
	56	114	158.533	179.579	-423.508	1	460.008	-67.0217	1.84759E-006	-0.426155	9
	57	116	141.263	186.007	-470.674	1	506.095	-68.4365	1.86035E-006	-0.426163	9
	58	118	125.911	193.123	-523.093	1	557.604	-69.7361	1.64529E-006	-0.426157	9
	59	120	112.198	201.157	-581.483	1	615.294	-70.9176	1.60544E-006	-0.426171	9
	60	122	100.009	209.981	-646.368	1	679.62	-72.0029	1.47246E-006	-0.426167	9
	61	124	89.1164	220.1	-718.635	1	751.585	-72.9715	1.46778E-006	-0.426162	9
	62	126	79.4083	231.302	-799.123	1	831.924	-73.8572	1.51474E-006	-0.42616	9
	63	129	70.788	244.642	-888.39	1	921.459	-74.6037	1.61109E-006	-0.426161	9
	64	131	63.0971	259.121	-987.85	1	1021.27	-75.302	1.56701E-006	-0.426163	9
	65	133	54.5476	279.74	-1128.55	1	1162.71	-76.0784	1.00577E-006	-0.426157	8
	66	135	50.0083	293.769	-1222.25	1	1257.05	-76.4852	8.76813E-007	-0.426158	8
	67	137	46.1675	308.275	-1315.67	1	1351.3	-76.8129	9.80382E-007	-0.426155	8
	68	139	40.0059	338.442	-1500.97	1	1538.65	-77.2933	1.03601E-006	-0.426154	8
	69	141	35.3046	368.968	-1683.99	1	1723.93	-77.6416	1.05049E-006	-0.426155	8
	70	143	31.5793	405.063	-1863.56	1	1907.07	-77.7369	1.44863E-006	-0.426149	8
	71	145	28.5748	438.899	-2043.35	1	2089.96	-77.8774	1.54498E-006	-0.426149	8
	72	147	24.9911	494.526	-2309.01	1	2361.37	-77.9115	1.72312E-006	-0.426157	8
	73	150	22.2195	550.376	-2572.41	1	2630.63	-77.9234	1.77389E-006	-0.426162	8
	74	152	20.0011	614.758	-2830.2	1	2896.2	-77.745	1.90654E-006	-0.426153	8
	75	155	17.6486	702.334	-3163.08	1	3240.11	-77.4811	2.02291E-006	-0.426154	8
	76	157	15.7934	786.48	-3501.17	1	3588.41	-77.3396	2.05562E-006	-0.426158	8
	77	159	14.2828	872.617	-3814.91	1	3913.44	-77.1159	2.07503E-006	-0.426157	8
	78	161	12.5002	1043.56	-4319.9	1	4444.16	-76.4192	2.0519E-006	-0.426156	8
	79	164	11.323	1130.81	-4714.09	1	4847.82	-76.5108	1.82347E-006	-0.426157	8
	80	166	9.9987	1328.71	-5269.69	1	5434.62	-75.8484	1.69444E-006	-0.426154	8
