EXPLAIN
TAG	EISPOT
TITLE	LABEL	Tomato_open	Test &Identifier
DATE	LABEL	5/12/2006	Date
TIME	LABEL	15:52:56	Time
NOTES	NOTES	1	&Notes...
	
PSTAT	PSTAT	300	Potentiostat
VDC	POTEN	1.00000E-001	T	DC &Voltage (V)
FREQINIT	QUANT	1.00000E+005	Initial Fre&q. (Hz)
FREQFINAL	QUANT	1.00000E+001	Final Fre&q. (Hz)
PTSPERDEC	QUANT	2.00000E+001	Points/&decade
VAC	QUANT	1.00000E+001	AC &Voltage (mV rms)
AREA	QUANT	1.00000E+000	&Area (cm²)
DENSITY	QUANT	7.87000E+000	&Density (gm/cm³)
EQUIV	QUANT	7.00000E+000	Equiv. &Wt
CONDIT	TWOPARAM	F	1.50000E+001	0.00000E+000	Conditionin&g	Time(s)	E(V)
DELAY	TWOPARAM	F	6.00000E+002	0.00000E+000	Init. De&lay	Time(s)	Stab.(mV/s)
SPEED	SELECTOR	1	&Optimize for:
ZGUESS	QUANT	1.00000E+002	E&stimated Z (ohms)
OCVCURVE	TABLE	39
	Pt	T	Vf	Vm	Ach	Over
	#	s	V vs. Ref.	V	V	bits
	0	0.258332	-5.32169E-001	4.13434E-006	-6.34000E-005	......
	1	0.516663	-5.32070E-001	4.13434E-006	3.66000E-005	......
	2	0.774994	-5.33669E-001	4.13434E-006	-1.63400E-004	......
	3	1.03333	-5.34719E-001	4.13434E-006	-1.63400E-004	......
	4	1.29166	-5.34970E-001	4.13434E-006	-1.63400E-004	......
	5	1.54999	-5.36219E-001	4.13434E-006	-1.63400E-004	......
	6	1.80832	-5.36469E-001	4.13434E-006	-1.63400E-004	......
	7	2.06665	-5.39119E-001	4.13434E-006	-1.63400E-004	......
	8	2.32498	-5.38369E-001	4.13434E-006	-1.63400E-004	......
	9	2.58332	-5.36919E-001	4.13434E-006	-6.34000E-005	......
	10	2.84165	-5.36869E-001	4.13434E-006	-2.63400E-004	......
	11	3.09998	-5.38319E-001	4.13434E-006	-6.34000E-005	......
	12	3.35831	-5.37419E-001	4.13434E-006	-2.63400E-004	......
	13	3.61664	-5.36770E-001	4.13434E-006	-6.34000E-005	......
	14	3.87497	-5.36370E-001	4.13434E-006	-1.63400E-004	......
	15	4.1333	-5.35169E-001	4.13434E-006	-1.63400E-004	......
	16	4.39164	-5.36469E-001	4.13434E-006	-6.34000E-005	......
	17	4.64997	-5.36469E-001	4.13434E-006	3.66000E-005	......
	18	4.9083	-5.35670E-001	4.13434E-006	-6.34000E-005	......
	19	5.16663	-5.36819E-001	4.13434E-006	-1.63400E-004	......
	20	5.42496	-5.38269E-001	4.13434E-006	-1.63400E-004	......
	21	5.68329	-5.38319E-001	4.13434E-006	-1.63400E-004	......
	22	5.94162	-5.39519E-001	4.13434E-006	-1.63400E-004	......
	23	6.19996	-5.38669E-001	4.13434E-006	-1.63400E-004	......
	24	6.45829	-5.38819E-001	4.13434E-006	-1.63400E-004	......
	25	6.71662	-5.38269E-001	4.13434E-006	-6.34000E-005	......
	26	6.97495	-5.39270E-001	4.13434E-006	-1.63400E-004	......
	27	7.23328	-5.37969E-001	4.13434E-006	-1.63400E-004	......
	28	7.49161	-5.36669E-001	4.13434E-006	-1.63400E-004	......
	29	7.74995	-5.36069E-001	4.13434E-006	-1.63400E-004	......
	30	8.00828	-5.36569E-001	4.13434E-006	-2.63400E-004	......
	31	8.26661	-5.37219E-001	4.13434E-006	-6.34000E-005	......
	32	8.52494	-5.38769E-001	4.13434E-006	-1.63400E-004	......
	33	8.78327	-5.39620E-001	4.13434E-006	-6.34000E-005	......
	34	9.0416	-5.37969E-001	4.13434E-006	-1.63400E-004	......
	35	9.29993	-5.40069E-001	4.13434E-006	3.66000E-005	......
	36	9.5583	-5.39819E-001	4.13434E-006	-1.63400E-004	......
	37	9.8166	-5.40269E-001	4.13434E-006	-1.63400E-004	......
	38	10.0749	-5.39069E-001	4.13434E-006	-1.63400E-004	......
EOC	QUANT	-0.539069	Open Circuit (V)
PSTATMODEL	IQUANT	32	Pstat Model
PSTATSECTION	LABEL	PStat0	Pstat Section
CTRLMODE	IQUANT	1	Control Mode
IESTAB	IQUANT	0	I/E Stability
CASPEED	IQUANT	1	Control Amp Speed
CONVENTION	IQUANT	1	Current Convention
ICHRANGE	IQUANT	2	Ich Range
ICHRANGEMODE	TOGGLE	F	Ich Auto Range
ICHOFFSETENABLE	TOGGLE	T	Ich Offset Enable
ICHOFFSET	QUANT	0	Ich Offset (V)
ICHFILTER	IQUANT	3	Ich Filter
VCHRANGE	IQUANT	2	Vch Range
VCHRANGEMODE	TOGGLE	F	Vch Auto Range
VCHOFFSETENABLE	TOGGLE	T	Vch Offset Enable
VCHOFFSET	QUANT	0	Vch Offset (V)
VCHFILTER	IQUANT	3	Vch Filter
ACHRANGE	IQUANT	0	Ach Range
IERANGELOWERLIMIT	IQUANT	3	I/E Range Lower Limit
IERANGEMODE	TOGGLE	F	I/E AutoRange
IERANGE	IQUANT	11	I/E Range
POSFEEDENABLE	TOGGLE	F	Positive Feedback IR Comp
POSFEEDRESISTANCE	QUANT	0	Positive Feedback Resistance (ohm)
FC350IDIVISOR	IQUANT	0	FC350 I Divisor
FC350VRANGE	IQUANT	0	FC350 V Range
FRAMEWORKVERSION	QUANT	4.35	Framework Version
ZCURVE	TABLE
	Pt	Time	Freq	Zreal	Zimag	Zsig	Zmod	Zphz	Idc	Vdc	IERange
	#	s	Hz	ohm	ohm	V	ohm	°	A	V	#
	0	4	100007	116.17	-0.683578	1	116.173	-0.337139	3.02124E-006	-0.438852	9
	1	6	89134.1	115.493	-0.88243	1	115.497	-0.437761	3.36563E-006	-0.438864	9
	2	8	79433.6	115.312	-0.96435	1	115.316	-0.479152	3.43771E-006	-0.43887	9
	3	10	70800.8	115.211	-1.36755	1	115.219	-0.680064	3.16379E-006	-0.438836	9
	4	12	63105.5	115.005	-1.69967	1	115.018	-0.846717	3.16262E-006	-0.438842	9
	5	14	56243.5	114.933	-2.18181	1	114.954	-1.08753	3.13163E-006	-0.438869	9
	6	16	50123.7	114.75	-2.43449	1	114.776	-1.21538	3.37578E-006	-0.438885	9
	7	18	44681	114.717	-2.77274	1	114.75	-1.38459	2.93321E-006	-0.438874	9
	8	20	39811.2	114.726	-2.994	1	114.765	-1.49491	3.03534E-006	-0.438869	9
	9	22	35488.3	114.728	-3.48585	1	114.781	-1.74032	2.77259E-006	-0.43885	9
	10	23	31634.1	114.684	-3.9635	1	114.752	-1.97938	2.74879E-006	-0.438872	9
	11	25	28173.1	114.769	-4.45764	1	114.855	-2.22426	2.68687E-006	-0.43887	9
	12	27	25123.7	114.822	-4.84881	1	114.924	-2.4181	2.59418E-006	-0.438873	9
	13	29	22389.3	115.03	-5.41239	1	115.157	-2.6939	2.59545E-006	-0.438877	9
	14	31	19954.4	115.085	-6.09671	1	115.246	-3.03245	2.50745E-006	-0.438865	9
	15	33	17778.2	115.218	-6.77012	1	115.416	-3.3628	2.61374E-006	-0.438865	9
	16	35	15852.9	115.456	-7.42983	1	115.695	-3.68202	2.50145E-006	-0.438843	9
	17	37	14122.3	115.67	-8.29315	1	115.967	-4.10088	2.61782E-006	-0.438867	9
	18	39	12587.2	115.809	-8.94433	1	116.154	-4.41637	2.93234E-006	-0.438875	9
	19	41	11221.1	115.765	-10.0412	1	116.199	-4.95733	2.68968E-006	-0.438861	9
	20	43	9998.2	116.185	-11.1406	1	116.718	-5.47715	2.79987E-006	-0.438858	9
	21	45	8912.76	116.417	-12.2027	1	117.054	-5.98383	2.74324E-006	-0.438871	9
	22	47	7942.6	116.637	-13.4991	1	117.416	-6.60181	2.61081E-006	-0.438863	9
	23	49	7078.05	116.885	-14.9157	1	117.833	-7.27224	2.54532E-006	-0.438868	9
	24	51	6311.1	117.262	-16.4493	1	118.41	-7.98527	2.63134E-006	-0.438862	9
	25	53	5622.14	117.583	-18.1548	1	118.977	-8.77711	2.71743E-006	-0.438873	9
	26	55	5011.18	118.011	-20.1029	1	119.711	-9.6674	2.9032E-006	-0.438864	9
	27	57	4465.21	118.477	-22.1953	1	120.538	-10.6107	2.86968E-006	-0.438877	9
	28	59	3980.93	118.77	-24.617	1	121.294	-11.7097	2.78628E-006	-0.438878	9
	29	61	3548.18	119.313	-27.3273	1	122.403	-12.9004	2.70492E-006	-0.438876	9
	30	63	3162.67	119.982	-29.9373	1	123.661	-14.0101	2.34038E-006	-0.438845	9
	31	65	2819.01	120.538	-33.1445	1	125.012	-15.3748	2.64571E-006	-0.438873	9
	32	67	2511.16	121.207	-36.8491	1	126.684	-16.9103	2.49348E-006	-0.438855	9
	33	69	2238.63	121.954	-40.4947	1	128.502	-18.3686	2.29277E-006	-0.438849	9
	34	71	1995.37	122.58	-45.0083	1	130.582	-20.1619	2.36717E-006	-0.438861	9
	35	73	1778.51	123.645	-49.5456	1	133.203	-21.8364	2.36737E-006	-0.438853	9
	36	75	1584.49	124.603	-54.9107	1	136.166	-23.7823	2.44831E-006	-0.438841	9
	37	77	1412.76	125.522	-60.5409	1	139.359	-25.7485	2.3914E-006	-0.438831	9
	38	79	1259.04	126.847	-67.1119	1	143.507	-27.8823	2.54979E-006	-0.438856	9
	39	81	1121.63	127.998	-74.4179	1	148.059	-30.1736	2.58678E-006	-0.438847	9
	40	83	999.95	129.213	-81.7731	1	152.915	-32.3278	2.81384E-006	-0.438852	9
	41	85	891.184	130.551	-91.1675	1	159.233	-34.9276	2.92082E-006	-0.43885	9
	42	87	794.163	132.394	-100.709	1	166.345	-37.2593	2.79621E-006	-0.438849	9
	43	89	707.867	133.763	-111.55	1	174.172	-39.826	2.54846E-006	-0.438854	9
	44	91	630.984	135.712	-123.399	1	183.426	-42.2794	2.40668E-006	-0.438844	9
	45	93	562.189	138.052	-137.053	1	194.53	-44.7919	2.25017E-006	-0.43885	9
	46	95	501.303	139.961	-151.697	1	206.4	-47.3044	2.39448E-006	-0.438853	9
	47	97	446.614	142.296	-168.284	1	220.38	-49.7831	2.46204E-006	-0.438854	9
	48	99	398.209	144.777	-186.588	1	236.168	-52.1916	2.03054E-006	-0.438857	9
	49	101	354.821	147.624	-207.07	1	254.305	-54.5141	2.00609E-006	-0.438861	9
	50	103	316.113	150.711	-229.903	1	274.898	-56.7535	2.10471E-006	-0.438862	9
	51	105	281.926	154.09	-255.025	1	297.963	-58.859	1.92059E-006	-0.438869	9
	52	107	251.185	157.908	-283.29	1	324.328	-60.8643	1.99713E-006	-0.438868	9
	53	109	223.946	162.012	-314.508	1	353.784	-62.7457	1.79757E-006	-0.438862	9
	54	111	199.495	166.645	-349.598	1	387.284	-64.514	1.88785E-006	-0.438861	9
	55	113	177.836	171.741	-388.322	1	424.604	-66.1418	1.86151E-006	-0.438863	9
	56	115	158.533	177.506	-431.446	1	466.534	-67.6367	1.97735E-006	-0.43886	9
	57	117	141.263	183.847	-479.712	1	513.735	-69.031	1.98318E-006	-0.438858	9
	58	119	125.911	191.076	-533.298	1	566.495	-70.2879	1.89427E-006	-0.438864	9
	59	121	112.198	199.321	-593.06	1	625.659	-71.4231	2.01718E-006	-0.43886	9
	60	123	100.009	208.165	-659.283	1	691.366	-72.4768	1.85569E-006	-0.43886	9
	61	125	89.1164	219.055	-733.201	1	765.225	-73.3657	2.0682E-006	-0.438863	9
	62	127	79.4083	230.983	-815.557	1	847.636	-74.1867	2.16058E-006	-0.438849	9
	63	129	70.788	244.133	-906.746	1	939.036	-74.931	2.05221E-006	-0.438848	9
	64	131	63.0971	259.307	-1008.01	1	1040.83	-75.5737	2.07258E-006	-0.438851	9
	65	133	54.5476	281.514	-1152.02	1	1185.91	-76.268	1.52516E-006	-0.43885	8
	66	135	50.0083	297.293	-1248.15	1	1283.07	-76.6025	1.65139E-006	-0.43885	8
	67	137	46.1675	312.566	-1343.88	1	1379.75	-76.9066	1.66952E-006	-0.438855	8
	68	139	40.0059	343.581	-1533.37	1	1571.39	-77.3704	1.5595E-006	-0.438856	8
	69	142	35.3046	374.117	-1721.17	1	1761.36	-77.7368	1.34864E-006	-0.438857	8
	70	144	31.5793	405.403	-1907.75	1	1950.35	-78.0029	1.31412E-006	-0.438853	8
	71	146	28.5748	440.064	-2091.32	1	2137.12	-78.1169	1.42275E-006	-0.438853	8
	72	148	24.9911	493.331	-2365.7	1	2416.59	-78.2206	1.29559E-006	-0.438851	8
	73	150	22.2195	550.717	-2637.59	1	2694.47	-78.2063	1.40902E-006	-0.438851	8
	74	153	20.0011	601.73	-2903.56	1	2965.25	-78.2918	1.3472E-006	-0.438848	8
	75	155	17.6486	684.713	-3255.27	1	3326.5	-78.1216	1.43868E-006	-0.438853	8
	76	157	15.7934	764.958	-3606.03	1	3686.27	-78.0232	1.30991E-006	-0.43885	8
	77	159	14.2828	844.095	-3954.24	1	4043.33	-77.9502	1.20283E-006	-0.438857	8
	78	162	12.5002	991.76	-4468.44	1	4577.18	-77.4862	1.31208E-006	-0.438855	8
	79	164	11.323	1113.41	-4882	1	5007.35	-77.1526	1.35561E-006	-0.438859	8
	80	167	9.9987	1281.92	-5465.21	1	5613.54	-76.7994	1.23671E-006	-0.438856	8
