EXPLAIN
TAG	EISPOT
TITLE	LABEL	Tomato_open	Test &Identifier
DATE	LABEL	5/12/2006	Date
TIME	LABEL	16:07:55	Time
NOTES	NOTES	1	&Notes...
	
PSTAT	PSTAT	300	Potentiostat
VDC	POTEN	1.00000E-001	T	DC &Voltage (V)
FREQINIT	QUANT	1.00000E+005	Initial Fre&q. (Hz)
FREQFINAL	QUANT	1.00000E+001	Final Fre&q. (Hz)
PTSPERDEC	QUANT	2.00000E+001	Points/&decade
VAC	QUANT	1.00000E+001	AC &Voltage (mV rms)
AREA	QUANT	1.00000E+000	&Area (cm²)
DENSITY	QUANT	7.87000E+000	&Density (gm/cm³)
EQUIV	QUANT	7.00000E+000	Equiv. &Wt
CONDIT	TWOPARAM	F	1.50000E+001	0.00000E+000	Conditionin&g	Time(s)	E(V)
DELAY	TWOPARAM	F	6.00000E+002	0.00000E+000	Init. De&lay	Time(s)	Stab.(mV/s)
SPEED	SELECTOR	1	&Optimize for:
ZGUESS	QUANT	1.00000E+002	E&stimated Z (ohms)
OCVCURVE	TABLE	39
	Pt	T	Vf	Vm	Ach	Over
	#	s	V vs. Ref.	V	V	bits
	0	0.258332	-5.43469E-001	3.90784E-006	3.36600E-004	......
	1	0.516663	-5.45370E-001	3.90784E-006	3.36600E-004	......
	2	0.774994	-5.45720E-001	3.90784E-006	3.36600E-004	......
	3	1.03333	-5.45869E-001	3.90784E-006	2.36600E-004	......
	4	1.29166	-5.46769E-001	3.90784E-006	3.36600E-004	......
	5	1.54999	-5.47369E-001	3.90784E-006	3.36600E-004	......
	6	1.80832	-5.47819E-001	3.90784E-006	3.36600E-004	......
	7	2.06665	-5.48819E-001	3.90784E-006	2.36600E-004	......
	8	2.32498	-5.50070E-001	3.90784E-006	2.36600E-004	......
	9	2.58332	-5.51470E-001	3.90784E-006	2.36600E-004	......
	10	2.84165	-5.51019E-001	3.90784E-006	2.36600E-004	......
	11	3.09998	-5.48619E-001	3.90784E-006	2.36600E-004	......
	12	3.35831	-5.49370E-001	3.90784E-006	3.36600E-004	......
	13	3.61664	-5.48819E-001	3.90784E-006	2.36600E-004	......
	14	3.87497	-5.47669E-001	3.90784E-006	3.36600E-004	......
	15	4.1333	-5.48119E-001	3.90784E-006	2.36600E-004	......
	16	4.39164	-5.48869E-001	3.90784E-006	3.36600E-004	......
	17	4.64997	-5.49819E-001	3.90784E-006	2.36600E-004	......
	18	4.9083	-5.49519E-001	3.90784E-006	2.36600E-004	......
	19	5.16663	-5.50370E-001	3.90784E-006	1.36600E-004	......
	20	5.42496	-5.50619E-001	3.90784E-006	3.36600E-004	......
	21	5.68329	-5.51769E-001	3.90784E-006	2.36600E-004	......
	22	5.94162	-5.52069E-001	3.90784E-006	1.36600E-004	......
	23	6.19996	-5.52069E-001	3.90784E-006	4.36600E-004	......
	24	6.45829	-5.53019E-001	3.90784E-006	2.36600E-004	......
	25	6.71662	-5.51719E-001	3.90784E-006	2.36600E-004	......
	26	6.97495	-5.52319E-001	3.90784E-006	3.36600E-004	......
	27	7.23328	-5.53369E-001	3.90784E-006	3.66000E-005	......
	28	7.49161	-5.54619E-001	3.90784E-006	3.36600E-004	......
	29	7.74995	-5.55019E-001	3.90784E-006	2.36600E-004	......
	30	8.00828	-5.53869E-001	3.90784E-006	3.36600E-004	......
	31	8.26661	-5.52769E-001	3.90784E-006	1.36600E-004	......
	32	8.52494	-5.51470E-001	3.90784E-006	2.36600E-004	......
	33	8.78327	-5.48419E-001	3.90784E-006	2.36600E-004	......
	34	9.0416	-5.48319E-001	3.90784E-006	1.36600E-004	......
	35	9.29993	-5.47019E-001	3.90784E-006	1.36600E-004	......
	36	9.5583	-5.46269E-001	3.90784E-006	2.36600E-004	......
	37	9.8166	-5.47819E-001	3.90784E-006	1.36600E-004	......
	38	10.0749	-5.48019E-001	3.90784E-006	1.36600E-004	......
EOC	QUANT	-0.548019	Open Circuit (V)
PSTATMODEL	IQUANT	32	Pstat Model
PSTATSECTION	LABEL	PStat0	Pstat Section
CTRLMODE	IQUANT	1	Control Mode
IESTAB	IQUANT	0	I/E Stability
CASPEED	IQUANT	1	Control Amp Speed
CONVENTION	IQUANT	1	Current Convention
ICHRANGE	IQUANT	2	Ich Range
ICHRANGEMODE	TOGGLE	F	Ich Auto Range
ICHOFFSETENABLE	TOGGLE	T	Ich Offset Enable
ICHOFFSET	QUANT	0	Ich Offset (V)
ICHFILTER	IQUANT	3	Ich Filter
VCHRANGE	IQUANT	2	Vch Range
VCHRANGEMODE	TOGGLE	F	Vch Auto Range
VCHOFFSETENABLE	TOGGLE	T	Vch Offset Enable
VCHOFFSET	QUANT	0	Vch Offset (V)
VCHFILTER	IQUANT	3	Vch Filter
ACHRANGE	IQUANT	0	Ach Range
IERANGELOWERLIMIT	IQUANT	3	I/E Range Lower Limit
IERANGEMODE	TOGGLE	F	I/E AutoRange
IERANGE	IQUANT	11	I/E Range
POSFEEDENABLE	TOGGLE	F	Positive Feedback IR Comp
POSFEEDRESISTANCE	QUANT	0	Positive Feedback Resistance (ohm)
FC350IDIVISOR	IQUANT	0	FC350 I Divisor
FC350VRANGE	IQUANT	0	FC350 V Range
FRAMEWORKVERSION	QUANT	4.35	Framework Version
ZCURVE	TABLE
	Pt	Time	Freq	Zreal	Zimag	Zsig	Zmod	Zphz	Idc	Vdc	IERange
	#	s	Hz	ohm	ohm	V	ohm	°	A	V	#
	0	4	100007	114.323	-0.84449	1	114.326	-0.423228	3.14876E-006	-0.447834	9
	1	6	89134.1	113.793	-0.850809	1	113.796	-0.428383	3.31757E-006	-0.447821	9
	2	8	79433.6	113.595	-1.07209	1	113.6	-0.540734	3.37176E-006	-0.447842	9
	3	10	70800.8	113.377	-1.4964	1	113.387	-0.75617	3.42113E-006	-0.447835	9
	4	12	63105.5	113.305	-1.74652	1	113.319	-0.883103	3.76704E-006	-0.447857	9
	5	14	56243.5	113.105	-2.08614	1	113.124	-1.05666	3.65237E-006	-0.447865	9
	6	16	50123.7	113.167	-2.43494	1	113.193	-1.23261	3.23299E-006	-0.447839	9
	7	18	44681	113.054	-2.69051	1	113.086	-1.36329	3.33778E-006	-0.44785	9
	8	20	39811.2	113.235	-3.25189	1	113.282	-1.64497	3.14496E-006	-0.447841	9
	9	22	35488.3	113.064	-3.46915	1	113.117	-1.75746	3.56389E-006	-0.447869	9
	10	24	31634.1	113.003	-3.91977	1	113.071	-1.98664	3.26438E-006	-0.447871	9
	11	25	28173.1	113.113	-4.50581	1	113.202	-2.28116	3.15862E-006	-0.447865	9
	12	27	25123.7	113.136	-5.04228	1	113.248	-2.55189	2.99738E-006	-0.447852	9
	13	29	22389.3	113.272	-5.4431	1	113.402	-2.75115	3.00401E-006	-0.44784	9
	14	31	19954.4	113.547	-6.19661	1	113.716	-3.12372	3.01396E-006	-0.447839	9
	15	33	17778.2	113.451	-6.7726	1	113.653	-3.41628	3.12363E-006	-0.447854	9
	16	35	15852.9	113.786	-7.56119	1	114.037	-3.80176	3.03167E-006	-0.447855	9
	17	37	14122.3	113.919	-8.34427	1	114.225	-4.18927	2.92888E-006	-0.447842	9
	18	39	12587.2	114.202	-9.08684	1	114.563	-4.54933	2.75932E-006	-0.44785	9
	19	41	11221.1	114.163	-10.2598	1	114.623	-5.13539	2.68282E-006	-0.447845	9
	20	43	9998.2	114.615	-11.2444	1	115.165	-5.60313	2.7897E-006	-0.447848	9
	21	45	8912.76	114.862	-12.4441	1	115.534	-6.18328	2.90654E-006	-0.447861	9
	22	47	7942.6	114.852	-13.7394	1	115.671	-6.82172	2.85649E-006	-0.44784	9
	23	49	7078.05	115.396	-15.1964	1	116.392	-7.50209	2.9077E-006	-0.447851	9
	24	51	6311.1	115.639	-16.8336	1	116.858	-8.28236	2.55759E-006	-0.447845	9
	25	53	5622.14	115.939	-18.4223	1	117.393	-9.02862	2.63426E-006	-0.447835	9
	26	55	5011.18	116.329	-20.4791	1	118.118	-9.9843	2.47085E-006	-0.447844	9
	27	57	4465.21	116.724	-22.6516	1	118.902	-10.9824	2.61432E-006	-0.447843	9
	28	59	3980.93	117.223	-24.9068	1	119.84	-11.9954	2.67588E-006	-0.447857	9
	29	61	3548.18	117.781	-27.5794	1	120.967	-13.1789	2.4589E-006	-0.447855	9
	30	63	3162.67	118.177	-30.5485	1	122.061	-14.4936	2.49332E-006	-0.447848	9
	31	65	2819.01	118.684	-33.7631	1	123.394	-15.8799	2.43801E-006	-0.447856	9
	32	67	2511.16	119.502	-37.3509	1	125.203	-17.357	2.37042E-006	-0.447844	9
	33	69	2238.63	120.338	-41.4495	1	127.276	-19.0059	2.36637E-006	-0.447845	9
	34	71	1995.37	121.114	-45.67	1	129.438	-20.6606	2.3166E-006	-0.447846	9
	35	73	1778.51	121.801	-50.5218	1	131.863	-22.5282	2.57263E-006	-0.447836	9
	36	75	1584.49	123.02	-56.0096	1	135.17	-24.4792	2.74226E-006	-0.447833	9
	37	77	1412.76	124.096	-61.6845	1	138.582	-26.4306	2.53635E-006	-0.447828	9
	38	79	1259.04	125.228	-68.2858	1	142.635	-28.6034	2.42104E-006	-0.44783	9
	39	81	1121.63	126.339	-75.7172	1	147.291	-30.935	2.38804E-006	-0.447831	9
	40	83	999.95	127.803	-83.6679	1	152.755	-33.2112	2.32235E-006	-0.447841	9
	41	85	891.184	129.343	-92.8477	1	159.218	-35.6723	2.49573E-006	-0.447844	9
	42	87	794.163	130.989	-102.663	1	166.426	-38.0877	2.74804E-006	-0.447834	9
	43	89	707.867	132.709	-114.015	1	174.961	-40.667	2.88521E-006	-0.447851	9
	44	91	630.984	134.562	-126.117	1	184.425	-43.1443	2.81874E-006	-0.447833	9
	45	93	562.189	136.594	-139.704	1	195.384	-45.6448	2.5921E-006	-0.447821	9
	46	94	501.303	138.669	-154.865	1	207.876	-48.1582	2.94092E-006	-0.447828	9
	47	96	446.614	141.07	-171.791	1	222.29	-50.608	3.1196E-006	-0.447829	9
	48	98	398.209	143.633	-190.482	1	238.566	-52.982	2.65927E-006	-0.447837	9
	49	100	354.821	146.51	-211.364	1	257.177	-55.2717	2.56492E-006	-0.44783	9
	50	102	316.113	149.665	-234.664	1	278.329	-57.4709	2.78417E-006	-0.447834	9
	51	104	281.926	153.124	-260.305	1	302.003	-59.5338	2.60771E-006	-0.44784	9
	52	106	251.185	156.92	-289.092	1	328.935	-61.5067	2.54056E-006	-0.447832	9
	53	108	223.946	161.194	-320.967	1	359.17	-63.3336	2.6332E-006	-0.447825	9
	54	110	199.495	165.908	-356.69	1	393.386	-65.0554	2.65846E-006	-0.447832	9
	55	112	177.836	171.182	-396.221	1	431.618	-66.6339	2.66649E-006	-0.447831	9
	56	114	158.533	177.026	-440.186	1	474.449	-68.092	2.72945E-006	-0.447835	9
	57	116	141.263	183.617	-489.423	1	522.733	-69.4353	2.59097E-006	-0.447833	9
	58	118	125.911	190.907	-543.921	1	576.451	-70.6598	2.56876E-006	-0.447838	9
	59	120	112.198	198.842	-604.806	1	636.654	-71.8007	2.46506E-006	-0.447833	9
	60	123	100.009	208.093	-672.418	1	703.881	-72.8043	2.43954E-006	-0.447834	9
	61	125	89.1164	218.327	-747.604	1	778.831	-73.7203	2.34257E-006	-0.447838	9
	62	127	79.4083	230.071	-831.403	1	862.649	-74.5318	2.45218E-006	-0.447837	9
	63	129	70.788	243.777	-924.751	1	956.34	-75.232	2.49721E-006	-0.447835	9
	64	131	63.0971	257.532	-1028.29	1	1060.05	-75.9397	2.23196E-006	-0.447844	9
	65	133	54.5476	280.241	-1175.67	1	1208.61	-76.5928	1.73871E-006	-0.447845	8
	66	135	50.0083	295.795	-1273.83	1	1307.72	-76.927	1.74178E-006	-0.447846	8
	67	137	46.1675	310.993	-1371.43	1	1406.24	-77.2233	1.79026E-006	-0.447848	8
	68	139	40.0059	344.547	-1566.89	1	1604.32	-77.5985	1.85091E-006	-0.447851	8
	69	141	35.3046	378.885	-1758.78	1	1799.13	-77.8428	1.90638E-006	-0.447847	8
	70	144	31.5793	409.619	-1948.85	1	1991.43	-78.1301	1.69575E-006	-0.447841	8
	71	146	28.5748	444.564	-2139.39	1	2185.09	-78.261	1.71087E-006	-0.447846	8
	72	148	24.9911	507.574	-2420.89	1	2473.53	-78.1586	1.81591E-006	-0.447847	8
	73	150	22.2195	563.68	-2698.66	1	2756.9	-78.202	1.76929E-006	-0.447848	8
	74	152	20.0011	629.581	-2969.48	1	3035.49	-78.0296	1.89128E-006	-0.447838	8
	75	155	17.6486	724.517	-3334.37	1	3412.17	-77.7409	1.88993E-006	-0.447835	8
	76	157	15.7934	813.498	-3689.73	1	3778.34	-77.5666	1.92855E-006	-0.447839	8
	77	159	14.2828	902.844	-4046.08	1	4145.58	-77.4211	1.72341E-006	-0.447845	8
	78	161	12.5002	1065.1	-4568.01	1	4690.54	-76.8751	1.71989E-006	-0.447847	8
	79	164	11.323	1187.58	-5007.45	1	5146.35	-76.6581	1.60537E-006	-0.447846	8
	80	167	9.9987	1407.28	-5599.03	1	5773.17	-75.8914	1.60583E-006	-0.447844	8
