EXPLAIN
TAG	EISPOT
TITLE	LABEL	Tomato_open	Test &Identifier
DATE	LABEL	5/12/2006	Date
TIME	LABEL	15:57:59	Time
NOTES	NOTES	1	&Notes...
	
PSTAT	PSTAT	300	Potentiostat
VDC	POTEN	1.00000E-001	T	DC &Voltage (V)
FREQINIT	QUANT	1.00000E+005	Initial Fre&q. (Hz)
FREQFINAL	QUANT	1.00000E+001	Final Fre&q. (Hz)
PTSPERDEC	QUANT	2.00000E+001	Points/&decade
VAC	QUANT	1.00000E+001	AC &Voltage (mV rms)
AREA	QUANT	1.00000E+000	&Area (cm²)
DENSITY	QUANT	7.87000E+000	&Density (gm/cm³)
EQUIV	QUANT	7.00000E+000	Equiv. &Wt
CONDIT	TWOPARAM	F	1.50000E+001	0.00000E+000	Conditionin&g	Time(s)	E(V)
DELAY	TWOPARAM	F	6.00000E+002	0.00000E+000	Init. De&lay	Time(s)	Stab.(mV/s)
SPEED	SELECTOR	1	&Optimize for:
ZGUESS	QUANT	1.00000E+002	E&stimated Z (ohms)
OCVCURVE	TABLE	39
	Pt	T	Vf	Vm	Ach	Over
	#	s	V vs. Ref.	V	V	bits
	0	0.258332	-5.30620E-001	3.59414E-006	1.36600E-004	......
	1	0.516663	-5.31269E-001	3.59414E-006	3.66000E-005	......
	2	0.774994	-5.32420E-001	3.59414E-006	3.36600E-004	......
	3	1.03333	-5.33219E-001	3.59414E-006	-6.34000E-005	......
	4	1.29166	-5.33469E-001	3.59414E-006	2.36600E-004	......
	5	1.54999	-5.33119E-001	3.59414E-006	3.66000E-005	......
	6	1.80832	-5.32719E-001	3.59414E-006	1.36600E-004	......
	7	2.06665	-5.32869E-001	3.59414E-006	-6.34000E-005	......
	8	2.32498	-5.32169E-001	3.59414E-006	3.36600E-004	......
	9	2.58332	-5.32269E-001	3.59414E-006	3.66000E-005	......
	10	2.84165	-5.31269E-001	3.59414E-006	2.36600E-004	......
	11	3.09998	-5.31469E-001	3.59414E-006	3.66000E-005	......
	12	3.35831	-5.32119E-001	3.59414E-006	3.66000E-005	......
	13	3.61664	-5.31869E-001	3.59414E-006	-6.34000E-005	......
	14	3.87497	-5.31669E-001	3.59414E-006	2.36600E-004	......
	15	4.1333	-5.30469E-001	3.59414E-006	3.66000E-005	......
	16	4.39164	-5.29469E-001	3.59414E-006	2.36600E-004	......
	17	4.64997	-5.30670E-001	3.59414E-006	-6.34000E-005	......
	18	4.9083	-5.33719E-001	3.59414E-006	2.36600E-004	......
	19	5.16663	-5.36370E-001	3.59414E-006	-6.34000E-005	......
	20	5.42496	-5.37870E-001	3.59414E-006	2.36600E-004	......
	21	5.68329	-5.38619E-001	3.59414E-006	-6.34000E-005	......
	22	5.94162	-5.39769E-001	3.59414E-006	1.36600E-004	......
	23	6.19996	-5.40469E-001	3.59414E-006	3.66000E-005	......
	24	6.45829	-5.40569E-001	3.59414E-006	2.36600E-004	......
	25	6.71662	-5.41070E-001	3.59414E-006	3.66000E-005	......
	26	6.97495	-5.42269E-001	3.59414E-006	1.36600E-004	......
	27	7.23328	-5.43270E-001	3.59414E-006	3.66000E-005	......
	28	7.49161	-5.43819E-001	3.59414E-006	1.36600E-004	......
	29	7.74995	-5.44620E-001	3.59414E-006	3.66000E-005	......
	30	8.00828	-5.44670E-001	3.59414E-006	2.36600E-004	......
	31	8.26661	-5.45020E-001	3.59414E-006	-6.34000E-005	......
	32	8.52494	-5.45219E-001	3.59414E-006	2.36600E-004	......
	33	8.78327	-5.46219E-001	3.59414E-006	3.66000E-005	......
	34	9.0416	-5.45619E-001	3.59414E-006	2.36600E-004	......
	35	9.29993	-5.45820E-001	3.59414E-006	3.66000E-005	......
	36	9.5583	-5.46119E-001	3.59414E-006	2.36600E-004	......
	37	9.8166	-5.46719E-001	3.59414E-006	3.66000E-005	......
	38	10.0749	-5.46919E-001	3.59414E-006	2.36600E-004	......
EOC	QUANT	-0.546919	Open Circuit (V)
PSTATMODEL	IQUANT	32	Pstat Model
PSTATSECTION	LABEL	PStat0	Pstat Section
CTRLMODE	IQUANT	1	Control Mode
IESTAB	IQUANT	0	I/E Stability
CASPEED	IQUANT	1	Control Amp Speed
CONVENTION	IQUANT	1	Current Convention
ICHRANGE	IQUANT	2	Ich Range
ICHRANGEMODE	TOGGLE	F	Ich Auto Range
ICHOFFSETENABLE	TOGGLE	T	Ich Offset Enable
ICHOFFSET	QUANT	0	Ich Offset (V)
ICHFILTER	IQUANT	3	Ich Filter
VCHRANGE	IQUANT	2	Vch Range
VCHRANGEMODE	TOGGLE	F	Vch Auto Range
VCHOFFSETENABLE	TOGGLE	T	Vch Offset Enable
VCHOFFSET	QUANT	0	Vch Offset (V)
VCHFILTER	IQUANT	3	Vch Filter
ACHRANGE	IQUANT	0	Ach Range
IERANGELOWERLIMIT	IQUANT	3	I/E Range Lower Limit
IERANGEMODE	TOGGLE	F	I/E AutoRange
IERANGE	IQUANT	11	I/E Range
POSFEEDENABLE	TOGGLE	F	Positive Feedback IR Comp
POSFEEDRESISTANCE	QUANT	0	Positive Feedback Resistance (ohm)
FC350IDIVISOR	IQUANT	0	FC350 I Divisor
FC350VRANGE	IQUANT	0	FC350 V Range
FRAMEWORKVERSION	QUANT	4.35	Framework Version
ZCURVE	TABLE
	Pt	Time	Freq	Zreal	Zimag	Zsig	Zmod	Zphz	Idc	Vdc	IERange
	#	s	Hz	ohm	ohm	V	ohm	°	A	V	#
	0	4	100007	115.159	-0.606856	1	115.16	-0.301931	2.81396E-006	-0.446768	9
	1	6	89134.1	114.568	-0.885972	1	114.572	-0.443067	3.11842E-006	-0.44678	9
	2	8	79433.6	114.418	-1.09514	1	114.424	-0.548383	2.92843E-006	-0.446778	9
	3	10	70800.8	114.185	-1.2823	1	114.192	-0.643408	2.96896E-006	-0.446758	9
	4	12	63105.5	113.873	-1.69436	1	113.885	-0.852466	3.12637E-006	-0.446767	9
	5	14	56243.5	113.986	-1.97317	1	114.003	-0.99173	2.96445E-006	-0.446756	9
	6	16	50123.7	113.7	-2.42316	1	113.726	-1.2209	3.30382E-006	-0.44678	9
	7	18	44681	113.656	-2.6739	1	113.687	-1.34771	3.17023E-006	-0.446787	9
	8	20	39811.2	113.632	-3.09497	1	113.674	-1.56017	2.97793E-006	-0.446757	9
	9	22	35488.3	113.7	-3.45653	1	113.752	-1.74128	3.08285E-006	-0.446779	9
	10	24	31634.1	113.801	-4.07783	1	113.874	-2.0522	2.85003E-006	-0.446749	9
	11	26	28173.1	113.884	-4.50727	1	113.973	-2.26646	3.07721E-006	-0.446767	9
	12	28	25123.7	114.119	-4.90226	1	114.224	-2.45977	3.02001E-006	-0.446772	9
	13	30	22389.3	113.966	-5.57034	1	114.102	-2.79822	2.98231E-006	-0.44677	9
	14	32	19954.4	114.15	-6.10502	1	114.313	-3.0614	2.91296E-006	-0.446735	9
	15	34	17778.2	114.19	-6.7536	1	114.39	-3.38473	2.88092E-006	-0.446767	9
	16	36	15852.9	114.368	-7.47553	1	114.612	-3.73976	2.81654E-006	-0.446762	9
	17	38	14122.3	114.668	-8.28945	1	114.968	-4.13476	2.8949E-006	-0.446752	9
	18	40	12587.2	114.712	-9.194	1	115.08	-4.58237	2.9437E-006	-0.446756	9
	19	42	11221.1	115.065	-10.2216	1	115.518	-5.07646	2.85903E-006	-0.446759	9
	20	43	9998.2	115.289	-11.1186	1	115.824	-5.50862	2.82115E-006	-0.446752	9
	21	45	8912.76	115.509	-12.1797	1	116.15	-6.01921	2.66504E-006	-0.446745	9
	22	47	7942.6	115.814	-13.514	1	116.599	-6.65559	2.84328E-006	-0.446768	9
	23	49	7078.05	115.953	-15.1219	1	116.935	-7.43024	2.81067E-006	-0.446753	9
	24	51	6311.1	116.257	-16.5729	1	117.432	-8.1131	2.61885E-006	-0.446748	9
	25	53	5622.14	116.78	-18.2819	1	118.203	-8.8974	2.54645E-006	-0.44676	9
	26	55	5011.18	117.056	-20.2788	1	118.8	-9.8284	2.51312E-006	-0.446762	9
	27	57	4465.21	117.566	-22.3499	1	119.672	-10.7637	2.64695E-006	-0.446759	9
	28	59	3980.93	117.921	-24.6872	1	120.478	-11.8243	2.56629E-006	-0.446739	9
	29	61	3548.18	118.314	-27.5154	1	121.471	-13.0922	2.7792E-006	-0.446777	9
	30	63	3162.67	118.943	-30.5316	1	122.799	-14.3965	2.55474E-006	-0.44675	9
	31	65	2819.01	119.36	-33.4802	1	123.967	-15.6687	2.78454E-006	-0.446771	9
	32	67	2511.16	120.101	-36.9129	1	125.645	-17.0848	2.64524E-006	-0.446767	9
	33	69	2238.63	121.033	-40.9564	1	127.774	-18.6954	2.79528E-006	-0.446754	9
	34	71	1995.37	121.885	-45.3861	1	130.061	-20.4237	2.75806E-006	-0.446754	9
	35	73	1778.51	122.665	-50.1357	1	132.515	-22.2308	2.84232E-006	-0.446753	9
	36	75	1584.49	123.59	-55.5673	1	135.507	-24.2092	2.88687E-006	-0.446747	9
	37	77	1412.76	124.559	-61.299	1	138.826	-26.203	2.70885E-006	-0.446764	9
	38	79	1259.04	125.884	-67.7845	1	142.974	-28.301	2.67063E-006	-0.446753	9
	39	81	1121.63	127.026	-75.0371	1	147.534	-30.5712	2.64057E-006	-0.446754	9
	40	83	999.95	128.268	-82.9755	1	152.767	-32.8985	2.66309E-006	-0.446749	9
	41	85	891.184	129.76	-91.9089	1	159.013	-35.3098	2.47143E-006	-0.44676	9
	42	87	794.163	131.292	-101.663	1	166.051	-37.7515	2.4102E-006	-0.446739	9
	43	89	707.867	133.112	-113.14	1	174.699	-40.3633	2.65454E-006	-0.446753	9
	44	91	630.984	135.026	-124.5	1	183.663	-42.6775	2.71159E-006	-0.446751	9
	45	93	562.189	136.878	-138.164	1	194.486	-45.2678	2.83335E-006	-0.446768	9
	46	95	501.303	139.167	-153.286	1	207.036	-47.7641	2.58174E-006	-0.446754	9
	47	97	446.614	141.508	-170.041	1	221.22	-50.2328	2.71312E-006	-0.446758	9
	48	99	398.209	144.076	-188.532	1	237.281	-52.6131	2.45887E-006	-0.446764	9
	49	101	354.821	146.942	-209.228	1	255.672	-54.9194	2.6269E-006	-0.446759	9
	50	103	316.113	150.094	-232.254	1	276.532	-57.1275	2.58684E-006	-0.446762	9
	51	105	281.926	153.519	-257.694	1	299.957	-59.2161	2.62231E-006	-0.446756	9
	52	107	251.185	157.347	-286.236	1	326.634	-61.2019	2.65618E-006	-0.446753	9
	53	109	223.946	161.561	-317.753	1	356.467	-63.0491	2.51062E-006	-0.446749	9
	54	111	199.495	166.252	-353.147	1	390.324	-64.7902	2.52427E-006	-0.446751	9
	55	113	177.836	171.495	-392.312	1	428.158	-66.388	2.49401E-006	-0.446749	9
	56	115	158.533	177.301	-435.899	1	470.578	-67.8661	2.51357E-006	-0.44675	9
	57	117	141.263	183.877	-484.63	1	518.341	-69.2224	2.46442E-006	-0.446755	9
	58	119	125.911	191.169	-538.683	1	571.599	-70.4611	2.44568E-006	-0.446752	9
	59	121	112.198	199.342	-598.942	1	631.244	-71.5913	2.36483E-006	-0.446754	9
	60	123	100.009	208.407	-665.934	1	697.783	-72.6223	2.29113E-006	-0.446758	9
	61	125	89.1164	218.831	-740.547	1	772.202	-73.5377	2.3044E-006	-0.446758	9
	62	127	79.4083	230.316	-823.668	1	855.263	-74.3778	2.22854E-006	-0.446759	9
	63	129	70.788	243.583	-915.872	1	947.71	-75.1065	2.09373E-006	-0.446752	9
	64	131	63.0971	259.459	-1018.43	1	1050.96	-75.7072	2.179E-006	-0.446754	9
	65	133	54.5476	281.984	-1164.26	1	1197.92	-76.3852	1.58508E-006	-0.446753	8
	66	135	50.0083	296.395	-1261.27	1	1295.63	-76.7757	1.56639E-006	-0.446751	8
	67	137	46.1675	312.047	-1358.05	1	1393.43	-77.0594	1.59264E-006	-0.446749	8
	68	140	40.0059	344.086	-1550.28	1	1588	-77.486	1.55815E-006	-0.44675	8
	69	142	35.3046	377.315	-1739.61	1	1780.06	-77.7623	1.50405E-006	-0.446753	8
	70	144	31.5793	410.776	-1929.01	1	1972.26	-77.9786	1.47451E-006	-0.44675	8
	71	146	28.5748	447.863	-2115.31	1	2162.2	-78.0456	1.51733E-006	-0.446755	8
	72	148	24.9911	504.452	-2393.51	1	2446.09	-78.0986	1.5841E-006	-0.446754	8
	73	150	22.2195	562.891	-2666.43	1	2725.2	-78.0797	1.47516E-006	-0.446754	8
	74	153	20.0011	622.945	-2939.29	1	3004.58	-78.034	1.43582E-006	-0.446752	8
	75	155	17.6486	705.861	-3294.92	1	3369.68	-77.9084	1.47718E-006	-0.446755	8
	76	157	15.7934	792.919	-3646.62	1	3731.83	-77.7326	1.57181E-006	-0.446753	8
	77	159	14.2828	901.878	-4001.71	1	4102.08	-77.2993	1.49898E-006	-0.446751	8
	78	162	12.5002	1047.59	-4508.7	1	4628.81	-76.9195	1.51263E-006	-0.446751	8
	79	164	11.323	1162.75	-4939.2	1	5074.22	-76.7531	1.36746E-006	-0.44675	8
	80	167	9.9987	1350.8	-5519.75	1	5682.63	-76.2488	1.30201E-006	-0.446748	8
