EXPLAIN
TAG	EISPOT
TITLE	LABEL	Tomato_open	Test &Identifier
DATE	LABEL	5/12/2006	Date
TIME	LABEL	16:02:57	Time
NOTES	NOTES	1	&Notes...
	
PSTAT	PSTAT	300	Potentiostat
VDC	POTEN	1.00000E-001	T	DC &Voltage (V)
FREQINIT	QUANT	1.00000E+005	Initial Fre&q. (Hz)
FREQFINAL	QUANT	1.00000E+001	Final Fre&q. (Hz)
PTSPERDEC	QUANT	2.00000E+001	Points/&decade
VAC	QUANT	1.00000E+001	AC &Voltage (mV rms)
AREA	QUANT	1.00000E+000	&Area (cm²)
DENSITY	QUANT	7.87000E+000	&Density (gm/cm³)
EQUIV	QUANT	7.00000E+000	Equiv. &Wt
CONDIT	TWOPARAM	F	1.50000E+001	0.00000E+000	Conditionin&g	Time(s)	E(V)
DELAY	TWOPARAM	F	6.00000E+002	0.00000E+000	Init. De&lay	Time(s)	Stab.(mV/s)
SPEED	SELECTOR	1	&Optimize for:
ZGUESS	QUANT	1.00000E+002	E&stimated Z (ohms)
OCVCURVE	TABLE	39
	Pt	T	Vf	Vm	Ach	Over
	#	s	V vs. Ref.	V	V	bits
	0	0.258332	-5.26769E-001	3.66424E-006	2.36600E-004	......
	1	0.516663	-5.28069E-001	3.66424E-006	2.36600E-004	......
	2	0.774994	-5.29669E-001	3.66424E-006	1.36600E-004	......
	3	1.03333	-5.30620E-001	3.66424E-006	3.36600E-004	......
	4	1.29166	-5.31169E-001	3.66424E-006	3.66000E-005	......
	5	1.54999	-5.31919E-001	3.66424E-006	3.36600E-004	......
	6	1.80832	-5.31519E-001	3.66424E-006	2.36600E-004	......
	7	2.06665	-5.32269E-001	3.66424E-006	3.36600E-004	......
	8	2.32498	-5.32919E-001	3.66424E-006	2.36600E-004	......
	9	2.58332	-5.33520E-001	3.66424E-006	2.36600E-004	......
	10	2.84165	-5.34869E-001	3.66424E-006	3.66000E-005	......
	11	3.09998	-5.35670E-001	3.66424E-006	2.36600E-004	......
	12	3.35831	-5.35670E-001	3.66424E-006	1.36600E-004	......
	13	3.61664	-5.35670E-001	3.66424E-006	3.36600E-004	......
	14	3.87497	-5.36269E-001	3.66424E-006	2.36600E-004	......
	15	4.1333	-5.36519E-001	3.66424E-006	2.36600E-004	......
	16	4.39164	-5.37019E-001	3.66424E-006	1.36600E-004	......
	17	4.64997	-5.36269E-001	3.66424E-006	3.36600E-004	......
	18	4.9083	-5.34970E-001	3.66424E-006	1.36600E-004	......
	19	5.16663	-5.29419E-001	3.66424E-006	2.36600E-004	......
	20	5.42496	-5.25719E-001	3.66424E-006	2.36600E-004	......
	21	5.68329	-5.25670E-001	3.66424E-006	3.36600E-004	......
	22	5.94162	-5.26869E-001	3.66424E-006	3.66000E-005	......
	23	6.19996	-5.28319E-001	3.66424E-006	2.36600E-004	......
	24	6.45829	-5.28569E-001	3.66424E-006	1.36600E-004	......
	25	6.71662	-5.29169E-001	3.66424E-006	4.36600E-004	......
	26	6.97495	-5.30469E-001	3.66424E-006	1.36600E-004	......
	27	7.23328	-5.31419E-001	3.66424E-006	3.36600E-004	......
	28	7.49161	-5.32470E-001	3.66424E-006	2.36600E-004	......
	29	7.74995	-5.33170E-001	3.66424E-006	2.36600E-004	......
	30	8.00828	-5.34270E-001	3.66424E-006	1.36600E-004	......
	31	8.26661	-5.32470E-001	3.66424E-006	2.36600E-004	......
	32	8.52494	-5.32070E-001	3.66424E-006	2.36600E-004	......
	33	8.78327	-5.32319E-001	3.66424E-006	3.36600E-004	......
	34	9.0416	-5.32369E-001	3.66424E-006	2.36600E-004	......
	35	9.29993	-5.33319E-001	3.66424E-006	3.36600E-004	......
	36	9.5583	-5.33969E-001	3.66424E-006	2.36600E-004	......
	37	9.8166	-5.34419E-001	3.66424E-006	1.36600E-004	......
	38	10.0749	-5.35320E-001	3.66424E-006	2.36600E-004	......
EOC	QUANT	-0.53532	Open Circuit (V)
PSTATMODEL	IQUANT	32	Pstat Model
PSTATSECTION	LABEL	PStat0	Pstat Section
CTRLMODE	IQUANT	1	Control Mode
IESTAB	IQUANT	0	I/E Stability
CASPEED	IQUANT	1	Control Amp Speed
CONVENTION	IQUANT	1	Current Convention
ICHRANGE	IQUANT	2	Ich Range
ICHRANGEMODE	TOGGLE	F	Ich Auto Range
ICHOFFSETENABLE	TOGGLE	T	Ich Offset Enable
ICHOFFSET	QUANT	0	Ich Offset (V)
ICHFILTER	IQUANT	3	Ich Filter
VCHRANGE	IQUANT	2	Vch Range
VCHRANGEMODE	TOGGLE	F	Vch Auto Range
VCHOFFSETENABLE	TOGGLE	T	Vch Offset Enable
VCHOFFSET	QUANT	0	Vch Offset (V)
VCHFILTER	IQUANT	3	Vch Filter
ACHRANGE	IQUANT	0	Ach Range
IERANGELOWERLIMIT	IQUANT	3	I/E Range Lower Limit
IERANGEMODE	TOGGLE	F	I/E AutoRange
IERANGE	IQUANT	11	I/E Range
POSFEEDENABLE	TOGGLE	F	Positive Feedback IR Comp
POSFEEDRESISTANCE	QUANT	0	Positive Feedback Resistance (ohm)
FC350IDIVISOR	IQUANT	0	FC350 I Divisor
FC350VRANGE	IQUANT	0	FC350 V Range
FRAMEWORKVERSION	QUANT	4.35	Framework Version
ZCURVE	TABLE
	Pt	Time	Freq	Zreal	Zimag	Zsig	Zmod	Zphz	Idc	Vdc	IERange
	#	s	Hz	ohm	ohm	V	ohm	°	A	V	#
	0	4	100007	114.944	-0.709939	1	114.946	-0.353877	2.81548E-006	-0.435147	9
	1	6	89134.1	113.951	-0.92307	1	113.955	-0.46412	3.02838E-006	-0.435159	9
	2	8	79433.6	113.709	-1.15332	1	113.714	-0.581118	3.09885E-006	-0.435164	9
	3	10	70800.8	113.726	-1.37029	1	113.734	-0.690326	2.94217E-006	-0.435145	9
	4	12	63105.5	113.441	-1.79466	1	113.455	-0.906357	3.34113E-006	-0.435162	9
	5	14	56243.5	113.362	-2.03449	1	113.38	-1.02817	3.2157E-006	-0.435167	9
	6	16	50123.7	113.179	-2.30734	1	113.203	-1.16791	3.20603E-006	-0.435165	9
	7	18	44681	113.335	-2.65203	1	113.366	-1.34048	3.19828E-006	-0.435166	9
	8	20	39811.2	113.245	-3.26968	1	113.292	-1.65382	2.69185E-006	-0.43514	9
	9	22	35488.3	113.297	-3.47215	1	113.35	-1.75536	2.82559E-006	-0.435152	9
	10	24	31634.1	113.432	-3.93288	1	113.5	-1.98574	3.06818E-006	-0.435169	9
	11	26	28173.1	113.48	-4.4619	1	113.568	-2.25164	2.85587E-006	-0.435163	9
	12	28	25123.7	113.442	-4.87018	1	113.546	-2.45827	2.74585E-006	-0.435139	9
	13	30	22389.3	113.679	-5.54816	1	113.815	-2.79412	2.68781E-006	-0.435139	9
	14	32	19954.4	113.607	-6.08792	1	113.77	-3.06739	2.73874E-006	-0.435147	9
	15	34	17778.2	113.74	-6.79778	1	113.943	-3.42026	2.73901E-006	-0.435154	9
	16	36	15852.9	114.09	-7.60277	1	114.343	-3.81248	2.59567E-006	-0.435151	9
	17	38	14122.3	114.168	-8.3415	1	114.473	-4.17878	2.59481E-006	-0.435156	9
	18	40	12587.2	114.284	-9.08724	1	114.644	-4.5463	2.76031E-006	-0.435167	9
	19	42	11221.1	114.372	-10.1079	1	114.817	-5.05057	2.71312E-006	-0.435155	9
	20	44	9998.2	114.681	-11.1882	1	115.225	-5.57213	2.63224E-006	-0.435153	9
	21	46	8912.76	115.153	-12.3781	1	115.816	-6.13532	2.52738E-006	-0.435138	9
	22	48	7942.6	115.305	-13.8104	1	116.129	-6.82991	2.64623E-006	-0.435149	9
	23	50	7078.05	115.538	-15.1354	1	116.526	-7.46319	2.63529E-006	-0.435141	9
	24	52	6311.1	115.971	-16.68	1	117.164	-8.18468	2.60688E-006	-0.435147	9
	25	54	5622.14	116.172	-18.526	1	117.64	-9.06068	2.60324E-006	-0.435151	9
	26	56	5011.18	116.453	-20.3103	1	118.211	-9.8933	2.5944E-006	-0.435144	9
	27	58	4465.21	116.867	-22.4427	1	119.002	-10.8705	2.44912E-006	-0.435144	9
	28	60	3980.93	117.56	-24.9843	1	120.185	-11.9983	2.32145E-006	-0.435128	9
	29	62	3548.18	117.942	-27.4691	1	121.099	-13.1106	2.23429E-006	-0.435118	9
	30	64	3162.67	118.329	-30.4989	1	122.196	-14.4532	2.27181E-006	-0.435144	9
	31	66	2819.01	119.067	-33.6051	1	123.719	-15.761	2.7421E-006	-0.435158	9
	32	67	2511.16	119.655	-37.2105	1	125.308	-17.2747	2.65563E-006	-0.435134	9
	33	69	2238.63	120.51	-41.1133	1	127.33	-18.8376	2.63529E-006	-0.435139	9
	34	71	1995.37	121.261	-45.412	1	129.486	-20.5308	2.61073E-006	-0.435147	9
	35	73	1778.51	122.166	-50.4487	1	132.173	-22.4382	2.39717E-006	-0.43514	9
	36	75	1584.49	123.384	-55.7432	1	135.392	-24.3128	2.53784E-006	-0.435139	9
	37	77	1412.76	124.075	-61.6751	1	138.558	-26.4311	2.42962E-006	-0.435148	9
	38	79	1259.04	125.359	-68.3237	1	142.769	-28.5914	2.43892E-006	-0.435134	9
	39	81	1121.63	126.702	-75.3692	1	147.425	-30.7464	2.58015E-006	-0.43515	9
	40	83	999.95	127.908	-83.4272	1	152.711	-33.1142	2.52612E-006	-0.435139	9
	41	85	891.184	129.413	-92.4514	1	159.044	-35.5416	2.54679E-006	-0.435146	9
	42	87	794.163	131.038	-102.49	1	166.359	-38.0305	2.5394E-006	-0.435137	9
	43	89	707.867	132.519	-113.336	1	174.374	-40.5385	2.43026E-006	-0.435133	9
	44	91	630.984	134.412	-125.232	1	183.711	-42.9751	2.51787E-006	-0.435135	9
	45	93	562.189	136.894	-139.074	1	195.145	-45.4527	2.57909E-006	-0.435142	9
	46	95	501.303	138.83	-154.225	1	207.507	-48.0072	2.35631E-006	-0.435126	9
	47	97	446.614	141.181	-171.067	1	221.801	-50.4673	2.30395E-006	-0.435129	9
	48	99	398.209	143.76	-189.669	1	237.995	-52.8396	2.38328E-006	-0.43513	9
	49	101	354.821	146.614	-210.459	1	256.493	-55.1374	2.30445E-006	-0.435133	9
	50	103	316.113	149.739	-233.62	1	277.489	-57.3422	2.31635E-006	-0.435128	9
	51	105	281.926	153.157	-259.181	1	301.051	-59.4201	2.33317E-006	-0.435131	9
	52	107	251.185	156.968	-287.864	1	327.879	-61.3971	2.51001E-006	-0.435127	9
	53	109	223.946	161.16	-319.59	1	357.925	-63.2395	2.61324E-006	-0.435127	9
	54	111	199.495	165.845	-355.206	1	392.016	-64.9722	2.72435E-006	-0.435126	9
	55	113	177.836	170.969	-394.559	1	430.009	-66.5721	2.63312E-006	-0.43513	9
	56	115	158.533	176.703	-438.314	1	472.592	-68.0435	2.56668E-006	-0.435132	9
	57	117	141.263	183.245	-487.302	1	520.617	-69.3918	2.54951E-006	-0.435135	9
	58	119	125.911	190.435	-541.663	1	574.164	-70.6296	2.47492E-006	-0.435129	9
	59	121	112.198	198.477	-602.368	1	634.224	-71.7633	2.47193E-006	-0.435125	9
	60	123	100.009	207.698	-669.848	1	701.31	-72.773	2.58961E-006	-0.435128	9
	61	125	89.1164	218.485	-745.127	1	776.498	-73.6579	2.70077E-006	-0.435137	9
	62	127	79.4083	229.902	-828.701	1	860	-74.4947	2.62309E-006	-0.435139	9
	63	129	70.788	242.566	-921.349	1	952.74	-75.2503	2.49814E-006	-0.435143	9
	64	131	63.0971	257.039	-1024.29	1	1056.05	-75.9129	2.2752E-006	-0.435143	9
	65	133	54.5476	278.21	-1171.01	1	1203.6	-76.6353	1.58674E-006	-0.435145	8
	66	136	50.0083	292.275	-1268.73	1	1301.96	-77.0272	1.52108E-006	-0.435142	8
	67	138	46.1675	306.783	-1366.14	1	1400.16	-77.3435	1.36152E-006	-0.435139	8
	68	140	40.0059	337.716	-1560.15	1	1596.28	-77.7859	1.46984E-006	-0.435138	8
	69	142	35.3046	369.474	-1751.65	1	1790.19	-78.0892	1.53161E-006	-0.435136	8
	70	144	31.5793	402.793	-1942.15	1	1983.48	-78.2832	1.66123E-006	-0.435135	8
	71	146	28.5748	438.747	-2130.46	1	2175.17	-78.3632	1.70424E-006	-0.435137	8
	72	148	24.9911	491.219	-2411.42	1	2460.94	-78.4861	1.64553E-006	-0.435136	8
	73	151	22.2195	547.629	-2687.23	1	2742.46	-78.4814	1.63114E-006	-0.435137	8
	74	153	20.0011	608.719	-2959.41	1	3021.37	-78.377	1.69519E-006	-0.435134	8
	75	155	17.6486	697.647	-3320.67	1	3393.17	-78.1352	1.77298E-006	-0.435138	8
	76	158	15.7934	779.361	-3674.43	1	3756.17	-78.0248	1.75854E-006	-0.435146	8
	77	160	14.2828	876.085	-4025.94	1	4120.16	-77.7233	1.68307E-006	-0.435143	8
	78	162	12.5002	1012.22	-4558.37	1	4669.41	-77.4802	1.65639E-006	-0.435146	8
	79	165	11.323	1138.77	-4981.95	1	5110.44	-77.1246	1.63427E-006	-0.435141	8
	80	167	9.9987	1322.91	-5568.26	1	5723.25	-76.6355	1.58903E-006	-0.435142	8
