EXPLAIN
TAG	EISPOT
TITLE	LABEL	Tomato_open	Test &Identifier
DATE	LABEL	5/16/2006	Date
TIME	LABEL	11:03:32	Time
NOTES	NOTES	1	&Notes...
	
PSTAT	PSTAT	300	Potentiostat
VDC	POTEN	1.00000E-001	T	DC &Voltage (V)
FREQINIT	QUANT	1.00000E+005	Initial Fre&q. (Hz)
FREQFINAL	QUANT	1.00000E+001	Final Fre&q. (Hz)
PTSPERDEC	QUANT	2.00000E+001	Points/&decade
VAC	QUANT	1.00000E+001	AC &Voltage (mV rms)
AREA	QUANT	1.00000E+000	&Area (cm²)
DENSITY	QUANT	7.87000E+000	&Density (gm/cm³)
EQUIV	QUANT	7.00000E+000	Equiv. &Wt
CONDIT	TWOPARAM	F	1.50000E+001	0.00000E+000	Conditionin&g	Time(s)	E(V)
DELAY	TWOPARAM	F	6.00000E+002	0.00000E+000	Init. De&lay	Time(s)	Stab.(mV/s)
SPEED	SELECTOR	1	&Optimize for:
ZGUESS	QUANT	1.00000E+002	E&stimated Z (ohms)
OCVCURVE	TABLE	39
	Pt	T	Vf	Vm	Ach	Over
	#	s	V vs. Ref.	V	V	bits
	0	0.258332	-3.75769E-001	2.95076E-006	2.36600E-004	......
	1	0.516663	-3.75820E-001	2.95076E-006	1.36600E-004	......
	2	0.774994	-3.75769E-001	2.95076E-006	2.36600E-004	......
	3	1.03333	-3.75869E-001	2.95076E-006	2.36600E-004	......
	4	1.29166	-3.75820E-001	2.95076E-006	1.36600E-004	......
	5	1.54999	-3.75820E-001	2.95076E-006	2.36600E-004	......
	6	1.80832	-3.76019E-001	2.95076E-006	1.36600E-004	......
	7	2.06665	-3.76220E-001	2.95076E-006	2.36600E-004	......
	8	2.32498	-3.76419E-001	2.95076E-006	2.36600E-004	......
	9	2.58332	-3.76669E-001	2.95076E-006	3.36600E-004	......
	10	2.84165	-3.76919E-001	2.95076E-006	2.36600E-004	......
	11	3.09998	-3.77269E-001	2.95076E-006	1.36600E-004	......
	12	3.35831	-3.77569E-001	2.95076E-006	1.36600E-004	......
	13	3.61664	-3.77770E-001	2.95076E-006	2.36600E-004	......
	14	3.87497	-3.78019E-001	2.95076E-006	2.36600E-004	......
	15	4.1333	-3.78219E-001	2.95076E-006	2.36600E-004	......
	16	4.39164	-3.78419E-001	2.95076E-006	2.36600E-004	......
	17	4.64997	-3.78569E-001	2.95076E-006	1.36600E-004	......
	18	4.9083	-3.78819E-001	2.95076E-006	2.36600E-004	......
	19	5.16663	-3.79019E-001	2.95076E-006	2.36600E-004	......
	20	5.42496	-3.79169E-001	2.95076E-006	1.36600E-004	......
	21	5.68329	-3.79169E-001	2.95076E-006	2.36600E-004	......
	22	5.94162	-3.79019E-001	2.95076E-006	1.36600E-004	......
	23	6.19996	-3.78819E-001	2.95076E-006	3.36600E-004	......
	24	6.45829	-3.78719E-001	2.95076E-006	2.36600E-004	......
	25	6.71662	-3.78569E-001	2.95076E-006	2.36600E-004	......
	26	6.97495	-3.78469E-001	2.95076E-006	2.36600E-004	......
	27	7.23328	-3.78369E-001	2.95076E-006	3.36600E-004	......
	28	7.49161	-3.78269E-001	2.95076E-006	2.36600E-004	......
	29	7.74995	-3.78369E-001	2.95076E-006	1.36600E-004	......
	30	8.00828	-3.78219E-001	2.95076E-006	2.36600E-004	......
	31	8.26661	-3.78069E-001	2.95076E-006	2.36600E-004	......
	32	8.52494	-3.78170E-001	2.95076E-006	2.36600E-004	......
	33	8.78327	-3.78169E-001	2.95076E-006	2.36600E-004	......
	34	9.0416	-3.78219E-001	2.95076E-006	2.36600E-004	......
	35	9.29993	-3.78020E-001	2.95076E-006	3.36600E-004	......
	36	9.5583	-3.77819E-001	2.95076E-006	2.36600E-004	......
	37	9.8166	-3.77619E-001	2.95076E-006	2.36600E-004	......
	38	10.0749	-3.77369E-001	2.95076E-006	2.36600E-004	......
EOC	QUANT	-0.377369	Open Circuit (V)
PSTATMODEL	IQUANT	32	Pstat Model
PSTATSECTION	LABEL	PStat0	Pstat Section
CTRLMODE	IQUANT	1	Control Mode
IESTAB	IQUANT	0	I/E Stability
CASPEED	IQUANT	1	Control Amp Speed
CONVENTION	IQUANT	1	Current Convention
ICHRANGE	IQUANT	2	Ich Range
ICHRANGEMODE	TOGGLE	F	Ich Auto Range
ICHOFFSETENABLE	TOGGLE	T	Ich Offset Enable
ICHOFFSET	QUANT	0	Ich Offset (V)
ICHFILTER	IQUANT	3	Ich Filter
VCHRANGE	IQUANT	2	Vch Range
VCHRANGEMODE	TOGGLE	F	Vch Auto Range
VCHOFFSETENABLE	TOGGLE	T	Vch Offset Enable
VCHOFFSET	QUANT	0	Vch Offset (V)
VCHFILTER	IQUANT	3	Vch Filter
ACHRANGE	IQUANT	0	Ach Range
IERANGELOWERLIMIT	IQUANT	3	I/E Range Lower Limit
IERANGEMODE	TOGGLE	F	I/E AutoRange
IERANGE	IQUANT	11	I/E Range
POSFEEDENABLE	TOGGLE	F	Positive Feedback IR Comp
POSFEEDRESISTANCE	QUANT	0	Positive Feedback Resistance (ohm)
FC350IDIVISOR	IQUANT	0	FC350 I Divisor
FC350VRANGE	IQUANT	0	FC350 V Range
FRAMEWORKVERSION	QUANT	4.35	Framework Version
ZCURVE	TABLE
	Pt	Time	Freq	Zreal	Zimag	Zsig	Zmod	Zphz	Idc	Vdc	IERange
	#	s	Hz	ohm	ohm	V	ohm	°	A	V	#
	0	5	100007	148.583	-0.046038	1	148.583	-0.017753	8.51478E-007	-0.277024	9
	1	7	89134.1	147.939	-0.528449	1	147.94	-0.204664	1.04031E-006	-0.27704	9
	2	9	79433.6	147.506	-0.743331	1	147.508	-0.288729	1.19806E-006	-0.277073	9
	3	11	70800.8	147.275	-0.932069	1	147.278	-0.362608	8.97916E-007	-0.277034	9
	4	13	63105.5	147.048	-1.44983	1	147.055	-0.564895	8.04884E-007	-0.27704	9
	5	15	56243.5	146.869	-1.51888	1	146.877	-0.592519	1.14198E-006	-0.277083	9
	6	17	50123.7	146.762	-2.03017	1	146.776	-0.792525	1.13182E-006	-0.277065	9
	7	19	44681	146.86	-2.2179	1	146.876	-0.865224	1.06288E-006	-0.277036	9
	8	21	39811.2	146.593	-2.86481	1	146.621	-1.11956	1.07059E-006	-0.27704	9
	9	23	35488.3	146.63	-3.10173	1	146.663	-1.21182	8.04603E-007	-0.277027	9
	10	25	31634.1	146.707	-3.37815	1	146.746	-1.31909	1.03845E-006	-0.277035	9
	11	26	28173.1	146.743	-4.00209	1	146.798	-1.56223	9.03369E-007	-0.277047	9
	12	28	25123.7	146.764	-4.3974	1	146.83	-1.7162	9.74166E-007	-0.277038	9
	13	30	22389.3	146.757	-5.05108	1	146.844	-1.97123	1.01204E-006	-0.277058	9
	14	32	19954.4	147.049	-5.44325	1	147.149	-2.11993	7.83963E-007	-0.277019	9
	15	34	17778.2	147.003	-6.2074	1	147.134	-2.41795	9.35916E-007	-0.277029	9
	16	36	15852.9	147.195	-6.61398	1	147.343	-2.57277	9.6679E-007	-0.277038	9
	17	38	14122.3	147.363	-7.4562	1	147.551	-2.89656	9.35494E-007	-0.277039	9
	18	40	12587.2	147.506	-8.12568	1	147.729	-3.15307	9.33197E-007	-0.277044	9
	19	42	11221.1	147.751	-9.1277	1	148.033	-3.5351	9.57228E-007	-0.277036	9
	20	44	9998.2	147.896	-9.8886	1	148.226	-3.82522	9.57744E-007	-0.277036	9
	21	46	8912.76	148.208	-11.185	1	148.63	-4.31584	1.02123E-006	-0.277054	9
	22	48	7942.6	148.465	-12.1115	1	148.958	-4.66376	8.8615E-007	-0.277052	9
	23	50	7078.05	148.687	-13.385	1	149.288	-5.144	9.24369E-007	-0.277045	9
	24	52	6311.1	148.714	-14.9049	1	149.459	-5.72335	9.17744E-007	-0.277053	9
	25	54	5622.14	149.316	-16.551	1	150.23	-6.32515	1.00154E-006	-0.277045	9
	26	56	5011.18	149.511	-18.2294	1	150.619	-6.95157	9.75822E-007	-0.277041	9
	27	58	4465.21	149.966	-20.0578	1	151.301	-7.61804	9.2015E-007	-0.277034	9
	28	60	3980.93	150.367	-22.2821	1	152.008	-8.42905	8.52353E-007	-0.277023	9
	29	62	3548.18	150.889	-24.7083	1	152.898	-9.29975	9.48931E-007	-0.277039	9
	30	64	3162.67	151.34	-27.0056	1	153.73	-10.1176	8.86587E-007	-0.277029	9
	31	66	2819.01	151.792	-30.0435	1	154.737	-11.1956	7.98182E-007	-0.277014	9
	32	68	2511.16	152.518	-33.2501	1	156.1	-12.2985	8.78588E-007	-0.277036	9
	33	70	2238.63	153.148	-36.6886	1	157.482	-13.472	8.72853E-007	-0.277029	9
	34	72	1995.37	153.98	-40.5348	1	159.226	-14.7483	9.59384E-007	-0.277047	9
	35	74	1778.51	154.808	-44.8762	1	161.181	-16.1659	9.16884E-007	-0.277035	9
	36	76	1584.49	155.499	-49.7277	1	163.257	-17.734	8.93994E-007	-0.277041	9
	37	78	1412.76	156.463	-55.0605	1	165.868	-19.3874	8.4276E-007	-0.27702	9
	38	80	1259.04	157.515	-60.437	1	168.711	-20.9914	8.71978E-007	-0.277036	9
	39	82	1121.63	158.519	-66.7097	1	171.984	-22.8228	8.99088E-007	-0.277035	9
	40	84	999.95	159.649	-74.1683	1	176.036	-24.9182	8.58056E-007	-0.27704	9
	41	86	891.184	160.759	-82.0722	1	180.498	-27.0456	9.0051E-007	-0.277039	9
	42	88	794.163	162.043	-91.0184	1	185.855	-29.3226	9.24853E-007	-0.277049	9
	43	90	707.867	163.395	-100.56	1	191.861	-31.6099	9.25197E-007	-0.277061	9
	44	92	630.984	164.782	-111.457	1	198.937	-34.0742	8.56712E-007	-0.277039	9
	45	94	562.189	166.424	-123.45	1	207.213	-36.5672	7.16416E-007	-0.277019	9
	46	96	501.303	168.249	-136.826	1	216.862	-39.1192	9.80478E-007	-0.277046	9
	47	97	446.614	169.955	-151.873	1	227.925	-41.7842	9.15212E-007	-0.277041	9
	48	99	398.209	171.777	-168.534	1	240.647	-44.4541	8.60931E-007	-0.277036	9
	49	101	354.821	173.775	-187.202	1	255.426	-47.1302	9.02587E-007	-0.277036	9
	50	103	316.113	175.962	-208.055	1	272.487	-49.7773	9.00025E-007	-0.277041	9
	51	105	281.926	178.286	-231.102	1	291.88	-52.3513	9.09619E-007	-0.27704	9
	52	107	251.185	180.828	-257.051	1	314.283	-54.8747	9.07212E-007	-0.277034	9
	53	109	223.946	183.6	-285.854	1	339.737	-57.288	9.03243E-007	-0.277037	9
	54	111	199.495	186.624	-318.21	1	368.899	-59.6092	9.07025E-007	-0.277032	9
	55	113	177.836	189.947	-354.126	1	401.852	-61.7917	8.89291E-007	-0.277031	9
	56	115	158.533	193.615	-394.192	1	439.174	-63.8411	8.71634E-007	-0.277033	9
	57	117	141.263	197.615	-439.06	1	481.482	-65.7681	8.97212E-007	-0.277039	9
	58	120	125.911	202.186	-489.173	1	529.31	-67.5436	8.47421E-007	-0.277038	9
	59	122	112.198	207.156	-545.118	1	583.153	-69.1922	8.9484E-007	-0.277041	9
	60	124	100.009	212.552	-607.365	1	643.483	-70.7121	8.46484E-007	-0.277044	9
	61	126	89.1164	218.761	-677.108	1	711.57	-72.0953	8.42434E-007	-0.27704	9
	62	128	79.4083	225.672	-754.845	1	787.857	-73.3552	9.07743E-007	-0.277034	9
	63	130	70.788	233.079	-841.266	1	872.957	-74.5142	8.54433E-007	-0.277041	9
	64	132	63.0971	241.572	-937.686	1	968.3	-75.5533	8.06929E-007	-0.277039	9
	65	134	54.5476	254.135	-1076.33	1	1105.93	-76.7151	8.83399E-007	-0.277038	9
	66	136	50.0083	261.804	-1167.28	1	1196.28	-77.3586	3.07543E-007	-0.27704	8
	67	138	46.1675	270.16	-1259.26	1	1287.92	-77.8914	2.82026E-007	-0.277035	8
	68	140	40.0059	287.164	-1441.91	1	1470.23	-78.7366	2.89482E-007	-0.277043	8
	69	142	35.3046	303.829	-1623.65	1	1651.84	-79.401	2.79651E-007	-0.277042	8
	70	145	31.5793	320.642	-1803.61	1	1831.89	-79.9194	3.30198E-007	-0.277042	8
	71	147	28.5748	337.845	-1982.86	1	2011.43	-80.3306	3.00456E-007	-0.277041	8
	72	149	24.9911	363.552	-2251.83	1	2280.99	-80.8289	2.85142E-007	-0.277053	8
	73	151	22.2195	388.583	-2517.76	1	2547.57	-81.2264	2.25792E-007	-0.277042	8
	74	154	20.0011	417.082	-2780.53	1	2811.64	-81.4692	2.73629E-007	-0.277042	8
	75	156	17.6486	451.041	-3129.87	1	3162.2	-81.7996	2.8671E-007	-0.277041	8
	76	158	15.7934	488.087	-3477.3	1	3511.39	-82.0099	3.07446E-007	-0.277046	8
	77	160	14.2828	522.769	-3821.52	1	3857.11	-82.2105	2.45376E-007	-0.277055	8
	78	163	12.5002	581.104	-4335.81	1	4374.58	-82.3665	2.76613E-007	-0.277054	8
	79	165	11.323	627.244	-4760.51	1	4801.65	-82.4939	2.77949E-007	-0.277046	8
	80	168	9.9987	699.472	-5353.4	1	5398.91	-82.5559	2.28238E-007	-0.277054	8
