EXPLAIN
TAG	EISPOT
TITLE	LABEL	Tomato_open	Test &Identifier
DATE	LABEL	5/16/2006	Date
TIME	LABEL	11:13:36	Time
NOTES	NOTES	1	&Notes...
	
PSTAT	PSTAT	300	Potentiostat
VDC	POTEN	1.00000E-001	T	DC &Voltage (V)
FREQINIT	QUANT	1.00000E+005	Initial Fre&q. (Hz)
FREQFINAL	QUANT	1.00000E+001	Final Fre&q. (Hz)
PTSPERDEC	QUANT	2.00000E+001	Points/&decade
VAC	QUANT	1.00000E+001	AC &Voltage (mV rms)
AREA	QUANT	1.00000E+000	&Area (cm²)
DENSITY	QUANT	7.87000E+000	&Density (gm/cm³)
EQUIV	QUANT	7.00000E+000	Equiv. &Wt
CONDIT	TWOPARAM	F	1.50000E+001	0.00000E+000	Conditionin&g	Time(s)	E(V)
DELAY	TWOPARAM	F	6.00000E+002	0.00000E+000	Init. De&lay	Time(s)	Stab.(mV/s)
SPEED	SELECTOR	1	&Optimize for:
ZGUESS	QUANT	1.00000E+002	E&stimated Z (ohms)
OCVCURVE	TABLE	39
	Pt	T	Vf	Vm	Ach	Over
	#	s	V vs. Ref.	V	V	bits
	0	0.258332	-3.42770E-001	2.68034E-006	2.36600E-004	......
	1	0.516663	-3.42669E-001	2.68034E-006	3.66000E-005	......
	2	0.774994	-3.42519E-001	2.68034E-006	2.36600E-004	......
	3	1.03333	-3.42519E-001	2.68034E-006	3.36600E-004	......
	4	1.29166	-3.42369E-001	2.68034E-006	1.36600E-004	......
	5	1.54999	-3.42220E-001	2.68034E-006	3.36600E-004	......
	6	1.80832	-3.42219E-001	2.68034E-006	3.66000E-005	......
	7	2.06665	-3.42169E-001	2.68034E-006	3.36600E-004	......
	8	2.32498	-3.42119E-001	2.68034E-006	2.36600E-004	......
	9	2.58332	-3.42069E-001	2.68034E-006	2.36600E-004	......
	10	2.84165	-3.42169E-001	2.68034E-006	2.36600E-004	......
	11	3.09998	-3.42169E-001	2.68034E-006	3.36600E-004	......
	12	3.35831	-3.42319E-001	2.68034E-006	2.36600E-004	......
	13	3.61664	-3.42369E-001	2.68034E-006	1.36600E-004	......
	14	3.87497	-3.42469E-001	2.68034E-006	2.36600E-004	......
	15	4.1333	-3.42519E-001	2.68034E-006	2.36600E-004	......
	16	4.39164	-3.42570E-001	2.68034E-006	3.36600E-004	......
	17	4.64997	-3.42619E-001	2.68034E-006	3.66000E-005	......
	18	4.9083	-3.42619E-001	2.68034E-006	2.36600E-004	......
	19	5.16663	-3.42869E-001	2.68034E-006	2.36600E-004	......
	20	5.42496	-3.43169E-001	2.68034E-006	3.66000E-005	......
	21	5.68329	-3.43470E-001	2.68034E-006	2.36600E-004	......
	22	5.94162	-3.43619E-001	2.68034E-006	1.36600E-004	......
	23	6.19996	-3.43769E-001	2.68034E-006	3.66000E-005	......
	24	6.45829	-3.43969E-001	2.68034E-006	2.36600E-004	......
	25	6.71662	-3.44119E-001	2.68034E-006	3.36600E-004	......
	26	6.97495	-3.44319E-001	2.68034E-006	2.36600E-004	......
	27	7.23328	-3.44469E-001	2.68034E-006	3.66000E-005	......
	28	7.49161	-3.44719E-001	2.68034E-006	2.36600E-004	......
	29	7.74995	-3.44969E-001	2.68034E-006	3.66000E-005	......
	30	8.00828	-3.45169E-001	2.68034E-006	1.36600E-004	......
	31	8.26661	-3.45369E-001	2.68034E-006	3.66000E-005	......
	32	8.52494	-3.45519E-001	2.68034E-006	2.36600E-004	......
	33	8.78327	-3.45519E-001	2.68034E-006	2.36600E-004	......
	34	9.0416	-3.45569E-001	2.68034E-006	2.36600E-004	......
	35	9.29993	-3.45419E-001	2.68034E-006	2.36600E-004	......
	36	9.5583	-3.45369E-001	2.68034E-006	2.36600E-004	......
	37	9.8166	-3.45270E-001	2.68034E-006	2.36600E-004	......
	38	10.0749	-3.45270E-001	2.68034E-006	3.66000E-005	......
EOC	QUANT	-0.34527	Open Circuit (V)
PSTATMODEL	IQUANT	32	Pstat Model
PSTATSECTION	LABEL	PStat0	Pstat Section
CTRLMODE	IQUANT	1	Control Mode
IESTAB	IQUANT	0	I/E Stability
CASPEED	IQUANT	1	Control Amp Speed
CONVENTION	IQUANT	1	Current Convention
ICHRANGE	IQUANT	2	Ich Range
ICHRANGEMODE	TOGGLE	F	Ich Auto Range
ICHOFFSETENABLE	TOGGLE	T	Ich Offset Enable
ICHOFFSET	QUANT	0	Ich Offset (V)
ICHFILTER	IQUANT	3	Ich Filter
VCHRANGE	IQUANT	2	Vch Range
VCHRANGEMODE	TOGGLE	F	Vch Auto Range
VCHOFFSETENABLE	TOGGLE	T	Vch Offset Enable
VCHOFFSET	QUANT	0	Vch Offset (V)
VCHFILTER	IQUANT	3	Vch Filter
ACHRANGE	IQUANT	0	Ach Range
IERANGELOWERLIMIT	IQUANT	3	I/E Range Lower Limit
IERANGEMODE	TOGGLE	F	I/E AutoRange
IERANGE	IQUANT	11	I/E Range
POSFEEDENABLE	TOGGLE	F	Positive Feedback IR Comp
POSFEEDRESISTANCE	QUANT	0	Positive Feedback Resistance (ohm)
FC350IDIVISOR	IQUANT	0	FC350 I Divisor
FC350VRANGE	IQUANT	0	FC350 V Range
FRAMEWORKVERSION	QUANT	4.35	Framework Version
ZCURVE	TABLE
	Pt	Time	Freq	Zreal	Zimag	Zsig	Zmod	Zphz	Idc	Vdc	IERange
	#	s	Hz	ohm	ohm	V	ohm	°	A	V	#
	0	5	100007	148.26	0.06238	1	148.26	0.024107	1.01768E-006	-0.244993	9
	1	7	89134.1	147.71	-0.45752	1	147.711	-0.177468	1.10728E-006	-0.245007	9
	2	8	79433.6	147.306	-0.657166	1	147.308	-0.255607	9.54806E-007	-0.244985	9
	3	10	70800.8	146.803	-1.0847	1	146.807	-0.42334	1.02235E-006	-0.245009	9
	4	12	63105.5	146.738	-1.43332	1	146.745	-0.559643	9.83947E-007	-0.245018	9
	5	14	56243.5	146.586	-1.63799	1	146.595	-0.640213	9.70744E-007	-0.24502	9
	6	16	50123.7	146.39	-2.00459	1	146.404	-0.784531	9.36869E-007	-0.245014	9
	7	18	44681	146.318	-2.29224	1	146.336	-0.897528	1.07392E-006	-0.24501	9
	8	20	39811.2	146.203	-2.76204	1	146.229	-1.08229	9.48697E-007	-0.244999	9
	9	22	35488.3	146.277	-3.18178	1	146.311	-1.24609	9.04791E-007	-0.244983	9
	10	24	31634.1	146.267	-3.45385	1	146.308	-1.35269	7.06666E-007	-0.244989	9
	11	26	28173.1	146.326	-4.02211	1	146.381	-1.57452	9.61119E-007	-0.245001	9
	12	28	25123.7	146.428	-4.49216	1	146.497	-1.75718	9.29103E-007	-0.245014	9
	13	30	22389.3	146.61	-4.81437	1	146.689	-1.8808	9.24869E-007	-0.244989	9
	14	32	19954.4	146.578	-5.37448	1	146.677	-2.09989	8.79524E-007	-0.244988	9
	15	34	17778.2	146.677	-6.07976	1	146.803	-2.37355	8.91525E-007	-0.244995	9
	16	36	15852.9	146.878	-6.72736	1	147.032	-2.62244	9.04916E-007	-0.24502	9
	17	38	14122.3	146.859	-7.38849	1	147.045	-2.88012	8.82463E-007	-0.245008	9
	18	40	12587.2	147.374	-8.22435	1	147.603	-3.19414	8.75979E-007	-0.24499	9
	19	42	11221.1	147.335	-9.17081	1	147.62	-3.56177	8.91307E-007	-0.244991	9
	20	44	9998.2	147.499	-9.854	1	147.828	-3.82207	9.1915E-007	-0.244987	9
	21	46	8912.76	147.89	-11.0351	1	148.301	-4.26734	1.07612E-006	-0.245019	9
	22	48	7942.6	148.151	-12.2924	1	148.66	-4.74308	8.61025E-007	-0.244994	9
	23	50	7078.05	148.418	-13.5741	1	149.037	-5.22565	8.58822E-007	-0.244996	9
	24	52	6311.1	148.523	-15.0288	1	149.281	-5.778	8.29338E-007	-0.244999	9
	25	54	5622.14	149.008	-16.6815	1	149.939	-6.38765	8.37822E-007	-0.244978	9
	26	56	5011.18	149.16	-18.4306	1	150.294	-7.04393	8.49322E-007	-0.244991	9
	27	58	4465.21	149.742	-20.2934	1	151.111	-7.71782	8.79838E-007	-0.244987	9
	28	60	3980.93	150.043	-22.3932	1	151.705	-8.4885	6.52228E-007	-0.244974	9
	29	62	3548.18	150.533	-24.6994	1	152.546	-9.31805	1.00493E-006	-0.245008	9
	30	64	3162.67	151.023	-27.2758	1	153.466	-10.2377	8.72994E-007	-0.244983	9
	31	66	2819.01	151.57	-30.019	1	154.514	-11.2027	6.35525E-007	-0.244965	9
	32	68	2511.16	152.202	-33.5942	1	155.866	-12.4468	8.854E-007	-0.244991	9
	33	70	2238.63	152.826	-37.1922	1	157.286	-13.6778	8.1865E-007	-0.244998	9
	34	72	1995.37	153.589	-40.9811	1	158.963	-14.9398	7.64525E-007	-0.24499	9
	35	74	1778.51	154.608	-45.4559	1	161.151	-16.3837	7.63916E-007	-0.244982	9
	36	76	1584.49	155.239	-49.8792	1	163.056	-17.8125	8.34025E-007	-0.244976	9
	37	78	1412.76	156.191	-55.204	1	165.66	-19.4654	7.69369E-007	-0.244986	9
	38	79	1259.04	157.274	-61.1811	1	168.755	-21.2565	8.47072E-007	-0.244983	9
	39	81	1121.63	158.066	-68.0601	1	172.096	-23.2957	8.32744E-007	-0.244995	9
	40	83	999.95	159.198	-75.1359	1	176.038	-25.2656	7.89557E-007	-0.244982	9
	41	85	891.184	160.569	-82.9082	1	180.71	-27.3091	8.09322E-007	-0.244985	9
	42	87	794.163	161.625	-91.5449	1	185.75	-29.5274	8.33025E-007	-0.244975	9
	43	89	707.867	163.236	-101.63	1	192.288	-31.9064	7.22978E-007	-0.244964	9
	44	91	630.984	164.676	-112.557	1	199.467	-34.3529	8.86869E-007	-0.244984	9
	45	93	562.189	165.94	-124.5	1	207.452	-36.8797	9.65916E-007	-0.245002	9
	46	95	501.303	167.86	-138.38	1	217.545	-39.5015	8.57494E-007	-0.244989	9
	47	97	446.614	169.583	-153.624	1	228.82	-42.1732	8.43009E-007	-0.244993	9
	48	99	398.209	171.41	-170.488	1	241.759	-44.8454	8.32478E-007	-0.24499	9
	49	101	354.821	173.419	-189.394	1	256.796	-47.521	8.48072E-007	-0.244983	9
	50	103	316.113	175.587	-210.511	1	274.127	-50.1686	8.39416E-007	-0.24498	9
	51	105	281.926	177.895	-233.875	1	293.844	-52.7419	8.26337E-007	-0.244978	9
	52	107	251.185	180.42	-260.149	1	316.59	-55.2578	8.44431E-007	-0.244981	9
	53	109	223.946	183.197	-289.327	1	342.449	-57.6587	8.40806E-007	-0.244993	9
	54	111	199.495	186.197	-322.13	1	372.071	-59.9713	8.18212E-007	-0.244986	9
	55	113	177.836	189.578	-358.481	1	405.522	-62.1284	8.28306E-007	-0.24498	9
	56	115	158.533	193.184	-399.121	1	443.416	-64.1719	8.13541E-007	-0.244983	9
	57	117	141.263	197.226	-444.536	1	486.323	-66.0748	8.20947E-007	-0.244986	9
	58	119	125.911	201.746	-495.379	1	534.885	-67.8411	8.31879E-007	-0.244985	9
	59	121	112.198	206.651	-552.005	1	589.419	-69.4759	7.5174E-007	-0.244988	9
	60	123	100.009	212.219	-615.043	1	650.627	-70.9631	7.68626E-007	-0.244994	9
	61	126	89.1164	218.253	-685.669	1	719.567	-72.3434	8.32876E-007	-0.244987	9
	62	128	79.4083	224.95	-764.582	1	796.987	-73.6054	8.38943E-007	-0.244987	9
	63	130	70.788	232.577	-851.915	1	883.092	-74.7301	8.64955E-007	-0.244982	9
	64	132	63.0971	241.132	-949.811	1	979.94	-75.755	8.01687E-007	-0.244982	9
	65	134	54.5476	253.481	-1090.3	1	1119.38	-76.912	8.36538E-007	-0.24498	9
	66	136	50.0083	261.383	-1182.61	1	1211.15	-77.5368	2.26295E-007	-0.244986	8
	67	138	46.1675	269.539	-1275.38	1	1303.55	-78.0667	2.1606E-007	-0.244981	8
	68	140	40.0059	286.089	-1460.55	1	1488.31	-78.9174	2.20188E-007	-0.244981	8
	69	142	35.3046	302.523	-1644.59	1	1672.18	-79.5769	1.86213E-007	-0.244989	8
	70	144	31.5793	319.082	-1827.29	1	1854.94	-80.0948	2.56932E-007	-0.244978	8
	71	146	28.5748	336.023	-2008.85	1	2036.76	-80.504	2.29662E-007	-0.244986	8
	72	149	24.9911	361.947	-2280.51	1	2309.05	-80.9816	1.97421E-007	-0.244984	8
	73	151	22.2195	387.091	-2551.08	1	2580.28	-81.372	1.8492E-007	-0.244985	8
	74	153	20.0011	415.031	-2817.38	1	2847.79	-81.62	1.64335E-007	-0.244992	8
	75	156	17.6486	449.95	-3170.77	1	3202.54	-81.9233	2.29717E-007	-0.244981	8
	76	158	15.7934	484.878	-3523.45	1	3556.66	-82.1645	2.10193E-007	-0.244991	8
	77	160	14.2828	522.512	-3872.61	1	3907.71	-82.3158	1.88498E-007	-0.24499	8
	78	162	12.5002	578.029	-4394.36	1	4432.21	-82.5064	1.68681E-007	-0.244997	8
	79	165	11.323	619.843	-4824.6	1	4864.26	-82.679	1.73743E-007	-0.244989	8
	80	168	9.9987	690.1	-5424.12	1	5467.84	-82.7493	1.63079E-007	-0.244987	8
