EXPLAIN
TAG	EISPOT
TITLE	LABEL	Tomato_open	Test &Identifier
DATE	LABEL	5/16/2006	Date
TIME	LABEL	11:18:32	Time
NOTES	NOTES	1	&Notes...
	
PSTAT	PSTAT	300	Potentiostat
VDC	POTEN	1.00000E-001	T	DC &Voltage (V)
FREQINIT	QUANT	1.00000E+005	Initial Fre&q. (Hz)
FREQFINAL	QUANT	1.00000E+001	Final Fre&q. (Hz)
PTSPERDEC	QUANT	2.00000E+001	Points/&decade
VAC	QUANT	1.00000E+001	AC &Voltage (mV rms)
AREA	QUANT	1.00000E+000	&Area (cm²)
DENSITY	QUANT	7.87000E+000	&Density (gm/cm³)
EQUIV	QUANT	7.00000E+000	Equiv. &Wt
CONDIT	TWOPARAM	F	1.50000E+001	0.00000E+000	Conditionin&g	Time(s)	E(V)
DELAY	TWOPARAM	F	6.00000E+002	0.00000E+000	Init. De&lay	Time(s)	Stab.(mV/s)
SPEED	SELECTOR	1	&Optimize for:
ZGUESS	QUANT	1.00000E+002	E&stimated Z (ohms)
OCVCURVE	TABLE	39
	Pt	T	Vf	Vm	Ach	Over
	#	s	V vs. Ref.	V	V	bits
	0	0.258332	-3.21869E-001	2.69084E-006	-6.34000E-005	......
	1	0.516663	-3.21819E-001	2.69084E-006	3.66000E-005	......
	2	0.774994	-3.21869E-001	2.69084E-006	-1.63400E-004	......
	3	1.03333	-3.21819E-001	2.69084E-006	3.66000E-005	......
	4	1.29166	-3.21770E-001	2.69084E-006	-6.34000E-005	......
	5	1.54999	-3.21669E-001	2.69084E-006	-6.34000E-005	......
	6	1.80832	-3.21719E-001	2.69084E-006	-1.63400E-004	......
	7	2.06665	-3.21719E-001	2.69084E-006	3.66000E-005	......
	8	2.32498	-3.21719E-001	2.69084E-006	-1.63400E-004	......
	9	2.58332	-3.21819E-001	2.69084E-006	3.66000E-005	......
	10	2.84165	-3.21669E-001	2.69084E-006	-1.63400E-004	......
	11	3.09998	-3.21669E-001	2.69084E-006	1.36600E-004	......
	12	3.35831	-3.21819E-001	2.69084E-006	-1.63400E-004	......
	13	3.61664	-3.21769E-001	2.69084E-006	-6.34000E-005	......
	14	3.87497	-3.21719E-001	2.69084E-006	-6.34000E-005	......
	15	4.1333	-3.21719E-001	2.69084E-006	3.66000E-005	......
	16	4.39164	-3.21669E-001	2.69084E-006	-1.63400E-004	......
	17	4.64997	-3.21619E-001	2.69084E-006	1.36600E-004	......
	18	4.9083	-3.21419E-001	2.69084E-006	-1.63400E-004	......
	19	5.16663	-3.21469E-001	2.69084E-006	1.36600E-004	......
	20	5.42496	-3.21570E-001	2.69084E-006	-6.34000E-005	......
	21	5.68329	-3.21619E-001	2.69084E-006	3.66000E-005	......
	22	5.94162	-3.21669E-001	2.69084E-006	-1.63400E-004	......
	23	6.19996	-3.21669E-001	2.69084E-006	3.66000E-005	......
	24	6.45829	-3.21719E-001	2.69084E-006	-6.34000E-005	......
	25	6.71662	-3.21719E-001	2.69084E-006	1.36600E-004	......
	26	6.97495	-3.21669E-001	2.69084E-006	-1.63400E-004	......
	27	7.23328	-3.21719E-001	2.69084E-006	3.66000E-005	......
	28	7.49161	-3.21819E-001	2.69084E-006	-1.63400E-004	......
	29	7.74995	-3.21819E-001	2.69084E-006	3.66000E-005	......
	30	8.00828	-3.21919E-001	2.69084E-006	-1.63400E-004	......
	31	8.26661	-3.21920E-001	2.69084E-006	1.36600E-004	......
	32	8.52494	-3.21969E-001	2.69084E-006	-1.63400E-004	......
	33	8.78327	-3.22019E-001	2.69084E-006	3.66000E-005	......
	34	9.0416	-3.22019E-001	2.69084E-006	-6.34000E-005	......
	35	9.29993	-3.22019E-001	2.69084E-006	2.36600E-004	......
	36	9.5583	-3.22019E-001	2.69084E-006	-1.63400E-004	......
	37	9.8166	-3.22019E-001	2.69084E-006	3.66000E-005	......
	38	10.0749	-3.21969E-001	2.69084E-006	-1.63400E-004	......
EOC	QUANT	-0.321969	Open Circuit (V)
PSTATMODEL	IQUANT	32	Pstat Model
PSTATSECTION	LABEL	PStat0	Pstat Section
CTRLMODE	IQUANT	1	Control Mode
IESTAB	IQUANT	0	I/E Stability
CASPEED	IQUANT	1	Control Amp Speed
CONVENTION	IQUANT	1	Current Convention
ICHRANGE	IQUANT	2	Ich Range
ICHRANGEMODE	TOGGLE	F	Ich Auto Range
ICHOFFSETENABLE	TOGGLE	T	Ich Offset Enable
ICHOFFSET	QUANT	0	Ich Offset (V)
ICHFILTER	IQUANT	3	Ich Filter
VCHRANGE	IQUANT	2	Vch Range
VCHRANGEMODE	TOGGLE	F	Vch Auto Range
VCHOFFSETENABLE	TOGGLE	T	Vch Offset Enable
VCHOFFSET	QUANT	0	Vch Offset (V)
VCHFILTER	IQUANT	3	Vch Filter
ACHRANGE	IQUANT	0	Ach Range
IERANGELOWERLIMIT	IQUANT	3	I/E Range Lower Limit
IERANGEMODE	TOGGLE	F	I/E AutoRange
IERANGE	IQUANT	11	I/E Range
POSFEEDENABLE	TOGGLE	F	Positive Feedback IR Comp
POSFEEDRESISTANCE	QUANT	0	Positive Feedback Resistance (ohm)
FC350IDIVISOR	IQUANT	0	FC350 I Divisor
FC350VRANGE	IQUANT	0	FC350 V Range
FRAMEWORKVERSION	QUANT	4.35	Framework Version
ZCURVE	TABLE
	Pt	Time	Freq	Zreal	Zimag	Zsig	Zmod	Zphz	Idc	Vdc	IERange
	#	s	Hz	ohm	ohm	V	ohm	°	A	V	#
	0	4	100007	148.083	-0.394518	1	148.084	-0.152645	1.10627E-006	-0.221765	9
	1	6	89134.1	147.524	-0.242668	1	147.524	-0.094248	1.07299E-006	-0.221783	9
	2	8	79433.6	147.154	-0.712346	1	147.155	-0.277357	1.00198E-006	-0.221791	9
	3	10	70800.8	146.959	-1.0284	1	146.963	-0.400939	7.65947E-007	-0.221752	9
	4	11	63105.5	146.765	-1.49477	1	146.772	-0.583527	7.56791E-007	-0.221765	9
	5	13	56243.5	146.67	-1.44216	1	146.677	-0.56335	1.06123E-006	-0.221797	9
	6	15	50123.7	146.348	-1.88094	1	146.36	-0.736358	1.02906E-006	-0.2218	9
	7	17	44681	146.449	-2.22243	1	146.466	-0.869424	7.56775E-007	-0.221756	9
	8	19	39811.2	146.247	-2.53657	1	146.269	-0.99366	9.44634E-007	-0.221779	9
	9	21	35488.3	146.222	-3.0996	1	146.255	-1.21437	7.76119E-007	-0.221754	9
	10	23	31634.1	146.318	-3.54003	1	146.361	-1.38595	1.05993E-006	-0.221793	9
	11	25	28173.1	146.395	-4.01156	1	146.45	-1.56964	9.7904E-007	-0.22178	9
	12	27	25123.7	146.399	-4.45427	1	146.467	-1.74272	6.88228E-007	-0.221762	9
	13	29	22389.3	146.596	-4.94702	1	146.679	-1.93277	1.11449E-006	-0.221794	9
	14	31	19954.4	146.518	-5.4179	1	146.618	-2.11771	8.43619E-007	-0.221762	9
	15	33	17778.2	146.522	-5.86601	1	146.64	-2.29261	8.97353E-007	-0.221776	9
	16	35	15852.9	146.946	-6.65063	1	147.097	-2.59138	7.97525E-007	-0.221759	9
	17	37	14122.3	147.191	-7.52	1	147.383	-2.92471	8.66322E-007	-0.221772	9
	18	39	12587.2	147.134	-8.14566	1	147.359	-3.16879	8.75478E-007	-0.221778	9
	19	41	11221.1	147.367	-9.12008	1	147.649	-3.54135	8.70916E-007	-0.221772	9
	20	43	9998.2	147.445	-10.0162	1	147.785	-3.88623	8.80618E-007	-0.22176	9
	21	45	8912.76	147.524	-11.3444	1	147.959	-4.39734	9.779E-007	-0.221788	9
	22	47	7942.6	147.742	-12.2874	1	148.252	-4.75425	8.37275E-007	-0.221769	9
	23	49	7078.05	148.299	-13.5747	1	148.919	-5.23005	8.80697E-007	-0.221767	9
	24	51	6311.1	148.488	-14.9623	1	149.24	-5.75396	8.04806E-007	-0.221767	9
	25	53	5622.14	148.78	-16.4866	1	149.691	-6.32324	7.76853E-007	-0.221768	9
	26	54	5011.18	149.087	-18.4533	1	150.224	-7.05594	8.17385E-007	-0.221761	9
	27	56	4465.21	149.488	-20.3613	1	150.869	-7.75632	8.069E-007	-0.221764	9
	28	58	3980.93	149.986	-22.4073	1	151.651	-8.4969	8.36025E-007	-0.221783	9
	29	60	3548.18	150.588	-24.8972	1	152.632	-9.38797	8.47088E-007	-0.221786	9
	30	62	3162.67	150.893	-27.4883	1	153.376	-10.3244	6.48603E-007	-0.221756	9
	31	64	2819.01	151.412	-30.2546	1	154.405	-11.2998	7.15134E-007	-0.221769	9
	32	66	2511.16	152.01	-33.549	1	155.668	-12.4458	8.90775E-007	-0.221768	9
	33	68	2238.63	152.571	-37.1765	1	157.035	-13.6942	8.22181E-007	-0.221762	9
	34	70	1995.37	153.399	-40.816	1	158.736	-14.8999	8.71838E-007	-0.221768	9
	35	72	1778.51	154.294	-45.4571	1	160.851	-16.4157	8.38056E-007	-0.221773	9
	36	74	1584.49	155.29	-49.8792	1	163.104	-17.8071	8.0104E-007	-0.221762	9
	37	76	1412.76	156.131	-55.4526	1	165.686	-19.5534	6.91884E-007	-0.221747	9
	38	78	1259.04	156.949	-61.4501	1	168.55	-21.3819	8.39322E-007	-0.221761	9
	39	80	1121.63	158.01	-67.8542	1	171.964	-23.2401	8.01744E-007	-0.221753	9
	40	82	999.95	159.112	-74.9872	1	175.897	-25.2338	7.52885E-007	-0.22176	9
	41	84	891.184	160.518	-83.1119	1	180.758	-27.374	7.59431E-007	-0.221764	9
	42	86	794.163	161.623	-91.9726	1	185.959	-29.6423	7.66509E-007	-0.221761	9
	43	88	707.867	163.049	-101.615	1	192.121	-31.9319	6.83056E-007	-0.221753	9
	44	90	630.984	164.683	-112.679	1	199.542	-34.3808	8.25525E-007	-0.221757	9
	45	92	562.189	165.97	-124.879	1	207.704	-36.9584	8.54791E-007	-0.221752	9
	46	94	501.303	167.783	-138.579	1	217.613	-39.5548	8.55494E-007	-0.221756	9
	47	96	446.614	169.497	-153.811	1	228.882	-42.2225	8.12588E-007	-0.221764	9
	48	98	398.209	171.322	-170.724	1	241.864	-44.8998	8.15478E-007	-0.221766	9
	49	100	354.821	173.348	-189.636	1	256.927	-47.5694	8.12713E-007	-0.221767	9
	50	102	316.113	175.531	-210.776	1	274.295	-50.213	8.08025E-007	-0.221769	9
	51	104	281.926	177.856	-234.172	1	294.057	-52.7829	8.17525E-007	-0.221767	9
	52	106	251.185	180.428	-260.453	1	316.844	-55.2879	8.244E-007	-0.221764	9
	53	108	223.946	183.204	-289.673	1	342.745	-57.6886	8.02244E-007	-0.221765	9
	54	109	199.495	186.262	-322.472	1	372.4	-59.989	7.92806E-007	-0.221764	9
	55	111	177.836	189.612	-358.946	1	405.949	-62.1549	8.05009E-007	-0.221757	9
	56	113	158.533	193.319	-399.588	1	443.895	-64.1824	7.85759E-007	-0.221759	9
	57	115	141.263	197.322	-445.076	1	486.856	-66.0901	7.74806E-007	-0.221765	9
	58	117	125.911	201.939	-495.83	1	535.375	-67.8402	7.99948E-007	-0.221762	9
	59	120	112.198	206.83	-552.515	1	589.959	-69.477	7.98999E-007	-0.221761	9
	60	122	100.009	212.373	-615.649	1	651.249	-70.9677	8.07666E-007	-0.221762	9
	61	124	89.1164	218.542	-686.312	1	720.267	-72.337	8.06465E-007	-0.221764	9
	62	126	79.4083	225.483	-765.082	1	797.617	-73.5788	8.31996E-007	-0.221763	9
	63	128	70.788	232.944	-852.697	1	883.943	-74.7205	8.48629E-007	-0.221756	9
	64	130	63.0971	241.529	-950.56	1	980.77	-75.7434	7.94902E-007	-0.221761	9
	65	132	54.5476	253.719	-1090.9	1	1120.02	-76.9071	8.0831E-007	-0.22176	9
	66	134	50.0083	261.941	-1183.07	1	1211.72	-77.5156	2.06904E-007	-0.221756	8
	67	136	46.1675	270.079	-1275.88	1	1304.15	-78.048	1.90313E-007	-0.221759	8
	68	138	40.0059	286.368	-1461.41	1	1489.2	-78.9132	2.15632E-007	-0.221759	8
	69	140	35.3046	302.946	-1645.01	1	1672.67	-79.5653	1.90246E-007	-0.221759	8
	70	143	31.5793	319.571	-1828.11	1	1855.83	-80.0844	2.4354E-007	-0.22176	8
	71	145	28.5748	336.563	-2009.22	1	2037.22	-80.4907	2.31473E-007	-0.221759	8
	72	147	24.9911	362.027	-2280.95	1	2309.5	-80.9814	1.92688E-007	-0.221765	8
	73	149	22.2195	388.294	-2550.48	1	2579.87	-81.3436	1.75148E-007	-0.221763	8
	74	151	20.0011	413.756	-2817.29	1	2847.51	-81.6451	1.74617E-007	-0.221766	8
	75	154	17.6486	447.635	-3173.45	1	3204.86	-81.971	2.14701E-007	-0.221769	8
	76	156	15.7934	484.215	-3522.4	1	3555.53	-82.1728	1.98879E-007	-0.22176	8
	77	158	14.2828	519.999	-3875.97	1	3910.69	-82.3588	1.74787E-007	-0.221766	8
	78	160	12.5002	575.783	-4393.47	1	4431.04	-82.5337	1.77371E-007	-0.221747	8
	79	163	11.323	620.848	-4827.02	1	4866.78	-82.6709	1.59331E-007	-0.221765	8
	80	166	9.9987	689.832	-5427.36	1	5471.02	-82.7564	1.61891E-007	-0.221757	8
