EXPLAIN
TAG	EISPOT
TITLE	LABEL	Tomato_open	Test &Identifier
DATE	LABEL	5/16/2006	Date
TIME	LABEL	10:58:29	Time
NOTES	NOTES	1	&Notes...
	
PSTAT	PSTAT	300	Potentiostat
VDC	POTEN	1.00000E-001	T	DC &Voltage (V)
FREQINIT	QUANT	1.00000E+005	Initial Fre&q. (Hz)
FREQFINAL	QUANT	1.00000E+001	Final Fre&q. (Hz)
PTSPERDEC	QUANT	2.00000E+001	Points/&decade
VAC	QUANT	1.00000E+001	AC &Voltage (mV rms)
AREA	QUANT	1.00000E+000	&Area (cm²)
DENSITY	QUANT	7.87000E+000	&Density (gm/cm³)
EQUIV	QUANT	7.00000E+000	Equiv. &Wt
CONDIT	TWOPARAM	F	1.50000E+001	0.00000E+000	Conditionin&g	Time(s)	E(V)
DELAY	TWOPARAM	F	6.00000E+002	0.00000E+000	Init. De&lay	Time(s)	Stab.(mV/s)
SPEED	SELECTOR	1	&Optimize for:
ZGUESS	QUANT	1.00000E+002	E&stimated Z (ohms)
OCVCURVE	TABLE	39
	Pt	T	Vf	Vm	Ach	Over
	#	s	V vs. Ref.	V	V	bits
	0	0.258332	-2.90369E-001	5.23377E-006	-6.34000E-005	......
	1	0.516663	-2.90969E-001	5.23377E-006	3.66000E-005	......
	2	0.774994	-2.92119E-001	5.23377E-006	-1.63400E-004	......
	3	1.03333	-2.92919E-001	5.23377E-006	3.66000E-005	......
	4	1.29166	-2.93570E-001	5.23377E-006	-1.63400E-004	......
	5	1.54999	-2.94769E-001	5.23377E-006	2.36600E-004	......
	6	1.80832	-2.96519E-001	5.23377E-006	-1.63400E-004	......
	7	2.06665	-2.98619E-001	5.23377E-006	3.66000E-005	......
	8	2.32498	-2.99219E-001	5.23377E-006	-6.34000E-005	......
	9	2.58332	-3.00869E-001	5.23377E-006	3.66000E-005	......
	10	2.84165	-3.01869E-001	5.23377E-006	-6.34000E-005	......
	11	3.09998	-3.03070E-001	5.23377E-006	2.36600E-004	......
	12	3.35831	-3.04369E-001	5.23377E-006	-6.34000E-005	......
	13	3.61664	-3.05820E-001	5.23377E-006	-1.63400E-004	......
	14	3.87497	-3.06670E-001	5.23377E-006	-1.63400E-004	......
	15	4.1333	-3.07969E-001	5.23377E-006	1.36600E-004	......
	16	4.39164	-3.08119E-001	5.23377E-006	-1.63400E-004	......
	17	4.64997	-3.09269E-001	5.23377E-006	3.66000E-005	......
	18	4.9083	-3.10019E-001	5.23377E-006	-6.34000E-005	......
	19	5.16663	-3.11369E-001	5.23377E-006	3.66000E-005	......
	20	5.42496	-3.11919E-001	5.23377E-006	-1.63400E-004	......
	21	5.68329	-3.13069E-001	5.23377E-006	3.66000E-005	......
	22	5.94162	-3.13569E-001	5.23377E-006	-1.63400E-004	......
	23	6.19996	-3.14969E-001	5.23377E-006	-6.34000E-005	......
	24	6.45829	-3.15169E-001	5.23377E-006	-1.63400E-004	......
	25	6.71662	-3.15369E-001	5.23377E-006	3.66000E-005	......
	26	6.97495	-3.16319E-001	5.23377E-006	-2.63400E-004	......
	27	7.23328	-3.16519E-001	5.23377E-006	2.36600E-004	......
	28	7.49161	-3.17219E-001	5.23377E-006	-1.63400E-004	......
	29	7.74995	-3.18219E-001	5.23377E-006	1.36600E-004	......
	30	8.00828	-3.18469E-001	5.23377E-006	-6.34000E-005	......
	31	8.26661	-3.19619E-001	5.23377E-006	3.66000E-005	......
	32	8.52494	-3.20319E-001	5.23377E-006	-6.34000E-005	......
	33	8.78327	-3.21369E-001	5.23377E-006	-6.34000E-005	......
	34	9.0416	-3.22219E-001	5.23377E-006	-1.63400E-004	......
	35	9.29993	-3.22519E-001	5.23377E-006	3.66000E-005	......
	36	9.5583	-3.23319E-001	5.23377E-006	-1.63400E-004	......
	37	9.8166	-3.24270E-001	5.23377E-006	3.66000E-005	......
	38	10.0749	-3.24669E-001	5.23377E-006	-1.63400E-004	......
EOC	QUANT	-0.324669	Open Circuit (V)
PSTATMODEL	IQUANT	32	Pstat Model
PSTATSECTION	LABEL	PStat0	Pstat Section
CTRLMODE	IQUANT	1	Control Mode
IESTAB	IQUANT	0	I/E Stability
CASPEED	IQUANT	1	Control Amp Speed
CONVENTION	IQUANT	1	Current Convention
ICHRANGE	IQUANT	2	Ich Range
ICHRANGEMODE	TOGGLE	F	Ich Auto Range
ICHOFFSETENABLE	TOGGLE	T	Ich Offset Enable
ICHOFFSET	QUANT	0	Ich Offset (V)
ICHFILTER	IQUANT	3	Ich Filter
VCHRANGE	IQUANT	2	Vch Range
VCHRANGEMODE	TOGGLE	F	Vch Auto Range
VCHOFFSETENABLE	TOGGLE	T	Vch Offset Enable
VCHOFFSET	QUANT	0	Vch Offset (V)
VCHFILTER	IQUANT	3	Vch Filter
ACHRANGE	IQUANT	0	Ach Range
IERANGELOWERLIMIT	IQUANT	3	I/E Range Lower Limit
IERANGEMODE	TOGGLE	F	I/E AutoRange
IERANGE	IQUANT	11	I/E Range
POSFEEDENABLE	TOGGLE	F	Positive Feedback IR Comp
POSFEEDRESISTANCE	QUANT	0	Positive Feedback Resistance (ohm)
FC350IDIVISOR	IQUANT	0	FC350 I Divisor
FC350VRANGE	IQUANT	0	FC350 V Range
FRAMEWORKVERSION	QUANT	4.35	Framework Version
ZCURVE	TABLE
	Pt	Time	Freq	Zreal	Zimag	Zsig	Zmod	Zphz	Idc	Vdc	IERange
	#	s	Hz	ohm	ohm	V	ohm	°	A	V	#
	0	4	100007	148.257	-0.332697	1	148.258	-0.128575	1.24253E-006	-0.22451	9
	1	6	89134.1	147.578	-0.523806	1	147.579	-0.203362	1.09151E-006	-0.224544	9
	2	8	79433.6	146.877	-0.894972	1	146.88	-0.349119	1.07059E-006	-0.224532	9
	3	10	70800.8	146.713	-0.936495	1	146.716	-0.365724	1.05157E-006	-0.224551	9
	4	12	63105.5	146.597	-1.28538	1	146.603	-0.502364	9.36728E-007	-0.224529	9
	5	14	56243.5	146.551	-1.76203	1	146.562	-0.688851	9.50338E-007	-0.224528	9
	6	16	50123.7	146.171	-1.96753	1	146.184	-0.771183	1.13353E-006	-0.224526	9
	7	18	44681	146.29	-2.417	1	146.31	-0.946557	1.15873E-006	-0.224548	9
	8	20	39811.2	146.284	-2.73791	1	146.31	-1.07224	1.09974E-006	-0.224511	9
	9	22	35488.3	146.263	-3.20549	1	146.298	-1.25549	1.09723E-006	-0.22452	9
	10	24	31634.1	146.258	-3.46611	1	146.299	-1.35757	1.0442E-006	-0.224524	9
	11	26	28173.1	146.389	-3.85573	1	146.439	-1.50876	1.07952E-006	-0.22453	9
	12	28	25123.7	146.356	-4.40207	1	146.422	-1.72282	1.12573E-006	-0.224516	9
	13	30	22389.3	146.583	-5.09517	1	146.672	-1.99078	9.78868E-007	-0.224499	9
	14	32	19954.4	146.678	-5.41537	1	146.778	-2.1144	1.02817E-006	-0.224536	9
	15	34	17778.2	146.841	-5.99535	1	146.964	-2.33802	9.90166E-007	-0.224532	9
	16	36	15852.9	146.911	-6.71066	1	147.064	-2.61536	1.0189E-006	-0.224547	9
	17	38	14122.3	147.362	-7.28245	1	147.542	-2.82918	8.6665E-007	-0.22452	9
	18	40	12587.2	147.258	-8.22997	1	147.488	-3.19882	9.90573E-007	-0.224536	9
	19	42	11221.1	147.347	-9.00593	1	147.622	-3.4976	9.72994E-007	-0.224525	9
	20	44	9998.2	147.483	-9.8367	1	147.811	-3.8158	9.86338E-007	-0.224531	9
	21	46	8912.76	147.91	-11.1401	1	148.329	-4.30719	1.0652E-006	-0.224523	9
	22	48	7942.6	148.221	-12.0676	1	148.712	-4.65453	8.954E-007	-0.22454	9
	23	50	7078.05	148.434	-13.2626	1	149.025	-5.10583	9.274E-007	-0.224535	9
	24	52	6311.1	148.692	-14.6177	1	149.409	-5.6146	9.96697E-007	-0.224533	9
	25	54	5622.14	148.917	-16.1125	1	149.786	-6.17528	9.71025E-007	-0.224531	9
	26	56	5011.18	149.299	-17.8386	1	150.361	-6.81356	9.62306E-007	-0.224543	9
	27	58	4465.21	149.774	-19.562	1	151.046	-7.44129	9.07478E-007	-0.224535	9
	28	60	3980.93	150.087	-21.9578	1	151.685	-8.32336	8.91572E-007	-0.224519	9
	29	61	3548.18	150.532	-24.124	1	152.452	-9.10472	1.08376E-006	-0.224557	9
	30	63	3162.67	151.419	-26.7855	1	153.77	-10.0317	8.83135E-007	-0.224532	9
	31	65	2819.01	151.816	-29.7165	1	154.697	-11.0751	9.58072E-007	-0.224512	9
	32	67	2511.16	152.24	-32.6289	1	155.698	-12.0969	9.30463E-007	-0.22453	9
	33	69	2238.63	153.222	-36.2758	1	157.458	-13.3197	9.98822E-007	-0.224536	9
	34	71	1995.37	153.857	-39.9584	1	158.961	-14.5587	9.84462E-007	-0.224543	9
	35	73	1778.51	154.57	-43.9488	1	160.696	-15.872	9.55228E-007	-0.22453	9
	36	75	1584.49	155.609	-48.873	1	163.103	-17.4362	8.95041E-007	-0.224525	9
	37	77	1412.76	156.316	-53.7946	1	165.314	-18.9904	1.0247E-006	-0.224535	9
	38	79	1259.04	157.481	-59.5309	1	168.357	-20.7076	9.39604E-007	-0.224523	9
	39	81	1121.63	158.731	-65.7428	1	171.807	-22.4982	9.16166E-007	-0.224533	9
	40	83	999.95	159.619	-72.5066	1	175.315	-24.4298	9.45478E-007	-0.224524	9
	41	85	891.184	161.047	-80.6195	1	180.099	-26.5924	9.54494E-007	-0.224525	9
	42	87	794.163	162.379	-88.9578	1	185.149	-28.7158	9.24509E-007	-0.224531	9
	43	89	707.867	163.664	-98.529	1	191.034	-31.0488	8.92088E-007	-0.224515	9
	44	91	630.984	165.349	-108.839	1	197.955	-33.3545	8.78353E-007	-0.224531	9
	45	93	562.189	167.031	-121.177	1	206.357	-35.9599	7.77666E-007	-0.224507	9
	46	95	501.303	168.414	-134.242	1	215.37	-38.5581	9.76056E-007	-0.224534	9
	47	97	446.614	170.176	-148.971	1	226.169	-41.1986	9.81572E-007	-0.224522	9
	48	99	398.209	172.054	-165.295	1	238.589	-43.8522	9.70556E-007	-0.224513	9
	49	101	354.821	174.129	-183.565	1	253.016	-46.5111	9.63681E-007	-0.224519	9
	50	103	316.113	176.363	-203.966	1	269.64	-49.151	9.43446E-007	-0.224526	9
	51	105	281.926	178.76	-226.545	1	288.579	-51.724	9.31509E-007	-0.224519	9
	52	107	251.185	181.398	-251.933	1	310.444	-54.2451	9.90212E-007	-0.224518	9
	53	109	223.946	184.247	-280.094	1	335.26	-56.6629	9.99884E-007	-0.224514	9
	54	111	199.495	187.411	-311.741	1	363.738	-58.9868	9.46556E-007	-0.224519	9
	55	113	177.836	190.891	-346.869	1	395.927	-61.1748	9.31775E-007	-0.22452	9
	56	115	158.533	194.679	-386.038	1	432.349	-63.2381	9.66509E-007	-0.224518	9
	57	117	141.263	198.901	-429.92	1	473.701	-65.1726	9.22759E-007	-0.224522	9
	58	119	125.911	203.655	-478.832	1	520.342	-66.9592	9.02013E-007	-0.224526	9
	59	121	112.198	208.901	-533.498	1	572.94	-68.6163	9.22043E-007	-0.224521	9
	60	123	100.009	214.771	-594.25	1	631.87	-70.1294	9.31201E-007	-0.224523	9
	61	125	89.1164	221.253	-662.223	1	698.207	-71.5252	8.87865E-007	-0.224532	9
	62	127	79.4083	228.322	-738.108	1	772.615	-72.8114	9.01027E-007	-0.22453	9
	63	129	70.788	236.549	-822.362	1	855.707	-73.9523	9.72379E-007	-0.224528	9
	64	131	63.0971	245.614	-916.649	1	948.984	-75.0001	9.32784E-007	-0.224536	9
	65	134	54.5476	258.46	-1051.38	1	1082.68	-76.1889	9.44576E-007	-0.224523	9
	66	136	50.0083	267.362	-1140.2	1	1171.13	-76.8033	3.65559E-007	-0.22452	8
	67	138	46.1675	276.015	-1229.66	1	1260.26	-77.3489	3.35504E-007	-0.224531	8
	68	140	40.0059	293.746	-1407.41	1	1437.74	-78.2108	3.69276E-007	-0.22453	8
	69	142	35.3046	311.553	-1583.76	1	1614.12	-78.8711	3.46246E-007	-0.224527	8
	70	144	31.5793	330.171	-1759.04	1	1789.76	-79.3693	4.08257E-007	-0.224525	8
	71	146	28.5748	348.047	-1932.56	1	1963.66	-79.7907	3.7047E-007	-0.224532	8
	72	148	24.9911	376.125	-2193.17	1	2225.19	-80.2686	3.42567E-007	-0.224532	8
	73	151	22.2195	402.767	-2450.7	1	2483.57	-80.667	3.21251E-007	-0.224539	8
	74	153	20.0011	431.738	-2706.04	1	2740.27	-80.9351	3.26915E-007	-0.224528	8
	75	156	17.6486	470.497	-3045.36	1	3081.49	-81.2174	3.80081E-007	-0.224526	8
	76	158	15.7934	509.01	-3379.36	1	3417.48	-81.4343	3.39646E-007	-0.224533	8
	77	160	14.2828	548.066	-3715.81	1	3756.01	-81.6096	3.4036E-007	-0.224532	8
	78	162	12.5002	607.401	-4211.02	1	4254.6	-81.7922	3.22835E-007	-0.224521	8
	79	165	11.323	657.366	-4617.66	1	4664.21	-81.8979	3.14327E-007	-0.224525	8
	80	167	9.9987	731.58	-5193.89	1	5245.16	-81.9824	3.14048E-007	-0.224535	8
