EXPLAIN
TAG	EISPOT
TITLE	LABEL	Tomato_open	Test &Identifier
DATE	LABEL	5/16/2006	Date
TIME	LABEL	11:08:35	Time
NOTES	NOTES	1	&Notes...
	
PSTAT	PSTAT	300	Potentiostat
VDC	POTEN	1.00000E-001	T	DC &Voltage (V)
FREQINIT	QUANT	1.00000E+005	Initial Fre&q. (Hz)
FREQFINAL	QUANT	1.00000E+001	Final Fre&q. (Hz)
PTSPERDEC	QUANT	2.00000E+001	Points/&decade
VAC	QUANT	1.00000E+001	AC &Voltage (mV rms)
AREA	QUANT	1.00000E+000	&Area (cm²)
DENSITY	QUANT	7.87000E+000	&Density (gm/cm³)
EQUIV	QUANT	7.00000E+000	Equiv. &Wt
CONDIT	TWOPARAM	F	1.50000E+001	0.00000E+000	Conditionin&g	Time(s)	E(V)
DELAY	TWOPARAM	F	6.00000E+002	0.00000E+000	Init. De&lay	Time(s)	Stab.(mV/s)
SPEED	SELECTOR	1	&Optimize for:
ZGUESS	QUANT	1.00000E+002	E&stimated Z (ohms)
OCVCURVE	TABLE	39
	Pt	T	Vf	Vm	Ach	Over
	#	s	V vs. Ref.	V	V	bits
	0	0.258332	-3.92769E-001	2.73604E-006	3.66000E-005	......
	1	0.516663	-3.95570E-001	2.73604E-006	-1.63400E-004	......
	2	0.774994	-3.97869E-001	2.73604E-006	3.66000E-005	......
	3	1.03333	-3.99819E-001	2.73604E-006	-1.63400E-004	......
	4	1.29166	-4.01419E-001	2.73604E-006	3.66000E-005	......
	5	1.54999	-4.02570E-001	2.73604E-006	-1.63400E-004	......
	6	1.80832	-4.03369E-001	2.73604E-006	3.66000E-005	......
	7	2.06665	-4.03669E-001	2.73604E-006	-6.34000E-005	......
	8	2.32498	-4.03869E-001	2.73604E-006	-6.34000E-005	......
	9	2.58332	-4.03719E-001	2.73604E-006	-6.34000E-005	......
	10	2.84165	-4.03069E-001	2.73604E-006	3.66000E-005	......
	11	3.09998	-4.02269E-001	2.73604E-006	-1.63400E-004	......
	12	3.35831	-4.01569E-001	2.73604E-006	3.66000E-005	......
	13	3.61664	-4.00819E-001	2.73604E-006	-1.63400E-004	......
	14	3.87497	-3.99920E-001	2.73604E-006	3.66000E-005	......
	15	4.1333	-3.99119E-001	2.73604E-006	3.66000E-005	......
	16	4.39164	-3.98369E-001	2.73604E-006	3.66000E-005	......
	17	4.64997	-3.97469E-001	2.73604E-006	-6.34000E-005	......
	18	4.9083	-3.96719E-001	2.73604E-006	3.66000E-005	......
	19	5.16663	-3.95869E-001	2.73604E-006	-6.34000E-005	......
	20	5.42496	-3.95020E-001	2.73604E-006	3.66000E-005	......
	21	5.68329	-3.94219E-001	2.73604E-006	-6.34000E-005	......
	22	5.94162	-3.93419E-001	2.73604E-006	3.66000E-005	......
	23	6.19996	-3.92669E-001	2.73604E-006	-6.34000E-005	......
	24	6.45829	-3.92019E-001	2.73604E-006	3.66000E-005	......
	25	6.71662	-3.91270E-001	2.73604E-006	-2.63400E-004	......
	26	6.97495	-3.90619E-001	2.73604E-006	3.66000E-005	......
	27	7.23328	-3.89919E-001	2.73604E-006	3.66000E-005	......
	28	7.49161	-3.89419E-001	2.73604E-006	3.66000E-005	......
	29	7.74995	-3.88869E-001	2.73604E-006	-1.63400E-004	......
	30	8.00828	-3.88319E-001	2.73604E-006	2.36600E-004	......
	31	8.26661	-3.87919E-001	2.73604E-006	-1.63400E-004	......
	32	8.52494	-3.87519E-001	2.73604E-006	3.66000E-005	......
	33	8.78327	-3.87169E-001	2.73604E-006	-6.34000E-005	......
	34	9.0416	-3.86820E-001	2.73604E-006	-6.34000E-005	......
	35	9.29993	-3.86319E-001	2.73604E-006	-6.34000E-005	......
	36	9.5583	-3.86169E-001	2.73604E-006	2.36600E-004	......
	37	9.8166	-3.85919E-001	2.73604E-006	-3.63400E-004	......
	38	10.0749	-3.85619E-001	2.73604E-006	-1.63400E-004	......
EOC	QUANT	-0.385619	Open Circuit (V)
PSTATMODEL	IQUANT	32	Pstat Model
PSTATSECTION	LABEL	PStat0	Pstat Section
CTRLMODE	IQUANT	1	Control Mode
IESTAB	IQUANT	0	I/E Stability
CASPEED	IQUANT	1	Control Amp Speed
CONVENTION	IQUANT	1	Current Convention
ICHRANGE	IQUANT	2	Ich Range
ICHRANGEMODE	TOGGLE	F	Ich Auto Range
ICHOFFSETENABLE	TOGGLE	T	Ich Offset Enable
ICHOFFSET	QUANT	0	Ich Offset (V)
ICHFILTER	IQUANT	3	Ich Filter
VCHRANGE	IQUANT	2	Vch Range
VCHRANGEMODE	TOGGLE	F	Vch Auto Range
VCHOFFSETENABLE	TOGGLE	T	Vch Offset Enable
VCHOFFSET	QUANT	0	Vch Offset (V)
VCHFILTER	IQUANT	3	Vch Filter
ACHRANGE	IQUANT	0	Ach Range
IERANGELOWERLIMIT	IQUANT	3	I/E Range Lower Limit
IERANGEMODE	TOGGLE	F	I/E AutoRange
IERANGE	IQUANT	11	I/E Range
POSFEEDENABLE	TOGGLE	F	Positive Feedback IR Comp
POSFEEDRESISTANCE	QUANT	0	Positive Feedback Resistance (ohm)
FC350IDIVISOR	IQUANT	0	FC350 I Divisor
FC350VRANGE	IQUANT	0	FC350 V Range
FRAMEWORKVERSION	QUANT	4.35	Framework Version
ZCURVE	TABLE
	Pt	Time	Freq	Zreal	Zimag	Zsig	Zmod	Zphz	Idc	Vdc	IERange
	#	s	Hz	ohm	ohm	V	ohm	°	A	V	#
	0	4	100007	148.337	-0.222078	1	148.337	-0.085779	1.06942E-006	-0.285483	9
	1	6	89134.1	147.72	-0.464129	1	147.721	-0.18002	9.90791E-007	-0.285462	9
	2	8	79433.6	147.273	-0.761282	1	147.275	-0.296169	1.13077E-006	-0.285492	9
	3	10	70800.8	147.236	-1.2989	1	147.242	-0.505445	7.80541E-007	-0.285462	9
	4	12	63105.5	146.85	-1.18596	1	146.855	-0.462712	1.03281E-006	-0.285466	9
	5	14	56243.5	146.765	-1.89849	1	146.777	-0.741112	1.05195E-006	-0.285469	9
	6	16	50123.7	146.486	-1.96791	1	146.499	-0.769675	7.66166E-007	-0.285446	9
	7	18	44681	146.325	-2.21442	1	146.342	-0.867023	1.12824E-006	-0.285489	9
	8	20	39811.2	146.441	-2.46403	1	146.461	-0.96398	7.49963E-007	-0.285446	9
	9	22	35488.3	146.365	-3.01088	1	146.396	-1.17847	1.0506E-006	-0.285453	9
	10	24	31634.1	146.418	-3.61563	1	146.463	-1.41457	9.55744E-007	-0.285461	9
	11	26	28173.1	146.481	-4.05362	1	146.537	-1.58516	9.6576E-007	-0.285465	9
	12	28	25123.7	146.695	-4.35246	1	146.76	-1.69947	8.38056E-007	-0.285459	9
	13	29	22389.3	146.607	-4.74993	1	146.684	-1.85568	7.98838E-007	-0.285457	9
	14	31	19954.4	146.785	-5.33149	1	146.881	-2.08018	8.33947E-007	-0.285454	9
	15	33	17778.2	146.858	-6.11288	1	146.985	-2.38353	8.91806E-007	-0.285461	9
	16	35	15852.9	147.056	-6.91456	1	147.218	-2.69206	1.09759E-006	-0.285481	9
	17	37	14122.3	147.265	-7.39843	1	147.451	-2.87605	8.96431E-007	-0.285464	9
	18	39	12587.2	147.336	-8.3603	1	147.573	-3.24766	9.09275E-007	-0.285452	9
	19	41	11221.1	147.273	-9.28566	1	147.565	-3.60776	8.96526E-007	-0.285455	9
	20	43	9998.2	147.831	-10.0433	1	148.172	-3.88657	8.92775E-007	-0.285453	9
	21	45	8912.76	147.993	-11.2298	1	148.418	-4.33932	9.58119E-007	-0.285467	9
	22	47	7942.6	148.291	-12.3492	1	148.805	-4.76043	8.61713E-007	-0.285448	9
	23	49	7078.05	148.52	-13.3869	1	149.122	-5.15048	8.77103E-007	-0.285458	9
	24	51	6311.1	148.835	-14.637	1	149.553	-5.61662	9.44119E-007	-0.28545	9
	25	53	5622.14	149.312	-16.5191	1	150.223	-6.31321	8.74119E-007	-0.285458	9
	26	55	5011.18	149.219	-18.2793	1	150.335	-6.9839	8.27291E-007	-0.285449	9
	27	57	4465.21	149.937	-20.3014	1	151.305	-7.71096	8.87041E-007	-0.285452	9
	28	59	3980.93	150.14	-22.2846	1	151.784	-8.44256	1.0536E-006	-0.285468	9
	29	61	3548.18	150.675	-24.6507	1	152.678	-9.29136	9.37854E-007	-0.285458	9
	30	63	3162.67	151.173	-27.2202	1	153.604	-10.2073	8.55181E-007	-0.285441	9
	31	65	2819.01	151.799	-30.2493	1	154.783	-11.2698	7.62525E-007	-0.285448	9
	32	67	2511.16	152.228	-33.3811	1	155.845	-12.3682	9.10478E-007	-0.285457	9
	33	69	2238.63	152.944	-37.032	1	157.363	-13.611	8.27369E-007	-0.285459	9
	34	71	1995.37	153.783	-40.8776	1	159.123	-14.8858	8.73259E-007	-0.285452	9
	35	73	1778.51	154.634	-45.0433	1	161.06	-16.2403	8.46681E-007	-0.285444	9
	36	75	1584.49	155.414	-49.9766	1	163.252	-17.8263	8.57291E-007	-0.285453	9
	37	77	1412.76	156.296	-55.1138	1	165.729	-19.4239	7.55057E-007	-0.28544	9
	38	79	1259.04	157.349	-60.9252	1	168.733	-21.1662	8.00759E-007	-0.285445	9
	39	81	1121.63	158.06	-67.3394	1	171.807	-23.0758	9.1054E-007	-0.285446	9
	40	83	999.95	159.178	-74.5495	1	175.771	-25.0956	8.37307E-007	-0.285454	9
	41	85	891.184	160.538	-82.727	1	180.6	-27.2625	8.15931E-007	-0.28545	9
	42	87	794.163	162.021	-91.6013	1	186.123	-29.4824	7.85697E-007	-0.285453	9
	43	89	707.867	163.53	-101.68	1	192.564	-31.8724	8.95619E-007	-0.285448	9
	44	91	630.984	164.605	-112.209	1	199.213	-34.2819	8.05603E-007	-0.285449	9
	45	93	562.189	166.33	-124.641	1	207.849	-36.8463	6.38697E-007	-0.285433	9
	46	95	501.303	167.993	-138.051	1	217.439	-39.4123	9.16525E-007	-0.285448	9
	47	97	446.614	169.692	-153.252	1	228.651	-42.0858	8.699E-007	-0.285452	9
	48	99	398.209	171.518	-170.106	1	241.567	-44.7632	8.80166E-007	-0.285449	9
	49	101	354.821	173.505	-188.936	1	256.517	-47.4378	8.39946E-007	-0.285452	9
	50	103	316.113	175.649	-210.018	1	273.788	-50.0925	8.78509E-007	-0.285447	9
	51	105	281.926	177.939	-233.324	1	293.432	-52.6698	8.22197E-007	-0.285446	9
	52	107	251.185	180.453	-259.563	1	316.127	-55.1922	8.66337E-007	-0.285439	9
	53	109	223.946	183.219	-288.641	1	341.882	-57.5941	8.00603E-007	-0.285447	9
	54	111	199.495	186.261	-321.389	1	371.462	-59.9056	8.40025E-007	-0.285442	9
	55	113	177.836	189.509	-357.732	1	404.828	-62.0875	8.50462E-007	-0.285438	9
	56	115	158.533	193.092	-398.279	1	442.618	-64.1352	8.57243E-007	-0.285442	9
	57	117	141.263	197.073	-443.655	1	485.456	-66.0491	8.15994E-007	-0.285439	9
	58	119	125.911	201.562	-494.229	1	533.75	-67.8128	7.96449E-007	-0.285442	9
	59	121	112.198	206.476	-550.86	1	588.284	-69.4528	8.35805E-007	-0.285437	9
	60	123	100.009	211.894	-613.73	1	649.28	-70.9524	7.72135E-007	-0.285451	9
	61	125	89.1164	217.998	-684.325	1	718.209	-72.3302	8.27234E-007	-0.285444	9
	62	127	79.4083	224.644	-763.017	1	795.399	-73.5948	7.85227E-007	-0.285448	9
	63	129	70.788	232.231	-850.554	1	881.687	-74.7285	8.46794E-007	-0.285445	9
	64	131	63.0971	240.772	-948.092	1	978.19	-75.7507	7.41249E-007	-0.285452	9
	65	133	54.5476	252.757	-1088.3	1	1117.27	-76.9249	8.2821E-007	-0.285448	9
	66	135	50.0083	260.609	-1180.77	1	1209.19	-77.5538	2.38315E-007	-0.285439	8
	67	137	46.1675	268.813	-1273.41	1	1301.48	-78.0801	2.08124E-007	-0.285453	8
	68	139	40.0059	284.968	-1458.77	1	1486.34	-78.9465	2.2211E-007	-0.285444	8
	69	142	35.3046	301.518	-1642.41	1	1669.85	-79.5973	1.93204E-007	-0.28545	8
	70	144	31.5793	317.597	-1825.38	1	1852.8	-80.1299	2.51543E-007	-0.285449	8
	71	146	28.5748	334.499	-2006.52	1	2034.21	-80.5355	2.40323E-007	-0.285445	8
	72	148	24.9911	360.78	-2279.37	1	2307.75	-81.0058	2.21359E-007	-0.28545	8
	73	150	22.2195	386.066	-2547.85	1	2576.93	-81.3837	1.86365E-007	-0.285443	8
	74	153	20.0011	411.739	-2815.53	1	2845.48	-81.6801	1.84588E-007	-0.285448	8
	75	155	17.6486	448.044	-3168.26	1	3199.78	-81.9508	2.21448E-007	-0.285448	8
	76	157	15.7934	481.948	-3521.2	1	3554.02	-82.2063	1.99093E-007	-0.28545	8
	77	159	14.2828	519.908	-3870.14	1	3904.9	-82.3488	1.95757E-007	-0.285452	8
	78	162	12.5002	573.396	-4394.89	1	4432.13	-82.5667	1.70059E-007	-0.285454	8
	79	164	11.323	619.692	-4822.18	1	4861.83	-82.6771	1.66112E-007	-0.28545	8
	80	167	9.9987	689.532	-5425.16	1	5468.8	-82.7566	1.64951E-007	-0.285448	8
