EXPLAIN
TAG	EISPOT
TITLE	LABEL	Tomato_open	Test &Identifier
DATE	LABEL	5/16/2006	Date
TIME	LABEL	9:47:06	Time
NOTES	NOTES	1	&Notes...
	
PSTAT	PSTAT	300	Potentiostat
VDC	POTEN	1.00000E-001	T	DC &Voltage (V)
FREQINIT	QUANT	1.00000E+005	Initial Fre&q. (Hz)
FREQFINAL	QUANT	1.00000E+001	Final Fre&q. (Hz)
PTSPERDEC	QUANT	2.00000E+001	Points/&decade
VAC	QUANT	1.00000E+001	AC &Voltage (mV rms)
AREA	QUANT	1.00000E+000	&Area (cm²)
DENSITY	QUANT	7.87000E+000	&Density (gm/cm³)
EQUIV	QUANT	7.00000E+000	Equiv. &Wt
CONDIT	TWOPARAM	F	1.50000E+001	0.00000E+000	Conditionin&g	Time(s)	E(V)
DELAY	TWOPARAM	F	6.00000E+002	0.00000E+000	Init. De&lay	Time(s)	Stab.(mV/s)
SPEED	SELECTOR	1	&Optimize for:
ZGUESS	QUANT	1.00000E+002	E&stimated Z (ohms)
OCVCURVE	TABLE	39
	Pt	T	Vf	Vm	Ach	Over
	#	s	V vs. Ref.	V	V	bits
	0	0.258332	-5.28719E-001	3.03824E-006	-1.63400E-004	......
	1	0.516663	-5.29619E-001	3.03824E-006	3.66000E-005	......
	2	0.774994	-5.29669E-001	3.03824E-006	-1.63400E-004	......
	3	1.03333	-5.27819E-001	3.03824E-006	1.36600E-004	......
	4	1.29166	-5.27869E-001	3.03824E-006	-1.63400E-004	......
	5	1.54999	-5.28769E-001	3.03824E-006	3.66000E-005	......
	6	1.80832	-5.29469E-001	3.03824E-006	-6.34000E-005	......
	7	2.06665	-5.27819E-001	3.03824E-006	-6.34000E-005	......
	8	2.32498	-5.27819E-001	3.03824E-006	-6.34000E-005	......
	9	2.58332	-5.29069E-001	3.03824E-006	3.66000E-005	......
	10	2.84165	-5.29769E-001	3.03824E-006	-6.34000E-005	......
	11	3.09998	-5.27470E-001	3.03824E-006	3.66000E-005	......
	12	3.35831	-5.27669E-001	3.03824E-006	-6.34000E-005	......
	13	3.61664	-5.29269E-001	3.03824E-006	2.36600E-004	......
	14	3.87497	-5.29219E-001	3.03824E-006	-1.63400E-004	......
	15	4.1333	-5.28569E-001	3.03824E-006	3.66000E-005	......
	16	4.39164	-5.29519E-001	3.03824E-006	-6.34000E-005	......
	17	4.64997	-5.31969E-001	3.03824E-006	-6.34000E-005	......
	18	4.9083	-5.32420E-001	3.03824E-006	-1.63400E-004	......
	19	5.16663	-5.32119E-001	3.03824E-006	3.66000E-005	......
	20	5.42496	-5.33719E-001	3.03824E-006	-1.63400E-004	......
	21	5.68329	-5.35169E-001	3.03824E-006	1.36600E-004	......
	22	5.94162	-5.34019E-001	3.03824E-006	-6.34000E-005	......
	23	6.19996	-5.33170E-001	3.03824E-006	1.36600E-004	......
	24	6.45829	-5.34819E-001	3.03824E-006	-1.63400E-004	......
	25	6.71662	-5.34320E-001	3.03824E-006	3.66000E-005	......
	26	6.97495	-5.30919E-001	3.03824E-006	-6.34000E-005	......
	27	7.23328	-5.30419E-001	3.03824E-006	3.66000E-005	......
	28	7.49161	-5.34369E-001	3.03824E-006	-6.34000E-005	......
	29	7.74995	-5.32669E-001	3.03824E-006	1.36600E-004	......
	30	8.00828	-5.30169E-001	3.03824E-006	-1.63400E-004	......
	31	8.26661	-5.29369E-001	3.03824E-006	2.36600E-004	......
	32	8.52494	-5.31119E-001	3.03824E-006	-6.34000E-005	......
	33	8.78327	-5.33419E-001	3.03824E-006	3.66000E-005	......
	34	9.0416	-5.31819E-001	3.03824E-006	3.66000E-005	......
	35	9.29993	-5.31819E-001	3.03824E-006	3.66000E-005	......
	36	9.5583	-5.32869E-001	3.03824E-006	-1.63400E-004	......
	37	9.8166	-5.34769E-001	3.03824E-006	1.36600E-004	......
	38	10.0749	-5.35869E-001	3.03824E-006	-6.34000E-005	......
EOC	QUANT	-0.535869	Open Circuit (V)
PSTATMODEL	IQUANT	32	Pstat Model
PSTATSECTION	LABEL	PStat0	Pstat Section
CTRLMODE	IQUANT	1	Control Mode
IESTAB	IQUANT	0	I/E Stability
CASPEED	IQUANT	1	Control Amp Speed
CONVENTION	IQUANT	1	Current Convention
ICHRANGE	IQUANT	2	Ich Range
ICHRANGEMODE	TOGGLE	F	Ich Auto Range
ICHOFFSETENABLE	TOGGLE	T	Ich Offset Enable
ICHOFFSET	QUANT	0	Ich Offset (V)
ICHFILTER	IQUANT	3	Ich Filter
VCHRANGE	IQUANT	2	Vch Range
VCHRANGEMODE	TOGGLE	F	Vch Auto Range
VCHOFFSETENABLE	TOGGLE	T	Vch Offset Enable
VCHOFFSET	QUANT	0	Vch Offset (V)
VCHFILTER	IQUANT	3	Vch Filter
ACHRANGE	IQUANT	0	Ach Range
IERANGELOWERLIMIT	IQUANT	3	I/E Range Lower Limit
IERANGEMODE	TOGGLE	F	I/E AutoRange
IERANGE	IQUANT	11	I/E Range
POSFEEDENABLE	TOGGLE	F	Positive Feedback IR Comp
POSFEEDRESISTANCE	QUANT	0	Positive Feedback Resistance (ohm)
FC350IDIVISOR	IQUANT	0	FC350 I Divisor
FC350VRANGE	IQUANT	0	FC350 V Range
FRAMEWORKVERSION	QUANT	4.35	Framework Version
ZCURVE	TABLE
	Pt	Time	Freq	Zreal	Zimag	Zsig	Zmod	Zphz	Idc	Vdc	IERange
	#	s	Hz	ohm	ohm	V	ohm	°	A	V	#
	0	4	100007	150.023	-0.28377	1	150.024	-0.108375	1.12724E-006	-0.43555	9
	1	6	89134.1	149.251	-0.946205	1	149.254	-0.363232	1.18665E-006	-0.43557	9
	2	8	79433.6	148.996	-1.14198	1	149	-0.439136	1.18623E-006	-0.435569	9
	3	10	70800.8	148.628	-1.13226	1	148.633	-0.436475	1.31056E-006	-0.435578	9
	4	12	63105.5	148.453	-1.44567	1	148.46	-0.557943	1.34759E-006	-0.435578	9
	5	14	56243.5	148.524	-2.09166	1	148.539	-0.806843	1.22056E-006	-0.435579	9
	6	16	50123.7	148.181	-2.44537	1	148.201	-0.94544	1.31921E-006	-0.435622	9
	7	18	44681	148.265	-2.92496	1	148.294	-1.13018	1.26923E-006	-0.435608	9
	8	20	39811.2	148.103	-3.17188	1	148.137	-1.2269	1.37851E-006	-0.435618	9
	9	22	35488.3	148.148	-3.55159	1	148.191	-1.3733	1.29359E-006	-0.435575	9
	10	24	31634.1	148.225	-3.93199	1	148.277	-1.51954	1.35099E-006	-0.435614	9
	11	26	28173.1	148.293	-4.54841	1	148.362	-1.75682	1.26135E-006	-0.435578	9
	12	28	25123.7	148.475	-5.03456	1	148.56	-1.94207	1.34063E-006	-0.435616	9
	13	30	22389.3	148.516	-5.57116	1	148.62	-2.14829	1.11182E-006	-0.435566	9
	14	32	19954.4	148.603	-6.13184	1	148.73	-2.36287	1.09635E-006	-0.435576	9
	15	34	17778.2	148.635	-6.75197	1	148.788	-2.60096	1.21532E-006	-0.435579	9
	16	36	15852.9	149.07	-7.45628	1	149.257	-2.86347	1.34292E-006	-0.435576	9
	17	38	14122.3	149.203	-8.21391	1	149.429	-3.15106	1.20898E-006	-0.435581	9
	18	40	12587.2	149.256	-9.21235	1	149.54	-3.53192	1.21212E-006	-0.435581	9
	19	42	11221.1	149.586	-10.0822	1	149.925	-3.85597	1.20815E-006	-0.435573	9
	20	44	9998.2	149.74	-11.0451	1	150.146	-4.21862	1.19945E-006	-0.435594	9
	21	46	8912.76	150.075	-12.1403	1	150.565	-4.62485	1.30074E-006	-0.435595	9
	22	48	7942.6	150.42	-13.1945	1	150.998	-5.01303	1.1597E-006	-0.435596	9
	23	50	7078.05	150.6	-14.4979	1	151.296	-5.49877	1.20128E-006	-0.435594	9
	24	52	6311.1	151.129	-16.3112	1	152.007	-6.16003	1.23579E-006	-0.435592	9
	25	54	5622.14	151.459	-17.8952	1	152.512	-6.7384	1.26181E-006	-0.435591	9
	26	56	5011.18	151.809	-19.6112	1	153.07	-7.36092	1.24224E-006	-0.435593	9
	27	58	4465.21	152.053	-21.7768	1	153.604	-8.15041	1.21545E-006	-0.435599	9
	28	59	3980.93	152.542	-24.1658	1	154.444	-9.00205	1.15487E-006	-0.435589	9
	29	61	3548.18	152.948	-26.5192	1	155.23	-9.8366	1.07776E-006	-0.435582	9
	30	63	3162.67	153.509	-29.445	1	156.307	-10.8582	1.23532E-006	-0.435619	9
	31	65	2819.01	154.212	-32.3556	1	157.569	-11.8495	1.19463E-006	-0.435599	9
	32	67	2511.16	154.81	-35.6461	1	158.861	-12.9668	1.23288E-006	-0.435603	9
	33	69	2238.63	155.226	-39.4776	1	160.168	-14.2691	1.19535E-006	-0.435599	9
	34	71	1995.37	156.145	-43.5502	1	162.104	-15.5843	1.16942E-006	-0.435596	9
	35	73	1778.51	157.073	-48.4543	1	164.377	-17.1441	1.17813E-006	-0.435612	9
	36	75	1584.49	158.084	-53.0592	1	166.751	-18.5538	1.2176E-006	-0.435598	9
	37	77	1412.76	158.619	-59.0749	1	169.262	-20.427	1.19485E-006	-0.435615	9
	38	79	1259.04	159.981	-65.0806	1	172.712	-22.1366	1.24563E-006	-0.435602	9
	39	81	1121.63	160.574	-72.2472	1	176.079	-24.2244	1.22487E-006	-0.435598	9
	40	83	999.95	161.785	-79.8949	1	180.437	-26.2817	1.24476E-006	-0.435607	9
	41	85	891.184	163.014	-88.46	1	185.469	-28.4867	1.26768E-006	-0.435615	9
	42	87	794.163	164.23	-97.881	1	191.186	-30.795	1.27271E-006	-0.435601	9
	43	89	707.867	165.432	-108.333	1	197.747	-33.2187	1.00849E-006	-0.435582	9
	44	91	630.984	166.812	-120.389	1	205.718	-35.8181	1.13906E-006	-0.435591	9
	45	93	562.189	168.218	-133.768	1	214.922	-38.492	1.2382E-006	-0.435596	9
	46	95	501.303	170.332	-148.218	1	225.791	-41.0289	1.20837E-006	-0.435602	9
	47	97	446.614	172.008	-164.668	1	238.122	-43.751	1.21318E-006	-0.435599	9
	48	99	398.209	173.803	-182.93	1	252.33	-46.4655	1.20176E-006	-0.435595	9
	49	101	354.821	175.796	-203.38	1	268.826	-49.1607	1.27992E-006	-0.43559	9
	50	103	316.113	177.968	-226.238	1	287.847	-51.81	1.27999E-006	-0.435599	9
	51	105	281.926	180.288	-251.535	1	309.473	-54.3689	1.25292E-006	-0.435603	9
	52	107	251.185	182.857	-280.037	1	334.451	-56.8565	1.24277E-006	-0.435608	9
	53	109	223.946	185.655	-311.64	1	362.75	-59.2163	1.28017E-006	-0.435598	9
	54	111	199.495	188.735	-347.241	1	395.218	-61.4747	1.24417E-006	-0.435604	9
	55	113	177.836	192.136	-386.641	1	431.749	-63.5755	1.2382E-006	-0.435607	9
	56	115	158.533	195.885	-430.744	1	473.193	-65.5459	1.22927E-006	-0.435612	9
	57	117	141.263	200.047	-480.136	1	520.144	-67.3811	1.16972E-006	-0.435614	9
	58	119	125.911	204.72	-535.111	1	572.935	-69.0644	1.22105E-006	-0.43561	9
	59	121	112.198	209.835	-596.655	1	632.477	-70.624	1.22016E-006	-0.435602	9
	60	123	100.009	215.528	-665.149	1	699.196	-72.0461	1.24183E-006	-0.435602	9
	61	125	89.1164	221.911	-741.806	1	774.288	-73.3455	1.18839E-006	-0.43561	9
	62	127	79.4083	229.022	-827.491	1	858.599	-74.5297	1.25832E-006	-0.435604	9
	63	129	70.788	237.237	-922.65	1	952.66	-75.5801	1.26254E-006	-0.435597	9
	64	131	63.0971	246.119	-1029.23	1	1058.24	-76.5514	1.21826E-006	-0.435599	9
	65	133	54.5476	259.171	-1180.56	1	1208.67	-77.6181	6.75504E-007	-0.435603	8
	66	135	50.0083	267.539	-1282.29	1	1309.91	-78.2148	6.02135E-007	-0.435602	8
	67	138	46.1675	276.597	-1383.8	1	1411.17	-78.6965	5.83562E-007	-0.435609	8
	68	140	40.0059	294.292	-1584.99	1	1612.08	-79.4814	6.16098E-007	-0.435606	8
	69	142	35.3046	313.443	-1785.22	1	1812.52	-80.0417	6.21712E-007	-0.435608	8
	70	144	31.5793	331.847	-1985.21	1	2012.76	-80.5102	6.53276E-007	-0.435604	8
	71	146	28.5748	350.734	-2183.2	1	2211.19	-80.8733	6.39037E-007	-0.435612	8
	72	148	24.9911	379.155	-2478.62	1	2507.45	-81.3029	6.04634E-007	-0.435605	8
	73	150	22.2195	410.265	-2772.97	1	2803.15	-81.584	6.47677E-007	-0.435599	8
	74	153	20.0011	439.163	-3064.69	1	3095.99	-81.8451	5.9044E-007	-0.435604	8
	75	155	17.6486	484.626	-3449.81	1	3483.69	-82.0035	6.75643E-007	-0.4356	8
	76	157	15.7934	527.261	-3833.47	1	3869.56	-82.1686	6.39095E-007	-0.435604	8
	77	160	14.2828	570.361	-4218.11	1	4256.49	-82.2993	6.43892E-007	-0.43561	8
	78	162	12.5002	637.022	-4785.34	1	4827.55	-82.4174	6.03584E-007	-0.435609	8
	79	164	11.323	702.288	-5259.43	1	5306.11	-82.3943	6.18369E-007	-0.435604	8
	80	167	9.9987	785.204	-5911	1	5962.92	-82.4333	6.14875E-007	-0.435602	8
