EXPLAIN
TAG	EISPOT
TITLE	LABEL	Tomato_open	Test &Identifier
DATE	LABEL	5/16/2006	Date
TIME	LABEL	9:42:34	Time
NOTES	NOTES	1	&Notes...
	
PSTAT	PSTAT	300	Potentiostat
VDC	POTEN	1.00000E-001	T	DC &Voltage (V)
FREQINIT	QUANT	1.00000E+005	Initial Fre&q. (Hz)
FREQFINAL	QUANT	1.00000E+001	Final Fre&q. (Hz)
PTSPERDEC	QUANT	2.00000E+001	Points/&decade
VAC	QUANT	1.00000E+001	AC &Voltage (mV rms)
AREA	QUANT	1.00000E+000	&Area (cm²)
DENSITY	QUANT	7.87000E+000	&Density (gm/cm³)
EQUIV	QUANT	7.00000E+000	Equiv. &Wt
CONDIT	TWOPARAM	F	1.50000E+001	0.00000E+000	Conditionin&g	Time(s)	E(V)
DELAY	TWOPARAM	F	6.00000E+002	0.00000E+000	Init. De&lay	Time(s)	Stab.(mV/s)
SPEED	SELECTOR	1	&Optimize for:
ZGUESS	QUANT	1.00000E+002	E&stimated Z (ohms)
OCVCURVE	TABLE	39
	Pt	T	Vf	Vm	Ach	Over
	#	s	V vs. Ref.	V	V	bits
	0	0.258332	-5.26719E-001	3.37704E-006	-6.34000E-005	......
	1	0.516663	-5.26569E-001	3.37704E-006	-6.34000E-005	......
	2	0.774994	-5.23019E-001	3.37704E-006	-1.63400E-004	......
	3	1.03333	-5.20970E-001	3.37704E-006	3.66000E-005	......
	4	1.29166	-5.23319E-001	3.37704E-006	-1.63400E-004	......
	5	1.54999	-5.25620E-001	3.37704E-006	3.66000E-005	......
	6	1.80832	-5.26569E-001	3.37704E-006	-1.63400E-004	......
	7	2.06665	-5.26069E-001	3.37704E-006	3.66000E-005	......
	8	2.32498	-5.24119E-001	3.37704E-006	-1.63400E-004	......
	9	2.58332	-5.25720E-001	3.37704E-006	3.66000E-005	......
	10	2.84165	-5.24369E-001	3.37704E-006	-6.34000E-005	......
	11	3.09998	-5.21069E-001	3.37704E-006	3.66000E-005	......
	12	3.35831	-5.21769E-001	3.37704E-006	-6.34000E-005	......
	13	3.61664	-5.23669E-001	3.37704E-006	-6.34000E-005	......
	14	3.87497	-5.24619E-001	3.37704E-006	-6.34000E-005	......
	15	4.1333	-5.24570E-001	3.37704E-006	3.66000E-005	......
	16	4.39164	-5.24669E-001	3.37704E-006	-6.34000E-005	......
	17	4.64997	-5.24769E-001	3.37704E-006	3.66000E-005	......
	18	4.9083	-5.24669E-001	3.37704E-006	-1.63400E-004	......
	19	5.16663	-5.24719E-001	3.37704E-006	-6.34000E-005	......
	20	5.42496	-5.24619E-001	3.37704E-006	-6.34000E-005	......
	21	5.68329	-5.24870E-001	3.37704E-006	3.66000E-005	......
	22	5.94162	-5.24469E-001	3.37704E-006	-1.63400E-004	......
	23	6.19996	-5.24319E-001	3.37704E-006	3.66000E-005	......
	24	6.45829	-5.24969E-001	3.37704E-006	3.66000E-005	......
	25	6.71662	-5.22469E-001	3.37704E-006	1.36600E-004	......
	26	6.97495	-5.20619E-001	3.37704E-006	-1.63400E-004	......
	27	7.23328	-5.20619E-001	3.37704E-006	-6.34000E-005	......
	28	7.49161	-5.17969E-001	3.37704E-006	-2.63400E-004	......
	29	7.74995	-5.17320E-001	3.37704E-006	2.36600E-004	......
	30	8.00828	-5.17619E-001	3.37704E-006	-1.63400E-004	......
	31	8.26661	-5.17869E-001	3.37704E-006	1.36600E-004	......
	32	8.52494	-5.18369E-001	3.37704E-006	-1.63400E-004	......
	33	8.78327	-5.19769E-001	3.37704E-006	3.66000E-005	......
	34	9.0416	-5.20920E-001	3.37704E-006	-1.63400E-004	......
	35	9.29993	-5.20369E-001	3.37704E-006	3.66000E-005	......
	36	9.5583	-5.19969E-001	3.37704E-006	-6.34000E-005	......
	37	9.8166	-5.21069E-001	3.37704E-006	3.66000E-005	......
	38	10.0749	-5.20920E-001	3.37704E-006	-1.63400E-004	......
EOC	QUANT	-0.52092	Open Circuit (V)
PSTATMODEL	IQUANT	32	Pstat Model
PSTATSECTION	LABEL	PStat0	Pstat Section
CTRLMODE	IQUANT	1	Control Mode
IESTAB	IQUANT	0	I/E Stability
CASPEED	IQUANT	1	Control Amp Speed
CONVENTION	IQUANT	1	Current Convention
ICHRANGE	IQUANT	2	Ich Range
ICHRANGEMODE	TOGGLE	F	Ich Auto Range
ICHOFFSETENABLE	TOGGLE	T	Ich Offset Enable
ICHOFFSET	QUANT	0	Ich Offset (V)
ICHFILTER	IQUANT	3	Ich Filter
VCHRANGE	IQUANT	2	Vch Range
VCHRANGEMODE	TOGGLE	F	Vch Auto Range
VCHOFFSETENABLE	TOGGLE	T	Vch Offset Enable
VCHOFFSET	QUANT	0	Vch Offset (V)
VCHFILTER	IQUANT	3	Vch Filter
ACHRANGE	IQUANT	0	Ach Range
IERANGELOWERLIMIT	IQUANT	3	I/E Range Lower Limit
IERANGEMODE	TOGGLE	F	I/E AutoRange
IERANGE	IQUANT	11	I/E Range
POSFEEDENABLE	TOGGLE	F	Positive Feedback IR Comp
POSFEEDRESISTANCE	QUANT	0	Positive Feedback Resistance (ohm)
FC350IDIVISOR	IQUANT	0	FC350 I Divisor
FC350VRANGE	IQUANT	0	FC350 V Range
FRAMEWORKVERSION	QUANT	4.35	Framework Version
ZCURVE	TABLE
	Pt	Time	Freq	Zreal	Zimag	Zsig	Zmod	Zphz	Idc	Vdc	IERange
	#	s	Hz	ohm	ohm	V	ohm	°	A	V	#
	0	4	100007	150.297	-0.316129	1	150.298	-0.120513	1.46893E-006	-0.420859	9
	1	6	89134.1	149.828	-0.703179	1	149.83	-0.2689	1.1132E-006	-0.420844	9
	2	8	79433.6	149.235	-1.14147	1	149.24	-0.438234	1.26881E-006	-0.420845	9
	3	10	70800.8	149.283	-1.45106	1	149.29	-0.55691	1.1376E-006	-0.420871	9
	4	12	63105.5	149.013	-1.68441	1	149.023	-0.64763	1.36353E-006	-0.420864	9
	5	14	56243.5	148.96	-2.18686	1	148.976	-0.841092	1.33831E-006	-0.420857	9
	6	16	50123.7	148.736	-2.50974	1	148.757	-0.96671	9.56931E-007	-0.420841	9
	7	18	44681	148.702	-2.81155	1	148.729	-1.08318	1.27188E-006	-0.420867	9
	8	20	39811.2	148.377	-3.23828	1	148.412	-1.25027	1.39473E-006	-0.420874	9
	9	22	35488.3	148.832	-3.69015	1	148.877	-1.42031	1.28296E-006	-0.42086	9
	10	24	31634.1	148.681	-4.00269	1	148.735	-1.5421	1.24259E-006	-0.420842	9
	11	26	28173.1	148.79	-4.43478	1	148.856	-1.70723	1.18692E-006	-0.420845	9
	12	28	25123.7	148.631	-4.94565	1	148.714	-1.90579	1.04571E-006	-0.420833	9
	13	30	22389.3	149.008	-5.51271	1	149.11	-2.11875	1.19713E-006	-0.420839	9
	14	32	19954.4	149.172	-6.22971	1	149.302	-2.39139	1.23795E-006	-0.420833	9
	15	34	17778.2	149.321	-6.84855	1	149.477	-2.62602	1.25618E-006	-0.420852	9
	16	36	15852.9	149.52	-7.43808	1	149.704	-2.84792	1.11642E-006	-0.420835	9
	17	38	14122.3	149.691	-8.17053	1	149.914	-3.12426	1.25346E-006	-0.420847	9
	18	40	12587.2	149.822	-8.90488	1	150.087	-3.40145	1.19357E-006	-0.420843	9
	19	41	11221.1	150.092	-9.9889	1	150.424	-3.80753	1.22345E-006	-0.420851	9
	20	43	9998.2	150.455	-11.0179	1	150.858	-4.18833	1.25296E-006	-0.420846	9
	21	45	8912.76	150.61	-12.0779	1	151.094	-4.58491	1.0854E-006	-0.420842	9
	22	47	7942.6	150.961	-13.4937	1	151.563	-5.10783	1.2279E-006	-0.42086	9
	23	49	7078.05	151.156	-14.6213	1	151.861	-5.52504	1.2699E-006	-0.420854	9
	24	51	6311.1	151.473	-15.9816	1	152.314	-6.0229	1.28757E-006	-0.420851	9
	25	53	5622.14	151.802	-17.8585	1	152.849	-6.70963	1.20259E-006	-0.420846	9
	26	55	5011.18	152.306	-19.7337	1	153.579	-7.38245	1.29535E-006	-0.420846	9
	27	57	4465.21	152.773	-21.829	1	154.325	-8.13169	1.25503E-006	-0.420847	9
	28	59	3980.93	153.167	-23.922	1	155.024	-8.87689	1.25284E-006	-0.420857	9
	29	61	3548.18	153.721	-26.3831	1	155.969	-9.7388	1.15401E-006	-0.420847	9
	30	63	3162.67	154.046	-29.2647	1	156.801	-10.7566	1.06984E-006	-0.420846	9
	31	65	2819.01	154.692	-32.2551	1	158.019	-11.7781	1.33167E-006	-0.420873	9
	32	67	2511.16	155.302	-35.9053	1	159.399	-13.0179	1.22857E-006	-0.420842	9
	33	69	2238.63	156.395	-39.4942	1	161.305	-14.1725	1.28749E-006	-0.420851	9
	34	71	1995.37	157.014	-43.5818	1	162.95	-15.5129	1.25265E-006	-0.420856	9
	35	73	1778.51	157.624	-47.9254	1	164.749	-16.9118	1.29176E-006	-0.420852	9
	36	75	1584.49	158.38	-52.9901	1	167.009	-18.499	1.26667E-006	-0.420838	9
	37	77	1412.76	159.462	-58.807	1	169.96	-20.2431	1.19807E-006	-0.420833	9
	38	79	1259.04	160.199	-65.0029	1	172.885	-22.0855	1.31781E-006	-0.42084	9
	39	81	1121.63	161.12	-71.9965	1	176.474	-24.0774	1.29574E-006	-0.420838	9
	40	83	999.95	162.659	-79.6312	1	181.105	-26.0845	1.26084E-006	-0.420839	9
	41	85	891.184	163.725	-88.0995	1	185.923	-28.2845	1.24253E-006	-0.420835	9
	42	87	794.163	165.163	-97.742	1	191.917	-30.6168	1.28134E-006	-0.420845	9
	43	89	707.867	166.363	-108.124	1	198.412	-33.0211	1.26976E-006	-0.420863	9
	44	91	630.984	167.579	-120.015	1	206.122	-35.6093	1.25643E-006	-0.420858	9
	45	93	562.189	169.157	-133.107	1	215.248	-38.1986	1.25902E-006	-0.420845	9
	46	95	501.303	170.895	-147.729	1	225.896	-40.8416	1.36953E-006	-0.420848	9
	47	97	446.614	172.581	-164.147	1	238.177	-43.5652	1.32581E-006	-0.420856	9
	48	99	398.209	174.395	-182.341	1	252.313	-46.276	1.32474E-006	-0.420862	9
	49	101	354.821	176.383	-202.711	1	268.706	-48.9729	1.35242E-006	-0.420857	9
	50	103	316.113	178.533	-225.515	1	287.63	-51.6325	1.39206E-006	-0.420852	9
	51	105	281.926	180.866	-250.719	1	309.148	-54.1938	1.34657E-006	-0.420855	9
	52	107	251.185	183.434	-279.093	1	333.978	-56.6852	1.32532E-006	-0.420856	9
	53	109	223.946	186.226	-310.592	1	362.143	-59.0538	1.29617E-006	-0.420856	9
	54	111	199.495	189.34	-346.047	1	394.459	-61.3146	1.33224E-006	-0.420856	9
	55	113	177.836	192.704	-385.361	1	430.857	-63.4321	1.35185E-006	-0.420852	9
	56	115	158.533	196.394	-429.233	1	472.029	-65.4137	1.38379E-006	-0.420851	9
	57	117	141.263	200.669	-478.47	1	518.847	-67.247	1.34581E-006	-0.420851	9
	58	119	125.911	205.271	-533.275	1	571.418	-68.947	1.35677E-006	-0.420856	9
	59	121	112.198	210.432	-594.612	1	630.75	-70.5113	1.36658E-006	-0.420858	9
	60	123	100.009	216.141	-662.888	1	697.235	-71.941	1.30824E-006	-0.420858	9
	61	125	89.1164	222.48	-739.278	1	772.029	-73.2512	1.30736E-006	-0.420857	9
	62	127	79.4083	229.736	-824.693	1	856.095	-74.4337	1.37633E-006	-0.420849	9
	63	129	70.788	237.816	-919.654	1	949.906	-75.5014	1.34763E-006	-0.420853	9
	64	131	63.0971	246.917	-1025.52	1	1054.83	-76.4625	1.30899E-006	-0.420852	9
	65	133	54.5476	259.742	-1176.61	1	1204.94	-77.5514	8.07238E-007	-0.420853	8
	66	135	50.0083	268.68	-1277.98	1	1305.92	-78.1271	7.53012E-007	-0.420847	8
	67	138	46.1675	277.243	-1377.56	1	1405.18	-78.6209	7.55088E-007	-0.420856	8
	68	140	40.0059	296.107	-1579.8	1	1607.31	-79.384	7.92395E-007	-0.420849	8
	69	142	35.3046	314.405	-1778.27	1	1805.85	-79.9735	7.72978E-007	-0.420847	8
	70	144	31.5793	334.619	-1977.88	1	2005.99	-80.3976	8.91995E-007	-0.420845	8
	71	146	28.5748	352.924	-2174.72	1	2203.17	-80.7821	8.65295E-007	-0.420846	8
	72	148	24.9911	384.04	-2470.09	1	2499.76	-81.1626	8.61434E-007	-0.42086	8
	73	150	22.2195	415.304	-2763.71	1	2794.74	-81.4541	8.45179E-007	-0.420861	8
	74	153	20.0011	447.807	-3053.97	1	3086.63	-81.6581	8.80495E-007	-0.420849	8
	75	155	17.6486	493.419	-3438.06	1	3473.29	-81.8329	9.62018E-007	-0.420854	8
	76	157	15.7934	538.769	-3818.45	1	3856.27	-81.9688	9.52451E-007	-0.420847	8
	77	160	14.2828	586.654	-4203.08	1	4243.82	-82.0542	9.50382E-007	-0.420843	8
	78	162	12.5002	657.748	-4769.01	1	4814.15	-82.1472	9.12695E-007	-0.420841	8
	79	164	11.323	713.875	-5239.06	1	5287.47	-82.2407	8.80008E-007	-0.420847	8
	80	167	9.9987	807.298	-5889.33	1	5944.41	-82.1947	8.14181E-007	-0.420833	8
