EXPLAIN
TAG	EISPOT
TITLE	LABEL	Tomato_open	Test &Identifier
DATE	LABEL	5/16/2006	Date
TIME	LABEL	9:32:02	Time
NOTES	NOTES	1	&Notes...
	
PSTAT	PSTAT	300	Potentiostat
VDC	POTEN	1.00000E-001	T	DC &Voltage (V)
FREQINIT	QUANT	1.00000E+005	Initial Fre&q. (Hz)
FREQFINAL	QUANT	1.00000E+001	Final Fre&q. (Hz)
PTSPERDEC	QUANT	2.00000E+001	Points/&decade
VAC	QUANT	1.00000E+001	AC &Voltage (mV rms)
AREA	QUANT	1.00000E+000	&Area (cm²)
DENSITY	QUANT	7.87000E+000	&Density (gm/cm³)
EQUIV	QUANT	7.00000E+000	Equiv. &Wt
CONDIT	TWOPARAM	F	1.50000E+001	0.00000E+000	Conditionin&g	Time(s)	E(V)
DELAY	TWOPARAM	F	6.00000E+002	0.00000E+000	Init. De&lay	Time(s)	Stab.(mV/s)
SPEED	SELECTOR	1	&Optimize for:
ZGUESS	QUANT	1.00000E+002	E&stimated Z (ohms)
OCVCURVE	TABLE	39
	Pt	T	Vf	Vm	Ach	Over
	#	s	V vs. Ref.	V	V	bits
	0	0.258332	-5.72519E-001	4.29894E-006	2.36600E-004	......
	1	0.516663	-5.72069E-001	4.29894E-006	3.66000E-005	......
	2	0.774994	-5.71620E-001	4.29894E-006	1.36600E-004	......
	3	1.03333	-5.72969E-001	4.29894E-006	2.36600E-004	......
	4	1.29166	-5.71519E-001	4.29894E-006	2.36600E-004	......
	5	1.54999	-5.71270E-001	4.29894E-006	2.36600E-004	......
	6	1.80832	-5.70769E-001	4.29894E-006	1.36600E-004	......
	7	2.06665	-5.70819E-001	4.29894E-006	2.36600E-004	......
	8	2.32498	-5.70919E-001	4.29894E-006	2.36600E-004	......
	9	2.58332	-5.69969E-001	4.29894E-006	1.36600E-004	......
	10	2.84165	-5.70419E-001	4.29894E-006	2.36600E-004	......
	11	3.09998	-5.72419E-001	4.29894E-006	3.36600E-004	......
	12	3.35831	-5.73020E-001	4.29894E-006	2.36600E-004	......
	13	3.61664	-5.73069E-001	4.29894E-006	1.36600E-004	......
	14	3.87497	-5.74169E-001	4.29894E-006	2.36600E-004	......
	15	4.1333	-5.72819E-001	4.29894E-006	2.36600E-004	......
	16	4.39164	-5.70819E-001	4.29894E-006	2.36600E-004	......
	17	4.64997	-5.70269E-001	4.29894E-006	2.36600E-004	......
	18	4.9083	-5.69070E-001	4.29894E-006	2.36600E-004	......
	19	5.16663	-5.68519E-001	4.29894E-006	2.36600E-004	......
	20	5.42496	-5.70369E-001	4.29894E-006	2.36600E-004	......
	21	5.68329	-5.70319E-001	4.29894E-006	2.36600E-004	......
	22	5.94162	-5.70620E-001	4.29894E-006	1.36600E-004	......
	23	6.19996	-5.70769E-001	4.29894E-006	3.66000E-005	......
	24	6.45829	-5.72069E-001	4.29894E-006	2.36600E-004	......
	25	6.71662	-5.72419E-001	4.29894E-006	3.36600E-004	......
	26	6.97495	-5.73020E-001	4.29894E-006	2.36600E-004	......
	27	7.23328	-5.72720E-001	4.29894E-006	3.66000E-005	......
	28	7.49161	-5.71669E-001	4.29894E-006	2.36600E-004	......
	29	7.74995	-5.70319E-001	4.29894E-006	3.36600E-004	......
	30	8.00828	-5.69869E-001	4.29894E-006	2.36600E-004	......
	31	8.26661	-5.70870E-001	4.29894E-006	3.66000E-005	......
	32	8.52494	-5.70669E-001	4.29894E-006	2.36600E-004	......
	33	8.78327	-5.70419E-001	4.29894E-006	2.36600E-004	......
	34	9.0416	-5.69969E-001	4.29894E-006	3.36600E-004	......
	35	9.29993	-5.70520E-001	4.29894E-006	2.36600E-004	......
	36	9.5583	-5.70570E-001	4.29894E-006	2.36600E-004	......
	37	9.8166	-5.69919E-001	4.29894E-006	3.36600E-004	......
	38	10.0749	-5.69619E-001	4.29894E-006	2.36600E-004	......
EOC	QUANT	-0.569619	Open Circuit (V)
PSTATMODEL	IQUANT	32	Pstat Model
PSTATSECTION	LABEL	PStat0	Pstat Section
CTRLMODE	IQUANT	1	Control Mode
IESTAB	IQUANT	0	I/E Stability
CASPEED	IQUANT	1	Control Amp Speed
CONVENTION	IQUANT	1	Current Convention
ICHRANGE	IQUANT	2	Ich Range
ICHRANGEMODE	TOGGLE	F	Ich Auto Range
ICHOFFSETENABLE	TOGGLE	T	Ich Offset Enable
ICHOFFSET	QUANT	0	Ich Offset (V)
ICHFILTER	IQUANT	3	Ich Filter
VCHRANGE	IQUANT	2	Vch Range
VCHRANGEMODE	TOGGLE	F	Vch Auto Range
VCHOFFSETENABLE	TOGGLE	T	Vch Offset Enable
VCHOFFSET	QUANT	0	Vch Offset (V)
VCHFILTER	IQUANT	3	Vch Filter
ACHRANGE	IQUANT	0	Ach Range
IERANGELOWERLIMIT	IQUANT	3	I/E Range Lower Limit
IERANGEMODE	TOGGLE	F	I/E AutoRange
IERANGE	IQUANT	11	I/E Range
POSFEEDENABLE	TOGGLE	F	Positive Feedback IR Comp
POSFEEDRESISTANCE	QUANT	0	Positive Feedback Resistance (ohm)
FC350IDIVISOR	IQUANT	0	FC350 I Divisor
FC350VRANGE	IQUANT	0	FC350 V Range
FRAMEWORKVERSION	QUANT	4.35	Framework Version
ZCURVE	TABLE
	Pt	Time	Freq	Zreal	Zimag	Zsig	Zmod	Zphz	Idc	Vdc	IERange
	#	s	Hz	ohm	ohm	V	ohm	°	A	V	#
	0	5	100007	146.089	-0.621452	1	146.091	-0.24373	2.00131E-006	-0.469373	9
	1	7	89134.1	145.562	-0.632154	1	145.563	-0.248826	2.21685E-006	-0.469373	9
	2	8	79433.6	145.193	-1.00894	1	145.196	-0.398141	3.2192E-006	-0.469385	9
	3	10	70800.8	145.048	-1.17608	1	145.053	-0.464559	3.97071E-006	-0.469386	9
	4	12	63105.5	144.821	-1.66475	1	144.83	-0.6586	4.05309E-006	-0.469354	9
	5	14	56243.5	145.096	-1.73352	1	145.106	-0.684504	4.21318E-006	-0.469361	9
	6	16	50123.7	144.936	-2.3837	1	144.955	-0.942234	4.40151E-006	-0.46938	9
	7	18	44681	145.008	-2.7307	1	145.034	-1.07883	4.17465E-006	-0.46935	9
	8	20	39811.2	145.174	-3.07898	1	145.206	-1.215	4.35493E-006	-0.469347	9
	9	22	35488.3	145.087	-3.67064	1	145.134	-1.44925	3.85426E-006	-0.469341	9
	10	24	31634.1	145.543	-4.02034	1	145.598	-1.58228	3.75234E-006	-0.469344	9
	11	26	28173.1	145.473	-4.48828	1	145.543	-1.76718	3.68381E-006	-0.469355	9
	12	28	25123.7	145.659	-5.05988	1	145.747	-1.98953	3.59599E-006	-0.469346	9
	13	30	22389.3	145.807	-5.50355	1	145.911	-2.16163	3.32431E-006	-0.469334	9
	14	32	19954.4	146.138	-6.07955	1	146.264	-2.38221	3.46053E-006	-0.469361	9
	15	34	17778.2	146.138	-6.48173	1	146.282	-2.5396	3.25654E-006	-0.469347	9
	16	36	15852.9	146.582	-7.33235	1	146.765	-2.86367	2.90824E-006	-0.46933	9
	17	38	14122.3	146.903	-8.23482	1	147.134	-3.20843	2.89631E-006	-0.469346	9
	18	40	12587.2	146.977	-9.093	1	147.258	-3.54019	2.95174E-006	-0.469344	9
	19	42	11221.1	147.38	-9.727	1	147.701	-3.77603	2.72329E-006	-0.469348	9
	20	44	9998.2	147.629	-10.6932	1	148.015	-4.14287	2.59168E-006	-0.469332	9
	21	46	8912.76	147.867	-11.8079	1	148.338	-4.56567	2.71045E-006	-0.46934	9
	22	48	7942.6	148.192	-13.1828	1	148.777	-5.08353	2.73204E-006	-0.469344	9
	23	50	7078.05	148.602	-14.5013	1	149.307	-5.57358	2.6344E-006	-0.469356	9
	24	52	6311.1	149.229	-15.8783	1	150.071	-6.07354	2.8614E-006	-0.469344	9
	25	54	5622.14	149.398	-17.6204	1	150.433	-6.72656	2.71457E-006	-0.469342	9
	26	56	5011.18	149.918	-19.1199	1	151.132	-7.26804	2.5591E-006	-0.469342	9
	27	58	4465.21	150.438	-21.4432	1	151.959	-8.11221	2.3969E-006	-0.469336	9
	28	60	3980.93	151.021	-23.3784	1	152.819	-8.79971	1.93446E-006	-0.469326	9
	29	62	3548.18	151.246	-25.7431	1	153.421	-9.6596	1.95815E-006	-0.469332	9
	30	64	3162.67	151.955	-28.8266	1	154.665	-10.7416	2.0937E-006	-0.469358	9
	31	66	2819.01	152.828	-31.7789	1	156.097	-11.7466	2.04337E-006	-0.469342	9
	32	68	2511.16	153.389	-34.6468	1	157.253	-12.7281	1.93067E-006	-0.469342	9
	33	70	2238.63	154.109	-38.3804	1	158.816	-13.9849	1.9591E-006	-0.469339	9
	34	72	1995.37	154.698	-42.4355	1	160.412	-15.3396	1.83007E-006	-0.469346	9
	35	74	1778.51	155.668	-47.0331	1	162.618	-16.8116	1.78795E-006	-0.469344	9
	36	76	1584.49	156.273	-51.8478	1	164.65	-18.3546	1.84981E-006	-0.469343	9
	37	78	1412.76	157.42	-57.3766	1	167.551	-20.0258	1.74795E-006	-0.469358	9
	38	80	1259.04	158.4	-63.5291	1	170.665	-21.8541	1.72634E-006	-0.469331	9
	39	82	1121.63	159.769	-70.3094	1	174.555	-23.7528	1.61753E-006	-0.469339	9
	40	84	999.95	160.618	-77.6336	1	178.396	-25.7964	1.63729E-006	-0.469335	9
	41	86	891.184	162.076	-86.0041	1	183.481	-27.9522	1.50456E-006	-0.469337	9
	42	88	794.163	163.036	-95.38	1	188.886	-30.3287	1.46385E-006	-0.469338	9
	43	90	707.867	164.71	-105.643	1	195.678	-32.6757	1.56862E-006	-0.469358	9
	44	92	630.984	166.167	-117.19	1	203.335	-35.1935	1.42079E-006	-0.469334	9
	45	93	562.189	167.813	-130.125	1	212.353	-37.7907	1.15182E-006	-0.469327	9
	46	95	501.303	169.304	-144.162	1	222.366	-40.4142	1.33654E-006	-0.469342	9
	47	97	446.614	171.022	-160.181	1	234.322	-43.1252	1.35406E-006	-0.469337	9
	48	99	398.209	172.875	-177.945	1	248.093	-45.8279	1.43118E-006	-0.469337	9
	49	101	354.821	174.901	-197.853	1	264.076	-48.5234	1.4764E-006	-0.46933	9
	50	103	316.113	177.103	-220.13	1	282.53	-51.182	1.46477E-006	-0.469341	9
	51	105	281.926	179.477	-244.718	1	303.478	-53.7435	1.41723E-006	-0.469337	9
	52	107	251.185	182.087	-272.463	1	327.706	-56.2452	1.43498E-006	-0.469332	9
	53	109	223.946	184.932	-303.228	1	355.172	-58.622	1.38443E-006	-0.469341	9
	54	111	199.495	188.088	-337.887	1	386.71	-60.8971	1.40542E-006	-0.469331	9
	55	113	177.836	191.477	-376.33	1	422.241	-63.033	1.26576E-006	-0.469331	9
	56	115	158.533	195.378	-419.21	1	462.504	-65.0115	1.40151E-006	-0.469327	9
	57	117	141.263	199.697	-467.305	1	508.186	-66.8611	1.28837E-006	-0.46934	9
	58	120	125.911	204.516	-520.927	1	559.635	-68.565	1.39753E-006	-0.46934	9
	59	122	112.198	209.819	-580.808	1	617.545	-70.1376	1.3363E-006	-0.469337	9
	60	124	100.009	215.636	-647.612	1	682.569	-71.5837	1.32166E-006	-0.469338	9
	61	126	89.1164	222.307	-722.355	1	755.79	-72.8941	1.31648E-006	-0.469337	9
	62	128	79.4083	229.844	-805.93	1	838.064	-74.0823	1.34039E-006	-0.469335	9
	63	130	70.788	237.981	-898.767	1	929.741	-75.1692	1.3224E-006	-0.469328	9
	64	132	63.0971	247.567	-1002.56	1	1032.68	-76.1292	1.19079E-006	-0.469345	9
	65	134	54.5476	261.3	-1150.36	1	1179.67	-77.2027	7.5994E-007	-0.469328	8
	66	136	50.0083	270.654	-1249.5	1	1278.48	-77.778	7.7064E-007	-0.46933	8
	67	138	46.1675	280.921	-1348.13	1	1377.09	-78.2292	7.09773E-007	-0.469332	8
	68	140	40.0059	301.253	-1544.95	1	1574.04	-78.9662	7.69837E-007	-0.46933	8
	69	142	35.3046	320.886	-1739.2	1	1768.55	-79.5464	7.53752E-007	-0.469321	8
	70	145	31.5793	341.105	-1933.74	1	1963.59	-79.9961	8.82823E-007	-0.469318	8
	71	147	28.5748	360.49	-2126.12	1	2156.46	-80.3769	8.12984E-007	-0.469324	8
	72	149	24.9911	395.199	-2414.92	1	2447.04	-80.706	7.69085E-007	-0.469327	8
	73	151	22.2195	428.177	-2701.99	1	2735.71	-80.9954	7.79757E-007	-0.46932	8
	74	153	20.0011	464.391	-2985.57	1	3021.47	-81.1588	8.05507E-007	-0.469332	8
	75	156	17.6486	512.554	-3363.71	1	3402.54	-81.3361	8.02598E-007	-0.469321	8
	76	158	15.7934	555.42	-3738.39	1	3779.42	-81.5493	7.03807E-007	-0.469323	8
	77	160	14.2828	606.768	-4106.81	1	4151.39	-81.5955	6.84495E-007	-0.469315	8
	78	163	12.5002	685.968	-4664.93	1	4715.1	-81.6347	6.74465E-007	-0.469323	8
	79	165	11.323	762.058	-5114.08	1	5170.55	-81.5246	6.95492E-007	-0.469321	8
	80	168	9.9987	860.231	-5751.44	1	5815.41	-81.4934	7.01768E-007	-0.469326	8
