EXPLAIN
TAG	EISPOT
TITLE	LABEL	Tomato_open	Test &Identifier
DATE	LABEL	5/16/2006	Date
TIME	LABEL	9:37:05	Time
NOTES	NOTES	1	&Notes...
	
PSTAT	PSTAT	300	Potentiostat
VDC	POTEN	1.00000E-001	T	DC &Voltage (V)
FREQINIT	QUANT	1.00000E+005	Initial Fre&q. (Hz)
FREQFINAL	QUANT	1.00000E+001	Final Fre&q. (Hz)
PTSPERDEC	QUANT	2.00000E+001	Points/&decade
VAC	QUANT	1.00000E+001	AC &Voltage (mV rms)
AREA	QUANT	1.00000E+000	&Area (cm²)
DENSITY	QUANT	7.87000E+000	&Density (gm/cm³)
EQUIV	QUANT	7.00000E+000	Equiv. &Wt
CONDIT	TWOPARAM	F	1.50000E+001	0.00000E+000	Conditionin&g	Time(s)	E(V)
DELAY	TWOPARAM	F	6.00000E+002	0.00000E+000	Init. De&lay	Time(s)	Stab.(mV/s)
SPEED	SELECTOR	1	&Optimize for:
ZGUESS	QUANT	1.00000E+002	E&stimated Z (ohms)
OCVCURVE	TABLE	39
	Pt	T	Vf	Vm	Ach	Over
	#	s	V vs. Ref.	V	V	bits
	0	0.258332	-5.33319E-001	3.08294E-006	-6.34000E-005	......
	1	0.516663	-5.32770E-001	3.08294E-006	3.66000E-005	......
	2	0.774994	-5.33119E-001	3.08294E-006	-1.63400E-004	......
	3	1.03333	-5.33619E-001	3.08294E-006	2.36600E-004	......
	4	1.29166	-5.33769E-001	3.08294E-006	-6.34000E-005	......
	5	1.54999	-5.33570E-001	3.08294E-006	1.36600E-004	......
	6	1.80832	-5.33069E-001	3.08294E-006	-2.63400E-004	......
	7	2.06665	-5.32319E-001	3.08294E-006	2.36600E-004	......
	8	2.32498	-5.32070E-001	3.08294E-006	-1.63400E-004	......
	9	2.58332	-5.31269E-001	3.08294E-006	3.66000E-005	......
	10	2.84165	-5.30670E-001	3.08294E-006	-1.63400E-004	......
	11	3.09998	-5.30169E-001	3.08294E-006	1.36600E-004	......
	12	3.35831	-5.28769E-001	3.08294E-006	-1.63400E-004	......
	13	3.61664	-5.27569E-001	3.08294E-006	3.66000E-005	......
	14	3.87497	-5.27569E-001	3.08294E-006	-1.63400E-004	......
	15	4.1333	-5.27219E-001	3.08294E-006	3.66000E-005	......
	16	4.39164	-5.27269E-001	3.08294E-006	-1.63400E-004	......
	17	4.64997	-5.24269E-001	3.08294E-006	2.36600E-004	......
	18	4.9083	-5.21670E-001	3.08294E-006	3.66000E-005	......
	19	5.16663	-5.22669E-001	3.08294E-006	3.66000E-005	......
	20	5.42496	-5.23719E-001	3.08294E-006	-6.34000E-005	......
	21	5.68329	-5.23870E-001	3.08294E-006	3.66000E-005	......
	22	5.94162	-5.23870E-001	3.08294E-006	-1.63400E-004	......
	23	6.19996	-5.23569E-001	3.08294E-006	3.66000E-005	......
	24	6.45829	-5.23619E-001	3.08294E-006	-1.63400E-004	......
	25	6.71662	-5.25019E-001	3.08294E-006	3.66000E-005	......
	26	6.97495	-5.25019E-001	3.08294E-006	-1.63400E-004	......
	27	7.23328	-5.24019E-001	3.08294E-006	3.66000E-005	......
	28	7.49161	-5.24919E-001	3.08294E-006	3.66000E-005	......
	29	7.74995	-5.25919E-001	3.08294E-006	3.66000E-005	......
	30	8.00828	-5.27219E-001	3.08294E-006	-6.34000E-005	......
	31	8.26661	-5.30169E-001	3.08294E-006	3.66000E-005	......
	32	8.52494	-5.31020E-001	3.08294E-006	-1.63400E-004	......
	33	8.78327	-5.33019E-001	3.08294E-006	-6.34000E-005	......
	34	9.0416	-5.33520E-001	3.08294E-006	-6.34000E-005	......
	35	9.29993	-5.34119E-001	3.08294E-006	3.66000E-005	......
	36	9.5583	-5.34769E-001	3.08294E-006	-1.63400E-004	......
	37	9.8166	-5.35219E-001	3.08294E-006	1.36600E-004	......
	38	10.0749	-5.36169E-001	3.08294E-006	-1.63400E-004	......
EOC	QUANT	-0.536169	Open Circuit (V)
PSTATMODEL	IQUANT	32	Pstat Model
PSTATSECTION	LABEL	PStat0	Pstat Section
CTRLMODE	IQUANT	1	Control Mode
IESTAB	IQUANT	0	I/E Stability
CASPEED	IQUANT	1	Control Amp Speed
CONVENTION	IQUANT	1	Current Convention
ICHRANGE	IQUANT	2	Ich Range
ICHRANGEMODE	TOGGLE	F	Ich Auto Range
ICHOFFSETENABLE	TOGGLE	T	Ich Offset Enable
ICHOFFSET	QUANT	0	Ich Offset (V)
ICHFILTER	IQUANT	3	Ich Filter
VCHRANGE	IQUANT	2	Vch Range
VCHRANGEMODE	TOGGLE	F	Vch Auto Range
VCHOFFSETENABLE	TOGGLE	T	Vch Offset Enable
VCHOFFSET	QUANT	0	Vch Offset (V)
VCHFILTER	IQUANT	3	Vch Filter
ACHRANGE	IQUANT	0	Ach Range
IERANGELOWERLIMIT	IQUANT	3	I/E Range Lower Limit
IERANGEMODE	TOGGLE	F	I/E AutoRange
IERANGE	IQUANT	11	I/E Range
POSFEEDENABLE	TOGGLE	F	Positive Feedback IR Comp
POSFEEDRESISTANCE	QUANT	0	Positive Feedback Resistance (ohm)
FC350IDIVISOR	IQUANT	0	FC350 I Divisor
FC350VRANGE	IQUANT	0	FC350 V Range
FRAMEWORKVERSION	QUANT	4.35	Framework Version
ZCURVE	TABLE
	Pt	Time	Freq	Zreal	Zimag	Zsig	Zmod	Zphz	Idc	Vdc	IERange
	#	s	Hz	ohm	ohm	V	ohm	°	A	V	#
	0	4	100007	150.179	-0.211886	1	150.179	-0.080838	1.49245E-006	-0.436091	9
	1	6	89134.1	149.756	-0.493224	1	149.757	-0.188704	1.1687E-006	-0.436083	9
	2	8	79433.6	149.266	-1.01209	1	149.269	-0.388486	1.51978E-006	-0.436119	9
	3	10	70800.8	149.026	-1.25986	1	149.031	-0.484364	1.40323E-006	-0.436075	9
	4	12	63105.5	148.646	-1.79005	1	148.657	-0.689942	1.31977E-006	-0.436073	9
	5	14	56243.5	148.734	-1.99124	1	148.748	-0.767023	1.2944E-006	-0.436083	9
	6	16	50123.7	148.531	-2.54127	1	148.552	-0.9802	1.59563E-006	-0.436107	9
	7	18	44681	148.683	-2.78601	1	148.709	-1.07348	1.56428E-006	-0.436115	9
	8	20	39811.2	148.407	-3.25537	1	148.443	-1.2566	1.32404E-006	-0.436066	9
	9	22	35488.3	148.581	-3.80412	1	148.63	-1.46662	1.4229E-006	-0.436116	9
	10	24	31634.1	148.506	-4.00445	1	148.56	-1.5446	1.49387E-006	-0.436102	9
	11	26	28173.1	148.534	-4.32365	1	148.596	-1.66735	1.47971E-006	-0.436102	9
	12	28	25123.7	148.797	-4.98799	1	148.881	-1.91995	1.31674E-006	-0.436086	9
	13	30	22389.3	148.962	-5.48203	1	149.063	-2.10762	1.40246E-006	-0.436095	9
	14	32	19954.4	149.068	-6.09223	1	149.193	-2.3403	1.55879E-006	-0.436103	9
	15	34	17778.2	149.187	-6.71572	1	149.338	-2.57746	1.43824E-006	-0.436095	9
	16	36	15852.9	149.393	-7.52941	1	149.582	-2.88527	1.29545E-006	-0.436094	9
	17	38	14122.3	149.602	-8.26978	1	149.831	-3.164	1.4792E-006	-0.436105	9
	18	40	12587.2	149.906	-9.019	1	150.177	-3.44302	1.4744E-006	-0.436099	9
	19	42	11221.1	150.27	-9.9805	1	150.601	-3.79982	1.50257E-006	-0.436097	9
	20	44	9998.2	150.507	-10.9587	1	150.906	-4.16445	1.45395E-006	-0.436101	9
	21	46	8912.76	150.839	-11.9509	1	151.312	-4.53005	1.51481E-006	-0.436109	9
	22	48	7942.6	150.899	-13.2698	1	151.482	-5.02557	1.45074E-006	-0.436106	9
	23	50	7078.05	151.102	-14.6803	1	151.813	-5.54918	1.49888E-006	-0.436104	9
	24	52	6311.1	151.493	-16.174	1	152.354	-6.09401	1.56302E-006	-0.436106	9
	25	54	5622.14	151.71	-17.8175	1	152.753	-6.6984	1.50776E-006	-0.436108	9
	26	56	5011.18	152.342	-19.6905	1	153.609	-7.36477	1.55023E-006	-0.436106	9
	27	58	4465.21	152.764	-21.8466	1	154.318	-8.13865	1.5729E-006	-0.436098	9
	28	60	3980.93	153.096	-23.9283	1	154.954	-8.88326	1.4366E-006	-0.436098	9
	29	62	3548.18	153.656	-26.3686	1	155.902	-9.7376	1.61659E-006	-0.436121	9
	30	64	3162.67	154.377	-29.0064	1	157.079	-10.6414	1.53112E-006	-0.436096	9
	31	66	2819.01	154.875	-31.8685	1	158.119	-11.6274	1.6069E-006	-0.436124	9
	32	68	2511.16	155.491	-35.4666	1	159.484	-12.849	1.5129E-006	-0.4361	9
	33	70	2238.63	156.13	-39.1166	1	160.955	-14.0653	1.57337E-006	-0.436101	9
	34	72	1995.37	156.729	-43.4086	1	162.63	-15.4809	1.51198E-006	-0.436095	9
	35	74	1778.51	157.755	-47.739	1	164.82	-16.8366	1.44921E-006	-0.436118	9
	36	76	1584.49	158.622	-52.7818	1	167.174	-18.4049	1.46782E-006	-0.436105	9
	37	78	1412.76	159.624	-58.3839	1	169.966	-20.0905	1.70321E-006	-0.436096	9
	38	80	1259.04	160.376	-64.461	1	172.846	-21.8969	1.54538E-006	-0.436109	9
	39	82	1121.63	161.786	-71.4969	1	176.88	-23.8417	1.54176E-006	-0.436104	9
	40	84	999.95	162.335	-79.2633	1	180.653	-26.0248	1.59217E-006	-0.436105	9
	41	85	891.184	163.643	-87.3735	1	185.508	-28.099	1.51995E-006	-0.436119	9
	42	87	794.163	165.027	-96.819	1	191.332	-30.3997	1.55103E-006	-0.436111	9
	43	89	707.867	166.427	-107.363	1	198.052	-32.8263	1.44635E-006	-0.436089	9
	44	91	630.984	167.913	-119.368	1	206.018	-35.4087	1.46335E-006	-0.436097	9
	45	93	562.189	169.255	-132.282	1	214.815	-38.0096	1.67835E-006	-0.43612	9
	46	95	501.303	171.057	-146.767	1	225.391	-40.6296	1.5567E-006	-0.436101	9
	47	97	446.614	172.75	-163.06	1	237.552	-43.3471	1.59398E-006	-0.436103	9
	48	99	398.209	174.572	-181.112	1	251.549	-46.0535	1.50801E-006	-0.436116	9
	49	101	354.821	176.567	-201.361	1	267.81	-48.7535	1.6039E-006	-0.436107	9
	50	103	316.113	178.757	-223.978	1	286.566	-51.4067	1.58543E-006	-0.436112	9
	51	105	281.926	181.083	-249.025	1	307.903	-53.9766	1.60506E-006	-0.43611	9
	52	107	251.185	183.683	-277.214	1	332.546	-56.4714	1.69551E-006	-0.436105	9
	53	109	223.946	186.515	-308.499	1	360.498	-58.8433	1.68563E-006	-0.436101	9
	54	111	199.495	189.62	-343.685	1	392.524	-61.1134	1.68432E-006	-0.436111	9
	55	113	177.836	193.031	-382.734	1	428.657	-63.2361	1.6769E-006	-0.436103	9
	56	115	158.533	196.807	-426.321	1	469.556	-65.2201	1.68862E-006	-0.436103	9
	57	117	141.263	200.983	-475.253	1	516.004	-67.0766	1.69354E-006	-0.436098	9
	58	119	125.911	205.763	-529.738	1	568.297	-68.7727	1.6999E-006	-0.436104	9
	59	121	112.198	211.016	-590.621	1	627.185	-70.3393	1.73085E-006	-0.436105	9
	60	124	100.009	216.749	-658.381	1	693.142	-71.7777	1.63209E-006	-0.436108	9
	61	126	89.1164	223.31	-734.195	1	767.404	-73.0825	1.58657E-006	-0.436107	9
	62	128	79.4083	230.377	-818.984	1	850.769	-74.2889	1.59122E-006	-0.436107	9
	63	130	70.788	238.876	-913.377	1	944.097	-75.3437	1.68831E-006	-0.436101	9
	64	132	63.0971	248.035	-1018.65	1	1048.42	-76.3152	1.54355E-006	-0.436104	9
	65	134	54.5476	262.167	-1168.87	1	1197.91	-77.3583	1.14948E-006	-0.436105	8
	66	136	50.0083	271.459	-1269.47	1	1298.17	-77.9298	1.07692E-006	-0.43611	8
	67	138	46.1675	280.498	-1369.64	1	1398.07	-78.4261	1.04836E-006	-0.436116	8
	68	140	40.0059	299.887	-1569.54	1	1597.94	-79.1831	1.14563E-006	-0.436104	8
	69	142	35.3046	319.901	-1767.91	1	1796.62	-79.7434	1.11321E-006	-0.436101	8
	70	145	31.5793	339.724	-1964.53	1	1993.69	-80.1889	1.1565E-006	-0.436102	8
	71	147	28.5748	356.727	-2161.43	1	2190.67	-80.6283	1.01025E-006	-0.436105	8
	72	149	24.9911	390.596	-2454.42	1	2485.3	-80.9578	9.88171E-007	-0.436089	8
	73	151	22.2195	425.106	-2744.6	1	2777.32	-81.1955	1.05834E-006	-0.436103	8
	74	153	20.0011	460.148	-3032.37	1	3067.09	-81.3715	9.91827E-007	-0.436094	8
	75	156	17.6486	505.873	-3413.44	1	3450.72	-81.5701	1.08187E-006	-0.436095	8
	76	158	15.7934	554.507	-3790.61	1	3830.96	-81.6776	1.06048E-006	-0.436096	8
	77	160	14.2828	606.653	-4177.11	1	4220.93	-81.7365	1.04889E-006	-0.436108	8
	78	162	12.5002	690.79	-4734.24	1	4784.37	-81.6983	1.06544E-006	-0.436096	8
	79	165	11.323	761.93	-5201.57	1	5257.08	-81.6665	1.07163E-006	-0.436099	8
	80	168	9.9987	856.053	-5840.77	1	5903.17	-81.6618	1.02992E-006	-0.436098	8
