EXPLAIN
TAG	EISPOT
TITLE	LABEL	Tomato_open	Test &Identifier
DATE	LABEL	5/16/2006	Date
TIME	LABEL	9:52:04	Time
NOTES	NOTES	1	&Notes...
	
PSTAT	PSTAT	300	Potentiostat
VDC	POTEN	1.00000E-001	T	DC &Voltage (V)
FREQINIT	QUANT	1.00000E+005	Initial Fre&q. (Hz)
FREQFINAL	QUANT	1.00000E+001	Final Fre&q. (Hz)
PTSPERDEC	QUANT	2.00000E+001	Points/&decade
VAC	QUANT	1.00000E+001	AC &Voltage (mV rms)
AREA	QUANT	1.00000E+000	&Area (cm²)
DENSITY	QUANT	7.87000E+000	&Density (gm/cm³)
EQUIV	QUANT	7.00000E+000	Equiv. &Wt
CONDIT	TWOPARAM	F	1.50000E+001	0.00000E+000	Conditionin&g	Time(s)	E(V)
DELAY	TWOPARAM	F	6.00000E+002	0.00000E+000	Init. De&lay	Time(s)	Stab.(mV/s)
SPEED	SELECTOR	1	&Optimize for:
ZGUESS	QUANT	1.00000E+002	E&stimated Z (ohms)
OCVCURVE	TABLE	39
	Pt	T	Vf	Vm	Ach	Over
	#	s	V vs. Ref.	V	V	bits
	0	0.258332	-5.47719E-001	2.92524E-006	-6.34000E-005	......
	1	0.516663	-5.46869E-001	2.92524E-006	3.66000E-005	......
	2	0.774994	-5.48069E-001	2.92524E-006	-6.34000E-005	......
	3	1.03333	-5.48269E-001	2.92524E-006	2.36600E-004	......
	4	1.29166	-5.47769E-001	2.92524E-006	-6.34000E-005	......
	5	1.54999	-5.47269E-001	2.92524E-006	3.66000E-005	......
	6	1.80832	-5.46119E-001	2.92524E-006	-1.63400E-004	......
	7	2.06665	-5.46420E-001	2.92524E-006	3.66000E-005	......
	8	2.32498	-5.48270E-001	2.92524E-006	3.66000E-005	......
	9	2.58332	-5.49019E-001	2.92524E-006	2.36600E-004	......
	10	2.84165	-5.48869E-001	2.92524E-006	-1.63400E-004	......
	11	3.09998	-5.47269E-001	2.92524E-006	3.66000E-005	......
	12	3.35831	-5.42619E-001	2.92524E-006	-2.63400E-004	......
	13	3.61664	-5.40119E-001	2.92524E-006	-6.34000E-005	......
	14	3.87497	-5.38269E-001	2.92524E-006	-6.34000E-005	......
	15	4.1333	-5.35069E-001	2.92524E-006	3.66000E-005	......
	16	4.39164	-5.33769E-001	2.92524E-006	-6.34000E-005	......
	17	4.64997	-5.33469E-001	2.92524E-006	2.36600E-004	......
	18	4.9083	-5.32869E-001	2.92524E-006	-6.34000E-005	......
	19	5.16663	-5.31619E-001	2.92524E-006	3.66000E-005	......
	20	5.42496	-5.32569E-001	2.92524E-006	-6.34000E-005	......
	21	5.68329	-5.33219E-001	2.92524E-006	3.66000E-005	......
	22	5.94162	-5.34019E-001	2.92524E-006	-1.63400E-004	......
	23	6.19996	-5.35069E-001	2.92524E-006	3.66000E-005	......
	24	6.45829	-5.34069E-001	2.92524E-006	-6.34000E-005	......
	25	6.71662	-5.32520E-001	2.92524E-006	3.66000E-005	......
	26	6.97495	-5.32719E-001	2.92524E-006	3.66000E-005	......
	27	7.23328	-5.32669E-001	2.92524E-006	3.66000E-005	......
	28	7.49161	-5.33669E-001	2.92524E-006	-1.63400E-004	......
	29	7.74995	-5.29469E-001	2.92524E-006	2.36600E-004	......
	30	8.00828	-5.28669E-001	2.92524E-006	-6.34000E-005	......
	31	8.26661	-5.31370E-001	2.92524E-006	1.36600E-004	......
	32	8.52494	-5.30219E-001	2.92524E-006	-6.34000E-005	......
	33	8.78327	-5.30919E-001	2.92524E-006	3.66000E-005	......
	34	9.0416	-5.27819E-001	2.92524E-006	-1.63400E-004	......
	35	9.29993	-5.26719E-001	2.92524E-006	2.36600E-004	......
	36	9.5583	-5.25220E-001	2.92524E-006	-6.34000E-005	......
	37	9.8166	-5.23519E-001	2.92524E-006	3.66000E-005	......
	38	10.0749	-5.26069E-001	2.92524E-006	-1.63400E-004	......
EOC	QUANT	-0.526069	Open Circuit (V)
PSTATMODEL	IQUANT	32	Pstat Model
PSTATSECTION	LABEL	PStat0	Pstat Section
CTRLMODE	IQUANT	1	Control Mode
IESTAB	IQUANT	0	I/E Stability
CASPEED	IQUANT	1	Control Amp Speed
CONVENTION	IQUANT	1	Current Convention
ICHRANGE	IQUANT	2	Ich Range
ICHRANGEMODE	TOGGLE	F	Ich Auto Range
ICHOFFSETENABLE	TOGGLE	T	Ich Offset Enable
ICHOFFSET	QUANT	0	Ich Offset (V)
ICHFILTER	IQUANT	3	Ich Filter
VCHRANGE	IQUANT	2	Vch Range
VCHRANGEMODE	TOGGLE	F	Vch Auto Range
VCHOFFSETENABLE	TOGGLE	T	Vch Offset Enable
VCHOFFSET	QUANT	0	Vch Offset (V)
VCHFILTER	IQUANT	3	Vch Filter
ACHRANGE	IQUANT	0	Ach Range
IERANGELOWERLIMIT	IQUANT	3	I/E Range Lower Limit
IERANGEMODE	TOGGLE	F	I/E AutoRange
IERANGE	IQUANT	11	I/E Range
POSFEEDENABLE	TOGGLE	F	Positive Feedback IR Comp
POSFEEDRESISTANCE	QUANT	0	Positive Feedback Resistance (ohm)
FC350IDIVISOR	IQUANT	0	FC350 I Divisor
FC350VRANGE	IQUANT	0	FC350 V Range
FRAMEWORKVERSION	QUANT	4.35	Framework Version
ZCURVE	TABLE
	Pt	Time	Freq	Zreal	Zimag	Zsig	Zmod	Zphz	Idc	Vdc	IERange
	#	s	Hz	ohm	ohm	V	ohm	°	A	V	#
	0	4	100007	149.465	-0.564669	1	149.466	-0.216459	1.25212E-006	-0.425858	9
	1	6	89134.1	148.673	-0.769678	1	148.675	-0.296616	1.32512E-006	-0.425853	9
	2	8	79433.6	148.186	-1.03323	1	148.189	-0.399491	1.22774E-006	-0.425888	9
	3	10	70800.8	148.092	-1.4917	1	148.1	-0.577108	1.36418E-006	-0.425894	9
	4	12	63105.5	147.672	-1.76799	1	147.682	-0.685937	1.12017E-006	-0.425874	9
	5	14	56243.5	147.872	-2.00261	1	147.886	-0.775899	1.30637E-006	-0.425872	9
	6	16	50123.7	147.641	-2.32597	1	147.659	-0.902578	1.07423E-006	-0.425877	9
	7	18	44681	147.608	-2.86403	1	147.636	-1.11157	1.10534E-006	-0.425873	9
	8	20	39811.2	147.344	-3.09823	1	147.377	-1.20459	1.17788E-006	-0.425872	9
	9	22	35488.3	147.551	-3.47951	1	147.592	-1.35089	1.11462E-006	-0.425891	9
	10	24	31634.1	147.624	-4.03631	1	147.68	-1.56618	1.23048E-006	-0.425873	9
	11	26	28173.1	147.747	-4.49789	1	147.815	-1.74373	1.27804E-006	-0.425881	9
	12	28	25123.7	147.618	-5.06921	1	147.705	-1.96676	1.38156E-006	-0.425866	9
	13	30	22389.3	148.018	-5.67473	1	148.126	-2.19554	1.35157E-006	-0.425893	9
	14	32	19954.4	147.95	-6.19335	1	148.08	-2.39706	1.23784E-006	-0.425857	9
	15	34	17778.2	148.335	-6.81355	1	148.492	-2.62994	1.20713E-006	-0.425861	9
	16	36	15852.9	148.317	-7.36397	1	148.5	-2.84241	1.39279E-006	-0.425862	9
	17	38	14122.3	148.413	-8.2914	1	148.644	-3.19763	1.27978E-006	-0.42586	9
	18	40	12587.2	148.79	-9.22375	1	149.076	-3.54732	1.21456E-006	-0.425849	9
	19	42	11221.1	149.035	-10.1333	1	149.379	-3.8897	1.32554E-006	-0.425865	9
	20	44	9998.2	149.277	-11.0643	1	149.686	-4.23898	1.22946E-006	-0.425855	9
	21	46	8912.76	149.286	-11.908	1	149.76	-4.56061	1.11395E-006	-0.425843	9
	22	48	7942.6	149.625	-13.3158	1	150.216	-5.08562	1.2564E-006	-0.425854	9
	23	50	7078.05	149.86	-14.7293	1	150.582	-5.6134	1.23198E-006	-0.42586	9
	24	52	6311.1	150.231	-16.3348	1	151.117	-6.20545	1.25818E-006	-0.425866	9
	25	54	5622.14	150.567	-17.87	1	151.624	-6.76848	1.2956E-006	-0.425862	9
	26	56	5011.18	151.015	-19.7764	1	152.304	-7.46083	1.18334E-006	-0.425862	9
	27	57	4465.21	151.348	-21.6581	1	152.89	-8.14378	1.30717E-006	-0.425855	9
	28	59	3980.93	151.818	-23.9999	1	153.704	-8.98316	1.27163E-006	-0.425847	9
	29	61	3548.18	152.558	-26.4067	1	154.827	-9.8202	1.13279E-006	-0.425857	9
	30	63	3162.67	152.921	-29.4337	1	155.728	-10.8948	1.25692E-006	-0.42584	9
	31	65	2819.01	153.579	-32.4191	1	156.964	-11.9196	1.14307E-006	-0.425852	9
	32	67	2511.16	154.074	-35.8462	1	158.189	-13.0972	1.16546E-006	-0.42585	9
	33	69	2238.63	154.971	-39.4745	1	159.92	-14.2906	1.26693E-006	-0.425862	9
	34	71	1995.37	155.481	-43.3956	1	161.424	-15.5947	1.23152E-006	-0.425872	9
	35	73	1778.51	156.427	-48.2796	1	163.708	-17.1524	1.12604E-006	-0.425862	9
	36	75	1584.49	157.311	-53.5265	1	166.168	-18.7913	1.28515E-006	-0.425866	9
	37	77	1412.76	158.325	-59.1081	1	168.999	-20.4723	1.19165E-006	-0.425848	9
	38	79	1259.04	159.125	-65.2355	1	171.978	-22.2918	1.23385E-006	-0.425869	9
	39	81	1121.63	160.086	-72.4269	1	175.708	-24.3432	1.21337E-006	-0.425868	9
	40	83	999.95	161.421	-79.925	1	180.125	-26.3415	1.29162E-006	-0.425866	9
	41	85	891.184	162.457	-88.481	1	184.989	-28.5746	1.30059E-006	-0.42587	9
	42	87	794.163	163.654	-98.03	1	190.768	-30.9219	1.26976E-006	-0.425862	9
	43	89	707.867	164.901	-108.777	1	197.547	-33.4109	1.18198E-006	-0.425863	9
	44	91	630.984	166.533	-120.643	1	205.641	-35.921	1.30354E-006	-0.425877	9
	45	93	562.189	168.064	-133.931	1	214.902	-38.5516	1.17185E-006	-0.425855	9
	46	95	501.303	169.627	-148.507	1	225.45	-41.2019	1.32382E-006	-0.425854	9
	47	97	446.614	171.303	-165.016	1	237.855	-43.9291	1.30592E-006	-0.425858	9
	48	99	398.209	173.118	-183.309	1	252.135	-46.6377	1.36998E-006	-0.425855	9
	49	101	354.821	175.126	-203.808	1	268.714	-49.3285	1.39231E-006	-0.425864	9
	50	103	316.113	177.284	-226.736	1	287.818	-51.9783	1.3909E-006	-0.425858	9
	51	105	281.926	179.625	-252.093	1	309.542	-54.5288	1.31445E-006	-0.425867	9
	52	107	251.185	182.189	-280.654	1	334.603	-57.01	1.40365E-006	-0.425859	9
	53	109	223.946	184.996	-312.348	1	363.022	-59.3627	1.38703E-006	-0.425862	9
	54	111	199.495	188.128	-348.001	1	395.597	-61.6045	1.42449E-006	-0.425857	9
	55	113	177.836	191.493	-387.531	1	432.261	-63.7044	1.4126E-006	-0.425863	9
	56	115	158.533	195.28	-431.718	1	473.83	-65.6612	1.38348E-006	-0.425859	9
	57	117	141.263	199.539	-481.226	1	520.955	-67.4788	1.38958E-006	-0.425861	9
	58	119	125.911	204.183	-536.277	1	573.833	-69.1561	1.33739E-006	-0.425857	9
	59	121	112.198	209.38	-597.965	1	633.563	-70.7021	1.34329E-006	-0.425854	9
	60	123	100.009	214.914	-666.519	1	700.311	-72.1285	1.31432E-006	-0.425857	9
	61	125	89.1164	221.377	-743.431	1	775.691	-73.4177	1.27356E-006	-0.425855	9
	62	127	79.4083	228.664	-829.281	1	860.229	-74.5844	1.32695E-006	-0.425854	9
	63	129	70.788	236.785	-924.887	1	954.72	-75.6398	1.31409E-006	-0.425854	9
	64	131	63.0971	245.62	-1031.28	1	1060.13	-76.6034	1.28115E-006	-0.425862	9
	65	133	54.5476	258.864	-1183.07	1	1211.06	-77.6578	7.52673E-007	-0.425863	8
	66	135	50.0083	267.669	-1284.99	1	1312.57	-78.2333	7.26429E-007	-0.425869	8
	67	138	46.1675	276.974	-1386.42	1	1413.82	-78.7024	7.25557E-007	-0.425856	8
	68	140	40.0059	295.269	-1588.5	1	1615.71	-79.4701	7.5304E-007	-0.425863	8
	69	142	35.3046	313.704	-1788.75	1	1816.05	-80.0529	7.10784E-007	-0.425865	8
	70	144	31.5793	332.048	-1988.63	1	2016.16	-80.5206	8.12935E-007	-0.425855	8
	71	146	28.5748	351.196	-2186	1	2214.03	-80.873	7.02696E-007	-0.425858	8
	72	148	24.9911	381.772	-2484.08	1	2513.24	-81.2627	7.30095E-007	-0.425868	8
	73	150	22.2195	410.836	-2777.92	1	2808.13	-81.5873	7.50815E-007	-0.425856	8
	74	153	20.0011	442.447	-3069.5	1	3101.23	-81.7977	7.2626E-007	-0.425867	8
	75	155	17.6486	487.081	-3455.41	1	3489.57	-81.9763	7.59045E-007	-0.425865	8
	76	157	15.7934	532.326	-3843.33	1	3880.03	-82.1143	7.64268E-007	-0.425862	8
	77	160	14.2828	579.559	-4222.6	1	4262.19	-82.1849	7.48934E-007	-0.425866	8
	78	162	12.5002	649.312	-4792.68	1	4836.47	-82.2845	7.11876E-007	-0.425868	8
	79	164	11.323	719.02	-5261.47	1	5310.37	-82.2183	7.5476E-007	-0.42587	8
	80	167	9.9987	812.963	-5918.72	1	5974.29	-82.1791	7.44516E-007	-0.425874	8
